#  HZ   S   RI   R     50.00 
! Rohde & Schwarz ZVB8 2Ports - Version 2.81 - 1145.1010k08 SN: 100113
! Date: 2016-03-31 04:16:16
! Measurements: S11 S21 S12 S22 
! 
 6.000000000000000E8     1.515963077545166E-1   8.481558561325073E-1  -1.177752856165171E-2   1.847558654844761E-2  -1.174911670386791E-2   1.839994266629219E-2  -1.064925864338875E-1   9.468120932579041E-1  
 6.024024024024024E8     1.725444197654724E-1   8.393526673316956E-1  -1.170612685382366E-2   1.955362036824226E-2  -1.178132556378841E-2   1.954998448491097E-2  -8.787296712398529E-2   9.479129910469055E-1  
 6.048048048048048E8     1.938979476690292E-1   8.284155726432800E-1  -1.164720300585032E-2   2.087869122624397E-2  -1.173818670213223E-2   2.095343545079231E-2  -6.920149922370911E-2   9.489089846611023E-1  
 6.072072072072072E8     2.155649214982987E-1   8.152070045471191E-1  -1.151434332132340E-2   2.244135737419128E-2  -1.153714023530483E-2   2.252084016799927E-2  -5.101885646581650E-2   9.495142698287964E-1  
 6.096096096096096E8     2.366803884506226E-1   8.006373047828674E-1  -1.100469101220369E-2   2.425891533493996E-2  -1.101753395050764E-2   2.431772090494633E-2  -3.249612450599670E-2   9.498292207717896E-1  
 6.120120120120120E8     2.538207471370697E-1   7.862282395362854E-1  -1.043894514441490E-2   2.608319371938705E-2  -1.050038635730743E-2   2.598213963210583E-2  -1.587904244661331E-2   9.495170116424561E-1  
 6.144144144144144E8     2.700808048248291E-1   7.717102169990540E-1  -9.659063071012497E-3   2.778463065624237E-2  -9.736085310578346E-3   2.780453488230705E-2   1.473625423386693E-3   9.498805403709412E-1  
 6.168168168168168E8     2.868472039699554E-1   7.561733126640320E-1  -8.853341452777386E-3   2.957727015018463E-2  -8.918997831642628E-3   2.961113490164280E-2   1.963246427476406E-2   9.496713280677795E-1  
 6.192192192192192E8     3.026679754257202E-1   7.391896247863770E-1  -7.842830382287502E-3   3.171258047223091E-2  -8.012252859771252E-3   3.172116726636887E-2   3.835950046777725E-2   9.488069415092468E-1  
 6.216216216216216E8     3.171996474266052E-1   7.204075455665588E-1  -6.528819445520639E-3   3.401626273989677E-2  -6.559428758919239E-3   3.397237882018089E-2   5.782537162303925E-2   9.470617175102234E-1  
 6.240240240240240E8     3.296543657779694E-1   7.013772130012512E-1  -4.551352467387915E-3   3.634531423449516E-2  -4.526754375547171E-3   3.631682321429253E-2   7.694157958030701E-2   9.447992444038391E-1  
 6.264264264264264E8     3.402564823627472E-1   6.833986639976502E-1  -2.187900943681598E-3   3.828328847885132E-2  -2.271006349474192E-3   3.830475360155106E-2   9.662555158138275E-2   9.420315623283386E-1  
 6.288288288288288E8     3.491892516613007E-1   6.654539704322815E-1   4.262077563907951E-4   3.996340930461884E-2   2.639559388626367E-4   3.995516151189804E-2   1.152447536587715E-1   9.393782615661621E-1  
 6.312312312312312E8     3.564168214797974E-1   6.477326154708862E-1   3.195490920916200E-3   4.161036387085915E-2   3.103154711425304E-3   4.157905653119087E-2   1.333947330713272E-1   9.360287785530090E-1  
 6.336336336336336E8     3.610764145851135E-1   6.319273114204407E-1   6.428138818591833E-3   4.297815263271332E-2   6.405913736671209E-3   4.288381710648537E-2   1.511104255914688E-1   9.324595928192139E-1  
 6.360360360360360E8     3.664226531982422E-1   6.188330054283142E-1   9.937180206179619E-3   4.341661557555199E-2   9.874750860035420E-3   4.340584203600884E-2   1.687676012516022E-1   9.286611676216126E-1  
 6.384384384384384E8     3.738616704940796E-1   6.076033711433411E-1   1.308498717844486E-2   4.335270449519157E-2   1.301511004567146E-2   4.332472011446953E-2   1.873010843992233E-1   9.248756170272827E-1  
 6.408408408408408E8     3.828511238098145E-1   5.943290591239929E-1   1.577539555728436E-2   4.303470253944397E-2   1.571288332343102E-2   4.301847144961357E-2   2.063624560832977E-1   9.207615852355957E-1  
 6.432432432432432E8     3.915342390537262E-1   5.786066651344299E-1   1.796851865947247E-2   4.276547953486443E-2   1.790207065641880E-2   4.271738976240158E-2   2.252387702465057E-1   9.157335758209229E-1  
 6.456456456456456E8     3.992598950862885E-1   5.606343150138855E-1   1.999187096953392E-2   4.296192154288292E-2   1.996534317731857E-2   4.306134954094887E-2   2.444287985563278E-1   9.101630449295044E-1  
 6.480480480480480E8     4.040924310684204E-1   5.415629744529724E-1   2.244248799979687E-2   4.354737326502800E-2   2.244364470243454E-2   4.357254877686501E-2   2.632037103176117E-1   9.035143852233887E-1  
 6.504504504504504E8     4.062526226043701E-1   5.257006287574768E-1   2.537270635366440E-2   4.417808726429939E-2   2.535276859998703E-2   4.411051049828529E-2   2.833859622478485E-1   8.976801633834839E-1  
 6.528528528528528E8     4.074128866195679E-1   5.113999843597412E-1   2.855295687913895E-2   4.441145807504654E-2   2.862516604363918E-2   4.422044381499291E-2   3.022634685039520E-1   8.914228081703186E-1  
 6.552552552552552E8     4.078845083713532E-1   4.971572458744049E-1   3.195391967892647E-2   4.429554939270020E-2   3.198087587952614E-2   4.421625658869743E-2   3.203348219394684E-1   8.842456340789795E-1  
 6.576576576576576E8     4.074885547161102E-1   4.835891723632813E-1   3.556958213448525E-2   4.393256828188896E-2   3.556734696030617E-2   4.384753108024597E-2   3.377063572406769E-1   8.761920928955078E-1  
 6.600600600600600E8     4.083231389522553E-1   4.703774452209473E-1   3.909802809357643E-2   4.309189319610596E-2   3.903665393590927E-2   4.303551092743874E-2   3.561283051967621E-1   8.666417002677918E-1  
 6.624624624624624E8     4.094896018505096E-1   4.595123231410980E-1   4.256699979305267E-2   4.212756827473640E-2   4.246965050697327E-2   4.212825745344162E-2   3.743315339088440E-1   8.583866357803345E-1  
 6.648648648648648E8     4.103564918041229E-1   4.475393891334534E-1   4.606920853257179E-2   4.101523756980896E-2   4.588298499584198E-2   4.111793264746666E-2   3.922973573207855E-1   8.495374321937561E-1  
 6.672672672672672E8     4.097066223621368E-1   4.349894821643829E-1   4.970050975680351E-2   3.972018510103226E-2   4.945456236600876E-2   3.974982351064682E-2   4.094458520412445E-1   8.404774665832520E-1  
 6.696696696696696E8     4.077671766281128E-1   4.227855205535889E-1   5.334584414958954E-2   3.805828094482422E-2   5.315938219428062E-2   3.816514834761620E-2   4.257345497608185E-1   8.306903839111328E-1  
 6.720720720720720E8     4.061840474605560E-1   4.127994179725647E-1   5.702884867787361E-2   3.594575077295303E-2   5.686680227518082E-2   3.603442385792732E-2   4.418997168540955E-1   8.208912014961243E-1  
 6.744744744744744E8     4.066752195358276E-1   4.050772190093994E-1   6.034071370959282E-2   3.340753167867661E-2   6.015005335211754E-2   3.345009684562683E-2   4.589265286922455E-1   8.109965920448303E-1  
 6.768768768768768E8     4.082839787006378E-1   3.956235945224762E-1   6.350915879011154E-2   3.096156753599644E-2   6.333976984024048E-2   3.093559294939041E-2   4.753702878952026E-1   8.008269071578980E-1  
 6.792792792792792E8     4.101253151893616E-1   3.849736750125885E-1   6.655705720186234E-2   2.818923071026802E-2   6.640154123306274E-2   2.824688516557217E-2   4.917030930519104E-1   7.905057072639465E-1  
 6.816816816816816E8     4.105704426765442E-1   3.720676600933075E-1   6.930195540189743E-2   2.555823512375355E-2   6.919615715742111E-2   2.550354599952698E-2   5.078984498977661E-1   7.792444825172424E-1  
 6.840840840840840E8     4.094195663928986E-1   3.615380525588989E-1   7.255927473306656E-2   2.243800461292267E-2   7.227431237697601E-2   2.249290794134140E-2   5.239038467407227E-1   7.668431997299194E-1  
 6.864864864864864E8     4.104934930801392E-1   3.520303666591644E-1   7.497809827327728E-2   1.887518726289272E-2   7.472378015518189E-2   1.907281391322613E-2   5.377969145774841E-1   7.558541893959045E-1  
 6.888888888888888E8     4.136231839656830E-1   3.406640887260437E-1   7.702828198671341E-2   1.517419051378965E-2   7.671859115362167E-2   1.571787334978581E-2   5.523535609245300E-1   7.439495325088501E-1  
 6.912912912912912E8     4.178256094455719E-1   3.244002759456635E-1   7.820855826139450E-2   1.214445102959871E-2   7.790483534336090E-2   1.272321026772261E-2   5.673106312751770E-1   7.315080761909485E-1  
 6.936936936936936E8     4.165556728839874E-1   3.027519285678864E-1   7.974006980657578E-2   1.052732020616531E-2   7.963078469038010E-2   1.099793706089258E-2   5.816121101379395E-1   7.189024090766907E-1  
 6.960960960960960E8     4.080821573734283E-1   2.813722491264343E-1   8.275800943374634E-2   9.272904135286808E-3   8.269567787647247E-2   9.295296855270863E-3   5.962572097778320E-1   7.053914666175842E-1  
 6.984984984984984E8     3.940108120441437E-1   2.654140591621399E-1   8.673364669084549E-2   7.696205284446478E-3   8.675339072942734E-2   6.538080517202616E-3   6.129541397094727E-1   6.895364522933960E-1  
 7.009009009009008E8     3.787470161914825E-1   2.547827064990997E-1   9.143684059381485E-2   5.013820715248585E-3   9.140501171350479E-2   3.105475101619959E-3   6.283496618270874E-1   6.737826466560364E-1  
 7.033033033033032E8     3.650367856025696E-1   2.470009177923203E-1   9.672141075134277E-2   8.114641532301903E-4   9.662173688411713E-2  -1.011660788208246E-3   6.411905288696289E-1   6.589146256446838E-1  
 7.057057057057056E8     3.511143326759338E-1   2.403739392757416E-1   1.018245667219162E-1  -5.047178361564875E-3   1.015803143382072E-1  -6.143147125840187E-3   6.511037945747376E-1   6.464434266090393E-1  
 7.081081081081080E8     3.375383317470551E-1   2.354863286018372E-1   1.059483513236046E-1  -1.231161970645189E-2   1.059459745883942E-1  -1.196006964892149E-2   6.615959405899048E-1   6.332879662513733E-1  
 7.105105105105104E8     3.241910040378571E-1   2.344878613948822E-1   1.096727997064591E-1  -1.997960172593594E-2   1.098997592926025E-1  -1.831856183707714E-2   6.715168356895447E-1   6.205213665962219E-1  
 7.129129129129129E8     3.112090528011322E-1   2.381820231676102E-1   1.131774112582207E-1  -2.809681184589863E-2   1.136254146695137E-1  -2.615603990852833E-2   6.825800538063049E-1   6.061663627624512E-1  
 7.153153153153153E8     3.023613691329956E-1   2.449781000614166E-1   1.158703863620758E-1  -3.692127764225006E-2   1.163349002599716E-1  -3.560072928667069E-2   6.945445537567139E-1   5.898782014846802E-1  
 7.177177177177178E8     2.978707253932953E-1   2.513077855110169E-1   1.175103858113289E-1  -4.635413736104965E-2   1.176311299204826E-1  -4.585797339677811E-2   7.073981761932373E-1   5.720527172088623E-1  
 7.201201201201202E8     2.968244850635529E-1   2.565486431121826E-1   1.177641451358795E-1  -5.668033286929131E-2   1.178112477064133E-1  -5.639889463782311E-2   7.202085852622986E-1   5.537537336349487E-1  
 7.225225225225226E8     2.977094054222107E-1   2.608964145183563E-1   1.168201565742493E-1  -6.674924492835999E-2   1.166042760014534E-1  -6.683120876550674E-2   7.323886752128601E-1   5.361025929450989E-1  
 7.249249249249250E8     2.993213832378388E-1   2.631595432758331E-1   1.143677905201912E-1  -7.750419527292252E-2   1.150477901101112E-1  -7.617864012718201E-2   7.426480054855347E-1   5.197081565856934E-1  
 7.273273273273274E8     3.027136623859406E-1   2.649752199649811E-1   1.108815670013428E-1  -8.808535337448120E-2   1.125492602586746E-1  -8.583977073431015E-2   7.531670331954956E-1   5.022277832031250E-1  
 7.297297297297298E8     3.070463538169861E-1   2.637774944305420E-1   1.068724542856216E-1  -9.737841039896011E-2   1.082999110221863E-1  -9.553557634353638E-2   7.640329599380493E-1   4.831954538822174E-1  
 7.321321321321322E8     3.091048598289490E-1   2.608282864093781E-1   1.030462458729744E-1  -1.055325046181679E-1   1.031262874603272E-1  -1.052886247634888E-1   7.751354575157166E-1   4.629123806953430E-1  
 7.345345345345346E8     3.098257184028626E-1   2.577554285526276E-1   9.811117500066757E-2  -1.140042543411255E-1   9.763538837432861E-2  -1.142100617289543E-1   7.849557995796204E-1   4.436067342758179E-1  
 7.369369369369370E8     3.094126880168915E-1   2.544465661048889E-1   9.246814996004105E-2  -1.219910010695458E-1   9.136004745960236E-2  -1.226496994495392E-1   7.950030565261841E-1   4.233139157295227E-1  
 7.393393393393394E8     3.090081512928009E-1   2.495142221450806E-1   8.604332059621811E-2  -1.298898309469223E-1   8.480951935052872E-2  -1.305209994316101E-1   8.046446442604065E-1   4.016995429992676E-1  
 7.417417417417418E8     3.053503632545471E-1   2.437778115272522E-1   7.884451001882553E-2  -1.373476982116699E-1   7.812616974115372E-2  -1.375554800033569E-1   8.134592771530151E-1   3.789123892784119E-1  
 7.441441441441442E8     3.001140952110291E-1   2.404710054397583E-1   7.124523818492889E-2  -1.444786936044693E-1   7.164745032787323E-2  -1.443178951740265E-1   8.213083148002625E-1   3.558496534824371E-1  
 7.465465465465466E8     2.942995131015778E-1   2.416365444660187E-1   6.400950998067856E-2  -1.514121294021606E-1   6.455552577972412E-2  -1.511654406785965E-1   8.278265595436096E-1   3.338709771633148E-1  
 7.489489489489490E8     2.891781926155090E-1   2.430827468633652E-1   5.587800592184067E-2  -1.581746786832809E-1   5.655927211046219E-2  -1.580963134765625E-1   8.332892656326294E-1   3.119714260101318E-1  
 7.513513513513514E8     2.840714156627655E-1   2.432088106870651E-1   4.637699946761131E-2  -1.645367145538330E-1   4.717324301600456E-2  -1.646250039339066E-1   8.381399512290955E-1   2.887373864650726E-1  
 7.537537537537538E8     2.770208120346069E-1   2.429229319095612E-1   3.538832068443298E-2  -1.697304844856262E-1   3.636499866843224E-2  -1.698729991912842E-1   8.434060811996460E-1   2.622927129268646E-1  
 7.561561561561562E8     2.669962048530579E-1   2.478852570056915E-1   2.520310506224632E-2  -1.727376580238342E-1   2.532908320426941E-2  -1.725765168666840E-1   8.470759391784668E-1   2.359209954738617E-1  
 7.585585585585586E8     2.612121999263763E-1   2.608764171600342E-1   1.646888069808483E-2  -1.753935366868973E-1   1.629304885864258E-2  -1.746753901243210E-1   8.506940603256226E-1   2.108187377452850E-1  
 7.609609609609610E8     2.624979019165039E-1   2.739399671554565E-1   7.732548285275698E-3  -1.790164113044739E-1   7.576325908303261E-3  -1.778308153152466E-1   8.520292639732361E-1   1.844865828752518E-1  
 7.633633633633634E8     2.673830986022949E-1   2.830354869365692E-1  -1.758441911078990E-3  -1.827075481414795E-1  -1.397037762217224E-3  -1.813281029462814E-1   8.517126441001892E-1   1.581124216318131E-1  
 7.657657657657658E8     2.729711830615997E-1   2.895506620407105E-1  -1.144655887037516E-2  -1.864522546529770E-1  -1.071699615567923E-2  -1.854971200227737E-1   8.498196005821228E-1   1.316329985857010E-1  
 7.681681681681682E8     2.792386412620544E-1   2.943988442420960E-1  -2.175338752567768E-2  -1.901816427707672E-1  -2.117052860558033E-2  -1.901540160179138E-1   8.471166491508484E-1   1.055033430457115E-1  
 7.705705705705706E8     2.847428917884827E-1   2.991262972354889E-1  -3.278335928916931E-2  -1.939290761947632E-1  -3.237796574831009E-2  -1.943102926015854E-1   8.436203002929688E-1   8.297213166952133E-2  
 7.729729729729730E8     2.891620695590973E-1   3.009826242923737E-1  -4.570474848151207E-2  -1.964921206235886E-1  -4.535166919231415E-2  -1.979239284992218E-1   8.401517868041992E-1   5.844652280211449E-2  
 7.753753753753754E8     2.916849255561829E-1   3.024467825889587E-1  -5.934162065386772E-2  -1.980203986167908E-1  -5.908083543181419E-2  -1.996231228113174E-1   8.336744904518127E-1   3.043917566537857E-2  
 7.777777777777778E8     2.936936318874359E-1   3.039633929729462E-1  -7.403658330440521E-2  -1.993030458688736E-1  -7.363906502723694E-2  -2.003669589757919E-1   8.228116631507874E-1   1.604682067409158E-3  
 7.801801801801802E8     2.941549718379974E-1   3.052352666854858E-1  -8.994148671627045E-2  -1.992510408163071E-1  -8.935853093862534E-2  -1.991402953863144E-1   8.076225519180298E-1  -2.444177865982056E-2  
 7.825825825825826E8     2.935094535350800E-1   3.072034120559692E-1  -1.062607169151306E-1  -1.966084688901901E-1  -1.059743314981461E-1  -1.964899748563767E-1   7.936122417449951E-1  -4.753411188721657E-2  
 7.849849849849850E8     2.907146215438843E-1   3.117260932922363E-1  -1.240070089697838E-1  -1.913750767707825E-1  -1.229042038321495E-1  -1.913964748382568E-1   7.789451479911804E-1  -6.645724177360535E-2  
 7.873873873873874E8     2.891419827938080E-1   3.224549889564514E-1  -1.392112225294113E-1  -1.829378008842468E-1  -1.377215087413788E-1  -1.826903522014618E-1   7.651544213294983E-1  -8.469494432210922E-2  
 7.897897897897898E8     2.943092584609985E-1   3.342784047126770E-1  -1.519837230443955E-1  -1.745959520339966E-1  -1.508197188377380E-1  -1.741926521062851E-1   7.509136199951172E-1  -1.053531393408775E-1  
 7.921921921921922E8     3.046151697635651E-1   3.435097634792328E-1  -1.642384827136993E-1  -1.662637591362000E-1  -1.636994779109955E-1  -1.663130670785904E-1   7.351230382919312E-1  -1.259870082139969E-1  
 7.945945945945946E8     3.150447607040405E-1   3.507190942764282E-1  -1.778694689273834E-1  -1.584693342447281E-1  -1.767801791429520E-1  -1.591444909572601E-1   7.164651155471802E-1  -1.434876620769501E-1  
 7.969969969969970E8     3.231216967105866E-1   3.561517894268036E-1  -1.920623332262039E-1  -1.476084738969803E-1  -1.910733133554459E-1  -1.487145274877548E-1   6.968297958374023E-1  -1.581058502197266E-1  
 7.993993993993994E8     3.308041691780090E-1   3.620497584342957E-1  -2.041828185319901E-1  -1.345341801643372E-1  -2.036040425300598E-1  -1.354846656322479E-1   6.775773167610169E-1  -1.724109947681427E-1  
 8.018018018018018E8     3.397786319255829E-1   3.677832484245300E-1  -2.146608382463455E-1  -1.206850707530975E-1  -2.147005945444107E-1  -1.209791004657745E-1   6.573681235313416E-1  -1.863775849342346E-1  
 8.042042042042042E8     3.513305485248566E-1   3.736036717891693E-1  -2.242337912321091E-1  -1.059386208653450E-1  -2.240305393934250E-1  -1.062990799546242E-1   6.366884112358093E-1  -1.974194496870041E-1  
 8.066066066066066E8     3.629359602928162E-1   3.789879679679871E-1  -2.323491424322128E-1  -8.957738429307938E-2  -2.322431355714798E-1  -9.003412723541260E-2   6.160529851913452E-1  -2.072568982839584E-1  
 8.090090090090090E8     3.761711120605469E-1   3.857928216457367E-1  -2.374305874109268E-1  -7.252134382724762E-2  -2.374566048383713E-1  -7.277171313762665E-2   5.953864455223084E-1  -2.165274471044540E-1  
 8.114114114114114E8     3.936746418476105E-1   3.914018571376801E-1  -2.400212734937668E-1  -5.668210983276367E-2  -2.399989962577820E-1  -5.690130591392517E-2   5.736966133117676E-1  -2.257936149835587E-1  
 8.138138138138138E8     4.145627617835999E-1   3.928006291389465E-1  -2.418549656867981E-1  -4.331411421298981E-2  -2.416500747203827E-1  -4.357020184397697E-2   5.495014190673828E-1  -2.341966181993485E-1  
 8.162162162162162E8     4.341267645359039E-1   3.886508047580719E-1  -2.456660270690918E-1  -3.096943721175194E-2  -2.453231811523438E-1  -3.128852695226669E-2   5.231795310974121E-1  -2.392933815717697E-1  
 8.186186186186186E8     4.494908750057221E-1   3.837812542915344E-1  -2.506959438323975E-1  -1.698711700737476E-2  -2.503503262996674E-1  -1.722716353833675E-2   4.974584579467773E-1  -2.396309375762940E-1  
 8.210210210210210E8     4.623580873012543E-1   3.781754672527313E-1  -2.547918558120728E-1   2.399837467237376E-5  -2.546094357967377E-1  -2.839347580447793E-4   4.730328619480133E-1  -2.367249727249146E-1  
 8.234234234234234E8     4.743250906467438E-1   3.744091093540192E-1  -2.558532953262329E-1   1.943120546638966E-2  -2.556313276290894E-1   1.890691183507443E-2   4.511168003082275E-1  -2.324739545583725E-1  
