#  HZ   S   RI   R     50.00 
! Rohde & Schwarz ZVB8 2Ports - Version 2.81 - 1145.1010k08 SN: 100113
! Date: 2016-03-31 03:58:30
! Measurements: S11 S21 S12 S22 
! 
 6.000000000000000E8     1.246603652834892E-1   8.873253464698792E-1  -1.229643542319536E-2   1.490408554673195E-2  -1.238592248409987E-2   1.478155050426722E-2  -1.054218932986260E-1   9.469441771507263E-1  
 6.024024024024024E8     1.442794799804688E-1   8.807371854782105E-1  -1.231871265918016E-2   1.589330844581127E-2  -1.230688393115997E-2   1.585379242897034E-2  -8.692231029272080E-2   9.482141733169556E-1  
 6.048048048048048E8     1.652907431125641E-1   8.733163475990295E-1  -1.226212549954653E-2   1.706650666892529E-2  -1.222027745097876E-2   1.696910522878170E-2  -6.868241727352142E-2   9.490004181861877E-1  
 6.072072072072072E8     1.866434961557388E-1   8.641809821128845E-1  -1.204124465584755E-2   1.833141595125198E-2  -1.210224628448486E-2   1.832396723330021E-2  -5.022159218788147E-2   9.496147036552429E-1  
 6.096096096096096E8     2.078228592872620E-1   8.541049361228943E-1  -1.175433769822121E-2   1.978111825883389E-2  -1.183538325130940E-2   1.968888565897942E-2  -3.167482092976570E-2   9.498764276504517E-1  
 6.120120120120120E8     2.258779704570770E-1   8.443742394447327E-1  -1.142787095159292E-2   2.126456983387470E-2  -1.145752985030413E-2   2.112590707838535E-2  -1.526266895234585E-2   9.500424265861511E-1  
 6.144144144144144E8     2.436487674713135E-1   8.344047665596008E-1  -1.094336621463299E-2   2.268431149423122E-2  -1.092684734612703E-2   2.265508845448494E-2   2.259274479001761E-3   9.499492645263672E-1  
 6.168168168168168E8     2.618255615234375E-1   8.235123753547669E-1  -1.032906770706177E-2   2.413544990122318E-2  -1.041975244879723E-2   2.410195581614971E-2   2.044611051678658E-2   9.497166872024536E-1  
 6.192192192192192E8     2.801533937454224E-1   8.111449480056763E-1  -9.770295582711697E-3   2.575609274208546E-2  -9.878106415271759E-3   2.568227797746658E-2   3.910433128476143E-2   9.487441778182983E-1  
 6.216216216216216E8     2.973420917987824E-1   7.974586486816406E-1  -8.816393092274666E-3   2.763494662940502E-2  -8.989050984382629E-3   2.759902179241180E-2   5.873481556773186E-2   9.472681283950806E-1  
 6.240240240240240E8     3.138441443443298E-1   7.832712531089783E-1  -7.639702409505844E-3   2.945433370769024E-2  -7.716869935393333E-3   2.938421443104744E-2   7.821249216794968E-2   9.449003338813782E-1  
 6.264264264264264E8     3.285095393657684E-1   7.693737745285034E-1  -6.071120034903288E-3   3.119375556707382E-2  -6.225767079740763E-3   3.117805160582066E-2   9.796052426099777E-2   9.424595832824707E-1  
 6.288288288288288E8     3.421392738819122E-1   7.557362318038940E-1  -4.275742452591658E-3   3.265206888318062E-2  -4.364735912531614E-3   3.268115222454071E-2   1.166936010122299E-1   9.393980503082275E-1  
 6.312312312312312E8     3.552192449569702E-1   7.424589991569519E-1  -2.218813402578235E-3   3.416602686047554E-2  -2.422137884423137E-3   3.395226225256920E-2   1.348939090967178E-1   9.362046122550964E-1  
 6.336336336336336E8     3.678316473960877E-1   7.288972735404968E-1  -4.760076990351081E-4   3.510892018675804E-2  -5.626946804113686E-4   3.507805988192558E-2   1.527535468339920E-1   9.325972795486450E-1  
 6.360360360360360E8     3.799947500228882E-1   7.155172228813171E-1   1.553197158500552E-3   3.608096390962601E-2   1.547613996081054E-3   3.594186156988144E-2   1.706811785697937E-1   9.288929104804993E-1  
 6.384384384384384E8     3.920562565326691E-1   7.035943269729614E-1   3.610929707065225E-3   3.672793507575989E-2   3.547920612618327E-3   3.660583123564720E-2   1.895763427019119E-1   9.250919222831726E-1  
 6.408408408408408E8     4.049260020256043E-1   6.901171803474426E-1   5.488282069563866E-3   3.712240606546402E-2   5.392709281295538E-3   3.716488555073738E-2   2.086494863033295E-1   9.206045269966126E-1  
 6.432432432432432E8     4.174223542213440E-1   6.757159233093262E-1   7.103283889591694E-3   3.764135763049126E-2   7.089184597134590E-3   3.765050321817398E-2   2.276619821786881E-1   9.155488014221191E-1  
 6.456456456456456E8     4.295637905597687E-1   6.596161127090454E-1   8.691329509019852E-3   3.852894529700279E-2   8.670675568282604E-3   3.847563266754150E-2   2.468866109848023E-1   9.094389677047730E-1  
 6.480480480480480E8     4.403021633625031E-1   6.425349116325378E-1   1.057426352053881E-2   3.946642205119133E-2   1.055930089205504E-2   3.942447528243065E-2   2.659683525562286E-1   9.027596712112427E-1  
 6.504504504504504E8     4.494656920433044E-1   6.276597976684570E-1   1.262659672647715E-2   4.039980471134186E-2   1.263832300901413E-2   4.035163298249245E-2   2.862371206283569E-1   8.966691493988037E-1  
 6.528528528528528E8     4.578845500946045E-1   6.126490235328674E-1   1.500502973794937E-2   4.140388220548630E-2   1.496997475624085E-2   4.135767742991447E-2   3.053232133388519E-1   8.901679515838623E-1  
 6.552552552552552E8     4.649420082569122E-1   5.974191427230835E-1   1.747155562043190E-2   4.225499927997589E-2   1.745612360537052E-2   4.215737059712410E-2   3.232487440109253E-1   8.827522397041321E-1  
 6.576576576576576E8     4.711125493049622E-1   5.815528631210327E-1   2.031744085252285E-2   4.299451038241386E-2   2.027300558984280E-2   4.287537932395935E-2   3.405375480651856E-1   8.742291927337647E-1  
 6.600600600600600E8     4.768981337547302E-1   5.658891797065735E-1   2.360812760889530E-2   4.337063804268837E-2   2.344948239624500E-2   4.333322867751122E-2   3.588081896305084E-1   8.646203279495239E-1  
 6.624624624624624E8     4.825939834117889E-1   5.540945529937744E-1   2.673953399062157E-2   4.327698051929474E-2   2.661207877099514E-2   4.317887872457504E-2   3.770869076251984E-1   8.559463620185852E-1  
 6.648648648648648E8     4.896749854087830E-1   5.421598553657532E-1   2.973953634500504E-2   4.284766688942909E-2   2.953250706195831E-2   4.280292242765427E-2   3.948473334312439E-1   8.471016883850098E-1  
 6.672672672672672E8     4.969251751899719E-1   5.284743905067444E-1   3.256675601005554E-2   4.253587126731873E-2   3.226282447576523E-2   4.250401258468628E-2   4.117893874645233E-1   8.378828763961792E-1  
 6.696696696696696E8     5.033905506134033E-1   5.133568644523621E-1   3.545081615447998E-2   4.219840094447136E-2   3.527489677071571E-2   4.210538789629936E-2   4.283973872661591E-1   8.280742168426514E-1  
 6.720720720720720E8     5.096562504768372E-1   4.976866543292999E-1   3.858722373843193E-2   4.168365523219109E-2   3.851785510778427E-2   4.170946404337883E-2   4.443105757236481E-1   8.174886703491211E-1  
 6.744744744744744E8     5.154057145118713E-1   4.838594496250153E-1   4.169943183660507E-2   4.079917073249817E-2   4.156873747706413E-2   4.075052216649056E-2   4.606802165508270E-1   8.077177405357361E-1  
 6.768768768768768E8     5.213146805763245E-1   4.688899815082550E-1   4.459770023822784E-2   3.997527807950974E-2   4.448751732707024E-2   3.995665907859802E-2   4.768614470958710E-1   7.972067594528198E-1  
 6.792792792792792E8     5.264071822166443E-1   4.539265334606171E-1   4.778636246919632E-2   3.892669454216957E-2   4.769036173820496E-2   3.886425867676735E-2   4.926771223545075E-1   7.865974903106690E-1  
 6.816816816816816E8     5.314794778823853E-1   4.376407563686371E-1   5.070202425122261E-2   3.764312714338303E-2   5.050339177250862E-2   3.774455934762955E-2   5.084017515182495E-1   7.753023505210877E-1  
 6.840840840840840E8     5.348398089408875E-1   4.214734733104706E-1   5.390915274620056E-2   3.634935244917870E-2   5.378384143114090E-2   3.636585548520088E-2   5.239971876144409E-1   7.631545662879944E-1  
 6.864864864864864E8     5.386208295822144E-1   4.061810374259949E-1   5.678959935903549E-2   3.474154695868492E-2   5.649636685848236E-2   3.480387479066849E-2   5.377481579780579E-1   7.520563602447510E-1  
 6.888888888888888E8     5.418561697006226E-1   3.906239271163940E-1   5.987312644720078E-2   3.310595080256462E-2   5.942979082465172E-2   3.343826532363892E-2   5.520288348197937E-1   7.399978041648865E-1  
 6.912912912912912E8     5.468021631240845E-1   3.754513263702393E-1   6.243473291397095E-2   3.094760701060295E-2   6.201012060046196E-2   3.145487979054451E-2   5.659457445144653E-1   7.278711199760437E-1  
 6.936936936936936E8     5.520698428153992E-1   3.568274378776550E-1   6.432453542947769E-2   2.981534786522389E-2   6.406989693641663E-2   3.009277395904064E-2   5.801814794540405E-1   7.152804136276245E-1  
 6.960960960960960E8     5.549405813217163E-1   3.349153399467468E-1   6.693833321332932E-2   2.939580380916596E-2   6.680570542812347E-2   2.940391190350056E-2   5.944440960884094E-1   7.017929553985596E-1  
 6.984984984984984E8     5.534870624542236E-1   3.134229183197022E-1   7.022010535001755E-2   2.947762981057167E-2   7.057087868452072E-2   2.856223285198212E-2   6.105964779853821E-1   6.864979863166809E-1  
 7.009009009009008E8     5.481150746345520E-1   2.935261130332947E-1   7.483207434415817E-2   2.930545248091221E-2   7.527174055576325E-2   2.766918204724789E-2   6.257448196411133E-1   6.704046130180359E-1  
 7.033033033033032E8     5.421858429908752E-1   2.762285470962524E-1   8.030016720294952E-2   2.775151468813419E-2   8.071801066398621E-2   2.619098499417305E-2   6.380583643913269E-1   6.558589339256287E-1  
 7.057057057057056E8     5.368164181709290E-1   2.591347992420197E-1   8.609642088413239E-2   2.507586777210236E-2   8.618237078189850E-2   2.415507286787033E-2   6.475829482078552E-1   6.431580781936646E-1  
 7.081081081081080E8     5.307520031929016E-1   2.403458505868912E-1   9.181282669305801E-2   2.127897180616856E-2   9.164610505104065E-2   2.153912000358105E-2   6.573610305786133E-1   6.298946738243103E-1  
 7.105105105105104E8     5.218709111213684E-1   2.230689674615860E-1   9.756477922201157E-2   1.731938309967518E-2   9.717118740081787E-2   1.879449374973774E-2   6.665169000625610E-1   6.172154545783997E-1  
 7.129129129129129E8     5.088994503021240E-1   2.099303305149078E-1   1.041125133633614E-1   1.296278461813927E-2   1.038084924221039E-1   1.476749125868082E-2   6.763971447944641E-1   6.027576923370361E-1  
 7.153153153153153E8     4.962276518344879E-1   2.024709582328796E-1   1.109298616647720E-1   7.077204529196024E-3   1.107380464673042E-1   8.418257348239422E-3   6.869989633560181E-1   5.865236520767212E-1  
 7.177177177177178E8     4.868505597114563E-1   1.972993016242981E-1   1.170528680086136E-1  -2.958240511361510E-4   1.170435622334480E-1   1.603648852324113E-4   6.985104680061340E-1   5.695515871047974E-1  
 7.201201201201202E8     4.806682169437408E-1   1.928209811449051E-1   1.223111301660538E-1  -9.548068046569824E-3   1.221480891108513E-1  -9.245176799595356E-3   7.097871303558350E-1   5.521592497825623E-1  
 7.225225225225226E8     4.773741066455841E-1   1.890631914138794E-1   1.258852332830429E-1  -1.944107562303543E-2   1.256902664899826E-1  -1.947479322552681E-2   7.209059000015259E-1   5.360432863235474E-1  
 7.249249249249250E8     4.749534428119659E-1   1.823029518127441E-1   1.280901730060577E-1  -3.035455197095871E-2   1.282068192958832E-1  -2.866811677813530E-2   7.299955487251282E-1   5.209941864013672E-1  
 7.273273273273274E8     4.731233716011047E-1   1.761809140443802E-1   1.292090564966202E-1  -4.163476079702377E-2   1.297735124826431E-1  -3.894735500216484E-2   7.396485209465027E-1   5.055781006813049E-1  
 7.297297297297298E8     4.726625978946686E-1   1.690401434898377E-1   1.287352591753006E-1  -5.189163237810135E-2   1.293770223855972E-1  -4.976338893175125E-2   7.503159046173096E-1   4.887018799781799E-1  
 7.321321321321322E8     4.711864590644836E-1   1.604037880897522E-1   1.279458403587341E-1  -6.055112555623055E-2   1.279345005750656E-1  -6.024008616805077E-2   7.614227533340454E-1   4.701088666915894E-1  
 7.345345345345346E8     4.685904681682587E-1   1.516343802213669E-1   1.268134415149689E-1  -6.967715919017792E-2   1.263902187347412E-1  -6.997180730104446E-2   7.712683081626892E-1   4.527124166488648E-1  
 7.369369369369370E8     4.645722508430481E-1   1.423839777708054E-1   1.250100582838059E-1  -7.893393933773041E-2   1.241636946797371E-1  -7.991791516542435E-2   7.816144227981567E-1   4.341623187065125E-1  
 7.393393393393394E8     4.609268009662628E-1   1.328516006469727E-1   1.222217530012131E-1  -8.863289654254913E-2   1.213101148605347E-1  -8.942364901304245E-2   7.914512157440186E-1   4.144115149974823E-1  
 7.417417417417418E8     4.564072191715241E-1   1.221142262220383E-1   1.185959503054619E-1  -9.800607711076737E-2   1.179859116673470E-1  -9.829451888799667E-2   8.010649681091309E-1   3.939405083656311E-1  
 7.441441441441442E8     4.509790837764740E-1   1.115812659263611E-1   1.143904253840447E-1  -1.072455868124962E-1   1.146822869777679E-1  -1.067674160003662E-1   8.094067573547363E-1   3.732708692550659E-1  
 7.465465465465466E8     4.448557198047638E-1   1.032750457525253E-1   1.101375967264175E-1  -1.159228459000588E-1   1.105599030852318E-1  -1.155350580811501E-1   8.175867199897766E-1   3.537965416908264E-1  
 7.489489489489490E8     4.366985857486725E-1   9.423114359378815E-2   1.052850782871246E-1  -1.242135465145111E-1   1.058175563812256E-1  -1.238319873809815E-1   8.251135349273682E-1   3.336715996265411E-1  
 7.513513513513514E8     4.270957708358765E-1   8.439739793539047E-2   9.975185245275497E-2  -1.322404146194458E-1   1.004734039306641E-1  -1.318946033716202E-1   8.321967720985413E-1   3.121451139450073E-1  
 7.537537537537538E8     4.145579636096954E-1   7.388621568679810E-2   9.368308633565903E-2  -1.397617459297180E-1   9.455224126577377E-2  -1.394327729940414E-1   8.398336172103882E-1   2.870546877384186E-1  
 7.561561561561562E8     3.985140025615692E-1   6.763561069965363E-2   8.856376260519028E-2  -1.465757042169571E-1   8.865833282470703E-2  -1.462220102548599E-1   8.463547229766846E-1   2.604719698429108E-1  
 7.585585585585586E8     3.839070200920105E-1   6.955052912235260E-2   8.417405933141708E-2  -1.544613987207413E-1   8.379536867141724E-2  -1.536852717399597E-1   8.517615199089050E-1   2.358328849077225E-1  
 7.609609609609610E8     3.740479648113251E-1   7.322295010089874E-2   7.862646132707596E-2  -1.636653840541840E-1   7.817070931196213E-2  -1.624393910169601E-1   8.552246689796448E-1   2.106259465217590E-1  
 7.633633633633634E8     3.674681484699249E-1   7.560659199953079E-2   7.164362818002701E-2  -1.730215847492218E-1   7.148075103759766E-2  -1.715804487466812E-1   8.570716977119446E-1   1.845192164182663E-1  
 7.657657657657658E8     3.623121976852417E-1   7.561191171407700E-2   6.362624466419220E-2  -1.823386847972870E-1   6.394551694393158E-2  -1.810884028673172E-1   8.575934171676636E-1   1.584013104438782E-1  
 7.681681681681682E8     3.573053777217865E-1   7.664031535387039E-2   5.507848784327507E-2  -1.911108046770096E-1   5.545504018664360E-2  -1.908384859561920E-1   8.578719496726990E-1   1.327099502086639E-1  
 7.705705705705706E8     3.547749817371368E-1   7.927201688289642E-2   4.579298570752144E-2  -2.002630829811096E-1   4.636672139167786E-2  -2.004747241735458E-1   8.570427894592285E-1   1.105275899171829E-1  
 7.729729729729730E8     3.528626561164856E-1   7.732627540826798E-2   3.425990417599678E-2  -2.089504003524780E-1   3.522837907075882E-2  -2.101672440767288E-1   8.564611077308655E-1   8.582664281129837E-2  
 7.753753753753754E8     3.488793075084686E-1   7.297647744417191E-2   2.137110196053982E-2  -2.171070426702499E-1   2.226860076189041E-2  -2.185786366462708E-1   8.531869053840637E-1   5.762540921568871E-2  
 7.777777777777778E8     3.434079587459564E-1   6.724718213081360E-2   7.370485458523035E-3  -2.250285893678665E-1   7.966772653162479E-3  -2.258673757314682E-1   8.458846807479858E-1   2.855343744158745E-2  
 7.801801801801802E8     3.352900147438049E-1   6.053657829761505E-2  -8.513938635587692E-3  -2.316752970218658E-1  -7.936420850455761E-3  -2.313012927770615E-1   8.347793221473694E-1   2.062662038952112E-3  
 7.825825825825826E8     3.230243623256683E-1   5.442662164568901E-2  -2.554664202034473E-2  -2.362261414527893E-1  -2.518166787922382E-2  -2.358043491840363E-1   8.252721428871155E-1  -2.254003845155239E-2  
 7.849849849849850E8     3.071641325950623E-1   5.079191550612450E-2  -4.370463266968727E-2  -2.385037839412689E-1  -4.246486723423004E-2  -2.380033433437347E-1   8.153250813484192E-1  -4.433829337358475E-2  
 7.873873873873874E8     2.890082597732544E-1   5.290351435542107E-2  -6.075246259570122E-2  -2.386997193098068E-1  -5.913924425840378E-2  -2.376942783594132E-1   8.049104809761047E-1  -6.708206981420517E-2  
 7.897897897897898E8     2.731197178363800E-1   6.095622107386589E-2  -7.654812186956406E-2  -2.381214946508408E-1  -7.551859319210053E-2  -2.369730174541473E-1   7.934694886207581E-1  -9.185755252838135E-2  
 7.921921921921922E8     2.630215883255005E-1   7.194807380437851E-2  -9.217683970928192E-2  -2.374290525913239E-1  -9.147941321134567E-2  -2.372473925352097E-1   7.807388305664063E-1  -1.165245622396469E-1  
 7.945945945945946E8     2.578597068786621E-1   8.248239010572434E-2  -1.096841916441917E-1  -2.379582226276398E-1  -1.082219555974007E-1  -2.380322813987732E-1   7.641748785972595E-1  -1.386762112379074E-1  
 7.969969969969970E8     2.517822682857513E-1   9.017782658338547E-2  -1.294348388910294E-1  -2.361053675413132E-1  -1.277654469013214E-1  -2.368181496858597E-1   7.462186813354492E-1  -1.591689586639404E-1  
 7.993993993993994E8     2.443214207887650E-1   9.845358133316040E-2  -1.493282765150070E-1  -2.312705069780350E-1  -1.481616646051407E-1  -2.318989485502243E-1   7.269463539123535E-1  -1.786289513111115E-1  
 8.018018018018018E8     2.370756864547730E-1   1.077794358134270E-1  -1.687119156122208E-1  -2.237018644809723E-1  -1.684104204177856E-1  -2.240025103092194E-1   7.070187330245972E-1  -1.974155753850937E-1  
 8.042042042042042E8     2.321590781211853E-1   1.195079386234283E-1  -1.874410659074783E-1  -2.142272889614105E-1  -1.868402212858200E-1  -2.143894881010056E-1   6.868877410888672E-1  -2.138655334711075E-1  
 8.066066066066066E8     2.287802547216415E-1   1.318704932928085E-1  -2.046903520822525E-1  -2.027264982461929E-1  -2.042261958122253E-1  -2.030895799398422E-1   6.658254861831665E-1  -2.304722219705582E-1  
 8.090090090090090E8     2.269412130117416E-1   1.458663642406464E-1  -2.204806804656982E-1  -1.908255219459534E-1  -2.202125787734985E-1  -1.910642832517624E-1   6.422001719474793E-1  -2.460846602916718E-1  
 8.114114114114114E8     2.281821519136429E-1   1.600684076547623E-1  -2.361037880182266E-1  -1.782050579786301E-1  -2.358198612928391E-1  -1.784153431653976E-1   6.168168187141419E-1  -2.599256336688995E-1  
 8.138138138138138E8     2.329987734556198E-1   1.734560430049896E-1  -2.514176964759827E-1  -1.647336483001709E-1  -2.509911358356476E-1  -1.648960709571838E-1   5.892403125762940E-1  -2.719474136829376E-1  
 8.162162162162162E8     2.396614998579025E-1   1.834365278482437E-1  -2.675436437129974E-1  -1.495302617549896E-1  -2.668956518173218E-1  -1.498203128576279E-1   5.605254173278809E-1  -2.803082764148712E-1  
 8.186186186186186E8     2.441689223051071E-1   1.930622756481171E-1  -2.825737595558167E-1  -1.315756738185883E-1  -2.818910777568817E-1  -1.319296807050705E-1   5.330078601837158E-1  -2.846512794494629E-1  
 8.210210210210210E8     2.482340633869171E-1   2.030263841152191E-1  -2.954347729682922E-1  -1.108282580971718E-1  -2.948614656925201E-1  -1.112837493419647E-1   5.057455897331238E-1  -2.882353663444519E-1  
 8.234234234234234E8     2.533202469348908E-1   2.147506177425385E-1  -3.054918646812439E-1  -8.854282647371292E-2  -3.050525486469269E-1  -8.895912766456604E-2   4.774308204650879E-1  -2.906958758831024E-1  
