#  HZ   S   RI   R     50.00 
! Rohde & Schwarz ZVB8 2Ports - Version 2.81 - 1145.1010k08 SN: 100113
! Date: 2016-03-31 05:23:11
! Measurements: S11 S21 S12 S22 
! 
 6.000000000000000E8     1.765120401978493E-2   9.382396936416626E-1  -1.514582522213459E-2   8.857631124556065E-3  -1.512031070888042E-2   8.793095126748085E-3  -2.453982643783093E-2   9.440711140632629E-1  
 6.024024024024024E8     3.695005550980568E-2   9.370228052139282E-1  -1.564382016658783E-2   9.796869009733200E-3  -1.566867344081402E-2   9.729124605655670E-3  -2.971771871671081E-3   9.432967901229858E-1  
 6.048048048048048E8     5.723539739847183E-2   9.352928400039673E-1  -1.624700985848904E-2   1.076422911137343E-2  -1.620800606906414E-2   1.077196840196848E-2   1.858098804950714E-2   9.416999816894531E-1  
 6.072072072072072E8     7.827217131853104E-2   9.329686164855957E-1  -1.677502878010273E-2   1.193640660494566E-2  -1.677004434168339E-2   1.193823851644993E-2   4.004783928394318E-2   9.400072693824768E-1  
 6.096096096096096E8     1.001548767089844E-1   9.296061992645264E-1  -1.732144504785538E-2   1.320638414472342E-2  -1.736038178205490E-2   1.317162718623877E-2   6.201346963644028E-2   9.374666213989258E-1  
 6.120120120120120E8     1.192458122968674E-1   9.266706705093384E-1  -1.799627393484116E-2   1.478417310863733E-2  -1.802621595561504E-2   1.467858348041773E-2   8.236331492662430E-2   9.346929192543030E-1  
 6.144144144144144E8     1.386108547449112E-1   9.228737354278565E-1  -1.843108981847763E-2   1.639852672815323E-2  -1.854081079363823E-2   1.634530164301395E-2   1.036561951041222E-1   9.313451647758484E-1  
 6.168168168168168E8     1.582336425781250E-1   9.182553887367249E-1  -1.875134743750095E-2   1.834074035286903E-2  -1.885133795440197E-2   1.831638440489769E-2   1.253471523523331E-1   9.273238182067871E-1  
 6.192192192192192E8     1.780276149511337E-1   9.133418202400208E-1  -1.878922991454601E-2   2.029302157461643E-2  -1.890503987669945E-2   2.021258324384689E-2   1.473215818405151E-1   9.221609830856323E-1  
 6.216216216216216E8     1.984984576702118E-1   9.075582623481751E-1  -1.877052895724773E-2   2.226385846734047E-2  -1.891641132533550E-2   2.212583832442761E-2   1.709279119968414E-1   9.163779616355896E-1  
 6.240240240240240E8     2.194367796182632E-1   9.007935523986816E-1  -1.872468180954456E-2   2.432445064187050E-2  -1.882165484130383E-2   2.420658245682716E-2   1.943102478981018E-1   9.096292257308960E-1  
 6.264264264264264E8     2.390959113836289E-1   8.938251733779907E-1  -1.863461732864380E-2   2.645847573876381E-2  -1.868618279695511E-2   2.636210992932320E-2   2.180740237236023E-1   9.021639227867127E-1  
 6.288288288288288E8     2.584090530872345E-1   8.859130144119263E-1  -1.834195666015148E-2   2.874918468296528E-2  -1.840571314096451E-2   2.870451286435127E-2   2.406172007322311E-1   8.937317728996277E-1  
 6.312312312312312E8     2.773614525794983E-1   8.781384229660034E-1  -1.785021275281906E-2   3.113593906164169E-2  -1.785828918218613E-2   3.106788732111454E-2   2.628265619277954E-1   8.848533630371094E-1  
 6.336336336336336E8     2.959013581275940E-1   8.698699474334717E-1  -1.737391203641892E-2   3.352594375610352E-2  -1.742577552795410E-2   3.344951197504997E-2   2.845908105373383E-1   8.753426074981690E-1  
 6.360360360360360E8     3.146443665027618E-1   8.612223863601685E-1  -1.680238544940949E-2   3.612687066197395E-2  -1.683572120964527E-2   3.601829707622528E-2   3.062286674976349E-1   8.647263646125794E-1  
 6.384384384384384E8     3.328844010829926E-1   8.522608280181885E-1  -1.593754813075066E-2   3.894781321287155E-2  -1.596979051828384E-2   3.881729766726494E-2   3.289271295070648E-1   8.536031246185303E-1  
 6.408408408408408E8     3.512811660766602E-1   8.425955772399902E-1  -1.482939347624779E-2   4.179541394114494E-2  -1.494460739195347E-2   4.163784161210060E-2   3.514999449253082E-1   8.412652611732483E-1  
 6.432432432432432E8     3.693171441555023E-1   8.317326307296753E-1  -1.347668655216694E-2   4.470754042267799E-2  -1.353112980723381E-2   4.464857652783394E-2   3.736014664173126E-1   8.276917934417725E-1  
 6.456456456456456E8     3.871052265167236E-1   8.200256228446960E-1  -1.195588521659374E-2   4.774865880608559E-2  -1.199421472847462E-2   4.766222462058067E-2   3.955461084842682E-1   8.128098249435425E-1  
 6.480480480480480E8     4.046680331230164E-1   8.077856302261353E-1  -1.040842756628990E-2   5.084671825170517E-2  -1.043731346726418E-2   5.082049220800400E-2   4.175184667110443E-1   7.966186404228210E-1  
 6.504504504504504E8     4.218761622905731E-1   7.961751818656921E-1  -8.767331019043922E-3   5.455502495169640E-2  -8.721768856048584E-3   5.450223758816719E-2   4.399136900901794E-1   7.802296876907349E-1  
 6.528528528528528E8     4.377514421939850E-1   7.834381461143494E-1  -6.071500945836306E-3   5.883720517158508E-2  -6.050906144082546E-3   5.866621807217598E-2   4.604606926441193E-1   7.624936699867249E-1  
 6.552552552552552E8     4.518987834453583E-1   7.702659964561462E-1  -2.420508302748203E-3   6.272017955780029E-2  -2.376538235694170E-3   6.261766701936722E-2   4.791241884231567E-1   7.438882589340210E-1  
 6.576576576576576E8     4.654084742069244E-1   7.565698027610779E-1   1.753784134052694E-3   6.653300672769547E-2   1.656637294217944E-3   6.639982014894486E-2   4.965630769729614E-1   7.236493229866028E-1  
 6.600600600600600E8     4.795913994312286E-1   7.418810129165649E-1   6.910791620612145E-3   6.987816840410233E-2   6.741552613675594E-3   6.968815624713898E-2   5.137198567390442E-1   7.014975547790527E-1  
 6.624624624624624E8     4.925098121166229E-1   7.299735546112061E-1   1.244372967630625E-2   7.233189791440964E-2   1.218483131378889E-2   7.222511619329453E-2   5.300980210304260E-1   6.809843778610230E-1  
 6.648648648648648E8     5.051361918449402E-1   7.175728082656860E-1   1.795271411538124E-2   7.425443828105927E-2   1.762972213327885E-2   7.412637770175934E-2   5.454957485198975E-1   6.603676676750183E-1  
 6.672672672672672E8     5.172356367111206E-1   7.042319774627686E-1   2.365090698003769E-2   7.603700459003449E-2   2.319680526852608E-2   7.591384649276733E-2   5.599497556686401E-1   6.387306451797485E-1  
 6.696696696696696E8     5.292074084281921E-1   6.903434991836548E-1   2.953767776489258E-2   7.733655720949173E-2   2.922002226114273E-2   7.721275836229324E-2   5.733506679534912E-1   6.168953180313110E-1  
 6.720720720720720E8     5.413010120391846E-1   6.757516860961914E-1   3.571462631225586E-2   7.822508364915848E-2   3.542742505669594E-2   7.815358787775040E-2   5.856872200965881E-1   5.936533212661743E-1  
 6.744744744744744E8     5.525519847869873E-1   6.629143357276917E-1   4.187897220253944E-2   7.834473997354507E-2   4.174910485744476E-2   7.827043533325195E-2   5.979266762733460E-1   5.710191130638123E-1  
 6.768768768768768E8     5.639058947563171E-1   6.488833427429199E-1   4.758214950561523E-2   7.856966555118561E-2   4.738553985953331E-2   7.861961424350739E-2   6.102699637413025E-1   5.472300052642822E-1  
 6.792792792792792E8     5.740474462509155E-1   6.348256468772888E-1   5.422787368297577E-2   7.886691391468048E-2   5.391143262386322E-2   7.882671803236008E-2   6.207045316696167E-1   5.218775272369385E-1  
 6.816816816816816E8     5.846111774444580E-1   6.203914880752564E-1   6.080010160803795E-2   7.840634882450104E-2   6.052932143211365E-2   7.836148887872696E-2   6.302860379219055E-1   4.955099821090698E-1  
 6.840840840840840E8     5.945061445236206E-1   6.056034564971924E-1   6.770408898591995E-2   7.792770117521286E-2   6.738504022359848E-2   7.787957042455673E-2   6.383219957351685E-1   4.673888087272644E-1  
 6.864864864864864E8     6.036823987960815E-1   5.910477638244629E-1   7.465407252311707E-2   7.679572701454163E-2   7.407222688198090E-2   7.696259021759033E-2   6.435654163360596E-1   4.400146603584290E-1  
 6.888888888888888E8     6.126922369003296E-1   5.759416222572327E-1   8.199464529752731E-2   7.593489438295364E-2   8.127027750015259E-2   7.636281102895737E-2   6.475544571876526E-1   4.105868339538574E-1  
 6.912912912912912E8     6.206447482109070E-1   5.608908534049988E-1   9.047626703977585E-2   7.423058152198792E-2   8.963105082511902E-2   7.496930658817291E-2   6.482644081115723E-1   3.814865052700043E-1  
 6.936936936936936E8     6.279449462890625E-1   5.463535785675049E-1   9.879785776138306E-2   7.187923789024353E-2   9.825701266527176E-2   7.241484522819519E-2   6.488331556320190E-1   3.525533378124237E-1  
 6.960960960960960E8     6.349073648452759E-1   5.322546958923340E-1   1.081293448805809E-1   6.929782778024674E-2   1.079117804765701E-1   6.933219730854034E-2   6.463698744773865E-1   3.206271827220917E-1  
 6.984984984984984E8     6.414904594421387E-1   5.204862356185913E-1   1.177721992135048E-1   6.492438912391663E-2   1.184602305293083E-1   6.350778788328171E-2   6.408555507659912E-1   2.888101041316986E-1  
 7.009009009009008E8     6.493387818336487E-1   5.086620450019836E-1   1.268709301948547E-1   5.903980508446693E-2   1.279778033494949E-1   5.639181658625603E-2   6.332494020462036E-1   2.587921619415283E-1  
 7.033033033033032E8     6.575232148170471E-1   4.959312081336975E-1   1.356977522373200E-1   5.090907961130142E-2   1.365283727645874E-1   4.826956242322922E-2   6.225681304931641E-1   2.319810837507248E-1  
 7.057057057057056E8     6.665778756141663E-1   4.825179874897003E-1   1.429403871297836E-1   4.239412024617195E-2   1.432392299175263E-1   4.087690636515617E-2   6.105638146400452E-1   2.074099779129028E-1  
 7.081081081081080E8     6.762260794639587E-1   4.668276906013489E-1   1.507635563611984E-1   3.263088688254356E-2   1.504973769187927E-1   3.314787521958351E-2   5.948706865310669E-1   1.826438456773758E-1  
 7.105105105105104E8     6.868730187416077E-1   4.529032111167908E-1   1.568080484867096E-1   2.160337567329407E-2   1.563859879970551E-1   2.411454543471336E-2   5.788183212280273E-1   1.621415466070175E-1  
 7.129129129129129E8     6.972597241401672E-1   4.383160471916199E-1   1.617434769868851E-1   1.229703892022371E-2   1.614725440740585E-1   1.522936858236790E-2   5.617954134941101E-1   1.392236053943634E-1  
 7.153153153153153E8     7.070453763008118E-1   4.234108924865723E-1   1.674626916646957E-1   2.853975165635347E-3   1.673579663038254E-1   4.888740368187428E-3   5.411347150802612E-1   1.173407435417175E-1  
 7.177177177177178E8     7.167103886604309E-1   4.066792726516724E-1   1.723183542490006E-1  -7.279277313500643E-3   1.722703427076340E-1  -6.500697694718838E-3   5.199232101440430E-1   9.680929780006409E-2  
 7.201201201201202E8     7.265593409538269E-1   3.883257508277893E-1   1.779811233282089E-1  -1.916430518031120E-2   1.777893155813217E-1  -1.876717247068882E-2   4.949972033500671E-1   7.918812334537506E-2  
 7.225225225225226E8     7.360853552818298E-1   3.717971146106720E-1   1.812548935413361E-1  -3.263503685593605E-2   1.808825284242630E-1  -3.265687078237534E-2   4.714274704456329E-1   6.831641495227814E-2  
 7.249249249249250E8     7.460135817527771E-1   3.523859977722168E-1   1.831523627042770E-1  -4.597869142889977E-2   1.832833290100098E-1  -4.373760148882866E-2   4.473466575145721E-1   5.947262421250343E-2  
 7.273273273273274E8     7.550247907638550E-1   3.326098620891571E-1   1.851668655872345E-1  -6.054797396063805E-2   1.860548853874207E-1  -5.658945813775063E-2   4.229975342750549E-1   5.649782717227936E-2  
 7.297297297297298E8     7.632905840873718E-1   3.123981952667236E-1   1.855931878089905E-1  -7.422482222318649E-2   1.865061372518539E-1  -7.077044993638992E-2   4.048318862915039E-1   5.427175387740135E-2  
 7.321321321321322E8     7.698971629142761E-1   2.932878732681274E-1   1.867486685514450E-1  -8.669893443584442E-2   1.867220997810364E-1  -8.591332286596298E-2   3.856855928897858E-1   5.021542683243752E-2  
 7.345345345345346E8     7.758654952049255E-1   2.747374475002289E-1   1.862079650163651E-1  -1.011997759342194E-1   1.858026683330536E-1  -1.014619916677475E-1   3.686458766460419E-1   5.093416199088097E-2  
 7.369369369369370E8     7.818614244461060E-1   2.544140517711639E-1   1.843143850564957E-1  -1.158547475934029E-1   1.832015216350555E-1  -1.170179098844528E-1   3.528461754322052E-1   5.014783516526222E-2  
 7.393393393393394E8     7.874959707260132E-1   2.327745556831360E-1   1.808053255081177E-1  -1.316371262073517E-1   1.795522272586823E-1  -1.327966153621674E-1   3.378323018550873E-1   5.232332274317741E-2  
 7.417417417417418E8     7.925528287887573E-1   2.093730717897415E-1   1.751009225845337E-1  -1.466820538043976E-1   1.744942963123322E-1  -1.472193598747253E-1   3.266974389553070E-1   5.237371474504471E-2  
 7.441441441441442E8     7.957512140274048E-1   1.849181205034256E-1   1.696408092975617E-1  -1.616681665182114E-1   1.701663881540299E-1  -1.611491888761520E-1   3.121628463268280E-1   5.182592570781708E-2  
 7.465465465465466E8     7.980246543884277E-1   1.647767573595047E-1   1.638632118701935E-1  -1.769403219223023E-1   1.646367758512497E-1  -1.762730032205582E-1   2.997892796993256E-1   5.551262572407723E-2  
 7.489489489489490E8     7.987645864486694E-1   1.437792479991913E-1   1.572157442569733E-1  -1.925952434539795E-1   1.582954078912735E-1  -1.919534355401993E-1   2.870935797691345E-1   5.989777296781540E-2  
 7.513513513513514E8     7.994815707206726E-1   1.212623044848442E-1   1.477391719818115E-1  -2.103570550680161E-1   1.493122577667236E-1  -2.098769545555115E-1   2.784235477447510E-1   6.764049828052521E-2  
 7.537537537537538E8     8.001527786254883E-1   9.526401758193970E-2   1.336635798215866E-1  -2.270564138889313E-1   1.356479525566101E-1  -2.264734655618668E-1   2.760953605175018E-1   7.008410245180130E-2  
 7.561561561561562E8     7.983771562576294E-1   6.916523724794388E-2   1.191217377781868E-1  -2.408768087625504E-1   1.198044344782829E-1  -2.401601970195770E-1   2.725563943386078E-1   6.608479470014572E-2  
 7.585585585585586E8     7.949320077896118E-1   4.445970803499222E-2   1.034316197037697E-1  -2.532410323619843E-1   1.033099517226219E-1  -2.520112395286560E-1   2.659584879875183E-1   6.164112687110901E-2  
 7.609609609609610E8     7.899005413055420E-1   2.012207172811031E-2   8.746846765279770E-2  -2.638384103775024E-1   8.713386207818985E-2  -2.617340385913849E-1   2.542839050292969E-1   5.737046524882317E-2  
 7.633633633633634E8     7.845004200935364E-1  -4.540473688393831E-3   7.109658420085907E-2  -2.741065919399262E-1   7.163532823324204E-2  -2.715168893337250E-1   2.398635298013687E-1   5.641481280326843E-2  
 7.657657657657658E8     7.793396115303040E-1  -2.954540401697159E-2   5.355349183082581E-2  -2.833509743213654E-1   5.482597649097443E-2  -2.812920510768890E-1   2.253429591655731E-1   5.533562228083611E-2  
 7.681681681681682E8     7.730269432067871E-1  -5.555985495448113E-2   3.661552816629410E-2  -2.913163900375366E-1   3.799422830343247E-2  -2.908332943916321E-1   2.076549232006073E-1   5.714563652873039E-2  
 7.705705705705706E8     7.653391361236572E-1  -7.872336357831955E-2   1.824967004358769E-2  -2.998025715351105E-1   2.006923034787178E-2  -3.001299798488617E-1   1.925854980945587E-1   6.449913233518601E-2  
 7.729729729729730E8     7.541030049324036E-1  -1.051287949085236E-1  -2.226323354989290E-3  -3.053291738033295E-1   7.512932643294334E-5  -3.075057566165924E-1   1.759527623653412E-1   7.226748764514923E-2  
 7.753753753753754E8     7.394723892211914E-1  -1.311297416687012E-1  -2.201523445546627E-2  -3.106232583522797E-1  -2.037852630019188E-2  -3.133193850517273E-1   1.608539372682571E-1   8.574898540973663E-2  
 7.777777777777778E8     7.221723198890686E-1  -1.560777127742767E-1  -4.331770166754723E-2  -3.156033754348755E-1  -4.233018308877945E-2  -3.174711167812347E-1   1.510976254940033E-1   9.828969836235046E-2  
 7.801801801801802E8     7.030584216117859E-1  -1.791343539953232E-1  -6.557321548461914E-2  -3.194268345832825E-1  -6.492837518453598E-2  -3.191137015819550E-1   1.408503800630570E-1   1.080324798822403E-1  
 7.825825825825826E8     6.801894903182983E-1  -2.002345472574234E-1  -8.920297771692276E-2  -3.210507631301880E-1  -8.933375775814056E-2  -3.206095397472382E-1   1.302233040332794E-1   1.193825975060463E-1  
 7.849849849849850E8     6.577748656272888E-1  -2.200114727020264E-1  -1.143559589982033E-1  -3.200696110725403E-1  -1.131249070167542E-1  -3.193053305149078E-1   1.166786104440689E-1   1.336536258459091E-1  
 7.873873873873874E8     6.331097483634949E-1  -2.392725944519043E-1  -1.380044966936112E-1  -3.179656267166138E-1  -1.360319405794144E-1  -3.166981339454651E-1   1.044011339545250E-1   1.551943421363831E-1  
 7.897897897897898E8     6.055547595024109E-1  -2.570661902427673E-1  -1.630901694297791E-1  -3.159828782081604E-1  -1.615190356969833E-1  -3.147287070751190E-1   1.011491864919663E-1   1.779558062553406E-1  
 7.921921921921922E8     5.749801397323608E-1  -2.725887298583984E-1  -1.910253465175629E-1  -3.106659054756165E-1  -1.905043423175812E-1  -3.111214637756348E-1   1.005073115229607E-1   1.972805857658386E-1  
 7.945945945945946E8     5.436908006668091E-1  -2.817108035087585E-1  -2.213936299085617E-1  -3.033471405506134E-1  -2.196206748485565E-1  -3.042591512203217E-1   1.013855040073395E-1   2.146941721439362E-1  
 7.969969969969970E8     5.116308927536011E-1  -2.855518162250519E-1  -2.529992759227753E-1  -2.887376844882965E-1  -2.511448860168457E-1  -2.904656529426575E-1   9.858115762472153E-2   2.289468795061112E-1  
 7.993993993993994E8     4.794113934040070E-1  -2.860201299190521E-1  -2.801063656806946E-1  -2.691216766834259E-1  -2.790568172931671E-1  -2.709493041038513E-1   9.468904137611389E-2   2.491575479507446E-1  
 8.018018018018018E8     4.465579688549042E-1  -2.815769612789154E-1  -3.054676949977875E-1  -2.477104067802429E-1  -3.052087724208832E-1  -2.486001253128052E-1   9.549346566200256E-2   2.699873149394989E-1  
 8.042042042042042E8     4.161959588527679E-1  -2.717961966991425E-1  -3.287870585918427E-1  -2.229227870702744E-1  -3.283127546310425E-1  -2.234717160463333E-1   9.678490459918976E-2   2.918292880058289E-1  
 8.066066066066066E8     3.887508809566498E-1  -2.544788718223572E-1  -3.508273363113403E-1  -1.958718746900559E-1  -3.506861329078674E-1  -1.965289562940598E-1   1.023719534277916E-1   3.134129345417023E-1  
 8.090090090090090E8     3.696184754371643E-1  -2.316954731941223E-1  -3.702970445156097E-1  -1.618648767471314E-1  -3.703007400035858E-1  -1.624972969293594E-1   1.055904850363731E-1   3.347199261188507E-1  
 8.114114114114114E8     3.590535223484039E-1  -2.086166888475418E-1  -3.816458582878113E-1  -1.252212971448898E-1  -3.816209137439728E-1  -1.255539655685425E-1   1.123005226254463E-1   3.613307178020477E-1  
 8.138138138138138E8     3.569090962409973E-1  -1.861723065376282E-1  -3.871517181396484E-1  -8.869520574808121E-2  -3.868775367736816E-1  -8.900757879018784E-2   1.248950809240341E-1   3.872370421886444E-1  
 8.162162162162162E8     3.628989756107330E-1  -1.691508591175079E-1  -3.860220313072205E-1  -5.313436686992645E-2  -3.856025636196137E-1  -5.356798321008682E-2   1.423501074314117E-1   4.116359949111939E-1  
 8.186186186186186E8     3.721930086612701E-1  -1.579158306121826E-1  -3.801716566085815E-1  -2.185276150703430E-2  -3.795872330665588E-1  -2.242192998528481E-2   1.635525971651077E-1   4.336705803871155E-1  
 8.210210210210210E8     3.824120759963989E-1  -1.525214910507202E-1  -3.718607723712921E-1   6.735374685376883E-3  -3.714064359664917E-1   6.148746702820063E-3   1.870011985301971E-1   4.508869349956513E-1  
 8.234234234234234E8     3.934845626354218E-1  -1.540113836526871E-1  -3.603014647960663E-1   3.362553566694260E-2  -3.600761294364929E-1   3.284895792603493E-2   2.110932767391205E-1   4.663557410240173E-1  
