#  HZ   S   RI   R     50.00 
! Rohde & Schwarz ZVB8 2Ports - Version 2.81 - 1145.1010k08 SN: 100113
! Date: 2016-03-31 03:39:33
! Measurements: S11 S21 S12 S22 
! 
 6.000000000000000E8     7.664493471384049E-2   9.226055145263672E-1  -1.133779622614384E-2   1.021671295166016E-2  -1.131315808743238E-2   1.025979500263929E-2  -1.042461842298508E-1   9.473987817764282E-1  
 6.024024024024024E8     9.559703618288040E-2   9.197394847869873E-1  -1.131698675453663E-2   1.095435582101345E-2  -1.130323670804501E-2   1.084266509860754E-2  -8.563086390495300E-2   9.484866261482239E-1  
 6.048048048048048E8     1.157959550619125E-1   9.159643650054932E-1  -1.141114719212055E-2   1.169130299240351E-2  -1.144768111407757E-2   1.174112223088741E-2  -6.696869432926178E-2   9.493020176887512E-1  
 6.072072072072072E8     1.369459033012390E-1   9.111374616622925E-1  -1.155865099281073E-2   1.272219885140657E-2  -1.154800504446030E-2   1.257778517901897E-2  -4.904972761869431E-2   9.497417807579041E-1  
 6.096096096096096E8     1.577460467815399E-1   9.053795337677002E-1  -1.151980273425579E-2   1.376573555171490E-2  -1.150096114724875E-2   1.373136136680841E-2  -3.008180484175682E-2   9.501270055770874E-1  
 6.120120120120120E8     1.766313165426254E-1   8.999705314636231E-1  -1.136095542460680E-2   1.485698763281107E-2  -1.139830797910690E-2   1.480523589998484E-2  -1.341006997972727E-2   9.496009945869446E-1  
 6.144144144144144E8     1.947187930345535E-1   8.943070769309998E-1  -1.116672251373529E-2   1.591317541897297E-2  -1.124156359583139E-2   1.591066457331181E-2   4.160192795097828E-3   9.498705863952637E-1  
 6.168168168168168E8     2.136650234460831E-1   8.880837559700012E-1  -1.102630048990250E-2   1.699911616742611E-2  -1.110003795474768E-2   1.695869863033295E-2   2.250037528574467E-2   9.497827291488648E-1  
 6.192192192192192E8     2.325539439916611E-1   8.810772299766541E-1  -1.087870728224516E-2   1.813166961073875E-2  -1.093994826078415E-2   1.817311532795429E-2   4.126155748963356E-2   9.486814141273499E-1  
 6.216216216216216E8     2.522700726985931E-1   8.727896213531494E-1  -1.060932874679565E-2   1.955701038241386E-2  -1.067967992275953E-2   1.953725703060627E-2   6.059049069881439E-2   9.470463395118713E-1  
 6.240240240240240E8     2.713539004325867E-1   8.638129234313965E-1  -1.011299341917038E-2   2.100431174039841E-2  -1.007496379315853E-2   2.107028663158417E-2   7.997335493564606E-2   9.446640014648438E-1  
 6.264264264264264E8     2.892655432224274E-1   8.546517491340637E-1  -9.327690117061138E-3   2.241570129990578E-2  -9.400389157235622E-3   2.248493023216724E-2   9.970653802156448E-2   9.417577981948853E-1  
 6.288288288288288E8     3.063707053661346E-1   8.449079990386963E-1  -8.570155128836632E-3   2.376313135027885E-2  -8.586863055825234E-3   2.379350550472736E-2   1.186573728919029E-1   9.387879371643066E-1  
 6.312312312312312E8     3.232898414134979E-1   8.351994752883911E-1  -7.738022133708000E-3   2.522371150553227E-2  -7.722650654613972E-3   2.519829384982586E-2   1.373653113842011E-1   9.351658821105957E-1  
 6.336336336336336E8     3.392903208732605E-1   8.251376152038574E-1  -6.745250895619392E-3   2.665960229933262E-2  -6.763309240341187E-3   2.655103988945484E-2   1.552921384572983E-1   9.315567016601563E-1  
 6.360360360360360E8     3.548960387706757E-1   8.148046135902405E-1  -5.477950442582369E-3   2.806588634848595E-2  -5.487573798745871E-3   2.795824967324734E-2   1.729375272989273E-1   9.274995326995850E-1  
 6.384384384384384E8     3.700580596923828E-1   8.051794767379761E-1  -4.025738220661879E-3   2.917169407010078E-2  -4.041013773530722E-3   2.916573919355869E-2   1.918723434209824E-1   9.234161376953125E-1  
 6.408408408408408E8     3.854825198650360E-1   7.950970530509949E-1  -2.539311535656452E-3   3.017127513885498E-2  -2.584405243396759E-3   3.018405474722385E-2   2.108374685049057E-1   9.184652566909790E-1  
 6.432432432432432E8     4.006253480911255E-1   7.843319773674011E-1  -1.051652012392879E-3   3.103046678006649E-2  -1.086850184947252E-3   3.098074346780777E-2   2.295048087835312E-1   9.132611751556397E-1  
 6.456456456456456E8     4.159806668758392E-1   7.724883556365967E-1   2.505322918295860E-4   3.191957622766495E-2   2.813111932482570E-4   3.187181800603867E-2   2.484886199235916E-1   9.072819948196411E-1  
 6.480480480480480E8     4.308012425899506E-1   7.599188089370728E-1   1.719263615086675E-3   3.298679739236832E-2   1.758905360475183E-3   3.293647244572640E-2   2.673409283161163E-1   9.001764059066773E-1  
 6.504504504504504E8     4.443680346012116E-1   7.490676641464233E-1   3.361381823197007E-3   3.395922854542732E-2   3.428327152505517E-3   3.384285420179367E-2   2.873790860176086E-1   8.942695856094360E-1  
 6.528528528528528E8     4.579097032546997E-1   7.380751967430115E-1   5.043014883995056E-3   3.468604013323784E-2   5.115992855280638E-3   3.462151810526848E-2   3.062115311622620E-1   8.878785967826843E-1  
 6.552552552552552E8     4.710202217102051E-1   7.264904379844666E-1   6.737373769283295E-3   3.536997735500336E-2   6.804337725043297E-3   3.534856438636780E-2   3.237895369529724E-1   8.803234100341797E-1  
 6.576576576576576E8     4.836416840553284E-1   7.138874530792236E-1   8.449944667518139E-3   3.624213114380837E-2   8.501110598444939E-3   3.612224757671356E-2   3.411045372486115E-1   8.720381855964661E-1  
 6.600600600600600E8     4.968687295913696E-1   6.994295716285706E-1   1.047326903790236E-2   3.715192154049873E-2   1.045452803373337E-2   3.706649690866470E-2   3.592811822891235E-1   8.621935248374939E-1  
 6.624624624624624E8     5.085971355438232E-1   6.880763173103333E-1   1.264401245862246E-2   3.772728145122528E-2   1.251638215035200E-2   3.771448507905006E-2   3.775227069854736E-1   8.536566495895386E-1  
 6.648648648648648E8     5.202923417091370E-1   6.757955551147461E-1   1.479309424757958E-2   3.826759010553360E-2   1.469112746417522E-2   3.820197656750679E-2   3.950312137603760E-1   8.446167707443237E-1  
 6.672672672672672E8     5.318723917007446E-1   6.626374721527100E-1   1.698035746812820E-2   3.867802768945694E-2   1.680490933358669E-2   3.854292258620262E-2   4.117290079593658E-1   8.351611495018005E-1  
 6.696696696696696E8     5.432915091514587E-1   6.481163501739502E-1   1.912344619631767E-2   3.913009539246559E-2   1.898615248501301E-2   3.901469707489014E-2   4.282586276531220E-1   8.251845240592957E-1  
 6.720720720720720E8     5.537689924240112E-1   6.325671076774597E-1   2.146943658590317E-2   3.967650607228279E-2   2.132027968764305E-2   3.961720317602158E-2   4.439623653888702E-1   8.147387504577637E-1  
 6.744744744744744E8     5.627062916755676E-1   6.191383600234985E-1   2.409264631569386E-2   4.014059528708458E-2   2.407752536237240E-2   4.003301262855530E-2   4.606444835662842E-1   8.045284748077393E-1  
 6.768768768768768E8     5.715483427047730E-1   6.057338118553162E-1   2.699711173772812E-2   4.023963958024979E-2   2.698852308094502E-2   4.028216004371643E-2   4.764547049999237E-1   7.938915491104126E-1  
 6.792792792792792E8     5.800873041152954E-1   5.929782986640930E-1   3.009203076362610E-2   4.011642187833786E-2   2.997288480401039E-2   4.003317281603813E-2   4.917681813240051E-1   7.830899953842163E-1  
 6.816816816816816E8     5.891450047492981E-1   5.795356035232544E-1   3.314244374632835E-2   3.962545841932297E-2   3.297067061066628E-2   3.957467526197434E-2   5.072890520095825E-1   7.712444663047791E-1  
 6.840840840840840E8     5.974420309066773E-1   5.661748051643372E-1   3.624311834573746E-2   3.912631794810295E-2   3.619237616658211E-2   3.907259553670883E-2   5.225118994712830E-1   7.591684460639954E-1  
 6.864864864864864E8     6.055966019630432E-1   5.538846254348755E-1   3.950124233961105E-2   3.789246454834938E-2   3.930680826306343E-2   3.793078288435936E-2   5.354624390602112E-1   7.479374408721924E-1  
 6.888888888888888E8     6.153237819671631E-1   5.421146154403687E-1   4.256723448634148E-2   3.605415672063828E-2   4.225317016243935E-2   3.625349700450897E-2   5.489064455032349E-1   7.360001206398010E-1  
 6.912912912912912E8     6.264616847038269E-1   5.304441452026367E-1   4.480710625648499E-2   3.386842086911202E-2   4.441663995385170E-2   3.410717844963074E-2   5.627207756042481E-1   7.242178320884705E-1  
 6.936936936936936E8     6.392388939857483E-1   5.162572264671326E-1   4.595495015382767E-2   3.213318809866905E-2   4.571554064750671E-2   3.230185806751251E-2   5.767028331756592E-1   7.121196985244751E-1  
 6.960960960960960E8     6.518977880477905E-1   4.988002181053162E-1   4.691220074892044E-2   3.154736384749413E-2   4.680489748716354E-2   3.153048083186150E-2   5.911119580268860E-1   6.989144682884216E-1  
 6.984984984984984E8     6.618252992630005E-1   4.808911383152008E-1   4.861722886562347E-2   3.192001581192017E-2   4.894164204597473E-2   3.129714727401733E-2   6.073706150054932E-1   6.830685138702393E-1  
 7.009009009009008E8     6.692772507667542E-1   4.624272882938385E-1   5.145976692438126E-2   3.217908367514610E-2   5.193928256630898E-2   3.102352283895016E-2   6.219242811203003E-1   6.667851805686951E-1  
 7.033033033033032E8     6.759855151176453E-1   4.446237087249756E-1   5.479915812611580E-2   3.136542439460754E-2   5.529097467660904E-2   3.018691018223763E-2   6.337652802467346E-1   6.523956060409546E-1  
 7.057057057057056E8     6.831479072570801E-1   4.261595904827118E-1   5.818328261375427E-2   2.997278422117233E-2   5.833948031067848E-2   2.931369654834271E-2   6.430557966232300E-1   6.398313641548157E-1  
 7.081081081081080E8     6.907160878181458E-1   4.057023227214813E-1   6.145850941538811E-2   2.815499342978001E-2   6.127387285232544E-2   2.825194969773293E-2   6.527062654495239E-1   6.268545985221863E-1  
 7.105105105105104E8     6.973353028297424E-1   3.857091367244721E-1   6.458473205566406E-2   2.649320475757122E-2   6.414128094911575E-2   2.746480517089367E-2   6.621115803718567E-1   6.144229769706726E-1  
 7.129129129129129E8     7.017731070518494E-1   3.660374581813812E-1   6.822611391544342E-2   2.529721707105637E-2   6.762771308422089E-2   2.638904191553593E-2   6.721084713935852E-1   5.998064279556274E-1  
 7.153153153153153E8     7.039471268653870E-1   3.474511504173279E-1   7.234255969524384E-2   2.356299385428429E-2   7.207242399454117E-2   2.445606514811516E-2   6.832078099250794E-1   5.836099982261658E-1  
 7.177177177177178E8     7.063281536102295E-1   3.300115466117859E-1   7.662796974182129E-2   2.110979892313480E-2   7.648162543773651E-2   2.134836837649345E-2   6.944193243980408E-1   5.660817027091980E-1  
 7.201201201201202E8     7.100731730461121E-1   3.115932941436768E-1   8.069723844528198E-2   1.774503290653229E-2   8.055333048105240E-2   1.782311126589775E-2   7.057873606681824E-1   5.483250021934509E-1  
 7.225225225225226E8     7.126877307891846E-1   2.940365970134735E-1   8.434167504310608E-2   1.417803205549717E-2   8.417790383100510E-2   1.409212592989206E-2   7.164075374603272E-1   5.316144227981567E-1  
 7.249249249249250E8     7.152405381202698E-1   2.750910818576813E-1   8.797965198755264E-2   9.908604435622692E-3   8.768640458583832E-2   1.081383321434259E-2   7.251205444335938E-1   5.160108208656311E-1  
 7.273273273273274E8     7.160143852233887E-1   2.565510571002960E-1   9.170921891927719E-2   5.441992077976465E-3   9.138058125972748E-2   7.143103983253241E-3   7.336899638175964E-1   4.997672736644745E-1  
 7.297297297297298E8     7.164419889450073E-1   2.403496205806732E-1   9.526685625314713E-2   7.173072663135827E-4   9.505638480186462E-2   2.150682965293527E-3   7.427539229393005E-1   4.823739826679230E-1  
 7.321321321321322E8     7.174959182739258E-1   2.254140973091126E-1   9.828735142946243E-2  -3.794112242758274E-3   9.819892048835754E-2  -3.740634769201279E-3   7.521978616714478E-1   4.639869928359985E-1  
 7.345345345345346E8     7.179775834083557E-1   2.104274928569794E-1   1.012138277292252E-1  -8.626534603536129E-3   1.009892001748085E-1  -9.124279953539372E-3   7.606192231178284E-1   4.470033645629883E-1  
 7.369369369369370E8     7.175066471099854E-1   1.940524578094482E-1   1.041344478726387E-1  -1.404509320855141E-2   1.038475409150124E-1  -1.501600071787834E-2   7.692489027976990E-1   4.291710853576660E-1  
 7.393393393393394E8     7.169174551963806E-1   1.783007979393005E-1   1.070211976766586E-1  -2.047295123338699E-2   1.066083982586861E-1  -2.144939638674259E-2   7.772214412689209E-1   4.103940129280090E-1  
 7.417417417417418E8     7.168806791305542E-1   1.629905700683594E-1   1.091868057847023E-1  -2.775971964001656E-2   1.089098826050758E-1  -2.826137840747833E-2   7.849682569503784E-1   3.914921581745148E-1  
 7.441441441441442E8     7.172319293022156E-1   1.477184295654297E-1   1.106463149189949E-1  -3.559419512748718E-2   1.106433644890785E-1  -3.541257232427597E-2   7.920485734939575E-1   3.728331327438355E-1  
 7.465465465465466E8     7.184309363365173E-1   1.357495486736298E-1   1.113360226154327E-1  -4.329157248139381E-2   1.115793362259865E-1  -4.301429912447929E-2   7.986101508140564E-1   3.557590544223785E-1  
 7.489489489489490E8     7.198997139930725E-1   1.226092353463173E-1   1.113796308636665E-1  -5.095840990543366E-2   1.115915179252625E-1  -5.063637346029282E-2   8.050772547721863E-1   3.383076488971710E-1  
 7.513513513513514E8     7.219813466072083E-1   1.061425060033798E-1   1.105160564184189E-1  -5.862077698111534E-2   1.108493283390999E-1  -5.841926485300064E-2   8.117095232009888E-1   3.190566003322601E-1  
 7.537537537537538E8     7.237882018089294E-1   8.610285818576813E-2   1.089185178279877E-1  -6.664155423641205E-2   1.094263270497322E-1  -6.626369059085846E-2   8.186642527580261E-1   2.970059216022492E-1  
 7.561561561561562E8     7.242069840431213E-1   6.448286771774292E-2   1.066109985113144E-1  -7.373631745576859E-2   1.063959002494812E-1  -7.362823933362961E-2   8.252680897712708E-1   2.739178538322449E-1  
 7.585585585585586E8     7.216760516166687E-1   4.358980059623718E-2   1.043886467814446E-1  -7.994945347309113E-2   1.036544144153595E-1  -7.973684370517731E-2   8.317729830741882E-1   2.525773644447327E-1  
 7.609609609609610E8     7.164416313171387E-1   2.312809601426125E-2   1.025578901171684E-1  -8.612767606973648E-2   1.016610786318779E-1  -8.557073026895523E-2   8.364715576171875E-1   2.301560491323471E-1  
 7.633633633633634E8     7.104713916778565E-1   3.849920351058245E-3   1.007868200540543E-1  -9.263642132282257E-2   1.001299768686295E-1  -9.179111570119858E-2   8.396551609039307E-1   2.072971463203430E-1  
 7.657657657657658E8     7.051599025726318E-1  -1.461394689977169E-2   9.901826828718185E-2  -9.950174391269684E-2   9.878621250391007E-2  -9.872449934482575E-2   8.420208692550659E-1   1.839063018560410E-1  
 7.681681681681682E8     7.002752423286438E-1  -3.270383551716805E-2   9.697534143924713E-2  -1.065063700079918E-1   9.707123786211014E-2  -1.063676327466965E-1   8.439868688583374E-1   1.607887744903565E-1  
 7.705705705705706E8     6.949096322059631E-1  -4.826033115386963E-2   9.493281692266464E-2  -1.138318106532097E-1   9.528394788503647E-2  -1.140080317854881E-1   8.453071713447571E-1   1.411625444889069E-1  
 7.729729729729730E8     6.882339715957642E-1  -6.653439998626709E-2   9.157697856426239E-2  -1.215701028704643E-1   9.250395745038986E-2  -1.222704723477364E-1   8.470823764801025E-1   1.191313415765762E-1  
 7.753753753753754E8     6.792814135551453E-1  -8.532045781612396E-2   8.785311877727509E-2  -1.292145550251007E-1   8.869769424200058E-2  -1.302014887332916E-1   8.468248248100281E-1   9.281013160943985E-2  
 7.777777777777778E8     6.681695580482483E-1  -1.028806641697884E-1   8.404447883367539E-2  -1.374113559722900E-1   8.459737896919251E-2  -1.380297392606735E-1   8.423178195953369E-1   6.527449935674667E-2  
 7.801801801801802E8     6.574611067771912E-1  -1.181191205978394E-1   7.948070764541626E-2  -1.465166509151459E-1   7.958552986383438E-2  -1.461658775806427E-1   8.345431685447693E-1   3.956198692321777E-2  
 7.825825825825826E8     6.464534401893616E-1  -1.335297524929047E-1   7.333354651927948E-2  -1.549699604511261E-1   7.326154410839081E-2  -1.548396944999695E-1   8.284974098205566E-1   1.636397652328014E-2  
 7.849849849849850E8     6.362323760986328E-1  -1.499381512403488E-1   6.624978780746460E-2  -1.633135378360748E-1   6.660903990268707E-2  -1.626421362161636E-1   8.221039772033691E-1  -4.479089751839638E-3  
 7.873873873873874E8     6.249849200248718E-1  -1.674825698137283E-1   5.858089029788971E-2  -1.709405928850174E-1   5.888399481773377E-2  -1.698207110166550E-1   8.156443238258362E-1  -2.597336657345295E-2  
 7.897897897897898E8     6.104344129562378E-1  -1.857887655496597E-1   5.084482580423355E-2  -1.774733215570450E-1   5.088597163558006E-2  -1.763590276241303E-1   8.087543249130249E-1  -4.989402368664742E-2  
 7.921921921921922E8     5.939565896987915E-1  -2.023221701383591E-1   4.319506138563156E-2  -1.838771700859070E-1   4.332959279417992E-2  -1.836126744747162E-1   8.006826043128967E-1  -7.450643926858902E-2  
 7.945945945945946E8     5.787672400474548E-1  -2.147127389907837E-1   3.545225039124489E-2  -1.915429234504700E-1   3.627085685729981E-2  -1.909818798303604E-1   7.900363802909851E-1  -9.688369184732437E-2  
 7.969969969969970E8     5.635519623756409E-1  -2.260282039642334E-1   2.645370177924633E-2  -1.998272389173508E-1   2.752990461885929E-2  -1.995305269956589E-1   7.776122093200684E-1  -1.199065148830414E-1  
 7.993993993993994E8     5.483744144439697E-1  -2.370391637086868E-1   1.585841551423073E-2  -2.078174948692322E-1   1.677314750850201E-2  -2.077350318431854E-1   7.633336186408997E-1  -1.422557681798935E-1  
 8.018018018018018E8     5.324076414108276E-1  -2.489775866270065E-1   3.893014043569565E-3  -2.151194661855698E-1   4.072779323905706E-3  -2.152098119258881E-1   7.468619346618652E-1  -1.644508689641953E-1  
 8.042042042042042E8     5.160260200500488E-1  -2.604508697986603E-1  -9.574249386787415E-3  -2.218463420867920E-1  -9.288478642702103E-3  -2.216448783874512E-1   7.296705842018127E-1  -1.833788752555847E-1  
 8.066066066066066E8     4.991513192653656E-1  -2.706483602523804E-1  -2.448271028697491E-2  -2.271032631397247E-1  -2.433826029300690E-2  -2.271344810724258E-1   7.121086716651917E-1  -2.021653354167938E-1  
 8.090090090090090E8     4.812021255493164E-1  -2.814693748950958E-1  -4.034775123000145E-2  -2.307986319065094E-1  -4.006906971335411E-2  -2.308498322963715E-1   6.936092972755432E-1  -2.201545238494873E-1  
 8.114114114114114E8     4.613505005836487E-1  -2.906985282897949E-1  -5.649852380156517E-2  -2.325158119201660E-1  -5.639896914362907E-2  -2.325382977724075E-1   6.734111905097961E-1  -2.383560389280319E-1  
 8.138138138138138E8     4.407071471214294E-1  -2.966045439243317E-1  -7.200004160404205E-2  -2.325037270784378E-1  -7.193373143672943E-2  -2.324826568365097E-1   6.504096388816834E-1  -2.563689947128296E-1  
 8.162162162162162E8     4.227631688117981E-1  -2.996068298816681E-1  -8.700091391801834E-2  -2.326018661260605E-1  -8.662956207990646E-2  -2.324953973293304E-1   6.248463392257690E-1  -2.719862461090088E-1  
 8.186186186186186E8     4.076191186904907E-1  -3.017185926437378E-1  -1.029298827052116E-1  -2.329307794570923E-1  -1.024912446737289E-1  -2.327718585729599E-1   5.978573560714722E-1  -2.835628390312195E-1  
 8.210210210210210E8     3.936052322387695E-1  -3.048339784145355E-1  -1.201623380184174E-1  -2.314580231904984E-1  -1.197557970881462E-1  -2.313471883535385E-1   5.699094533920288E-1  -2.919232249259949E-1  
 8.234234234234234E8     3.801277577877045E-1  -3.109155297279358E-1  -1.380277127027512E-1  -2.275502532720566E-1  -1.376658976078033E-1  -2.275289893150330E-1   5.427763462066650E-1  -2.978219389915466E-1  
