#  HZ   S   RI   R     50.00 
! Rohde & Schwarz ZVB8 2Ports - Version 2.81 - 1145.1010k08 SN: 100113
! Date: 2016-03-31 03:30:00
! Measurements: S11 S21 S12 S22 
! 
 6.000000000000000E8     5.613017454743385E-2   9.378489255905151E-1  -1.135035697370768E-2   6.077023688703775E-3  -1.136739831417799E-2   5.950720980763435E-3  -1.053341329097748E-1   9.489144086837769E-1  
 6.024024024024024E8     7.549543678760529E-2   9.353973269462585E-1  -1.165759749710560E-2   6.665384862571955E-3  -1.155981048941612E-2   6.630707997828722E-3  -8.681295067071915E-2   9.500292539596558E-1  
 6.048048048048048E8     9.572705626487732E-2   9.326295852661133E-1  -1.187809370458126E-2   7.245989982038736E-3  -1.188678387552500E-2   7.261351216584444E-3  -6.803301721811295E-2   9.511024951934815E-1  
 6.072072072072072E8     1.172250807285309E-1   9.292519688606262E-1  -1.212582737207413E-2   7.903516292572022E-3  -1.210592966526747E-2   7.899217307567596E-3  -4.953685030341148E-2   9.515876770019531E-1  
 6.096096096096096E8     1.392777711153030E-1   9.248737096786499E-1  -1.257074996829033E-2   8.616291917860508E-3  -1.249664556235075E-2   8.574697189033032E-3  -3.071556612849236E-2   9.519262313842773E-1  
 6.120120120120120E8     1.584307700395584E-1   9.205405116081238E-1  -1.302426215261221E-2   9.445564821362495E-3  -1.297889556735754E-2   9.371373802423477E-3  -1.361602451652288E-2   9.519249796867371E-1  
 6.144144144144144E8     1.778300106525421E-1   9.159535765647888E-1  -1.330778002738953E-2   1.039331592619419E-2  -1.334180403500795E-2   1.035670191049576E-2   3.874937305226922E-3   9.521007537841797E-1  
 6.168168168168168E8     1.977787613868713E-1   9.105749726295471E-1  -1.365651469677687E-2   1.147531904280186E-2  -1.370712276548147E-2   1.148976571857929E-2   2.216671034693718E-2   9.516478776931763E-1  
 6.192192192192192E8     2.177264541387558E-1   9.048089981079102E-1  -1.378101762384176E-2   1.258435007184744E-2  -1.384974084794521E-2   1.254737749695778E-2   4.122253507375717E-2   9.507132768630981E-1  
 6.216216216216216E8     2.381345182657242E-1   8.979780077934265E-1  -1.396915037184954E-2   1.367726828902960E-2  -1.400397717952728E-2   1.372486259788275E-2   6.032241880893707E-2   9.490944147109985E-1  
 6.240240240240240E8     2.592182159423828E-1   8.902394175529480E-1  -1.422709971666336E-2   1.488601975142956E-2  -1.419711392372847E-2   1.492750737816095E-2   7.981380075216293E-2   9.468026161193848E-1  
 6.264264264264264E8     2.792786955833435E-1   8.819661736488342E-1  -1.432076934725046E-2   1.618928648531437E-2  -1.437750831246376E-2   1.617806591093540E-2   1.001278981566429E-1   9.443010687828064E-1  
 6.288288288288288E8     2.988571822643280E-1   8.729562163352966E-1  -1.443981193006039E-2   1.750980690121651E-2  -1.440738514065743E-2   1.757645793259144E-2   1.196980774402618E-1   9.412065148353577E-1  
 6.312312312312312E8     3.178003132343292E-1   8.634645342826843E-1  -1.455930247902870E-2   1.903377845883369E-2  -1.456382870674133E-2   1.897409372031689E-2   1.388713568449020E-1   9.378024935722351E-1  
 6.336336336336336E8     3.365073800086975E-1   8.536227941513062E-1  -1.472155749797821E-2   2.067328989505768E-2  -1.469128578901291E-2   2.067715488374233E-2   1.576733142137528E-1   9.341066479682922E-1  
 6.360360360360360E8     3.549863398075104E-1   8.427026271820068E-1  -1.471215393394232E-2   2.266196161508560E-2  -1.460606418550015E-2   2.262213453650475E-2   1.759523302316666E-1   9.298356771469116E-1  
 6.384384384384384E8     3.725979626178742E-1   8.320394754409790E-1  -1.434197369962931E-2   2.471946552395821E-2  -1.433486584573984E-2   2.462515607476234E-2   1.953294426202774E-1   9.250496029853821E-1  
 6.408408408408408E8     3.899289965629578E-1   8.202866315841675E-1  -1.370267849415541E-2   2.675111591815949E-2  -1.372235827147961E-2   2.672279067337513E-2   2.151526808738709E-1   9.199373722076416E-1  
 6.432432432432432E8     4.067284166812897E-1   8.077381849288940E-1  -1.287049148231745E-2   2.884482033550739E-2  -1.284137926995754E-2   2.888252772390842E-2   2.345567792654038E-1   9.139602780342102E-1  
 6.456456456456456E8     4.232130646705627E-1   7.944595217704773E-1  -1.199535280466080E-2   3.090955503284931E-2  -1.193731650710106E-2   3.088435344398022E-2   2.537782788276672E-1   9.075077176094055E-1  
 6.480480480480480E8     4.393393695354462E-1   7.804014086723328E-1  -1.103074755519629E-2   3.298189863562584E-2  -1.091412920504808E-2   3.299632668495178E-2   2.728830873966217E-1   9.002121090888977E-1  
 6.504504504504504E8     4.549133479595184E-1   7.673978209495544E-1  -9.956659749150276E-3   3.522568196058273E-2  -9.867934510111809E-3   3.517895936965942E-2   2.928424477577210E-1   8.933476209640503E-1  
 6.528528528528528E8     4.692433774471283E-1   7.534971237182617E-1  -8.624634705483913E-3   3.756469860672951E-2  -8.521293289959431E-3   3.754291310906410E-2   3.118104040622711E-1   8.863172531127930E-1  
 6.552552552552552E8     4.824941754341126E-1   7.384352087974548E-1  -6.981006823480129E-3   4.019230976700783E-2  -6.944712717086077E-3   4.018710553646088E-2   3.296840488910675E-1   8.784402012825012E-1  
 6.576576576576576E8     4.939751923084259E-1   7.224021553993225E-1  -4.798168316483498E-3   4.307831078767777E-2  -4.730176646262407E-3   4.309408739209175E-2   3.469038009643555E-1   8.691801428794861E-1  
 6.600600600600600E8     5.049135088920593E-1   7.052367925643921E-1  -1.548006315715611E-3   4.595928266644478E-2  -1.548052998259664E-3   4.593377932906151E-2   3.644475042819977E-1   8.584665656089783E-1  
 6.624624624624624E8     5.139063596725464E-1   6.922779679298401E-1   2.424995414912701E-3   4.776841029524803E-2   2.424755599349737E-3   4.761980473995209E-2   3.817052841186523E-1   8.492341637611389E-1  
 6.648648648648648E8     5.231291651725769E-1   6.797925829887390E-1   6.039245985448360E-3   4.856109246611595E-2   5.954848602414131E-3   4.850587621331215E-2   3.985800743103027E-1   8.405730724334717E-1  
 6.672672672672672E8     5.325198769569397E-1   6.662905216217041E-1   9.309832006692886E-3   4.937926307320595E-2   9.153821505606175E-3   4.928908869624138E-2   4.148591160774231E-1   8.312621712684631E-1  
 6.696696696696696E8     5.414865612983704E-1   6.523786187171936E-1   1.263551320880652E-2   5.001847445964813E-2   1.256270613521338E-2   4.995246604084969E-2   4.305178821086884E-1   8.215039968490601E-1  
 6.720720720720720E8     5.506857037544251E-1   6.378215551376343E-1   1.602603308856487E-2   5.041341111063957E-2   1.600708067417145E-2   5.041468143463135E-2   4.462040364742279E-1   8.113454580307007E-1  
 6.744744744744744E8     5.587692260742188E-1   6.248881816864014E-1   1.942049525678158E-2   5.074425414204598E-2   1.946418546140194E-2   5.076877400279045E-2   4.620184898376465E-1   8.016740679740906E-1  
 6.768768768768768E8     5.666245818138123E-1   6.115143299102783E-1   2.308421954512596E-2   5.103182792663574E-2   2.297563105821610E-2   5.094169080257416E-2   4.776931107044220E-1   7.913980484008789E-1  
 6.792792792792792E8     5.734301209449768E-1   5.991130471229553E-1   2.704298309981823E-2   5.076802894473076E-2   2.695274539291859E-2   5.071177333593369E-2   4.929618835449219E-1   7.806177139282227E-1  
 6.816816816816816E8     5.811927914619446E-1   5.873897671699524E-1   3.070591203868389E-2   4.966521263122559E-2   3.063159994781017E-2   4.961615800857544E-2   5.082071423530579E-1   7.696017026901245E-1  
 6.840840840840840E8     5.895499587059021E-1   5.753001570701599E-1   3.390435874462128E-2   4.858078062534332E-2   3.377432376146317E-2   4.846586659550667E-2   5.237647294998169E-1   7.579494714736939E-1  
 6.864864864864864E8     5.978351831436157E-1   5.628158450126648E-1   3.684572875499725E-2   4.734715074300766E-2   3.657625615596771E-2   4.732898622751236E-2   5.373294949531555E-1   7.468741536140442E-1  
 6.888888888888888E8     6.063724160194397E-1   5.502357482910156E-1   3.945211693644524E-2   4.599073901772499E-2   3.911037370562553E-2   4.611480236053467E-2   5.513457059860230E-1   7.348237633705139E-1  
 6.912912912912912E8     6.156107783317566E-1   5.370879769325256E-1   4.191976785659790E-2   4.488970339298248E-2   4.145256429910660E-2   4.516579210758209E-2   5.655435919761658E-1   7.226059436798096E-1  
 6.936936936936936E8     6.245331764221191E-1   5.231118202209473E-1   4.389103129506111E-2   4.415929317474365E-2   4.362320527434349E-2   4.427743703126907E-2   5.795198082923889E-1   7.095240950584412E-1  
 6.960960960960960E8     6.331495642662048E-1   5.072578191757202E-1   4.618966951966286E-2   4.413931816816330E-2   4.620159789919853E-2   4.417322203516960E-2   5.940417051315308E-1   6.959527134895325E-1  
 6.984984984984984E8     6.395137906074524E-1   4.932338893413544E-1   4.916408658027649E-2   4.427902773022652E-2   4.969320073723793E-2   4.365485534071922E-2   6.096327900886536E-1   6.792719364166260E-1  
 7.009009009009008E8     6.457132101058960E-1   4.788067042827606E-1   5.252072215080261E-2   4.423563554883003E-2   5.346291139721870E-2   4.306431487202644E-2   6.240191459655762E-1   6.628516316413879E-1  
 7.033033033033032E8     6.503850817680359E-1   4.641483426094055E-1   5.702161416411400E-2   4.373423010110855E-2   5.776958540081978E-2   4.243578016757965E-2   6.354941129684448E-1   6.474165916442871E-1  
 7.057057057057056E8     6.553383469581604E-1   4.506486058235169E-1   6.166014820337296E-2   4.187143966555595E-2   6.200290098786354E-2   4.111530259251595E-2   6.439089775085449E-1   6.348804235458374E-1  
 7.081081081081080E8     6.621608734130859E-1   4.361542165279388E-1   6.610579043626785E-2   3.916804119944572E-2   6.595439463853836E-2   3.932232409715653E-2   6.530211567878723E-1   6.214087009429932E-1  
 7.105105105105104E8     6.694467067718506E-1   4.228082001209259E-1   7.004085928201675E-2   3.626715764403343E-2   6.943579018115997E-2   3.729795292019844E-2   6.612847447395325E-1   6.087875366210938E-1  
 7.129129129129129E8     6.758596301078796E-1   4.094549119472504E-1   7.375998049974442E-2   3.385761380195618E-2   7.311742752790451E-2   3.513126820325851E-2   6.710448861122131E-1   5.940253734588623E-1  
 7.153153153153153E8     6.813598275184631E-1   3.968385457992554E-1   7.792993634939194E-2   3.127903491258621E-2   7.764348387718201E-2   3.217227011919022E-2   6.809820532798767E-1   5.772181153297424E-1  
 7.177177177177178E8     6.878594756126404E-1   3.849541842937470E-1   8.189489692449570E-2   2.733018621802330E-2   8.182348310947418E-2   2.764510177075863E-2   6.915642023086548E-1   5.601818561553955E-1  
 7.201201201201202E8     6.974523067474365E-1   3.718125820159912E-1   8.465625345706940E-2   2.282528020441532E-2   8.451478183269501E-2   2.287753485143185E-2   7.027242183685303E-1   5.425008535385132E-1  
 7.225225225225226E8     7.073375582695007E-1   3.577939569950104E-1   8.643957227468491E-2   1.925006695091724E-2   8.636651188135147E-2   1.906809955835342E-2   7.134158015251160E-1   5.251519083976746E-1  
 7.249249249249250E8     7.168776988983154E-1   3.402707278728485E-1   8.857247978448868E-2   1.592839881777763E-2   8.826030045747757E-2   1.672189496457577E-2   7.217382788658142E-1   5.083870887756348E-1  
 7.273273273273274E8     7.249970436096191E-1   3.211385011672974E-1   9.142500907182694E-2   1.295477710664272E-2   9.105576574802399E-2   1.460354868322611E-2   7.295054197311401E-1   4.908403456211090E-1  
 7.297297297297298E8     7.306677699089050E-1   3.030694127082825E-1   9.492935240268707E-2   1.014427188783884E-2   9.466752409934998E-2   1.146987639367580E-2   7.369773387908936E-1   4.724084734916687E-1  
 7.321321321321322E8     7.347441911697388E-1   2.865404784679413E-1   9.871416538953781E-2   7.237473037093878E-3   9.857543557882309E-2   7.107922807335854E-3   7.443563342094421E-1   4.532840549945831E-1  
 7.345345345345346E8     7.388156652450562E-1   2.715466022491455E-1   1.025882065296173E-1   2.973538590595126E-3   1.025345027446747E-1   2.357765100896359E-3   7.506038546562195E-1   4.364645779132843E-1  
 7.369369369369370E8     7.437661886215210E-1   2.546725869178772E-1   1.058055087924004E-1  -2.117571188136935E-3   1.056445986032486E-1  -3.154790960252285E-3   7.570964097976685E-1   4.192977249622345E-1  
 7.393393393393394E8     7.482694983482361E-1   2.363262474536896E-1   1.086483448743820E-1  -7.329547777771950E-3   1.084515377879143E-1  -8.386643603444099E-3   7.636262178421021E-1   4.012213051319122E-1  
 7.417417417417418E8     7.517545223236084E-1   2.163259088993073E-1   1.113092824816704E-1  -1.272045634686947E-2   1.111007183790207E-1  -1.326012983918190E-2   7.697299718856812E-1   3.831308782100678E-1  
 7.441441441441442E8     7.529631853103638E-1   1.957266479730606E-1   1.145375296473503E-1  -1.807845011353493E-2   1.145242303609848E-1  -1.798430271446705E-2   7.749723792076111E-1   3.648331463336945E-1  
 7.465465465465466E8     7.519375085830689E-1   1.810470670461655E-1   1.187449321150780E-1  -2.434290759265423E-2   1.187412515282631E-1  -2.420284599065781E-2   7.790738344192505E-1   3.487470448017120E-1  
 7.489489489489490E8     7.511413097381592E-1   1.672917902469635E-1   1.220930218696594E-1  -3.257761895656586E-2   1.222092881798744E-1  -3.241430595517159E-2   7.829453349113464E-1   3.339311182498932E-1  
 7.513513513513514E8     7.522399425506592E-1   1.523082405328751E-1   1.231560334563255E-1  -4.173487052321434E-2   1.235452815890312E-1  -4.149580746889114E-2   7.887237071990967E-1   3.181084394454956E-1  
 7.537537537537538E8     7.540335655212402E-1   1.333605498075485E-1   1.229101344943047E-1  -5.017848685383797E-2   1.232595071196556E-1  -4.979300498962402E-2   7.958288192749023E-1   2.983638048171997E-1  
 7.561561561561562E8     7.533863782882690E-1   1.134103387594223E-1   1.230629235506058E-1  -5.733193829655647E-2   1.228393167257309E-1  -5.742505565285683E-2   8.018126487731934E-1   2.768307328224182E-1  
 7.585585585585586E8     7.505754232406616E-1   9.705159813165665E-2   1.239167377352715E-1  -6.535813957452774E-2   1.230497434735298E-1  -6.551330536603928E-2   8.071688413619995E-1   2.576175034046173E-1  
 7.609609609609610E8     7.484691143035889E-1   8.155407011508942E-2   1.236253976821899E-1  -7.444930076599121E-2   1.224598884582520E-1  -7.424522936344147E-2   8.113028407096863E-1   2.390104234218597E-1  
 7.633633633633634E8     7.468729615211487E-1   6.582836806774139E-2   1.223976761102676E-1  -8.346959948539734E-2   1.214727982878685E-1  -8.282726258039475E-2   8.150565624237061E-1   2.192639261484146E-1  
 7.657657657657658E8     7.468290925025940E-1   5.097539350390434E-2   1.206962838768959E-1  -9.249827265739441E-2   1.202485561370850E-1  -9.188017994165421E-2   8.178628683090210E-1   1.993223726749420E-1  
 7.681681681681682E8     7.491840720176697E-1   3.521941602230072E-2   1.182633936405182E-1  -1.014056205749512E-1   1.181925907731056E-1  -1.013634949922562E-1   8.210300207138062E-1   1.795895546674728E-1  
 7.705705705705706E8     7.516242265701294E-1   2.000454254448414E-2   1.152429506182671E-1  -1.099152415990830E-1   1.155473366379738E-1  -1.101592332124710E-1   8.238899707794190E-1   1.634252369403839E-1  
 7.729729729729730E8     7.517210841178894E-1  -2.954615956696216E-5   1.115483939647675E-1  -1.178007200360298E-1   1.123261973261833E-1  -1.186870187520981E-1   8.282546997070313E-1   1.439355462789536E-1  
 7.753753753753754E8     7.476625442504883E-1  -2.078582160174847E-2   1.082381680607796E-1  -1.259719431400299E-1   1.092230975627899E-1  -1.270468533039093E-1   8.302439451217651E-1   1.208788678050041E-1  
 7.777777777777778E8     7.426031827926636E-1  -3.938971832394600E-2   1.044960543513298E-1  -1.353496909141541E-1   1.049859821796417E-1  -1.360668540000916E-1   8.288571238517761E-1   9.589867293834686E-2  
 7.801801801801802E8     7.377935647964478E-1  -5.739428848028183E-2   9.930263459682465E-2  -1.445429772138596E-1   9.931426495313644E-2  -1.445026695728302E-1   8.249099850654602E-1   7.079291343688965E-2  
 7.825825825825826E8     7.306946516036987E-1  -7.539907097816467E-2   9.374050796031952E-2  -1.527162641286850E-1   9.365304559469223E-2  -1.527963876724243E-1   8.223503232002258E-1   4.764278978109360E-2  
 7.849849849849850E8     7.244096398353577E-1  -9.303105622529984E-2   8.821265399456024E-2  -1.613072603940964E-1   8.852542191743851E-2  -1.607370525598526E-1   8.183098435401917E-1   2.674338221549988E-2  
 7.873873873873874E8     7.183755636215210E-1  -1.102564185857773E-1   8.252973854541779E-2  -1.705062687397003E-1   8.255398273468018E-2  -1.694352477788925E-1   8.143000602722168E-1   5.480396561324596E-3  
 7.897897897897898E8     7.127665877342224E-1  -1.284630000591278E-1   7.580905407667160E-2  -1.801278889179230E-1   7.559236139059067E-2  -1.791628599166870E-1   8.096963763237000E-1  -1.748667471110821E-2  
 7.921921921921922E8     7.070792913436890E-1  -1.490591764450073E-1   6.715182214975357E-2  -1.896132677793503E-1   6.712877005338669E-2  -1.893721371889114E-1   8.046978116035461E-1  -4.141866788268089E-2  
 7.945945945945946E8     7.018619775772095E-1  -1.684407889842987E-1   5.720940232276917E-2  -1.990303099155426E-1   5.800588056445122E-2  -1.984533816576004E-1   7.975891828536987E-1  -6.352318823337555E-2  
 7.969969969969970E8     6.931155920028687E-1  -1.887315213680267E-1   4.650589078664780E-2  -2.070512473583221E-1   4.763307049870491E-2  -2.067005485296249E-1   7.891806364059448E-1  -8.647052943706513E-2  
 7.993993993993994E8     6.817830801010132E-1  -2.076577693223953E-1   3.561415523290634E-2  -2.147945016622543E-1   3.648171946406364E-2  -2.147513478994370E-1   7.787068486213684E-1  -1.103128790855408E-1  
 8.018018018018018E8     6.705706119537354E-1  -2.254215329885483E-1   2.343765273690224E-2  -2.224069088697434E-1   2.344992198050022E-2  -2.225093394517899E-1   7.662619948387146E-1  -1.340492963790894E-1  
 8.042042042042042E8     6.604064106941223E-1  -2.439671605825424E-1   9.561617858707905E-3  -2.288643270730972E-1   9.679689072072506E-3  -2.288446128368378E-1   7.529469728469849E-1  -1.560478210449219E-1  
 8.066066066066066E8     6.487503051757813E-1  -2.629217505455017E-1  -5.118237342685461E-3  -2.336446493864059E-1  -4.954640753567219E-3  -2.337044328451157E-1   7.378190755844116E-1  -1.787272095680237E-1  
 8.090090090090090E8     6.354389786720276E-1  -2.824166715145111E-1  -1.974370330572128E-2  -2.369581162929535E-1  -1.965885795652866E-2  -2.370732128620148E-1   7.199713587760925E-1  -2.008205056190491E-1  
 8.114114114114114E8     6.204311847686768E-1  -3.010669052600861E-1  -3.434347733855248E-2  -2.395480126142502E-1  -3.432079032063484E-2  -2.396913766860962E-1   6.997509598731995E-1  -2.212865352630615E-1  
 8.138138138138138E8     6.045438051223755E-1  -3.185749351978302E-1  -4.912792891263962E-2  -2.412691563367844E-1  -4.910388216376305E-2  -2.413341403007507E-1   6.777614951133728E-1  -2.413471937179565E-1  
 8.162162162162162E8     5.889606475830078E-1  -3.343917429447174E-1  -6.399154663085938E-2  -2.426219284534454E-1  -6.391816586256027E-2  -2.424574643373489E-1   6.532657146453857E-1  -2.595275044441223E-1  
 8.186186186186186E8     5.736121535301209E-1  -3.492712080478668E-1  -7.966430485248566E-2  -2.432844340801239E-1  -7.934720069169998E-2  -2.431568950414658E-1   6.272422075271606E-1  -2.743166983127594E-1  
 8.210210210210210E8     5.566495656967163E-1  -3.646726310253143E-1  -9.569457173347473E-2  -2.424223423004150E-1  -9.548244625329971E-2  -2.423438131809235E-1   5.991587638854981E-1  -2.863645255565643E-1  
 8.234234234234234E8     5.382180213928223E-1  -3.796034455299377E-1  -1.118958219885826E-1  -2.398935854434967E-1  -1.117129847407341E-1  -2.397988885641098E-1   5.709125399589539E-1  -2.960097193717957E-1  
