#  HZ   S   RI   R     50.00 
! Rohde & Schwarz ZVB8 2Ports - Version 2.81 - 1145.1010k08 SN: 100113
! Date: 2016-03-31 04:59:58
! Measurements: S11 S21 S12 S22 
! 
 6.000000000000000E8     4.379225149750710E-2   9.317189455032349E-1  -1.061493624001741E-2   8.987930603325367E-3  -1.060363743454218E-2   8.874917402863503E-3  -7.795907557010651E-2   9.473585486412048E-1  
 6.024024024024024E8     6.274040788412094E-2   9.296862483024597E-1  -1.072260737419128E-2   9.576150216162205E-3  -1.078685186803341E-2   9.519328363239765E-3  -5.835121497511864E-2   9.479379057884216E-1  
 6.048048048048048E8     8.253222703933716E-2   9.270749092102051E-1  -1.086024194955826E-2   1.036649569869041E-2  -1.081170048564673E-2   1.032247208058834E-2  -3.912415355443955E-2   9.483404159545898E-1  
 6.072072072072072E8     1.033153608441353E-1   9.238958358764648E-1  -1.095191948115826E-2   1.098017115145922E-2  -1.094629988074303E-2   1.108950655907393E-2  -1.950075663626194E-2   9.482620954513550E-1  
 6.096096096096096E8     1.248889863491058E-1   9.195669889450073E-1  -1.105844601988792E-2   1.188551448285580E-2  -1.099281385540962E-2   1.188679784536362E-2   1.770618982845917E-4   9.476999640464783E-1  
 6.120120120120120E8     1.429807096719742E-1   9.156012535095215E-1  -1.116468384861946E-2   1.273783016949892E-2  -1.115190144628286E-2   1.276142802089453E-2   1.770794391632080E-2   9.473859071731567E-1  
 6.144144144144144E8     1.619026660919190E-1   9.112762808799744E-1  -1.119026914238930E-2   1.373325195163488E-2  -1.125765591859818E-2   1.360719092190266E-2   3.664100915193558E-2   9.465247988700867E-1  
 6.168168168168168E8     1.812404841184616E-1   9.065625071525574E-1  -1.144201960414648E-2   1.467634271830320E-2  -1.139318477362394E-2   1.463954057544470E-2   5.580264702439308E-2   9.455888271331787E-1  
 6.192192192192192E8     2.009779959917069E-1   9.008897542953491E-1  -1.151775382459164E-2   1.588664017617703E-2  -1.167276781052351E-2   1.575188525021076E-2   7.604994624853134E-2   9.436964392662048E-1  
 6.216216216216216E8     2.209732532501221E-1   8.941987156867981E-1  -1.161029841750860E-2   1.727099157869816E-2  -1.168869622051716E-2   1.727604493498802E-2   9.709519892930985E-2   9.408083558082581E-1  
 6.240240240240240E8     2.407818734645844E-1   8.862754702568054E-1  -1.139518804848194E-2   1.888262294232845E-2  -1.143997162580490E-2   1.894104853272438E-2   1.180853545665741E-1   9.370425939559937E-1  
 6.264264264264264E8     2.591781914234161E-1   8.780816197395325E-1  -1.073261536657810E-2   2.068139798939228E-2  -1.097826194018126E-2   2.044079452753067E-2   1.393740624189377E-1   9.333748817443848E-1  
 6.288288288288288E8     2.773819267749786E-1   8.696438670158386E-1  -1.005697250366211E-2   2.193632349371910E-2  -1.013643667101860E-2   2.193058095872402E-2   1.590257287025452E-1   9.289566874504089E-1  
 6.312312312312312E8     2.944959402084351E-1   8.611050844192505E-1  -9.244373999536037E-3   2.327230013906956E-2  -9.314140304923058E-3   2.326846495270729E-2   1.786278486251831E-1   9.243584275245667E-1  
 6.336336336336336E8     3.117187619209290E-1   8.528215289115906E-1  -8.534098044037819E-3   2.459134534001350E-2  -8.516664616763592E-3   2.462087571620941E-2   1.980575174093247E-1   9.193723201751709E-1  
 6.360360360360360E8     3.288635909557343E-1   8.439456224441528E-1  -7.517466321587563E-3   2.598912268877029E-2  -7.570568937808275E-3   2.593101933598518E-2   2.169923335313797E-1   9.137241244316101E-1  
 6.384384384384384E8     3.453534543514252E-1   8.355897068977356E-1  -6.305987946689129E-3   2.705986425280571E-2  -6.347528658807278E-3   2.704786509275436E-2   2.370718270540237E-1   9.078824520111084E-1  
 6.408408408408408E8     3.624444305896759E-1   8.264441490173340E-1  -5.222949665039778E-3   2.793447673320770E-2  -5.251163151115179E-3   2.788667008280754E-2   2.573094367980957E-1   9.016007781028748E-1  
 6.432432432432432E8     3.794620037078857E-1   8.166700005531311E-1  -4.250219091773033E-3   2.875093929469585E-2  -4.266620147973299E-3   2.871843799948692E-2   2.775265574455261E-1   8.944534063339233E-1  
 6.456456456456456E8     3.966142237186432E-1   8.057034611701965E-1  -3.656870685517788E-3   2.961269766092300E-2  -3.685539588332176E-3   2.965379133820534E-2   2.979691624641419E-1   8.865112066268921E-1  
 6.480480480480480E8     4.135875105857849E-1   7.937767505645752E-1  -2.911492250859737E-3   3.101463057100773E-2  -2.910783514380455E-3   3.104883804917336E-2   3.183841407299042E-1   8.771586418151856E-1  
 6.504504504504504E8     4.291684627532959E-1   7.832683920860291E-1  -1.976904459297657E-3   3.243312612175942E-2  -1.953121973201633E-3   3.235730901360512E-2   3.395466208457947E-1   8.687875866889954E-1  
 6.528528528528528E8     4.443260431289673E-1   7.721894383430481E-1  -9.385109296999872E-4   3.401637449860573E-2  -9.458380518481135E-4   3.399194404482842E-2   3.596436977386475E-1   8.593646883964539E-1  
 6.552552552552552E8     4.587935805320740E-1   7.607345581054688E-1   4.427012463565916E-4   3.559944033622742E-2   4.244087322149426E-4   3.563896194100380E-2   3.785521388053894E-1   8.490582108497620E-1  
 6.576576576576576E8     4.731671810150147E-1   7.481375932693481E-1   1.891225227154791E-3   3.750256821513176E-2   1.874148729257286E-3   3.743509203195572E-2   3.964512050151825E-1   8.376084566116333E-1  
 6.600600600600600E8     4.879523217678070E-1   7.338119745254517E-1   4.044767934828997E-3   3.943968564271927E-2   4.094354342669249E-3   3.936905041337013E-2   4.150931239128113E-1   8.244331479072571E-1  
 6.624624624624624E8     5.009705424308777E-1   7.221634387969971E-1   6.712613161653280E-3   4.096143320202828E-2   6.575727369636297E-3   4.084337130188942E-2   4.337235391139984E-1   8.125875592231751E-1  
 6.648648648648648E8     5.135266184806824E-1   7.102528214454651E-1   9.424424730241299E-3   4.199676215648651E-2   9.292718023061752E-3   4.194916039705277E-2   4.512611627578735E-1   8.007370233535767E-1  
 6.672672672672672E8     5.262491106987000E-1   6.978219747543335E-1   1.204706635326147E-2   4.272752255201340E-2   1.189076248556376E-2   4.268649965524674E-2   4.682320654392242E-1   7.885898351669312E-1  
 6.696696696696696E8     5.391803383827210E-1   6.845266222953796E-1   1.458937022835016E-2   4.343920201063156E-2   1.452773530036211E-2   4.331979155540466E-2   4.843909740447998E-1   7.758470773696899E-1  
 6.720720720720720E8     5.522182583808899E-1   6.700138449668884E-1   1.734783686697483E-2   4.407889768481255E-2   1.716606877744198E-2   4.392042756080627E-2   5.003951191902161E-1   7.622827887535095E-1  
 6.744744744744744E8     5.635550618171692E-1   6.570354700088501E-1   2.008740417659283E-2   4.418652132153511E-2   2.001039497554302E-2   4.416376724839211E-2   5.172015428543091E-1   7.493453621864319E-1  
 6.768768768768768E8     5.755563974380493E-1   6.438384652137756E-1   2.245160751044750E-2   4.446703568100929E-2   2.230332605540752E-2   4.443904012441635E-2   5.331972837448120E-1   7.356805205345154E-1  
 6.792792792792792E8     5.865527987480164E-1   6.299164295196533E-1   2.526978775858879E-2   4.494011029601097E-2   2.511784434318543E-2   4.487054049968720E-2   5.487947463989258E-1   7.212998270988464E-1  
 6.816816816816816E8     5.979311466217041E-1   6.161551475524902E-1   2.785285748541355E-2   4.482945054769516E-2   2.777277305722237E-2   4.478296265006065E-2   5.645044445991516E-1   7.063143849372864E-1  
 6.840840840840840E8     6.091354489326477E-1   6.013394594192505E-1   3.061682730913162E-2   4.521854966878891E-2   3.053755126893520E-2   4.516712576150894E-2   5.798437595367432E-1   6.901133060455322E-1  
 6.864864864864864E8     6.193596720695496E-1   5.865104794502258E-1   3.369339182972908E-2   4.521293565630913E-2   3.340002894401550E-2   4.528032988309860E-2   5.928421616554260E-1   6.748687028884888E-1  
 6.888888888888888E8     6.297098398208618E-1   5.717151761054993E-1   3.679732233285904E-2   4.500580206513405E-2   3.630320727825165E-2   4.515790566802025E-2   6.062389612197876E-1   6.586089730262756E-1  
 6.912912912912912E8     6.393749117851257E-1   5.573807954788208E-1   4.001156985759735E-2   4.438427463173866E-2   3.956389427185059E-2   4.453227669000626E-2   6.193890571594238E-1   6.419553160667419E-1  
 6.936936936936936E8     6.502290964126587E-1   5.426629781723023E-1   4.215960204601288E-2   4.352424293756485E-2   4.189971834421158E-2   4.367676377296448E-2   6.328418850898743E-1   6.251766681671143E-1  
 6.960960960960960E8     6.611449122428894E-1   5.258491039276123E-1   4.443629458546639E-2   4.395479336380959E-2   4.430911317467690E-2   4.398530349135399E-2   6.461196541786194E-1   6.065279245376587E-1  
 6.984984984984984E8     6.701298952102661E-1   5.100365281105042E-1   4.743797332048416E-2   4.448210448026657E-2   4.800623282790184E-2   4.389981552958489E-2   6.603445410728455E-1   5.852872729301453E-1  
 7.009009009009008E8     6.784970164299011E-1   4.935062825679779E-1   5.086502060294151E-2   4.487713426351547E-2   5.166191980242729E-2   4.383099079132080E-2   6.733722686767578E-1   5.638878941535950E-1  
 7.033033033033032E8     6.863128542900085E-1   4.769065082073212E-1   5.489911511540413E-2   4.468264058232307E-2   5.556148290634155E-2   4.354188591241837E-2   6.835157871246338E-1   5.432025790214539E-1  
 7.057057057057056E8     6.951187252998352E-1   4.600118100643158E-1   5.884531885385513E-2   4.394843801856041E-2   5.913212522864342E-2   4.332989826798439E-2   6.907907128334045E-1   5.247360467910767E-1  
 7.081081081081080E8     7.046784162521362E-1   4.398680031299591E-1   6.322543323040009E-2   4.366160929203033E-2   6.299995630979538E-2   4.372598975896835E-2   6.975308060646057E-1   5.045840144157410E-1  
 7.105105105105104E8     7.125909924507141E-1   4.200813472270966E-1   6.840707361698151E-2   4.309455305337906E-2   6.762638688087463E-2   4.408140107989311E-2   7.023702263832092E-1   4.854641854763031E-1  
 7.129129129129129E8     7.182738184928894E-1   4.009213447570801E-1   7.406585663557053E-2   4.225925356149674E-2   7.329305261373520E-2   4.355870932340622E-2   7.070595026016235E-1   4.650710523128510E-1  
 7.153153153153153E8     7.219713330268860E-1   3.827667534351349E-1   8.051342517137528E-2   4.093879461288452E-2   8.001842349767685E-2   4.192716255784035E-2   7.113881111145020E-1   4.431875348091126E-1  
 7.177177177177178E8     7.258852124214172E-1   3.655976653099060E-1   8.701904863119125E-2   3.800220414996147E-2   8.689264208078384E-2   3.833095729351044E-2   7.157297134399414E-1   4.207888245582581E-1  
 7.201201201201202E8     7.309058904647827E-1   3.473026156425476E-1   9.333793073892593E-2   3.414373844861984E-2   9.319629520177841E-2   3.432159498333931E-2   7.194963097572327E-1   3.983222544193268E-1  
 7.225225225225226E8     7.355244755744934E-1   3.310302197933197E-1   9.945823997259140E-2   2.936623990535736E-2   9.934157133102417E-2   2.922507189214230E-2   7.218661904335022E-1   3.782389461994171E-1  
 7.249249249249250E8     7.409473657608032E-1   3.127228617668152E-1   1.047413796186447E-1   2.324404753744602E-2   1.042651832103729E-1   2.441248670220375E-2   7.234481573104858E-1   3.607043325901032E-1  
 7.273273273273274E8     7.451398968696594E-1   2.940264046192169E-1   1.099825054407120E-1   1.692817918956280E-2   1.093595698475838E-1   1.921706832945347E-2   7.248129844665527E-1   3.433194160461426E-1  
 7.297297297297298E8     7.489027976989746E-1   2.770957052707672E-1   1.139462813735008E-1   1.042858511209488E-2   1.135856211185455E-1   1.244674436748028E-2   7.277698516845703E-1   3.255700767040253E-1  
 7.321321321321322E8     7.521239519119263E-1   2.605378329753876E-1   1.175239756703377E-1   5.545624997466803E-3   1.174022480845451E-1   5.894783418625593E-3   7.317482829093933E-1   3.056051433086395E-1  
 7.345345345345346E8     7.543000578880310E-1   2.453870773315430E-1   1.218654215335846E-1  -7.772090029902756E-4   1.217072233557701E-1  -1.030621118843556E-3   7.346222996711731E-1   2.873980104923248E-1  
 7.369369369369370E8     7.574428915977478E-1   2.289637625217438E-1   1.249899268150330E-1  -7.816707715392113E-3   1.247749328613281E-1  -8.712268434464932E-3   7.383664250373840E-1   2.676351070404053E-1  
 7.393393393393394E8     7.603459358215332E-1   2.117917388677597E-1   1.280587762594223E-1  -1.523988228291273E-2   1.277917772531509E-1  -1.617451384663582E-2   7.412222027778626E-1   2.466433793306351E-1  
 7.417417417417418E8     7.641223073005676E-1   1.937508583068848E-1   1.301584839820862E-1  -2.318625152111054E-2   1.299337148666382E-1  -2.364448644220829E-2   7.436386346817017E-1   2.248686403036118E-1  
 7.441441441441442E8     7.672978639602661E-1   1.740650087594986E-1   1.320327818393707E-1  -3.101943992078304E-2   1.321226805448532E-1  -3.054626658558846E-2   7.446458935737610E-1   2.021398693323135E-1  
 7.465465465465466E8     7.695670723915100E-1   1.580123603343964E-1   1.342900246381760E-1  -3.891901671886444E-2   1.344492882490158E-1  -3.831956908106804E-2   7.444329261779785E-1   1.816902607679367E-1  
 7.489489489489490E8     7.712270617485046E-1   1.405236124992371E-1   1.354594677686691E-1  -4.689197987318039E-2   1.358559131622315E-1  -4.632852599024773E-2   7.442868947982788E-1   1.614721566438675E-1  
 7.513513513513514E8     7.717395424842835E-1   1.208959594368935E-1   1.366825699806213E-1  -5.476023629307747E-2   1.371383816003799E-1  -5.410486459732056E-2   7.428448796272278E-1   1.384746283292770E-1  
 7.537537537537538E8     7.721860408782959E-1   9.883894771337509E-2   1.374312043190002E-1  -6.366365402936935E-2   1.380894780158997E-1  -6.284793466329575E-2   7.406460046768189E-1   1.133354902267456E-1  
 7.561561561561562E8     7.708311080932617E-1   7.587178051471710E-2   1.383591890335083E-1  -7.144177705049515E-2   1.383648514747620E-1  -7.099300622940064E-2   7.365023493766785E-1   8.702240139245987E-2  
 7.585585585585586E8     7.662395834922791E-1   5.557616055011749E-2   1.407602876424789E-1  -8.052714914083481E-2   1.401272267103195E-1  -8.007279038429260E-2   7.305931448936462E-1   6.405091285705566E-2  
 7.609609609609610E8     7.608636617660523E-1   3.708698600530624E-2   1.417796313762665E-1  -9.157125651836395E-2   1.407513767480850E-1  -9.069092571735382E-2   7.231467366218567E-1   4.179519042372704E-2  
 7.633633633633634E8     7.560331821441650E-1   1.951687410473824E-2   1.417518109083176E-1  -1.028983518481255E-1   1.409446001052856E-1  -1.016581133008003E-1   7.144802808761597E-1   1.861960068345070E-2  
 7.657657657657658E8     7.531133294105530E-1   1.900685136206448E-3   1.409375667572022E-1  -1.151074916124344E-1   1.408139616250992E-1  -1.136791110038757E-1   7.036876082420349E-1  -2.987968502566218E-3  
 7.681681681681682E8     7.514547705650330E-1  -1.599675230681896E-2   1.393563449382782E-1  -1.272073537111282E-1   1.397209763526917E-1  -1.266198158264160E-1   6.932473778724670E-1  -2.358813025057316E-2  
 7.705705705705706E8     7.488416433334351E-1  -3.201521933078766E-2   1.371988952159882E-1  -1.399944424629211E-1   1.381077617406845E-1  -1.397455483675003E-1   6.823058128356934E-1  -4.074674844741821E-2  
 7.729729729729730E8     7.447530031204224E-1  -5.112436041235924E-2   1.330817341804504E-1  -1.538465619087219E-1   1.348491460084915E-1  -1.541568189859390E-1   6.709474325180054E-1  -5.856369808316231E-2  
 7.753753753753754E8     7.386962175369263E-1  -7.039913535118103E-2   1.272851377725601E-1  -1.681572049856186E-1   1.291360408067703E-1  -1.687438189983368E-1   6.583956480026245E-1  -7.797195017337799E-2  
 7.777777777777778E8     7.324904799461365E-1  -8.873284608125687E-2   1.196476072072983E-1  -1.824659854173660E-1   1.209357231855393E-1  -1.829142272472382E-1   6.431868672370911E-1  -9.662448614835739E-2  
 7.801801801801802E8     7.261314392089844E-1  -1.070092692971230E-1   1.100224107503891E-1  -1.956925988197327E-1   1.103330254554749E-1  -1.951907277107239E-1   6.267799139022827E-1  -1.147485300898552E-1  
 7.825825825825826E8     7.179367542266846E-1  -1.261697709560394E-1   9.986782819032669E-2  -2.072379887104034E-1   9.985008835792542E-2  -2.068819254636765E-1   6.103767156600952E-1  -1.320184469223023E-1  
 7.849849849849850E8     7.109181880950928E-1  -1.455696076154709E-1   8.816704899072647E-2  -2.189534604549408E-1   8.878055959939957E-2  -2.180473357439041E-1   5.943212509155273E-1  -1.469122469425201E-1  
 7.873873873873874E8     7.033407092094421E-1  -1.670857220888138E-1   7.575632631778717E-2  -2.289553433656693E-1   7.638969272375107E-2  -2.274285554885864E-1   5.767894983291626E-1  -1.638189405202866E-1  
 7.897897897897898E8     6.923045516014099E-1  -1.905649453401566E-1   6.397169083356857E-2  -2.376898527145386E-1   6.431580334901810E-2  -2.363762706518173E-1   5.555971264839172E-1  -1.812810897827148E-1  
 7.921921921921922E8     6.778883934020996E-1  -2.143947333097458E-1   5.229612812399864E-2  -2.466381937265396E-1   5.286145582795143E-2  -2.464325278997421E-1   5.312374234199524E-1  -1.970291286706924E-1  
 7.945945945945946E8     6.631475687026978E-1  -2.324927300214768E-1   3.997149318456650E-2  -2.584883868694305E-1   4.142661020159721E-2  -2.580187618732452E-1   5.041968822479248E-1  -2.055247873067856E-1  
 7.969969969969970E8     6.488198637962341E-1  -2.494040727615356E-1   2.369287610054016E-2  -2.701101303100586E-1   2.535669505596161E-2  -2.699279785156250E-1   4.793196618556976E-1  -2.113789021968842E-1  
 7.993993993993994E8     6.334086656570435E-1  -2.665703594684601E-1   4.989019129425287E-3  -2.793053686618805E-1   6.366717163473368E-3  -2.795645296573639E-1   4.560271501541138E-1  -2.168931812047958E-1  
 8.018018018018018E8     6.172122955322266E-1  -2.843652963638306E-1  -1.507944241166115E-2  -2.859803736209869E-1  -1.443182304501534E-2  -2.863092124462128E-1   4.325249791145325E-1  -2.229106724262238E-1  
 8.042042042042042E8     6.005518436431885E-1  -3.026022911071777E-1  -3.525313735008240E-2  -2.909494936466217E-1  -3.477820754051209E-2  -2.909327447414398E-1   4.078761935234070E-1  -2.282477617263794E-1  
 8.066066066066066E8     5.820113420486450E-1  -3.197848796844482E-1  -5.627505853772163E-2  -2.938855886459351E-1  -5.594635754823685E-2  -2.941440343856812E-1   3.809737861156464E-1  -2.325067967176437E-1  
 8.090090090090090E8     5.620661973953247E-1  -3.372700512409210E-1  -7.668301463127136E-2  -2.951661348342896E-1  -7.644839584827423E-2  -2.955283224582672E-1   3.514724075794220E-1  -2.334610372781754E-1  
 8.114114114114114E8     5.394524931907654E-1  -3.542875349521637E-1  -9.720747172832489E-2  -2.959598600864410E-1  -9.690423309803009E-2  -2.962717115879059E-1   3.216979801654816E-1  -2.305047065019608E-1  
 8.138138138138138E8     5.147730708122253E-1  -3.688101768493652E-1  -1.184249147772789E-1  -2.964355945587158E-1  -1.180152073502541E-1  -2.966918647289276E-1   2.923319041728973E-1  -2.237391173839569E-1  
 8.162162162162162E8     4.898806214332581E-1  -3.807921111583710E-1  -1.414264738559723E-1  -2.958683073520660E-1  -1.409937739372253E-1  -2.958828806877136E-1   2.657236456871033E-1  -2.147969752550125E-1  
 8.186186186186186E8     4.641291499137878E-1  -3.902913033962250E-1  -1.657290458679199E-1  -2.932122647762299E-1  -1.650521904230118E-1  -2.932465076446533E-1   2.395377904176712E-1  -2.045757323503494E-1  
 8.210210210210210E8     4.366578161716461E-1  -3.972674310207367E-1  -1.909958273172379E-1  -2.875939011573792E-1  -1.903744935989380E-1  -2.877109348773956E-1   2.129307836294174E-1  -1.917726248502731E-1  
 8.234234234234234E8     4.091683030128479E-1  -4.020478129386902E-1  -2.166605889797211E-1  -2.785754799842835E-1  -2.159356027841568E-1  -2.787565290927887E-1   1.869212388992310E-1  -1.766515076160431E-1  
