#  HZ   S   RI   R     50.00 
! Rohde & Schwarz ZVB8 2Ports - Version 2.81 - 1145.1010k08 SN: 100113
! Date: 2016-05-17 22:37:32
! Measurements: S11 S21 S12 S22 
! 
 6.000000000000000E8    -7.837163209915161E-1   5.089655518531799E-1  -1.193219562992454E-3  -2.146161859855056E-3  -1.220949809066951E-3  -2.123628277331591E-3  -9.394114017486572E-1   2.514806687831879E-1  
 6.024024024024024E8    -7.743893861770630E-1   5.197407603263855E-1  -1.225523534230888E-3  -2.176195150241256E-3  -1.169091789051890E-3  -2.106071915477514E-3  -9.358549714088440E-1   2.624275088310242E-1  
 6.048048048048048E8    -7.644841074943543E-1   5.310171842575073E-1  -1.172805088572204E-3  -2.222581533715129E-3  -1.150914467871189E-3  -2.189220162108541E-3  -9.321552515029907E-1   2.734600901603699E-1  
 6.072072072072072E8    -7.537217736244202E-1   5.431881546974182E-1  -1.189665286801755E-3  -2.275987062603235E-3  -1.218731631524861E-3  -2.281796187162399E-3  -9.285501241683960E-1   2.838672995567322E-1  
 6.096096096096096E8    -7.420708537101746E-1   5.552250146865845E-1  -1.157984021119773E-3  -2.361005404964089E-3  -1.123603433370590E-3  -2.308371942490339E-3  -9.248067736625671E-1   2.941760718822479E-1  
 6.120120120120120E8    -7.329152226448059E-1   5.647962093353272E-1  -1.126669696532190E-3  -2.461308846250176E-3  -1.106020528823137E-3  -2.414249815046787E-3  -9.214829802513123E-1   3.025719225406647E-1  
 6.144144144144144E8    -7.221386432647705E-1   5.753669142723084E-1  -1.054165069945157E-3  -2.668555360287428E-3  -1.047213445417583E-3  -2.699950477108359E-3  -9.179708957672119E-1   3.126687407493591E-1  
 6.168168168168168E8    -7.109151482582092E-1   5.855100750923157E-1  -9.530579554848373E-4  -2.885358175262809E-3  -9.072900284081698E-4  -2.863561268895865E-3  -9.144564270973206E-1   3.225754499435425E-1  
 6.192192192192192E8    -6.992368102073669E-1   5.954648256301880E-1  -8.738121250644326E-4  -3.261260455474258E-3  -8.751720306463540E-4  -3.206164110451937E-3  -9.103329181671143E-1   3.327212333679199E-1  
 6.216216216216216E8    -6.874412894248962E-1   6.051958203315735E-1  -8.345094975084066E-4  -3.560011275112629E-3  -7.607219740748406E-4  -3.556165378540754E-3  -9.060845971107483E-1   3.429831564426422E-1  
 6.240240240240240E8    -6.753019690513611E-1   6.140893697738648E-1  -7.962447707541287E-4  -4.135396797209978E-3  -7.396216969937086E-4  -4.161730874329805E-3  -9.013137221336365E-1   3.529938757419586E-1  
 6.264264264264264E8    -6.640059947967529E-1   6.225020289421082E-1  -9.061609162017703E-4  -4.893301986157894E-3  -8.950143819674850E-4  -4.856033250689507E-3  -8.965886831283569E-1   3.648492693901062E-1  
 6.288288288288288E8    -6.529138088226318E-1   6.306405663490295E-1  -1.219387515448034E-3  -5.619193892925978E-3  -1.206427928991616E-3  -5.666699726134539E-3  -8.918910622596741E-1   3.752870857715607E-1  
 6.312312312312312E8    -6.426220536231995E-1   6.387580633163452E-1  -1.841189689002931E-3  -6.432060152292252E-3  -1.833585673011839E-3  -6.432431749999523E-3  -8.870769739151001E-1   3.849391043186188E-1  
 6.336336336336336E8    -6.328842639923096E-1   6.473977565765381E-1  -2.606597729027271E-3  -7.078417576849461E-3  -2.587868832051754E-3  -7.078352384269238E-3  -8.826276063919067E-1   3.937847316265106E-1  
 6.360360360360360E8    -6.226631999015808E-1   6.570670008659363E-1  -3.618235467001796E-3  -7.511750794947147E-3  -3.655429696664214E-3  -7.617791648954153E-3  -8.779550194740295E-1   4.016890227794647E-1  
 6.384384384384384E8    -6.111652851104736E-1   6.668507456779480E-1  -4.788846243172884E-3  -7.843630388379097E-3  -4.727258346974850E-3  -7.836359553039074E-3  -8.736929893493652E-1   4.113421440124512E-1  
 6.408408408408408E8    -5.990813374519348E-1   6.767829060554504E-1  -5.880546756088734E-3  -7.877445779740810E-3  -5.829641129821539E-3  -7.983736693859100E-3  -8.687846064567566E-1   4.207611978054047E-1  
 6.432432432432432E8    -5.858296155929565E-1   6.869606375694275E-1  -6.913155782967806E-3  -7.731246296316385E-3  -6.836349610239267E-3  -7.837944664061070E-3  -8.636563420295715E-1   4.298982024192810E-1  
 6.456456456456456E8    -5.719279050827026E-1   6.964282989501953E-1  -7.936286740005016E-3  -7.569941226392984E-3  -7.894319482147694E-3  -7.549564819782972E-3  -8.582322001457214E-1   4.387363195419312E-1  
 6.480480480480480E8    -5.567016005516052E-1   7.052260041236877E-1  -8.810709230601788E-3  -7.200663909316063E-3  -8.767171762883663E-3  -7.207232061773539E-3  -8.528361320495606E-1   4.477059841156006E-1  
 6.504504504504504E8    -5.398424863815308E-1   7.148718833923340E-1  -9.597206488251686E-3  -6.830736994743347E-3  -9.535982273519039E-3  -6.861998233944178E-3  -8.433772325515747E-1   4.576030075550079E-1  
 6.528528528528528E8    -5.226900577545166E-1   7.237908244132996E-1  -1.032876223325729E-2  -6.443819496780634E-3  -1.024155039340258E-2  -6.388808600604534E-3  -8.350505828857422E-1   4.691740870475769E-1  
 6.552552552552552E8    -5.050623416900635E-1   7.315033078193665E-1  -1.103344094008207E-2  -6.099213846027851E-3  -1.098455395549536E-2  -6.197736132889986E-3  -8.292796015739441E-1   4.811019301414490E-1  
 6.576576576576576E8    -4.871504902839661E-1   7.383100986480713E-1  -1.175026502460241E-2  -5.777952726930380E-3  -1.167092192918062E-2  -5.813914816826582E-3  -8.260056972503662E-1   4.905381202697754E-1  
 6.600600600600600E8    -4.668145477771759E-1   7.447082400321960E-1  -1.261079683899880E-2  -5.403845570981503E-3  -1.252048276364803E-2  -5.420073866844177E-3  -8.218345046043396E-1   4.967465996742249E-1  
 6.624624624624624E8    -4.477794468402863E-1   7.506694793701172E-1  -1.334021240472794E-2  -4.977047909051180E-3  -1.323492359369993E-2  -4.970916546881199E-3  -8.148956894874573E-1   5.065764188766480E-1  
 6.648648648648648E8    -4.284643828868866E-1   7.560852169990540E-1  -1.409406866878271E-2  -4.439941141754389E-3  -1.403632946312428E-2  -4.534821026027203E-3  -8.079909682273865E-1   5.159808993339539E-1  
 6.672672672672672E8    -4.082009196281433E-1   7.602925300598145E-1  -1.490974146872759E-2  -4.007837269455195E-3  -1.484275329858065E-2  -4.105832427740097E-3  -8.012178540229797E-1   5.253367424011231E-1  
 6.696696696696696E8    -3.870466649532318E-1   7.636903524398804E-1  -1.570000313222408E-2  -3.467708127573133E-3  -1.557049341499806E-2  -3.470001509413123E-3  -7.942712306976318E-1   5.343301296234131E-1  
 6.720720720720720E8    -3.648062050342560E-1   7.661616802215576E-1  -1.647550053894520E-2  -2.894297474995256E-3  -1.647076755762100E-2  -3.028394887223840E-3  -7.874913811683655E-1   5.429242849349976E-1  
 6.744744744744744E8    -3.420901000499725E-1   7.678000926971436E-1  -1.732715964317322E-2  -2.304431516677141E-3  -1.733617298305035E-2  -2.264529466629028E-3  -7.792761921882629E-1   5.530902743339539E-1  
 6.768768768768768E8    -3.190101087093353E-1   7.683998346328735E-1  -1.812599040567875E-2  -1.548947300761938E-3  -1.816557534039021E-2  -1.554145826958120E-3  -7.709876298904419E-1   5.625871419906616E-1  
 6.792792792792792E8    -2.955748736858368E-1   7.673945426940918E-1  -1.890744827687740E-2  -6.942345644347370E-4  -1.893776841461659E-2  -7.632538327015936E-4  -7.626491785049439E-1   5.717854499816895E-1  
 6.816816816816816E8    -2.706522643566132E-1   7.646307349205017E-1  -1.971674151718617E-2   4.903491935692728E-5  -1.979045011103153E-2   9.719193622004241E-5  -7.542083859443665E-1   5.813385248184204E-1  
 6.840840840840840E8    -2.453118860721588E-1   7.599961161613464E-1  -2.057537436485291E-2   1.001394353806973E-3  -2.060589753091335E-2   9.705331758596003E-4  -7.455677986145020E-1   5.906454324722290E-1  
 6.864864864864864E8    -2.198216170072556E-1   7.541728615760803E-1  -2.142462134361267E-2   2.063892781734467E-3  -2.138072997331619E-2   1.891347463242710E-3  -7.361609339714050E-1   5.996894836425781E-1  
 6.888888888888888E8    -1.942844241857529E-1   7.468228936195374E-1  -2.242720685899258E-2   3.171273740008473E-3  -2.232683077454567E-2   2.929301233962178E-3  -7.263945937156677E-1   6.094014644622803E-1  
 6.912912912912912E8    -1.690078377723694E-1   7.374092340469360E-1  -2.331651188433170E-2   4.504649434238672E-3  -2.327259443700314E-2   4.244199488312006E-3  -7.163506746292114E-1   6.191546320915222E-1  
 6.936936936936936E8    -1.441533565521240E-1   7.260435223579407E-1  -2.408635988831520E-2   6.052070297300816E-3  -2.405760809779167E-2   5.765737965703011E-3  -7.067050337791443E-1   6.287156939506531E-1  
 6.960960960960960E8    -1.197621151804924E-1   7.132644057273865E-1  -2.468668483197689E-2   7.455052807927132E-3  -2.456915192306042E-2   7.352911867201328E-3  -6.966173648834229E-1   6.384317874908447E-1  
 6.984984984984984E8    -9.765110909938812E-2   6.983005404472351E-1  -2.522118389606476E-2   8.682115934789181E-3  -2.512122318148613E-2   9.040496312081814E-3  -6.834810972213745E-1   6.506989598274231E-1  
 7.009009009009008E8    -7.587303966283798E-2   6.795567274093628E-1  -2.560294419527054E-2   1.017246022820473E-2  -2.541165798902512E-2   1.076503284275532E-2  -6.706119179725647E-1   6.615330576896668E-1  
 7.033033033033032E8    -5.477185547351837E-2   6.583393812179565E-1  -2.584931626915932E-2   1.158992573618889E-2  -2.573039196431637E-2   1.207800768315792E-2  -6.592375040054321E-1   6.697196960449219E-1  
 7.057057057057056E8    -3.539437428116798E-2   6.339251399040222E-1  -2.622377499938011E-2   1.299902889877558E-2  -2.604442648589611E-2   1.298158615827560E-2  -6.505522727966309E-1   6.754079461097717E-1  
 7.081081081081080E8    -1.713746227324009E-2   6.072410345077515E-1  -2.657108195126057E-2   1.436744537204504E-2  -2.661810629069805E-2   1.419093925505877E-2  -6.410036683082581E-1   6.817899346351624E-1  
 7.105105105105104E8    -2.571355784311891E-3   5.788026452064514E-1  -2.696029283106327E-2   1.582900620996952E-2  -2.720208466053009E-2   1.523109432309866E-2  -6.302946805953980E-1   6.891741156578064E-1  
 7.129129129129129E8     6.033309735357761E-3   5.488727688789368E-1  -2.752873860299587E-2   1.690309308469296E-2  -2.787597291171551E-2   1.628988236188889E-2  -6.177433729171753E-1   6.971966624259949E-1  
 7.153153153153153E8     8.786507882177830E-3   5.206941962242127E-1  -2.846050262451172E-2   1.766601577401161E-2  -2.862861007452011E-2   1.738108508288860E-2  -6.033251285552979E-1   7.059587240219116E-1  
 7.177177177177178E8     8.078752085566521E-3   4.940657913684845E-1  -2.996297553181648E-2   1.832609064877033E-2  -3.001049533486366E-2   1.827892847359181E-2  -5.876608490943909E-1   7.149311900138855E-1  
 7.201201201201202E8     5.737801082432270E-3   4.694787263870239E-1  -3.226384893059731E-2   1.915550418198109E-2  -3.239213675260544E-2   1.919575408101082E-2  -5.715185999870300E-1   7.226545810699463E-1  
 7.225225225225226E8     1.820479519665241E-3   4.482415020465851E-1  -3.606680780649185E-2   2.065900340676308E-2  -3.607176989316940E-2   2.056613937020302E-2  -5.541064739227295E-1   7.303901314735413E-1  
 7.249249249249250E8    -1.636007218621671E-4   4.299259185791016E-1  -4.100589826703072E-2   2.426847256720066E-2  -4.128938540816307E-2   2.367372252047062E-2  -5.388514995574951E-1   7.348126769065857E-1  
 7.273273273273274E8     6.810610648244619E-4   4.110326468944550E-1  -4.602079838514328E-2   3.087823651731014E-2  -4.662844538688660E-2   2.977976016700268E-2  -5.238862037658691E-1   7.380239367485046E-1  
 7.297297297297298E8     3.063736716285348E-3   3.889920711517334E-1  -4.972839727997780E-2   3.985602781176567E-2  -5.044792219996452E-2   3.901515528559685E-2  -5.092291235923767E-1   7.412858605384827E-1  
 7.321321321321322E8     3.238547826185823E-3   3.618050515651703E-1  -5.126629769802094E-2   5.066673457622528E-2  -5.135050043463707E-2   5.067665129899979E-2  -4.947365224361420E-1   7.444634437561035E-1  
 7.345345345345346E8    -1.601236057467759E-3   3.328444957733154E-1  -4.898811876773834E-2   6.223098933696747E-2  -4.863699525594711E-2   6.263238191604614E-2  -4.813909828662872E-1   7.481648325920105E-1  
 7.369369369369370E8    -1.288641616702080E-2   3.022891283035278E-1  -4.381918162107468E-2   7.279112935066223E-2  -4.303718730807304E-2   7.327664643526077E-2  -4.681611657142639E-1   7.530236244201660E-1  
 7.393393393393394E8    -3.071888722479343E-2   2.715580165386200E-1  -3.652501478791237E-2   8.232980966567993E-2  -3.578124195337296E-2   8.265668898820877E-2  -4.547474980354309E-1   7.583391070365906E-1  
 7.417417417417418E8    -5.227222666144371E-2   2.464037686586380E-1  -2.754202298820019E-2   9.006641805171967E-2  -2.688579447567463E-2   9.024467319250107E-2  -4.411593973636627E-1   7.636647224426270E-1  
 7.441441441441442E8    -7.659304141998291E-2   2.236988842487335E-1  -1.758171431720257E-2   9.618897736072540E-2  -1.766788400709629E-2   9.612462669610977E-2  -4.274668693542481E-1   7.685290575027466E-1  
 7.465465465465466E8    -1.065008193254471E-1   2.047274261713028E-1  -7.314933929592371E-3   1.006102189421654E-1  -7.692809682339430E-3   1.005934402346611E-1  -4.102481007575989E-1   7.748122811317444E-1  
 7.489489489489490E8    -1.396438181400299E-1   1.904063224792481E-1   3.170224139466882E-3   1.035056039690971E-1   2.440643962472677E-3   1.036334186792374E-1  -3.945361077785492E-1   7.800368070602417E-1  
 7.513513513513514E8    -1.740843951702118E-1   1.813607662916184E-1   1.381464861333370E-2   1.047903448343277E-1   1.272405590862036E-2   1.052362248301506E-1  -3.779486417770386E-1   7.849333882331848E-1  
 7.537537537537538E8    -2.076527029275894E-1   1.778096556663513E-1   2.421170473098755E-2   1.052848696708679E-1   2.306027710437775E-2   1.060618981719017E-1  -3.593060970306397E-1   7.896791696548462E-1  
 7.561561561561562E8    -2.392363399267197E-1   1.795437783002853E-1   3.444226831197739E-2   1.050891876220703E-1   3.375992178916931E-2   1.055627763271332E-1  -3.389127552509308E-1   7.926126122474670E-1  
 7.585585585585586E8    -2.687200307846069E-1   1.873109340667725E-1   4.463035613298416E-2   1.034290567040443E-1   4.425277933478355E-2   1.034797355532646E-1  -3.159292936325073E-1   7.973185777664185E-1  
 7.609609609609610E8    -2.946990132331848E-1   1.964619904756546E-1   5.412394553422928E-2   1.009816974401474E-1   5.386251211166382E-2   1.006338819861412E-1  -2.932960391044617E-1   8.007348775863648E-1  
 7.633633633633634E8    -3.194934129714966E-1   2.064066380262375E-1   6.340409070253372E-2   9.809397161006928E-2   6.301812827587128E-2   9.736687690019608E-2  -2.711922228336334E-1   8.027374744415283E-1  
 7.657657657657658E8    -3.461430668830872E-1   2.194444239139557E-1   7.256308197975159E-2   9.412320703268051E-2   7.205736637115479E-2   9.362377226352692E-2  -2.497602105140686E-1   8.034539222717285E-1  
 7.681681681681682E8    -3.722629547119141E-1   2.374395579099655E-1   8.118293434381485E-2   8.948335796594620E-2   8.071056753396988E-2   8.986283838748932E-2  -2.282896637916565E-1   8.028824329376221E-1  
 7.705705705705706E8    -3.936236500740051E-1   2.609892785549164E-1   8.934648334980011E-2   8.398262411355972E-2   8.879457414150238E-2   8.496391773223877E-2  -2.056473940610886E-1   8.011703491210938E-1  
 7.729729729729730E8    -4.080317020416260E-1   2.862477898597717E-1   9.693007171154022E-2   7.760699093341827E-2   9.668562561273575E-2   7.920968532562256E-2  -1.800335943698883E-1   8.004701137542725E-1  
 7.753753753753754E8    -4.173555672168732E-1   3.091612160205841E-1   1.039626598358154E-1   7.126371562480927E-2   1.041497364640236E-1   7.293335348367691E-2  -1.511082798242569E-1   7.976819276809692E-1  
 7.777777777777778E8    -4.236903190612793E-1   3.310350179672241E-1   1.111777424812317E-1   6.449627131223679E-2   1.110447794198990E-1   6.584300100803375E-2  -1.197998672723770E-1   7.906928658485413E-1  
 7.801801801801802E8    -4.268308877944946E-1   3.510092496871948E-1   1.181758418679237E-1   5.691764876246452E-2   1.175754070281982E-1   5.782572180032730E-2  -8.725184202194214E-2   7.792007923126221E-1  
 7.825825825825826E8    -4.257306754589081E-1   3.696219325065613E-1   1.240221634507179E-1   4.839882627129555E-2   1.238658279180527E-1   4.877870157361031E-2  -5.474724620580673E-2   7.679675221443176E-1  
 7.849849849849850E8    -4.252110123634338E-1   3.859356343746185E-1   1.290535777807236E-1   3.981669619679451E-2   1.286967545747757E-1   4.025177285075188E-2  -2.594735473394394E-2   7.538344860076904E-1  
 7.873873873873874E8    -4.257490038871765E-1   4.003172814846039E-1   1.341458857059479E-1   3.172662854194641E-2   1.331957280635834E-1   3.209514543414116E-2   2.534663770347834E-3   7.385765910148621E-1  
 7.897897897897898E8    -4.282115399837494E-1   4.157874286174774E-1   1.399833858013153E-1   2.293539606034756E-2   1.391866654157639E-1   2.324136719107628E-2   3.215622529387474E-2   7.224517464637756E-1  
 7.921921921921922E8    -4.285040497779846E-1   4.347482621669769E-1   1.455973386764526E-1   1.170801836997271E-2   1.453270763158798E-1   1.229163631796837E-2   6.238638609647751E-2   7.047744989395142E-1  
 7.945945945945946E8    -4.280472993850708E-1   4.531536102294922E-1   1.493096947669983E-1  -1.169006922282279E-3   1.493050605058670E-1   2.002665714826435E-4   9.313507378101349E-2   6.812705397605896E-1  
 7.969969969969970E8    -4.245706200599670E-1   4.695113897323608E-1   1.512757241725922E-1  -1.441951841115952E-2   1.514605134725571E-1  -1.266397722065449E-2   1.238266229629517E-1   6.541988849639893E-1  
 7.993993993993994E8    -4.196858108043671E-1   4.837697744369507E-1   1.515249460935593E-1  -2.766456454992294E-2   1.519607454538345E-1  -2.637998200953007E-2   1.544484943151474E-1   6.222802400588989E-1  
 8.018018018018018E8    -4.150392115116119E-1   4.954789876937866E-1   1.502411216497421E-1  -4.046054929494858E-2   1.506449729204178E-1  -3.978627175092697E-2   1.831765472888947E-1   5.854522585868835E-1  
 8.042042042042042E8    -4.110199511051178E-1   5.072018504142761E-1   1.488768011331558E-1  -5.281486734747887E-2   1.487828344106674E-1  -5.224207788705826E-2   2.084003984928131E-1   5.441399216651917E-1  
 8.066066066066066E8    -4.052163064479828E-1   5.188279151916504E-1   1.466715037822723E-1  -6.574227660894394E-2   1.464538574218750E-1  -6.561905890703201E-2   2.311103790998459E-1   4.988287091255188E-1  
 8.090090090090090E8    -4.000850915908814E-1   5.307187438011169E-1   1.425550729036331E-1  -7.927514612674713E-2   1.427251696586609E-1  -7.925167679786682E-2   2.487658709287643E-1   4.500484764575958E-1  
 8.114114114114114E8    -3.948546648025513E-1   5.415989160537720E-1   1.369652003049851E-1  -9.327748417854309E-2   1.370828747749329E-1  -9.342372417449951E-2   2.610555589199066E-1   3.979356586933136E-1  
 8.138138138138138E8    -3.898196220397949E-1   5.505778193473816E-1   1.287488937377930E-1  -1.067408099770546E-1   1.292075365781784E-1  -1.071091890335083E-1   2.676160931587219E-1   3.437962532043457E-1  
 8.162162162162162E8    -3.868718445301056E-1   5.593636631965637E-1   1.187683492898941E-1  -1.188395023345947E-1   1.191382482647896E-1  -1.191247552633286E-1   2.693628668785095E-1   2.882983386516571E-1  
 8.186186186186186E8    -3.850315213203430E-1   5.699527859687805E-1   1.079090237617493E-1  -1.292969584465027E-1   1.082164719700813E-1  -1.298865377902985E-1   2.653768658638001E-1   2.302078157663345E-1  
 8.210210210210210E8    -3.809855282306671E-1   5.794269442558289E-1   9.496316313743591E-2  -1.395205557346344E-1   9.533489495515823E-2  -1.392903774976730E-1   2.539080977439880E-1   1.746867895126343E-1  
 8.234234234234234E8    -3.778237104415894E-1   5.882356166839600E-1   8.051782846450806E-2  -1.467709243297577E-1   8.072119206190109E-2  -1.464806497097015E-1   2.349080294370651E-1   1.179811954498291E-1  
