#  HZ   S   RI   R     50.00 
! Rohde & Schwarz ZVB8 2Ports - Version 2.81 - 1145.1010k08 SN: 100113
! Date: 2016-05-17 22:36:56
! Measurements: S11 S21 S12 S22 
! 
 6.000000000000000E8    -8.127050399780273E-1   4.832874536514282E-1  -5.951583734713495E-4  -1.345351687632501E-3  -6.547568482346833E-4  -1.407159958034754E-3  -9.471286535263062E-1   2.329480797052383E-1  
 6.024024024024024E8    -8.051143288612366E-1   4.934603273868561E-1  -6.470046355389059E-4  -1.367927412502468E-3  -6.164115038700402E-4  -1.409811433404684E-3  -9.440633058547974E-1   2.434470802545548E-1  
 6.048048048048048E8    -7.972143888473511E-1   5.045542716979981E-1  -6.245225085876882E-4  -1.373586710542440E-3  -5.564214079640806E-4  -1.449942472390831E-3  -9.409614205360413E-1   2.539390921592712E-1  
 6.072072072072072E8    -7.882735729217529E-1   5.162432789802551E-1  -5.875974893569946E-4  -1.453626784496009E-3  -4.930879804305732E-4  -1.418062369339168E-3  -9.378465414047241E-1   2.636641860008240E-1  
 6.096096096096096E8    -7.794012427330017E-1   5.283973217010498E-1  -5.782801890745759E-4  -1.502604922279716E-3  -5.425561103038490E-4  -1.425058580935001E-3  -9.343101382255554E-1   2.739055752754211E-1  
 6.120120120120120E8    -7.718176245689392E-1   5.376973152160645E-1  -4.663658328354359E-4  -1.569506595842540E-3  -4.897852195426822E-4  -1.648571458645165E-3  -9.316656589508057E-1   2.816699445247650E-1  
 6.144144144144144E8    -7.638693451881409E-1   5.478724241256714E-1  -4.635728837456554E-4  -1.574526773765683E-3  -4.717130213975906E-4  -1.582865603268147E-3  -9.290460348129273E-1   2.910813391208649E-1  
 6.168168168168168E8    -7.550515532493591E-1   5.582879781723023E-1  -3.254667681176215E-4  -1.721202163025737E-3  -2.790986618492752E-4  -1.752180280163884E-3  -9.258888959884644E-1   3.009943664073944E-1  
 6.192192192192192E8    -7.462963461875916E-1   5.687139630317688E-1  -2.110799250658602E-4  -1.891744439490140E-3  -2.287357056047767E-4  -1.866074861027300E-3  -9.224631190299988E-1   3.103860318660736E-1  
 6.216216216216216E8    -7.371093034744263E-1   5.787310004234314E-1  -9.213721932610497E-5  -2.115150215104222E-3  -5.868595690117218E-5  -2.129407133907080E-3  -9.190002083778381E-1   3.200110793113709E-1  
 6.240240240240240E8    -7.272348999977112E-1   5.883790254592896E-1  -9.873593626252841E-6  -2.502329414710403E-3   1.861854616436176E-5  -2.474840963259339E-3  -9.148828983306885E-1   3.293497562408447E-1  
 6.264264264264264E8    -7.181212902069092E-1   5.979949831962585E-1   2.199509981437586E-5  -2.894296543672681E-3   7.155247203627368E-6  -2.871837001293898E-3  -9.109178781509399E-1   3.405968844890595E-1  
 6.288288288288288E8    -7.091841697692871E-1   6.069358587265015E-1  -9.882458834908903E-5  -3.452497534453869E-3  -1.505750697106123E-4  -3.412220627069473E-3  -9.070181846618652E-1   3.506695032119751E-1  
 6.312312312312312E8    -7.007303237915039E-1   6.156506538391113E-1  -3.889876534231007E-4  -3.846919164061546E-3  -3.971237165387720E-4  -3.832755843177438E-3  -9.030060768127441E-1   3.595343530178070E-1  
 6.336336336336336E8    -6.931557655334473E-1   6.245755553245544E-1  -8.025387651287019E-4  -4.291533958166838E-3  -8.696604054421186E-4  -4.384637344628573E-3  -8.992154002189636E-1   3.680383563041687E-1  
 6.360360360360360E8    -6.847708821296692E-1   6.336809396743774E-1  -1.290000975131989E-3  -4.666998982429504E-3  -1.273344038054347E-3  -4.707515239715576E-3  -8.956867456436157E-1   3.752756714820862E-1  
 6.384384384384384E8    -6.759439706802368E-1   6.430183053016663E-1  -1.916859997436404E-3  -4.852001555263996E-3  -1.862199162133038E-3  -4.882285371422768E-3  -8.923867940902710E-1   3.842674195766449E-1  
 6.408408408408408E8    -6.668974161148071E-1   6.524618864059448E-1  -2.490203827619553E-3  -5.028464365750551E-3  -2.438300522044301E-3  -5.053929984569550E-3  -8.880223631858826E-1   3.931141495704651E-1  
 6.432432432432432E8    -6.569284796714783E-1   6.618529558181763E-1  -3.021614393219352E-3  -4.982684273272753E-3  -3.047043224796653E-3  -4.983601626008749E-3  -8.841296434402466E-1   4.017364978790283E-1  
 6.456456456456456E8    -6.467389464378357E-1   6.708608865737915E-1  -3.535176627337933E-3  -4.878800828009844E-3  -3.574345260858536E-3  -4.885463509708643E-3  -8.797400593757629E-1   4.097715616226196E-1  
 6.480480480480480E8    -6.363452076911926E-1   6.794821023941040E-1  -4.009849857538939E-3  -4.736749455332756E-3  -3.962037153542042E-3  -4.728337749838829E-3  -8.751561641693115E-1   4.180788695812225E-1  
 6.504504504504504E8    -6.247743964195252E-1   6.895435452461243E-1  -4.331817384809256E-3  -4.581812303513289E-3  -4.366088192909956E-3  -4.585374612361193E-3  -8.669638633728027E-1   4.270472228527069E-1  
 6.528528528528528E8    -6.133025288581848E-1   6.991149187088013E-1  -4.691529553383589E-3  -4.402978811413050E-3  -4.696582909673452E-3  -4.408282693475485E-3  -8.597233891487122E-1   4.383448064327240E-1  
 6.552552552552552E8    -6.014712452888489E-1   7.078335881233215E-1  -5.011256784200668E-3  -4.279412329196930E-3  -4.995956085622311E-3  -4.301628097891808E-3  -8.553024530410767E-1   4.495010375976563E-1  
 6.576576576576576E8    -5.890451073646545E-1   7.160206437110901E-1  -5.268049426376820E-3  -4.169071093201637E-3  -5.331820808351040E-3  -4.206560552120209E-3  -8.532438278198242E-1   4.579622149467468E-1  
 6.600600600600600E8    -5.754437446594238E-1   7.241708636283875E-1  -5.614466499537230E-3  -4.106116481125355E-3  -5.635127890855074E-3  -4.082116298377514E-3  -8.504456281661987E-1   4.634811878204346E-1  
 6.624624624624624E8    -5.628847479820252E-1   7.325516939163208E-1  -5.984622519463301E-3  -3.976154606789351E-3  -5.995415616780520E-3  -3.947258926928043E-3  -8.450426459312439E-1   4.724463820457459E-1  
 6.648648648648648E8    -5.504400134086609E-1   7.405077815055847E-1  -6.323285866528750E-3  -3.791229100897908E-3  -6.270254962146282E-3  -3.850077278912067E-3  -8.395914435386658E-1   4.811268150806427E-1  
 6.672672672672672E8    -5.377671122550964E-1   7.480924725532532E-1  -6.645268760621548E-3  -3.676215186715126E-3  -6.567026954144239E-3  -3.702389309182763E-3  -8.340898752212524E-1   4.895789921283722E-1  
 6.696696696696696E8    -5.242710113525391E-1   7.553229928016663E-1  -6.967900320887566E-3  -3.537335200235248E-3  -6.996069103479385E-3  -3.506143111735582E-3  -8.289920687675476E-1   4.976757466793060E-1  
 6.720720720720720E8    -5.099400281906128E-1   7.626634836196899E-1  -7.317407522350550E-3  -3.359613008797169E-3  -7.347101345658302E-3  -3.325752681121230E-3  -8.239581584930420E-1   5.054647922515869E-1  
 6.744744744744744E8    -4.953691363334656E-1   7.692463397979736E-1  -7.652142550796270E-3  -3.080032067373395E-3  -7.647783029824495E-3  -3.143214154988527E-3  -8.176392316818237E-1   5.147427916526794E-1  
 6.768768768768768E8    -4.806041419506073E-1   7.758340835571289E-1  -7.849994115531445E-3  -2.926604123786092E-3  -7.874732837080956E-3  -2.936231438070536E-3  -8.113794326782227E-1   5.231528282165527E-1  
 6.792792792792792E8    -4.654574394226074E-1   7.816696166992188E-1  -8.215746842324734E-3  -2.718897070735693E-3  -8.151426911354065E-3  -2.748878905549645E-3  -8.052564263343811E-1   5.318263173103333E-1  
 6.816816816816816E8    -4.499368369579315E-1   7.872363328933716E-1  -8.472587913274765E-3  -2.525379182770848E-3  -8.426963351666927E-3  -2.588979201391339E-3  -7.989175915718079E-1   5.402998328208923E-1  
 6.840840840840840E8    -4.338409602642059E-1   7.921947836875916E-1  -8.765104226768017E-3  -2.337041776627302E-3  -8.678247220814228E-3  -2.379625337198377E-3  -7.925484776496887E-1   5.490815043449402E-1  
 6.864864864864864E8    -4.175271689891815E-1   7.977111339569092E-1  -9.018790908157826E-3  -2.106841187924147E-3  -8.969301357865334E-3  -2.224044408649206E-3  -7.856579422950745E-1   5.574957728385925E-1  
 6.888888888888888E8    -4.011531174182892E-1   8.027833104133606E-1  -9.289010427892208E-3  -1.996839419007301E-3  -9.262590669095516E-3  -2.090166090056300E-3  -7.783857583999634E-1   5.662915706634522E-1  
 6.912912912912912E8    -3.849093317985535E-1   8.074229359626770E-1  -9.612975642085075E-3  -1.741999527439475E-3  -9.594447910785675E-3  -1.878590555861592E-3  -7.711307406425476E-1   5.751228928565979E-1  
 6.936936936936936E8    -3.686131238937378E-1   8.120509386062622E-1  -1.001284364610910E-2  -1.574883819557726E-3  -9.955749846994877E-3  -1.686488045379520E-3  -7.643262743949890E-1   5.838797688484192E-1  
 6.960960960960960E8    -3.514391481876373E-1   8.162135481834412E-1  -1.024312991648912E-2  -1.407791976816952E-3  -1.024996675550938E-2  -1.446429989300668E-3  -7.571556568145752E-1   5.931761860847473E-1  
 6.984984984984984E8    -3.347814083099365E-1   8.193834424018860E-1  -1.055460143834353E-2  -1.258932286873460E-3  -1.050661411136389E-2  -1.159863313660026E-3  -7.476307749748230E-1   6.046091914176941E-1  
 7.009009009009008E8    -3.179129660129547E-1   8.213244080543518E-1  -1.087029464542866E-2  -1.087463460862637E-3  -1.097012124955654E-2  -8.111957577057183E-4  -7.381933927536011E-1   6.152392029762268E-1  
 7.033033033033032E8    -3.003730177879334E-1   8.224056363105774E-1  -1.103215385228396E-2  -8.168885251507163E-4  -1.103415992110968E-2  -6.421146681532264E-4  -7.304520010948181E-1   6.229249835014343E-1  
 7.057057057057056E8    -2.826545536518097E-1   8.228080272674561E-1  -1.118238642811775E-2  -6.758198724128306E-4  -1.123454701155424E-2  -6.434800452552736E-4  -7.251502275466919E-1   6.279271245002747E-1  
 7.081081081081080E8    -2.627645432949066E-1   8.225361704826355E-1  -1.143311709165573E-2  -7.003994542174041E-4  -1.132688950747252E-2  -7.842059130780399E-4  -7.193467617034912E-1   6.330720186233521E-1  
 7.105105105105104E8    -2.434014230966568E-1   8.222925662994385E-1  -1.166823413223028E-2  -7.481442298740149E-4  -1.165406685322523E-2  -9.772381745278835E-4  -7.130496501922607E-1   6.397107839584351E-1  
 7.129129129129129E8    -2.256496101617813E-1   8.202497363090515E-1  -1.202239748090506E-2  -9.268299327231944E-4  -1.201050821691752E-2  -1.101045636460185E-3  -7.051637768745422E-1   6.472995281219482E-1  
 7.153153153153153E8    -2.092970609664917E-1   8.171095848083496E-1  -1.238505262881517E-2  -1.211178023368120E-3  -1.232187077403069E-2  -1.423105713911355E-3  -6.957349181175232E-1   6.559194326400757E-1  
 7.177177177177178E8    -1.935498714447022E-1   8.136640191078186E-1  -1.280767191201448E-2  -1.788244815543294E-3  -1.276934985071421E-2  -1.903546741232276E-3  -6.855396032333374E-1   6.650663614273071E-1  
 7.201201201201202E8    -1.768138110637665E-1   8.104161024093628E-1  -1.368214096873999E-2  -2.696259180083871E-3  -1.365144364535809E-2  -2.734678098931909E-3  -6.754916906356812E-1   6.735985875129700E-1  
 7.225225225225226E8    -1.623814404010773E-1   8.070786595344544E-1  -1.509196031838656E-2  -3.719147061929107E-3  -1.507166959345341E-2  -3.679262474179268E-3  -6.641418337821960E-1   6.827744841575623E-1  
 7.249249249249250E8    -1.474849283695221E-1   8.045713305473328E-1  -1.746989600360394E-2  -4.397560842335224E-3  -1.734888553619385E-2  -4.686507396399975E-3  -6.549265384674072E-1   6.890346407890320E-1  
 7.273273273273274E8    -1.324358433485031E-1   8.034257888793945E-1  -2.035960368812084E-2  -4.437145777046681E-3  -2.024727128446102E-2  -4.734985064715147E-3  -6.457778811454773E-1   6.948238611221314E-1  
 7.297297297297298E8    -1.165177822113037E-1   8.028822541236877E-1  -2.352764271199703E-2  -3.734765574336052E-3  -2.344262599945068E-2  -4.074412398040295E-3  -6.367154121398926E-1   7.008736133575440E-1  
 7.321321321321322E8    -1.000133529305458E-1   8.008782267570496E-1  -2.670719288289547E-2  -2.414512680843473E-3  -2.670031227171421E-2  -2.357879420742393E-3  -6.270876526832581E-1   7.074051499366760E-1  
 7.345345345345346E8    -8.158365637063980E-2   7.978475093841553E-1  -2.953262254595757E-2  -1.179506798507646E-4  -2.945378050208092E-2   1.033580847433768E-4  -6.180620789527893E-1   7.143337726593018E-1  
 7.369369369369370E8    -6.184876337647438E-2   7.931057810783386E-1  -3.179597109556198E-2   2.698755590245128E-3  -3.173649683594704E-2   3.011074615642428E-3  -6.084544658660889E-1   7.218934297561646E-1  
 7.393393393393394E8    -4.162416607141495E-2   7.864030003547669E-1  -3.365477174520493E-2   5.816886201500893E-3  -3.356352448463440E-2   6.085651926696301E-3  -5.988909006118774E-1   7.287989854812622E-1  
 7.417417417417418E8    -2.150242775678635E-2   7.777098417282105E-1  -3.497921302914619E-2   9.205930866301060E-3  -3.491364791989327E-2   9.336869232356548E-3  -5.898696184158325E-1   7.352831959724426E-1  
 7.441441441441442E8    -1.398560823872685E-3   7.672603130340576E-1  -3.584611043334007E-2   1.264067273586988E-2  -3.589520603418350E-2   1.258361246436834E-2  -5.809068679809570E-1   7.409269809722900E-1  
 7.465465465465466E8     1.538141909986734E-2   7.566561102867127E-1  -3.650858998298645E-2   1.600624062120915E-2  -3.662252426147461E-2   1.583247445523739E-2  -5.700317621231079E-1   7.483161687850952E-1  
 7.489489489489490E8     3.186573460698128E-2   7.445130348205566E-1  -3.686063364148140E-2   1.933617517352104E-2  -3.699849545955658E-2   1.914996840059757E-2  -5.606572628021240E-1   7.547758221626282E-1  
 7.513513513513514E8     4.939631372690201E-2   7.303981781005859E-1  -3.700314089655876E-2   2.277216129004955E-2  -3.721831738948822E-2   2.252367511391640E-2  -5.512551665306091E-1   7.610096335411072E-1  
 7.537537537537538E8     6.769038736820221E-2   7.143277525901794E-1  -3.693884983658791E-2   2.622862532734871E-2  -3.725299239158630E-2   2.607852406799793E-2  -5.404853820800781E-1   7.673134207725525E-1  
 7.561561561561562E8     8.492203056812286E-2   6.958659291267395E-1  -3.677648678421974E-2   2.985768578946590E-2  -3.689464181661606E-2   2.972047775983810E-2  -5.292446613311768E-1   7.721853852272034E-1  
 7.585585585585586E8     9.952335804700851E-2   6.775696873664856E-1  -3.624524548649788E-2   3.338387235999107E-2  -3.618638217449188E-2   3.320439159870148E-2  -5.156090855598450E-1   7.795901894569397E-1  
 7.609609609609610E8     1.119698584079742E-1   6.583456993103027E-1  -3.561725467443466E-2   3.691142052412033E-2  -3.546676412224770E-2   3.666044771671295E-2  -5.028932094573975E-1   7.867358326911926E-1  
 7.633633633633634E8     1.239384487271309E-1   6.387483477592468E-1  -3.490207344293594E-2   4.076020419597626E-2  -3.491038829088211E-2   4.036935791373253E-2  -4.913325309753418E-1   7.925689220428467E-1  
 7.657657657657658E8     1.357460767030716E-1   6.171756982803345E-1  -3.398691117763519E-2   4.484119638800621E-2  -3.412735834717751E-2   4.440772533416748E-2  -4.808409810066223E-1   7.975606918334961E-1  
 7.681681681681682E8     1.451490968465805E-1   5.931696891784668E-1  -3.271699696779251E-2   4.903038963675499E-2  -3.299717977643013E-2   4.890228435397148E-2  -4.719992876052856E-1   8.016200661659241E-1  
 7.705705705705706E8     1.488980799913406E-1   5.691231489181519E-1  -3.090770170092583E-2   5.361775681376457E-2  -3.142689168453217E-2   5.353734642267227E-2  -4.623232483863831E-1   8.054268956184387E-1  
 7.729729729729730E8     1.503578871488571E-1   5.447500348091126E-1  -2.817508392035961E-2   5.805481597781181E-2  -2.892028726637363E-2   5.824936926364899E-2  -4.518247842788696E-1   8.112739324569702E-1  
 7.753753753753754E8     1.488664746284485E-1   5.202811360359192E-1  -2.491137757897377E-2   6.246069446206093E-2  -2.568207122385502E-2   6.278686225414276E-2  -4.384967982769013E-1   8.177051544189453E-1  
 7.777777777777778E8     1.441562473773956E-1   4.972068369388580E-1  -2.106078900396824E-2   6.664269417524338E-2  -2.170865237712860E-2   6.681150197982788E-2  -4.223960936069489E-1   8.224129080772400E-1  
 7.801801801801802E8     1.376989483833313E-1   4.765228927135468E-1  -1.675339974462986E-2   7.038305699825287E-2  -1.721576973795891E-2   7.014229893684387E-2  -4.043619036674500E-1   8.241234421730042E-1  
 7.825825825825826E8     1.306654363870621E-1   4.579456150531769E-1  -1.213312242180109E-2   7.358136773109436E-2  -1.231531985104084E-2   7.351255416870117E-2  -3.874458372592926E-1   8.282307982444763E-1  
 7.849849849849850E8     1.224944293498993E-1   4.423795640468597E-1  -7.185244467109442E-3   7.649300992488861E-2  -7.533350028097630E-3   7.628316432237625E-2  -3.748318552970886E-1   8.294913172721863E-1  
 7.873873873873874E8     1.145007759332657E-1   4.299462437629700E-1  -2.244803356006742E-3   7.908890396356583E-2  -2.675323747098446E-3   7.870458066463471E-2  -3.631760776042938E-1   8.315203785896301E-1  
 7.897897897897898E8     1.098575145006180E-1   4.165675342082977E-1   2.623090753331780E-3   8.166221529245377E-2   2.238509710878134E-3   8.128678053617477E-2  -3.514568805694580E-1   8.357333540916443E-1  
 7.921921921921922E8     1.048261225223541E-1   4.008957147598267E-1   8.369083516299725E-3   8.433233201503754E-2   7.919910363852978E-3   8.443960547447205E-2  -3.395878076553345E-1   8.417534232139587E-1  
 7.945945945945946E8     9.536433219909668E-2   3.874797224998474E-1   1.511045452207327E-2   8.646876364946365E-2   1.426833216100931E-2   8.661389350891113E-2  -3.256799876689911E-1   8.441962003707886E-1  
 7.969969969969970E8     8.355416357517242E-2   3.744125962257385E-1   2.205500937998295E-2   8.765563368797302E-2   2.116387151181698E-2   8.797311782836914E-2  -3.113325536251068E-1   8.476095199584961E-1  
 7.993993993993994E8     7.015684247016907E-2   3.634201884269714E-1   2.910687401890755E-2   8.787344396114349E-2   2.856780216097832E-2   8.832897990942001E-2  -2.957271933555603E-1   8.509223461151123E-1  
 8.018018018018018E8     5.653361603617668E-2   3.541091680526733E-1   3.578738868236542E-2   8.722382038831711E-2   3.564281761646271E-2   8.752965927124023E-2  -2.794245183467865E-1   8.534486889839172E-1  
 8.042042042042042E8     4.245864972472191E-2   3.470497131347656E-1   4.218016937375069E-2   8.665501326322556E-2   4.214439168572426E-2   8.697623014450073E-2  -2.646177411079407E-1   8.551419973373413E-1  
 8.066066066066066E8     2.765296399593353E-2   3.434607982635498E-1   4.934277385473251E-2   8.552294224500656E-2   4.931572079658508E-2   8.586791902780533E-2  -2.475968450307846E-1   8.578807115554810E-1  
 8.090090090090090E8     1.424763165414333E-2   3.429031670093536E-1   5.642725527286530E-2   8.343738317489624E-2   5.639503896236420E-2   8.378238230943680E-2  -2.310249954462051E-1   8.593072295188904E-1  
 8.114114114114114E8     3.267392283305526E-3   3.449830710887909E-1   6.326975673437119E-2   8.067479729652405E-2   6.334752589464188E-2   8.095933496952057E-2  -2.144792675971985E-1   8.601814508438110E-1  
 8.138138138138138E8    -4.150081425905228E-3   3.468491137027741E-1   6.964720040559769E-2   7.721010595560074E-2   6.966629624366760E-2   7.746667414903641E-2  -1.984312385320664E-1   8.606457710266113E-1  
 8.162162162162162E8    -9.718546643853188E-3   3.465820252895355E-1   7.544274628162384E-2   7.348471879959106E-2   7.538601011037827E-2   7.376169413328171E-2  -1.816092580556870E-1   8.614069819450378E-1  
 8.186186186186186E8    -1.764198206365109E-2   3.453527688980103E-1   8.085745573043823E-2   6.975337117910385E-2   8.072658628225327E-2   7.003612816333771E-2  -1.637533009052277E-1   8.623977899551392E-1  
 8.210210210210210E8    -2.542042173445225E-2   3.458895087242127E-1   8.623454719781876E-2   6.550896167755127E-2   8.618233352899551E-2   6.588216871023178E-2  -1.451866179704666E-1   8.622261881828308E-1  
 8.234234234234234E8    -2.995912358164787E-2   3.455318510532379E-1   9.128618985414505E-2   6.079202517867088E-2   9.132789075374603E-2   6.112224608659744E-2  -1.259627193212509E-1   8.615595698356628E-1  
