#  HZ   S   RI   R     50.00 
! Rohde & Schwarz ZVB8 2Ports - Version 2.81 - 1145.1010k08 SN: 100113
! Date: 2016-05-17 22:38:16
! Measurements: S11 S21 S12 S22 
! 
 6.000000000000000E8    -7.840390801429749E-1   5.082607865333557E-1  -1.993067329749465E-3  -3.022377612069249E-3  -2.080352744087577E-3  -3.058685455471277E-3  -9.159472584724426E-1   2.966067492961884E-1  
 6.024024024024024E8    -7.745163440704346E-1   5.192306637763977E-1  -2.084651263430715E-3  -3.122353693470359E-3  -2.074744319543243E-3  -3.100800793617964E-3  -9.106405377388001E-1   3.091482818126679E-1  
 6.048048048048048E8    -7.647868394851685E-1   5.306009054183960E-1  -2.139447256922722E-3  -3.166631096974015E-3  -2.165706595405936E-3  -3.150247968733311E-3  -9.049808382987976E-1   3.219168782234192E-1  
 6.072072072072072E8    -7.541103959083557E-1   5.426211357116699E-1  -2.163184806704521E-3  -3.264090977609158E-3  -2.111992565914989E-3  -3.248093184083700E-3  -8.992876410484314E-1   3.340881764888763E-1  
 6.096096096096096E8    -7.423887848854065E-1   5.547423958778381E-1  -2.106685424223542E-3  -3.391490317881107E-3  -2.125935163348913E-3  -3.433954436331987E-3  -8.933568000793457E-1   3.466249406337738E-1  
 6.120120120120120E8    -7.328152656555176E-1   5.640857219696045E-1  -2.078986261039972E-3  -3.569110296666622E-3  -2.117383526638150E-3  -3.545128041878343E-3  -8.877857327461243E-1   3.568886220455170E-1  
 6.144144144144144E8    -7.225356698036194E-1   5.746425390243530E-1  -1.956039341166616E-3  -3.836351912468672E-3  -1.971593592315912E-3  -3.893096232786775E-3  -8.819057345390320E-1   3.688104152679443E-1  
 6.168168168168168E8    -7.114172577857971E-1   5.852478146553040E-1  -1.941265072673559E-3  -4.266750067472458E-3  -1.893309294246137E-3  -4.320137668401003E-3  -8.752996325492859E-1   3.812492787837982E-1  
 6.192192192192192E8    -6.997264027595520E-1   5.949987769126892E-1  -1.821695594117045E-3  -4.834998399019241E-3  -1.820667181164026E-3  -4.739060997962952E-3  -8.680127263069153E-1   3.935035467147827E-1  
 6.216216216216216E8    -6.879620552062988E-1   6.046836972236633E-1  -1.787686604075134E-3  -5.546805448830128E-3  -1.794782932847738E-3  -5.593528505414724E-3  -8.604028224945068E-1   4.062438011169434E-1  
 6.240240240240240E8    -6.758375167846680E-1   6.135461926460266E-1  -1.969009405001998E-3  -6.511492654681206E-3  -1.961491070687771E-3  -6.539782509207726E-3  -8.524885773658752E-1   4.181355834007263E-1  
 6.264264264264264E8    -6.644798517227173E-1   6.223505735397339E-1  -2.267720177769661E-3  -7.688684388995171E-3  -2.334761898964644E-3  -7.721886504441500E-3  -8.437649011611939E-1   4.317232966423035E-1  
 6.288288288288288E8    -6.534827351570129E-1   6.307474970817566E-1  -3.074148204177618E-3  -8.962015621364117E-3  -3.062711795791984E-3  -8.942216634750366E-3  -8.352769017219544E-1   4.440620839595795E-1  
 6.312312312312312E8    -6.434780955314636E-1   6.388822793960571E-1  -4.354762379080057E-3  -1.016346830874682E-2  -4.300784785300493E-3  -1.025131344795227E-2  -8.264492750167847E-1   4.556083977222443E-1  
 6.336336336336336E8    -6.334041953086853E-1   6.476713418960571E-1  -5.934342276304960E-3  -1.115262228995562E-2  -5.876773968338966E-3  -1.117810420691967E-2  -8.176696300506592E-1   4.662940800189972E-1  
 6.360360360360360E8    -6.229813098907471E-1   6.574526429176331E-1  -7.728583179414272E-3  -1.179009024053812E-2  -7.704740855842829E-3  -1.182133611291647E-2  -8.088515996932983E-1   4.762951135635376E-1  
 6.384384384384384E8    -6.111540794372559E-1   6.671806573867798E-1  -9.744564071297646E-3  -1.209928933531046E-2  -9.735905565321446E-3  -1.214428339153528E-2  -7.997910380363464E-1   4.880365729331970E-1  
 6.408408408408408E8    -5.986167788505554E-1   6.770223975181580E-1  -1.173841394484043E-2  -1.208145823329687E-2  -1.174568012356758E-2  -1.214479748159647E-2  -7.899332642555237E-1   4.997598826885223E-1  
 6.432432432432432E8    -5.854001641273499E-1   6.870995163917542E-1  -1.376653835177422E-2  -1.183717325329781E-2  -1.372601091861725E-2  -1.185028534382582E-2  -7.793884873390198E-1   5.111016631126404E-1  
 6.456456456456456E8    -5.714746713638306E-1   6.961765289306641E-1  -1.575391367077828E-2  -1.124640274792910E-2  -1.570808701217175E-2  -1.129088923335075E-2  -7.687441706657410E-1   5.219361782073975E-1  
 6.480480480480480E8    -5.561862587928772E-1   7.049573063850403E-1  -1.748580858111382E-2  -1.048644911497831E-2  -1.744690909981728E-2  -1.051890570670366E-2  -7.569739222526550E-1   5.336762666702271E-1  
 6.504504504504504E8    -5.394663810729981E-1   7.147570848464966E-1  -1.912332139909267E-2  -9.715214371681213E-3  -1.907896995544434E-2  -9.724670089781284E-3  -7.404426932334900E-1   5.458691120147705E-1  
 6.528528528528528E8    -5.220398306846619E-1   7.236112356185913E-1  -2.082573436200619E-2  -8.881405927240849E-3  -2.070763520896435E-2  -8.955344557762146E-3  -7.247947454452515E-1   5.604429841041565E-1  
 6.552552552552552E8    -5.044651627540588E-1   7.313085794448853E-1  -2.251302637159824E-2  -7.987827062606812E-3  -2.247026748955250E-2  -8.073117583990097E-3  -7.109852433204651E-1   5.750463008880615E-1  
 6.576576576576576E8    -4.865189790725708E-1   7.378221154212952E-1  -2.442282810807228E-2  -7.025900296866894E-3  -2.427069284021854E-2  -7.126162294298410E-3  -6.988229155540466E-1   5.869140625000000E-1  
 6.600600600600600E8    -4.658936858177185E-1   7.437599301338196E-1  -2.633186243474484E-2  -5.790688097476959E-3  -2.626029774546623E-2  -5.913254339247942E-3  -6.847944855690002E-1   5.956426858901978E-1  
 6.624624624624624E8    -4.471510946750641E-1   7.496254444122315E-1  -2.817905507981777E-2  -4.288668744266033E-3  -2.817153185606003E-2  -4.448319319635630E-3  -6.671949625015259E-1   6.076860427856445E-1  
 6.648648648648648E8    -4.275141656398773E-1   7.546441555023193E-1  -3.012244030833244E-2  -2.733617555350065E-3  -2.997429668903351E-2  -2.922542858868837E-3  -6.490380167961121E-1   6.190705299377441E-1  
 6.672672672672672E8    -4.074145257472992E-1   7.586943507194519E-1  -3.214582428336144E-2  -9.703060495667160E-4  -3.201472386717796E-2  -1.176508492790163E-3  -6.294739246368408E-1   6.299102902412415E-1  
 6.696696696696696E8    -3.863884806632996E-1   7.616938948631287E-1  -3.408186882734299E-2   1.160054001957178E-3  -3.393150120973587E-2   9.379797265864909E-4  -6.089410781860352E-1   6.404276490211487E-1  
 6.720720720720720E8    -3.638767302036285E-1   7.642835378646851E-1  -3.605496883392334E-2   3.261039499193430E-3  -3.601731732487679E-2   3.109724260866642E-3  -5.871499180793762E-1   6.507453322410584E-1  
 6.744744744744744E8    -3.416575789451599E-1   7.654983997344971E-1  -3.806379064917564E-2   5.950753577053547E-3  -3.810861334204674E-2   5.888837855309248E-3  -5.623173713684082E-1   6.606639623641968E-1  
 6.768768768768768E8    -3.186592161655426E-1   7.654208540916443E-1  -3.988914564251900E-2   9.026374667882919E-3  -3.997229784727097E-2   8.913304656744003E-3  -5.358406305313110E-1   6.691327095031738E-1  
 6.792792792792792E8    -2.952050268650055E-1   7.640444636344910E-1  -4.154743999242783E-2   1.235943939536810E-2  -4.167086258530617E-2   1.227043196558952E-2  -5.085846185684204E-1   6.766840815544128E-1  
 6.816816816816816E8    -2.714571058750153E-1   7.613714933395386E-1  -4.305788129568100E-2   1.583129912614822E-2  -4.318214952945709E-2   1.583193056285381E-2  -4.790345728397369E-1   6.834376454353333E-1  
 6.840840840840840E8    -2.470923215150833E-1   7.570973634719849E-1  -4.465058818459511E-2   1.962415874004364E-2  -4.482422024011612E-2   1.980631984770298E-2  -4.478469192981720E-1   6.889181137084961E-1  
 6.864864864864864E8    -2.220415920019150E-1   7.516082525253296E-1  -4.613119736313820E-2   2.410385198891163E-2  -4.622369632124901E-2   2.394688129425049E-2  -4.142037630081177E-1   6.918148398399353E-1  
 6.888888888888888E8    -1.964057981967926E-1   7.444230914115906E-1  -4.757026210427284E-2   2.914075367152691E-2  -4.774345457553864E-2   2.857096493244171E-2  -3.778634667396545E-1   6.930488944053650E-1  
 6.912912912912912E8    -1.714136749505997E-1   7.349333763122559E-1  -4.887836426496506E-2   3.516823053359985E-2  -4.918349534273148E-2   3.458067029714584E-2  -3.389523029327393E-1   6.911132335662842E-1  
 6.936936936936936E8    -1.471827924251556E-1   7.227532863616943E-1  -4.914043843746185E-2   4.215772822499275E-2  -4.922223836183548E-2   4.156317934393883E-2  -2.977249026298523E-1   6.853405237197876E-1  
 6.960960960960960E8    -1.232616305351257E-1   7.093006372451782E-1  -4.819344729185104E-2   4.924540594220161E-2  -4.829358682036400E-2   4.878106340765953E-2  -2.546172440052033E-1   6.752711534500122E-1  
 6.984984984984984E8    -1.011462733149529E-1   6.934183835983276E-1  -4.654791578650475E-2   5.637884885072708E-2  -4.596919566392899E-2   5.642146617174149E-2  -2.064878493547440E-1   6.604012250900269E-1  
 7.009009009009008E8    -8.012061566114426E-2   6.750877499580383E-1  -4.369842633605003E-2   6.343156099319458E-2  -4.244825989007950E-2   6.401243060827255E-2  -1.584042757749558E-1   6.386725306510925E-1  
 7.033033033033032E8    -6.018570438027382E-2   6.553147435188294E-1  -3.979595750570297E-2   6.986790150403976E-2  -3.858935460448265E-2   7.064704596996307E-2  -1.114280074834824E-1   6.091802716255188E-1  
 7.057057057057056E8    -4.116984456777573E-2   6.327067613601685E-1  -3.563893958926201E-2   7.636474817991257E-2  -3.500906378030777E-2   7.682232558727264E-2  -6.825035065412521E-2   5.716718435287476E-1  
 7.081081081081080E8    -2.355405874550343E-2   6.077100634574890E-1  -3.051106818020344E-2   8.311761915683746E-2  -3.062177076935768E-2   8.348600566387177E-2  -2.639774046838284E-2   5.244574546813965E-1  
 7.105105105105104E8    -8.764439262449741E-3   5.791336297988892E-1  -2.402975969016552E-2   8.981314301490784E-2  -2.556142583489418E-2   8.956609666347504E-2   9.825962595641613E-3   4.693043231964111E-1  
 7.129129129129129E8     2.887955051846802E-4   5.481207370758057E-1  -1.727307029068470E-2   9.620998054742813E-2  -1.941962726414204E-2   9.554005414247513E-2   3.894598782062531E-2   4.033678472042084E-1  
 7.153153153153153E8     2.424086676910520E-3   5.166479349136353E-1  -9.906619787216187E-3   1.017225161194801E-1  -1.168180163949728E-2   1.013273596763611E-1   5.708520859479904E-2   3.273954987525940E-1  
 7.177177177177178E8    -6.594078731723130E-4   4.875910580158234E-1  -2.614409662783146E-3   1.065486967563629E-1  -3.738012397661805E-3   1.063843220472336E-1   5.887709185481072E-2   2.455815374851227E-1  
 7.201201201201202E8    -7.093321066349745E-3   4.630312025547028E-1   3.858430776745081E-3   1.119439974427223E-1   3.163561923429370E-3   1.118208095431328E-1   4.124854877591133E-2   1.647143512964249E-1  
 7.225225225225226E8    -1.516657695174217E-2   4.439705312252045E-1   1.055927108973265E-2   1.201431676745415E-1   1.028997544199228E-2   1.199618130922318E-1   6.057841703295708E-3   9.340758621692658E-2  
 7.249249249249250E8    -2.128201350569725E-2   4.297880530357361E-1   2.140358090400696E-2   1.316937208175659E-1   2.005631290376186E-2   1.316614896059036E-1  -4.174476489424706E-2   3.618000075221062E-2  
 7.273273273273274E8    -2.465536445379257E-2   4.183219969272614E-1   3.902032598853111E-2   1.439447253942490E-1   3.711574152112007E-2   1.442344188690186E-1  -9.411905705928803E-2  -5.469029303640127E-3  
 7.297297297297298E8    -2.478865720331669E-2   4.056537151336670E-1   6.358484178781509E-2   1.525571197271347E-1   6.244620308279991E-2   1.526624709367752E-1  -1.447337269783020E-1  -3.377453237771988E-2  
 7.321321321321322E8    -2.439971454441547E-2   3.885801136493683E-1   9.267219901084900E-2   1.538999229669571E-1   9.337863326072693E-2   1.531219035387039E-1  -1.898775398731232E-1  -5.182638019323349E-2  
 7.345345345345346E8    -2.503467164933682E-2   3.689565062522888E-1   1.236711069941521E-1   1.455051898956299E-1   1.241341009736061E-1   1.448284834623337E-1  -2.280376851558685E-1  -6.477711349725723E-2  
 7.369369369369370E8    -2.670338563621044E-2   3.469073474407196E-1   1.520692706108093E-1   1.286542415618897E-1   1.524325907230377E-1   1.280442774295807E-1  -2.633276283740997E-1  -7.835877686738968E-2  
 7.393393393393394E8    -3.163916617631912E-2   3.216706216335297E-1   1.765209138393402E-1   1.046065464615822E-1   1.766173839569092E-1   1.040908396244049E-1  -3.014056980609894E-1  -9.263025224208832E-2  
 7.417417417417418E8    -4.038146510720253E-2   2.959524989128113E-1   1.941527426242828E-1   7.478185743093491E-2   1.941355913877487E-1   7.495281100273132E-2  -3.408059477806091E-1  -1.049990952014923E-1  
 7.441441441441442E8    -4.987269639968872E-2   2.712655663490295E-1   2.035976052284241E-1   4.324013739824295E-2   2.034700065851212E-1   4.402188956737518E-2  -3.813339769840241E-1  -1.149192228913307E-1  
 7.465465465465466E8    -6.761849671602249E-2   2.467662990093231E-1   2.057629376649857E-1   1.252115517854691E-2   2.057765424251556E-1   1.287403050810099E-2  -4.220870733261108E-1  -1.194038391113281E-1  
 7.489489489489490E8    -9.092265367507935E-2   2.229754924774170E-1   2.022253870964050E-1  -1.637253724038601E-2   2.021357417106628E-1  -1.589940115809441E-2  -4.645971357822418E-1  -1.201873645186424E-1  
 7.513513513513514E8    -1.184552684426308E-1   2.024307996034622E-1   1.941009610891342E-1  -4.266940057277679E-2   1.939982771873474E-1  -4.249413684010506E-2  -5.073132514953613E-1  -1.170410737395287E-1  
 7.537537537537538E8    -1.491811722517014E-1   1.864723861217499E-1   1.823212355375290E-1  -6.681684404611588E-2   1.827060431241989E-1  -6.559901684522629E-2  -5.492109060287476E-1  -1.096029505133629E-1  
 7.561561561561562E8    -1.811155527830124E-1   1.760423183441162E-1   1.677443087100983E-1  -8.745176345109940E-2   1.677776724100113E-1  -8.639653772115707E-2  -5.882923603057861E-1  -9.833516925573349E-2  
 7.585585585585586E8    -2.136868238449097E-1   1.726936548948288E-1   1.503042280673981E-1  -1.041017398238182E-1   1.499812752008438E-1  -1.030973866581917E-1  -6.241198778152466E-1  -8.007748425006867E-2  
 7.609609609609610E8    -2.462857216596603E-1   1.722467839717865E-1   1.319504678249359E-1  -1.169113889336586E-1   1.319415420293808E-1  -1.155014857649803E-1  -6.567429900169373E-1  -5.879472196102142E-2  
 7.633633633633634E8    -2.785328626632690E-1   1.742938011884689E-1   1.136839687824249E-1  -1.267355680465698E-1   1.136112362146378E-1  -1.251975148916245E-1  -6.867541074752808E-1  -3.553058207035065E-2  
 7.657657657657658E8    -3.111321926116943E-1   1.807249337434769E-1   9.468384087085724E-2  -1.329240351915360E-1   9.507985413074493E-2  -1.318143606185913E-1  -7.138779163360596E-1  -1.254014763981104E-2  
 7.681681681681682E8    -3.434980809688568E-1   1.941650807857513E-1   7.627420872449875E-2  -1.352697163820267E-1   7.679677009582520E-2  -1.351774483919144E-1  -7.390635013580322E-1   1.047328021377325E-2  
 7.705705705705706E8    -3.726639151573181E-1   2.146540135145187E-1   5.951079726219177E-2  -1.348947137594223E-1   6.029468774795532E-2  -1.347178369760513E-1  -7.593114376068115E-1   3.498868644237518E-2  
 7.729729729729730E8    -3.955712914466858E-1   2.386035770177841E-1   4.438656195998192E-2  -1.326048076152802E-1   4.594888910651207E-2  -1.327781379222870E-1  -7.779899239540100E-1   6.144642084836960E-2  
 7.753753753753754E8    -4.124581217765808E-1   2.628575265407562E-1   3.128658980131149E-2  -1.292728781700134E-1   3.309890627861023E-2  -1.298281401395798E-1  -7.928084731101990E-1   9.029488265514374E-2  
 7.777777777777778E8    -4.248955547809601E-1   2.861446142196655E-1   1.984081417322159E-2  -1.254504621028900E-1   2.135266177356243E-2  -1.258537918329239E-1  -8.030532598495483E-1   1.199587956070900E-1  
 7.801801801801802E8    -4.336468279361725E-1   3.076698184013367E-1   9.553851559758186E-3  -1.213664487004280E-1   1.057480648159981E-2  -1.208376511931419E-1  -8.084566593170166E-1   1.481489092111588E-1  
 7.825825825825826E8    -4.394754767417908E-1   3.293930292129517E-1   5.334265006240457E-5  -1.162025555968285E-1   5.391133599914610E-4  -1.158095523715019E-1  -8.142234683036804E-1   1.756518185138702E-1  
 7.849849849849850E8    -4.438024163246155E-1   3.499611616134644E-1  -8.401179686188698E-3  -1.103668287396431E-1  -7.554959040135145E-3  -1.101465374231339E-1  -8.179719448089600E-1   1.985284984111786E-1  
 7.873873873873874E8    -4.471599757671356E-1   3.663719892501831E-1  -1.490408647805452E-2  -1.047763973474503E-1  -1.416815351694822E-2  -1.042746677994728E-1  -8.208691477775574E-1   2.191196680068970E-1  
 7.897897897897898E8    -4.528583288192749E-1   3.841229379177094E-1  -2.050415985286236E-2  -9.942965954542160E-2  -2.010420523583889E-2  -9.906461834907532E-2  -8.244848251342773E-1   2.402525395154953E-1  
 7.921921921921922E8    -4.574179351329804E-1   4.060181677341461E-1  -2.621164731681347E-2  -9.394510090351105E-2  -2.571702748537064E-2  -9.404912590980530E-2  -8.287180662155151E-1   2.620710134506226E-1  
 7.945945945945946E8    -4.608775973320007E-1   4.285193681716919E-1  -3.116872347891331E-2  -8.800018578767777E-2  -3.014586120843887E-2  -8.839603513479233E-2  -8.283151388168335E-1   2.831529974937439E-1  
 7.969969969969970E8    -4.610922932624817E-1   4.504162669181824E-1  -3.503665700554848E-2  -8.202965557575226E-2  -3.403622657060623E-2  -8.258206397294998E-2  -8.273516297340393E-1   3.039060533046722E-1  
 7.993993993993994E8    -4.590555131435394E-1   4.705644547939301E-1  -3.790093585848808E-2  -7.646851986646652E-2  -3.723467141389847E-2  -7.696705311536789E-2  -8.256094455718994E-1   3.246043622493744E-1  
 8.018018018018018E8    -4.547512829303742E-1   4.895160198211670E-1  -4.012710228562355E-2  -7.109449803829193E-2  -3.981426358222961E-2  -7.154105603694916E-2  -8.228880167007446E-1   3.447519838809967E-1  
 8.042042042042042E8    -4.496498703956604E-1   5.070823431015015E-1  -4.193900525569916E-2  -6.654313951730728E-2  -4.174336418509483E-2  -6.665139645338059E-2  -8.200581073760986E-1   3.623472452163696E-1  
 8.066066066066066E8    -4.426787793636322E-1   5.252435803413391E-1  -4.384178295731545E-2  -6.199473887681961E-2  -4.367257282137871E-2  -6.217296421527863E-2  -8.160598874092102E-1   3.814314901828766E-1  
 8.090090090090090E8    -4.353086352348328E-1   5.419404506683350E-1  -4.535250365734100E-2  -5.747895687818527E-2  -4.521475732326508E-2  -5.772517994046211E-2  -8.115332722663879E-1   3.984164297580719E-1  
 8.114114114114114E8    -4.264608323574066E-1   5.566968917846680E-1  -4.675411805510521E-2  -5.315943434834480E-2  -4.683344066143036E-2  -5.352674052119255E-2  -8.064393401145935E-1   4.139414727687836E-1  
 8.138138138138138E8    -4.174192249774933E-1   5.687645673751831E-1  -4.806648939847946E-2  -4.891153424978256E-2  -4.805975779891014E-2  -4.909577220678330E-2  -8.019689917564392E-1   4.289767742156982E-1  
 8.162162162162162E8    -4.106855392456055E-1   5.794552564620972E-1  -4.877388849854469E-2  -4.445229470729828E-2  -4.875982552766800E-2  -4.446795582771301E-2  -7.974558472633362E-1   4.432171583175659E-1  
 8.186186186186186E8    -4.050520658493042E-1   5.915401577949524E-1  -4.887035116553307E-2  -4.025955498218536E-2  -4.880222305655479E-2  -4.036536440253258E-2  -7.922967672348023E-1   4.587598443031311E-1  
 8.210210210210210E8    -3.972802758216858E-1   6.041551828384399E-1  -4.899103194475174E-2  -3.616099059581757E-2  -4.890124499797821E-2  -3.648489341139793E-2  -7.868790626525879E-1   4.737634658813477E-1  
 8.234234234234234E8    -3.897896707057953E-1   6.136000752449036E-1  -4.856608435511589E-2  -3.237896040081978E-2  -4.847877100110054E-2  -3.252948448061943E-2  -7.811713218688965E-1   4.877521693706513E-1  
