#  HZ   S   RI   R     50.00 
! Rohde & Schwarz ZVB8 2Ports - Version 2.81 - 1145.1010k08 SN: 100113
! Date: 2016-05-03 01:37:22
! Measurements: S11 S21 S12 S22 
! 
 6.000000000000000E8     4.475513696670532E-1   5.586267113685608E-1  -5.947960540652275E-3  -8.228266378864646E-4  -5.962661933153868E-3  -7.987951394170523E-4  -9.689508676528931E-1  -1.002551093697548E-1  
 6.024024024024024E8     4.573452472686768E-1   5.354965329170227E-1  -5.890805739909411E-3  -7.773757097311318E-4  -5.906336475163698E-3  -7.062927470542491E-4  -9.698759913444519E-1  -8.869870752096176E-2  
 6.048048048048048E8     4.661573171615601E-1   5.120872855186462E-1  -5.902635864913464E-3  -7.259800913743675E-4  -5.879300646483898E-3  -8.170823566615582E-4  -9.705513119697571E-1  -7.719168812036514E-2  
 6.072072072072072E8     4.739717841148377E-1   4.877065718173981E-1  -5.879664793610573E-3  -8.250488899648190E-4  -5.907719023525715E-3  -8.294475846923888E-4  -9.711666107177734E-1  -6.573279201984406E-2  
 6.096096096096096E8     4.797484874725342E-1   4.626140296459198E-1  -5.868596490472555E-3  -9.770011529326439E-4  -5.898731760680676E-3  -9.478118154220283E-4  -9.711912274360657E-1  -5.396381765604019E-2  
 6.120120120120120E8     4.819444715976715E-1   4.403099119663239E-1  -5.847329739481211E-3  -1.204451080411673E-3  -5.899511743336916E-3  -1.208368223160505E-3  -9.708706140518189E-1  -4.472602903842926E-2  
 6.144144144144144E8     4.826671183109283E-1   4.201364517211914E-1  -5.917882081121206E-3  -1.596834161318839E-3  -5.913076922297478E-3  -1.568497391417623E-3  -9.718902707099915E-1  -3.408252820372582E-2  
 6.168168168168168E8     4.831948280334473E-1   4.015417993068695E-1  -6.019817199558020E-3  -2.023418899625540E-3  -6.004492752254009E-3  -2.048686379566789E-3  -9.719012975692749E-1  -2.288076840341091E-2  
 6.192192192192192E8     4.840245842933655E-1   3.846890926361084E-1  -6.268398370593786E-3  -2.730091335251927E-3  -6.219507660716772E-3  -2.728987252339721E-3  -9.717621803283691E-1  -1.133386790752411E-2  
 6.216216216216216E8     4.857223927974701E-1   3.684403598308563E-1  -6.794778630137444E-3  -3.519217250868678E-3  -6.740344222635031E-3  -3.555779578164220E-3  -9.713491201400757E-1   1.040709787048399E-3  
 6.240240240240240E8     4.880703985691071E-1   3.538097739219666E-1  -7.781851571053267E-3  -4.355588462203741E-3  -7.681629620492458E-3  -4.428606480360031E-3  -9.704086780548096E-1   1.320586632937193E-2  
 6.264264264264264E8     4.927168786525726E-1   3.419505953788757E-1  -9.131205268204212E-3  -5.167042836546898E-3  -9.006029926240444E-3  -5.260237492620945E-3  -9.702686667442322E-1   2.578467689454556E-2  
 6.288288288288288E8     5.011201500892639E-1   3.302932083606720E-1  -1.090371888130903E-2  -5.663881078362465E-3  -1.084431726485491E-2  -5.693282932043076E-3  -9.697135090827942E-1   3.693612664937973E-2  
 6.312312312312312E8     5.128266811370850E-1   3.169030845165253E-1  -1.297616772353649E-2  -5.549219436943531E-3  -1.280970219522715E-2  -5.654159933328629E-3  -9.687264561653137E-1   4.734905436635017E-2  
 6.336336336336336E8     5.274155139923096E-1   2.993533909320831E-1  -1.501908618956804E-2  -5.025926511734724E-3  -1.494932174682617E-2  -5.059407558292151E-3  -9.676803946495056E-1   5.699650570750237E-2  
 6.360360360360360E8     5.428338646888733E-1   2.764745950698853E-1  -1.698107644915581E-2  -3.913353662937880E-3  -1.697373203933239E-2  -3.992338199168444E-3  -9.665228128433228E-1   6.581310927867889E-2  
 6.384384384384384E8     5.568882822990418E-1   2.498748898506165E-1  -1.870340667665005E-2  -2.438945695757866E-3  -1.863943599164486E-2  -2.513661514967680E-3  -9.654460549354553E-1   7.672910392284393E-2  
 6.408408408408408E8     5.688288211822510E-1   2.180122882127762E-1  -2.009732462465763E-2  -6.712502217851579E-4  -1.993155665695667E-2  -8.258550078608096E-4  -9.641857147216797E-1   8.751714229583740E-2  
 6.432432432432432E8     5.770646929740906E-1   1.823360770940781E-1  -2.105424366891384E-2   1.248545828275383E-3  -2.098502032458782E-2   1.097786007449031E-3  -9.628638029098511E-1   9.792967885732651E-2  
 6.456456456456456E8     5.809248685836792E-1   1.452239602804184E-1  -2.167322859168053E-2   3.166514914482832E-3  -2.171164005994797E-2   3.000580938532949E-3  -9.613637328147888E-1   1.080336123704910E-1  
 6.480480480480480E8     5.808688402175903E-1   1.071204096078873E-1  -2.214120142161846E-2   5.116564687341452E-3  -2.207948081195355E-2   5.021396093070507E-3  -9.598702788352966E-1   1.174964234232903E-1  
 6.504504504504504E8     5.762208104133606E-1   6.960906088352203E-2  -2.225058339536190E-2   7.106887642294169E-3  -2.221848443150520E-2   6.951774936169386E-3  -9.555476307868958E-1   1.277759671211243E-1  
 6.528528528528528E8     5.680002570152283E-1   3.194846957921982E-2  -2.218918316066265E-2   8.966315537691116E-3  -2.218072675168514E-2   8.819045498967171E-3  -9.518418908119202E-1   1.397087126970291E-1  
 6.552552552552552E8     5.561517477035523E-1  -5.183512810617685E-3  -2.181032858788967E-2   1.065501850098372E-2  -2.175378799438477E-2   1.060090214014053E-2  -9.502503871917725E-1   1.519877761602402E-1  
 6.576576576576576E8     5.406737923622131E-1  -4.101563990116119E-2  -2.135789580643177E-2   1.226590946316719E-2  -2.135490439832211E-2   1.208202354609966E-2  -9.506476521492004E-1   1.623526066541672E-1  
 6.600600600600600E8     5.219175815582275E-1  -7.567252218723297E-2  -2.074750140309334E-2   1.367115788161755E-2  -2.074009180068970E-2   1.351494248956442E-2  -9.509361982345581E-1   1.706460714340210E-1  
 6.624624624624624E8     5.007716417312622E-1  -1.068988442420960E-1  -2.007594145834446E-2   1.494000200182200E-2  -2.007102593779564E-2   1.470855902880430E-2  -9.485915899276733E-1   1.817093193531036E-1  
 6.648648648648648E8     4.774299561977387E-1  -1.358345299959183E-1  -1.932754553854466E-2   1.588418893516064E-2  -1.941990107297897E-2   1.574163697659969E-2  -9.462599754333496E-1   1.925513595342636E-1  
 6.672672672672672E8     4.507115185260773E-1  -1.625088155269623E-1  -1.868664473295212E-2   1.680021919310093E-2  -1.875158026814461E-2   1.666168682277203E-2  -9.434824585914612E-1   2.032859325408936E-1  
 6.696696696696696E8     4.212089478969574E-1  -1.861977577209473E-1  -1.803434453904629E-2   1.749471947550774E-2  -1.810165494680405E-2   1.744468323886395E-2  -9.404810070991516E-1   2.132820636034012E-1  
 6.720720720720720E8     3.911959230899811E-1  -2.060225605964661E-1  -1.730671711266041E-2   1.810316368937492E-2  -1.734955795109272E-2   1.796854659914970E-2  -9.373116493225098E-1   2.231795638799667E-1  
 6.744744744744744E8     3.608394563198090E-1  -2.210001051425934E-1  -1.668170467019081E-2   1.830565556883812E-2  -1.667047850787640E-2   1.821860484778881E-2  -9.341027140617371E-1   2.343069911003113E-1  
 6.768768768768768E8     3.302118182182312E-1  -2.325329482555389E-1  -1.619932428002358E-2   1.814831607043743E-2  -1.639161631464958E-2   1.803174801170826E-2  -9.304898977279663E-1   2.452806979417801E-1  
 6.792792792792792E8     3.012937009334564E-1  -2.393130362033844E-1  -1.634132862091065E-2   1.773348636925221E-2  -1.640955358743668E-2   1.760552451014519E-2  -9.266730546951294E-1   2.561545670032501E-1  
 6.816816816816816E8     2.755783498287201E-1  -2.430156022310257E-1  -1.720724627375603E-2   1.707101240754128E-2  -1.722200587391853E-2   1.697667874395847E-2  -9.226688146591187E-1   2.671222686767578E-1  
 6.840840840840840E8     2.551322281360626E-1  -2.440018504858017E-1  -1.912633329629898E-2   1.661907695233822E-2  -1.908886060118675E-2   1.654841564595699E-2  -9.186762571334839E-1   2.779718339443207E-1  
 6.864864864864864E8     2.389075607061386E-1  -2.442899644374847E-1  -2.192650362849236E-2   1.700908690690994E-2  -2.191239409148693E-2   1.686510629951954E-2  -9.132326841354370E-1   2.882664799690247E-1  
 6.888888888888888E8     2.277702987194061E-1  -2.480456233024597E-1  -2.536117471754551E-2   1.883497089147568E-2  -2.540278062224388E-2   1.856523938477039E-2  -9.078640341758728E-1   2.986456155776978E-1  
 6.912912912912912E8     2.192252278327942E-1  -2.571510970592499E-1  -2.865694463253021E-2   2.230821363627911E-2  -2.887430973351002E-2   2.199557609856129E-2  -9.025405049324036E-1   3.088549077510834E-1  
 6.936936936936936E8     2.091493904590607E-1  -2.738222777843475E-1  -3.124316409230232E-2   2.727932855486870E-2  -3.137447685003281E-2   2.701047807931900E-2  -8.973760604858398E-1   3.184187412261963E-1  
 6.960960960960960E8     1.935521066188812E-1  -2.960790693759918E-1  -3.239451721310616E-2   3.322127088904381E-2  -3.242953866720200E-2   3.315253555774689E-2  -8.927730917930603E-1   3.284414410591126E-1  
 6.984984984984984E8     1.697873175144196E-1  -3.199491798877716E-1  -3.192477673292160E-2   3.956580907106400E-2  -3.144584223628044E-2   3.980560600757599E-2  -8.866042494773865E-1   3.420697152614594E-1  
 7.009009009009008E8     1.370116323232651E-1  -3.416726291179657E-1  -2.970870956778526E-2   4.562588781118393E-2  -2.890685759484768E-2   4.607076570391655E-2  -8.810238242149353E-1   3.545242249965668E-1  
 7.033033033033032E8     9.902682900428772E-2  -3.576358854770660E-1  -2.638677693903446E-2   5.084379389882088E-2  -2.550202421844006E-2   5.108462646603584E-2  -8.760527372360230E-1   3.645027875900269E-1  
 7.057057057057056E8     5.830545723438263E-2  -3.674477934837341E-1  -2.237040549516678E-2   5.521909520030022E-2  -2.191914245486260E-2   5.527801066637039E-2  -8.722872138023377E-1   3.711600899696350E-1  
 7.081081081081080E8     1.518786791712046E-2  -3.701742887496948E-1  -1.777575165033341E-2   5.884088203310967E-2  -1.808239705860615E-2   5.866330862045288E-2  -8.684508204460144E-1   3.785327970981598E-1  
 7.105105105105104E8    -2.687437459826469E-2  -3.655954301357269E-1  -1.299221999943256E-2   6.185881793498993E-2  -1.398276258260012E-2   6.159709021449089E-2  -8.640568852424622E-1   3.875957727432251E-1  
 7.129129129129129E8    -6.631486862897873E-2  -3.563673794269562E-1  -8.385492488741875E-3   6.424999237060547E-2  -9.413238614797592E-3   6.399607658386231E-2  -8.589158654212952E-1   3.976701498031616E-1  
 7.153153153153153E8    -1.027412191033363E-1  -3.435566127300263E-1  -3.922909498214722E-3   6.595566123723984E-2  -4.684701096266508E-3   6.586886197328568E-2  -8.526346683502197E-1   4.098939299583435E-1  
 7.177177177177178E8    -1.365250945091248E-1  -3.289781510829926E-1   3.514713898766786E-4   6.757324188947678E-2  -3.011875833180966E-6   6.738465279340744E-2  -8.452316522598267E-1   4.224716722965241E-1  
 7.201201201201202E8    -1.687978506088257E-1  -3.118727207183838E-1   4.973806440830231E-3   6.879957020282745E-2   4.546876065433025E-3   6.875403225421906E-2  -8.381578922271729E-1   4.343251287937164E-1  
 7.225225225225226E8    -1.999370753765106E-1  -2.921428084373474E-1   9.798939339816570E-3   6.979486346244812E-2   9.456549771130085E-3   6.974787265062332E-2  -8.304294943809509E-1   4.471391439437866E-1  
 7.249249249249250E8    -2.289540171623230E-1  -2.697704434394836E-1   1.497336290776730E-2   7.020989805459976E-2   1.392106339335442E-2   7.025755941867828E-2  -8.235899806022644E-1   4.565097093582153E-1  
 7.273273273273274E8    -2.535327076911926E-1  -2.464617937803268E-1   1.980479061603546E-2   7.028862088918686E-2   1.831746846437454E-2   7.048960030078888E-2  -8.167770504951477E-1   4.659620821475983E-1  
 7.297297297297298E8    -2.751148343086243E-1  -2.228309661149979E-1   2.416886575520039E-2   7.024256885051727E-2   2.300592139363289E-2   7.037595659494400E-2  -8.096424341201782E-1   4.754778742790222E-1  
 7.321321321321322E8    -2.933918833732605E-1  -1.995354592800140E-1   2.810059115290642E-2   6.994694471359253E-2   2.802279219031334E-2   6.979320198297501E-2  -8.022152185440064E-1   4.858550727367401E-1  
 7.345345345345346E8    -3.109348118305206E-1  -1.742684841156006E-1   3.232303261756897E-2   6.910987943410873E-2   3.261400759220123E-2   6.879583746194840E-2  -7.942475676536560E-1   4.972132444381714E-1  
 7.369369369369370E8    -3.273015022277832E-1  -1.475285440683365E-1   3.629921004176140E-2   6.811273097991943E-2   3.682742267847061E-2   6.748773157596588E-2  -7.855840325355530E-1   5.083560943603516E-1  
 7.393393393393394E8    -3.404973745346069E-1  -1.198733896017075E-1   4.014457017183304E-2   6.691841036081314E-2   4.062455147504807E-2   6.640023738145828E-2  -7.768365144729614E-1   5.192412137985230E-1  
 7.417417417417418E8    -3.503393232822418E-1  -9.278287738561630E-2   4.401023685932159E-2   6.579983979463577E-2   4.411326721310616E-2   6.535304337739945E-2  -7.683352231979370E-1   5.287239551544190E-1  
 7.441441441441442E8    -3.575281202793121E-1  -6.657522916793823E-2   4.792690277099609E-2   6.436278671026230E-2   4.753356799483299E-2   6.446456164121628E-2  -7.602821588516235E-1   5.374910235404968E-1  
 7.465465465465466E8    -3.632549345493317E-1  -4.174118489027023E-2   5.154057219624519E-2   6.316018849611282E-2   5.097180232405663E-2   6.338019669055939E-2  -7.504391074180603E-1   5.483240485191345E-1  
 7.489489489489490E8    -3.681950271129608E-1  -1.739872246980667E-2   5.524117127060890E-2   6.205894052982330E-2   5.456969514489174E-2   6.249043345451355E-2  -7.420198321342468E-1   5.581686496734619E-1  
 7.513513513513514E8    -3.708750605583191E-1   5.420952104032040E-3   5.913368239998817E-2   6.093966215848923E-2   5.844022706151009E-2   6.155387684702873E-2  -7.333726882934570E-1   5.678078532218933E-1  
 7.537537537537538E8    -3.724456131458283E-1   2.803092077374458E-2   6.331534683704376E-2   5.965712666511536E-2   6.264538317918778E-2   6.034057587385178E-2  -7.235402464866638E-1   5.778029561042786E-1  
 7.561561561561562E8    -3.722781240940094E-1   4.984436929225922E-2   6.765181571245194E-2   5.826401710510254E-2   6.709196418523789E-2   5.870853364467621E-2  -7.130033969879150E-1   5.862897038459778E-1  
 7.585585585585586E8    -3.711635172367096E-1   7.266350090503693E-2   7.200757414102554E-2   5.658242851495743E-2   7.140704244375229E-2   5.662934854626656E-2  -6.999100446701050E-1   5.967561602592468E-1  
 7.609609609609610E8    -3.687016963958740E-1   9.384529292583466E-2   7.666442543268204E-2   5.464357882738113E-2   7.594346255064011E-2   5.450576543807983E-2  -6.873290538787842E-1   6.065887808799744E-1  
 7.633633633633634E8    -3.658535480499268E-1   1.130402907729149E-1   8.151208609342575E-2   5.216248705983162E-2   8.056978881359100E-2   5.215977132320404E-2  -6.753616929054260E-1   6.154556274414063E-1  
 7.657657657657658E8    -3.622887432575226E-1   1.317211985588074E-1   8.623863011598587E-2   4.942076280713081E-2   8.550614863634110E-2   4.982652142643929E-2  -6.648486256599426E-1   6.229784488677979E-1  
 7.681681681681682E8    -3.570989668369293E-1   1.493778973817825E-1   9.098108857870102E-2   4.634286090731621E-2   9.076517820358276E-2   4.711163789033890E-2  -6.554923057556152E-1   6.296679377555847E-1  
 7.705705705705706E8    -3.503489792346954E-1   1.654797345399857E-1   9.595997631549835E-2   4.259046167135239E-2   9.572152048349381E-2   4.358888044953346E-2  -6.455774903297424E-1   6.362673640251160E-1  
 7.729729729729730E8    -3.436497747898102E-1   1.791730374097824E-1   1.006028354167938E-1   3.773125261068344E-2   1.007467284798622E-1   3.926442936062813E-2  -6.352220773696899E-1   6.456273794174194E-1  
 7.753753753753754E8    -3.383044302463532E-1   1.904497295618057E-1   1.047311276197434E-1   3.268899396061897E-2   1.051227897405624E-1   3.419199958443642E-2  -6.224850416183472E-1   6.555852293968201E-1  
 7.777777777777778E8    -3.341342806816101E-1   2.004429697990418E-1   1.083939671516419E-1   2.755130827426910E-2   1.085699796676636E-1   2.867740020155907E-2  -6.070013642311096E-1   6.641849279403687E-1  
 7.801801801801802E8    -3.308346569538117E-1   2.096987664699554E-1   1.118311211466789E-1   2.254142798483372E-2   1.111246570944786E-1   2.316645719110966E-2  -5.896230936050415E-1   6.696854829788208E-1  
 7.825825825825826E8    -3.276604712009430E-1   2.216148972511292E-1   1.147861331701279E-1   1.746085658669472E-2   1.143181324005127E-1   1.775561086833477E-2  -5.721094012260437E-1   6.768488883972168E-1  
 7.849849849849850E8    -3.253807127475739E-1   2.337536066770554E-1   1.179449632763863E-1   1.193294394761324E-2   1.172263100743294E-1   1.259310171008110E-2  -5.574460625648499E-1   6.807891726493835E-1  
 7.873873873873874E8    -3.239977359771729E-1   2.464967817068100E-1   1.209477260708809E-1   6.513204891234636E-3   1.199303716421127E-1   7.402749266475439E-3  -5.436539649963379E-1   6.848442554473877E-1  
 7.897897897897898E8    -3.214454054832459E-1   2.612638771533966E-1   1.240469142794609E-1   8.612946257926524E-4   1.234019696712494E-1   1.851125969551504E-3  -5.300049781799316E-1   6.911956667900085E-1  
 7.921921921921922E8    -3.165619969367981E-1   2.769418358802795E-1   1.271254569292069E-1  -5.406078416854143E-3   1.272068470716476E-1  -4.533751867711544E-3  -5.160102844238281E-1   6.989510059356690E-1  
 7.945945945945946E8    -3.107423186302185E-1   2.924817800521851E-1   1.301715970039368E-1  -1.241373084485531E-2   1.300879716873169E-1  -1.112568564713001E-2  -4.984683692455292E-1   7.038081288337708E-1  
 7.969969969969970E8    -3.038462102413178E-1   3.057437539100647E-1   1.325472444295883E-1  -1.980167999863625E-2   1.328111886978149E-1  -1.858394034206867E-2  -4.803434014320374E-1   7.087087035179138E-1  
 7.993993993993994E8    -2.963016927242279E-1   3.171007335186005E-1   1.346639990806580E-1  -2.748188190162182E-2   1.348917037248612E-1  -2.658230625092983E-2  -4.618522524833679E-1   7.128983139991760E-1  
 8.018018018018018E8    -2.875137031078339E-1   3.272410929203033E-1   1.363672465085983E-1  -3.569530695676804E-2   1.363619416952133E-1  -3.519587218761444E-2  -4.422364830970764E-1   7.166555523872376E-1  
 8.042042042042042E8    -2.786383628845215E-1   3.372431695461273E-1   1.373806297779083E-1  -4.442816227674484E-2   1.372379213571549E-1  -4.401178658008575E-2  -4.237927794456482E-1   7.189365625381470E-1  
 8.066066066066066E8    -2.699194550514221E-1   3.470278382301331E-1   1.375690847635269E-1  -5.348291248083115E-2   1.373384445905685E-1  -5.301536619663239E-2  -4.029553830623627E-1   7.220510244369507E-1  
 8.090090090090090E8    -2.610116004943848E-1   3.558304011821747E-1   1.372792273759842E-1  -6.265772879123688E-2   1.371295899152756E-1  -6.222441047430039E-2  -3.812122642993927E-1   7.233083844184876E-1  
 8.114114114114114E8    -2.527749836444855E-1   3.630876541137695E-1   1.364157199859619E-1  -7.217358052730560E-2   1.365242451429367E-1  -7.152387499809265E-2  -3.598032891750336E-1   7.227464914321899E-1  
 8.138138138138138E8    -2.453788667917252E-1   3.693180978298187E-1   1.350440084934235E-1  -8.200181275606155E-2   1.350977569818497E-1  -8.133909106254578E-2  -3.383271396160126E-1   7.206627130508423E-1  
 8.162162162162162E8    -2.390633821487427E-1   3.750118017196655E-1   1.327305436134338E-1  -9.229736030101776E-2   1.328503191471100E-1  -9.144253283739090E-2  -3.173838853836060E-1   7.175947427749634E-1  
 8.186186186186186E8    -2.340820878744125E-1   3.811995387077332E-1   1.291747838258743E-1  -1.020921990275383E-1   1.293405443429947E-1  -1.012504994869232E-1  -2.956989109516144E-1   7.140203714370728E-1  
 8.210210210210210E8    -2.287643402814865E-1   3.876634538173676E-1   1.246950402855873E-1  -1.115465015172958E-1   1.250702589750290E-1  -1.110876649618149E-1  -2.731227874755859E-1   7.088966369628906E-1  
 8.234234234234234E8    -2.245695143938065E-1   3.928744196891785E-1   1.194692403078079E-1  -1.211153343319893E-1   1.198000609874725E-1  -1.205336526036263E-1  -2.511598765850067E-1   7.029208540916443E-1  
