#  HZ   S   RI   R     50.00 
! Rohde & Schwarz ZVB8 2Ports - Version 2.81 - 1145.1010k08 SN: 100113
! Date: 2016-05-03 01:38:35
! Measurements: S11 S21 S12 S22 
! 
 6.000000000000000E8     5.014098882675171E-1   2.372474670410156E-1  -1.291205175220966E-2   2.751335268840194E-3  -1.292543672025204E-2   2.729260828346014E-3  -9.620997905731201E-1  -3.320626914501190E-2  
 6.024024024024024E8     4.944714307785034E-1   2.044880539178848E-1  -1.288713142275810E-2   3.022586926817894E-3  -1.286622881889343E-2   3.100932110100985E-3  -9.616627693176270E-1  -1.861223578453064E-2  
 6.048048048048048E8     4.853932857513428E-1   1.721923053264618E-1  -1.290375273674727E-2   3.176923375576735E-3  -1.281825173646212E-2   3.170939860865474E-3  -9.604936242103577E-1  -4.210433922708035E-3  
 6.072072072072072E8     4.736281633377075E-1   1.405109763145447E-1  -1.304673030972481E-2   3.131012897938490E-3  -1.303659752011299E-2   3.112813457846642E-3  -9.594755172729492E-1   1.000836864113808E-2  
 6.096096096096096E8     4.596108496189117E-1   1.108472794294357E-1  -1.320721674710512E-2   3.069958649575710E-3  -1.318437885493040E-2   3.027365077286959E-3  -9.576723575592041E-1   2.501152083277702E-2  
 6.120120120120120E8     4.438568055629730E-1   8.539139479398727E-2  -1.353517267853022E-2   2.794916043058038E-3  -1.352173741906881E-2   2.739880466833711E-3  -9.555865526199341E-1   3.782536089420319E-2  
 6.144144144144144E8     4.271626770496368E-1   6.381703913211823E-2  -1.406750734895468E-2   2.255966886878014E-3  -1.402395591139793E-2   2.184359356760979E-3  -9.539540410041809E-1   5.210099369287491E-2  
 6.168168168168168E8     4.102614223957062E-1   4.530334845185280E-2  -1.492480933666229E-2   1.531508401967585E-3  -1.486682612448931E-2   1.448805793188512E-3  -9.515665173530579E-1   6.710027903318405E-2  
 6.192192192192192E8     3.936106264591217E-1   2.969879657030106E-2  -1.632226072251797E-2   6.177262985147536E-4  -1.622333563864231E-2   5.224703927524388E-4  -9.485869407653809E-1   8.227522671222687E-2  
 6.216216216216216E8     3.790809214115143E-1   1.714603602886200E-2  -1.828334666788578E-2  -3.675860061775893E-4  -1.834533177316189E-2  -4.714999522548169E-4  -9.446099996566773E-1   9.902799129486084E-2  
 6.240240240240240E8     3.668625056743622E-1   6.118635646998882E-3  -2.133122459053993E-2  -1.165710273198783E-3  -2.134728431701660E-2  -1.261800760403276E-3  -9.399345517158508E-1   1.146840304136276E-1  
 6.264264264264264E8     3.608328998088837E-1  -2.479638904333115E-3  -2.545313350856304E-2  -1.016097608953714E-3  -2.538461796939373E-2  -1.242522965185344E-3  -9.359022974967957E-1   1.309451311826706E-1  
 6.288288288288288E8     3.601583540439606E-1  -1.490230020135641E-2  -3.023914620280266E-2   2.556997060310096E-4  -3.015071339905262E-2   1.234423834830523E-4  -9.308415055274963E-1   1.464983820915222E-1  
 6.312312312312312E8     3.633611798286438E-1  -3.346157073974609E-2  -3.514372929930687E-2   3.319975687190890E-3  -3.513241186738014E-2   3.110492601990700E-3  -9.252876639366150E-1   1.608812361955643E-1  
 6.336336336336336E8     3.660886585712433E-1  -6.041494011878967E-2  -3.945337235927582E-2   7.921144366264343E-3  -3.948085010051727E-2   7.654946763068438E-3  -9.197297692298889E-1   1.746411472558975E-1  
 6.360360360360360E8     3.660606145858765E-1  -9.291578829288483E-2  -4.272001236677170E-2   1.362831145524979E-2  -4.269221052527428E-2   1.343467086553574E-2  -9.138702154159546E-1   1.873895078897476E-1  
 6.384384384384384E8     3.586715757846832E-1  -1.296688318252564E-1  -4.459549859166145E-2   2.017392404377461E-2  -4.452639073133469E-2   1.996676437556744E-2  -9.075428247451782E-1   2.022138386964798E-1  
 6.408408408408408E8     3.435614407062531E-1  -1.689322590827942E-1  -4.519885033369064E-2   2.694993279874325E-2  -4.505529254674912E-2   2.670565061271191E-2  -9.010500311851502E-1   2.173709422349930E-1  
 6.432432432432432E8     3.194020688533783E-1  -2.084844112396240E-1  -4.448414966464043E-2   3.362032026052475E-2  -4.447730258107185E-2   3.330783918499947E-2  -8.939608335494995E-1   2.324689328670502E-1  
 6.456456456456456E8     2.871578335762024E-1  -2.457464039325714E-1  -4.287328198552132E-2   4.007183760404587E-2  -4.304290562868118E-2   3.970929607748985E-2  -8.862431645393372E-1   2.476267367601395E-1  
 6.480480480480480E8     2.511005401611328E-1  -2.772743999958038E-1  -4.055785760283470E-2   4.612011089920998E-2  -4.073869809508324E-2   4.571438953280449E-2  -8.777853846549988E-1   2.626573741436005E-1  
 6.504504504504504E8     2.107340991497040E-1  -3.022062480449677E-1  -3.741838037967682E-2   5.182260647416115E-2  -3.753491491079330E-2   5.149612575769424E-2  -8.659068942070007E-1   2.787053883075714E-1  
 6.528528528528528E8     1.695776134729385E-1  -3.219484686851502E-1  -3.361327946186066E-2   5.701095238327980E-2  -3.381271660327911E-2   5.664500594139099E-2  -8.540253639221191E-1   2.965134084224701E-1  
 6.552552552552552E8     1.267917901277542E-1  -3.373317122459412E-1  -2.947007305920124E-2   6.139660254120827E-2  -2.956857345998287E-2   6.113327667117119E-2  -8.435039520263672E-1   3.148639798164368E-1  
 6.576576576576576E8     8.235869556665421E-2  -3.476647436618805E-1  -2.509896084666252E-2   6.553892791271210E-2  -2.521108090877533E-2   6.522986292839050E-2  -8.337537646293640E-1   3.318492770195007E-1  
 6.600600600600600E8     3.672439977526665E-2  -3.526860773563385E-1  -2.020341902971268E-2   6.906839460134506E-2  -2.041328139603138E-2   6.880472600460053E-2  -8.228316307067871E-1   3.466128408908844E-1  
 6.624624624624624E8    -7.677672430872917E-3  -3.515550196170807E-1  -1.505825296044350E-2   7.213660329580307E-2  -1.547285821288824E-2   7.175837457180023E-2  -8.072199225425720E-1   3.648857474327087E-1  
 6.648648648648648E8    -5.229320377111435E-2  -3.463254272937775E-1  -1.008436456322670E-2   7.448770105838776E-2  -1.066444348543882E-2   7.424598932266235E-2  -7.896995544433594E-1   3.830358088016510E-1  
 6.672672672672672E8    -9.458327293395996E-2  -3.362754881381989E-1  -5.112868733704090E-3   7.671163976192474E-2  -5.652547348290682E-3   7.653868943452835E-2  -7.701565623283386E-1   4.008468091487885E-1  
 6.696696696696696E8    -1.330445110797882E-1  -3.219662904739380E-1  -5.373952444642782E-5   7.829649746417999E-2  -4.556599014904350E-4   7.839401066303253E-2  -7.478990554809570E-1   4.178815782070160E-1  
 6.720720720720720E8    -1.639523804187775E-1  -3.057374358177185E-1   4.722198937088251E-3   7.937533408403397E-2   4.698378965258598E-3   7.950564473867416E-2  -7.234025001525879E-1   4.337836503982544E-1  
 6.744744744744744E8    -1.936462819576263E-1  -2.857495546340942E-1   9.323492646217346E-3   7.984167337417603E-2   9.313310496509075E-3   7.988609373569489E-2  -6.963539123535156E-1   4.492990672588348E-1  
 6.768768768768768E8    -2.199192047119141E-1  -2.638112306594849E-1   1.301546767354012E-2   7.983490824699402E-2   1.292305625975132E-2   7.976534962654114E-2  -6.652562022209168E-1   4.630418717861176E-1  
 6.792792792792792E8    -2.415502965450287E-1  -2.416300177574158E-1   1.494241133332253E-2   8.006033301353455E-2   1.470365468412638E-2   7.996512949466705E-2  -6.313025355339050E-1   4.739864468574524E-1  
 6.816816816816816E8    -2.584792077541351E-1  -2.206346839666367E-1   1.534706261008978E-2   8.191484957933426E-2   1.475048251450062E-2   8.178136497735977E-2  -5.940729379653931E-1   4.809280633926392E-1  
 6.840840840840840E8    -2.718967497348785E-1  -2.022626996040344E-1   1.476949173957110E-2   8.686161786317825E-2   1.396684069186449E-2   8.668189495801926E-2  -5.539563894271851E-1   4.826571643352509E-1  
 6.864864864864864E8    -2.831582427024841E-1  -1.865245401859283E-1   1.551928371191025E-2   9.620271623134613E-2   1.440886221826077E-2   9.602995216846466E-2  -5.120322108268738E-1   4.764954745769501E-1  
 6.888888888888888E8    -2.939448952674866E-1  -1.757166832685471E-1   2.020494639873505E-2   1.097158268094063E-1   1.888116821646690E-2   1.095299124717712E-1  -4.721049070358276E-1   4.637739062309265E-1  
 6.912912912912912E8    -3.063656091690064E-1  -1.675430089235306E-1   3.132902830839157E-2   1.250620186328888E-1   3.034735284745693E-2   1.251254528760910E-1  -4.372024238109589E-1   4.459308981895447E-1  
 6.936936936936936E8    -3.224708437919617E-1  -1.605062335729599E-1   5.025207996368408E-2   1.386117786169052E-1   4.991674050688744E-2   1.386798322200775E-1  -4.079321622848511E-1   4.266855418682098E-1  
 6.960960960960960E8    -3.434246778488159E-1  -1.513708978891373E-1   7.520975917577744E-2   1.467325538396835E-1   7.597240060567856E-2   1.466368287801743E-1  -3.817745447158814E-1   4.078042805194855E-1  
 6.984984984984984E8    -3.672488927841187E-1  -1.373528242111206E-1   1.037983298301697E-1   1.476495265960693E-1   1.058547198772430E-1   1.464037299156189E-1  -3.552711606025696E-1   3.925362229347229E-1  
 7.009009009009008E8    -3.901534080505371E-1  -1.186835393309593E-1   1.328314542770386E-1   1.406331509351730E-1   1.349876970052719E-1   1.382798552513123E-1  -3.287145793437958E-1   3.778257966041565E-1  
 7.033033033033032E8    -4.097985327243805E-1  -9.677265584468842E-2   1.599605828523636E-1   1.263631582260132E-1   1.612495929002762E-1   1.240413486957550E-1  -2.991284132003784E-1   3.587326109409332E-1  
 7.057057057057056E8    -4.260717332363129E-1  -7.383403182029724E-2   1.838745027780533E-1   1.064274236559868E-1   1.838293224573135E-1   1.057249307632446E-1  -2.685523629188538E-1   3.329896330833435E-1  
 7.081081081081080E8    -4.384301602840424E-1  -5.071357265114784E-2   2.037933170795441E-1   8.170496672391892E-2   2.024934440851212E-1   8.331664651632309E-2  -2.376278638839722E-1   2.991942763328552E-1  
 7.105105105105104E8    -4.481590092182159E-1  -2.726320549845696E-2   2.188502401113510E-1   5.360105261206627E-2   2.172122299671173E-1   5.770812556147575E-2  -2.088763266801834E-1   2.585408389568329E-1  
 7.129129129129129E8    -4.571631848812103E-1  -5.526124965399504E-3   2.283723354339600E-1   2.417241409420967E-2   2.272996604442596E-1   2.870530821382999E-2  -1.851464956998825E-1   2.102767974138260E-1  
 7.153153153153153E8    -4.659129977226257E-1   1.475257053971291E-2   2.324136793613434E-1  -5.623719189316034E-3   2.321534156799316E-1  -2.290340140461922E-3  -1.696593612432480E-1   1.554197520017624E-1  
 7.177177177177178E8    -4.750061035156250E-1   3.479823470115662E-2   2.316779792308807E-1  -3.549419716000557E-2   2.316839545965195E-1  -3.386380150914192E-2  -1.653809547424316E-1   9.666977822780609E-2  
 7.201201201201202E8    -4.839667677879334E-1   5.629345774650574E-2   2.261936217546463E-1  -6.486024707555771E-2   2.257819771766663E-1  -6.484105437994003E-2  -1.727705150842667E-1   3.675058856606484E-2  
 7.225225225225226E8    -4.930140674114227E-1   7.905904948711395E-2   2.155555188655853E-1  -9.293759614229202E-2   2.144413739442825E-1  -9.394045919179916E-2  -1.913823485374451E-1  -2.000425010919571E-2  
 7.249249249249250E8    -5.017830133438110E-1   1.034423708915710E-1   1.986678689718247E-1  -1.199422255158424E-1   1.990309655666351E-1  -1.179753467440605E-1  -2.195525467395783E-1  -7.156591117382050E-2  
 7.273273273273274E8    -5.096510052680969E-1   1.285728067159653E-1   1.781721115112305E-1  -1.420002579689026E-1   1.802147626876831E-1  -1.382543593645096E-1  -2.544931769371033E-1  -1.155515685677528E-1  
 7.297297297297298E8    -5.161853432655335E-1   1.527603119611740E-1   1.560815125703812E-1  -1.581283956766129E-1   1.587911844253540E-1  -1.552024036645889E-1  -2.940908074378967E-1  -1.508877277374268E-1  
 7.321321321321322E8    -5.214593410491943E-1   1.766076534986496E-1   1.340695619583130E-1  -1.688124090433121E-1   1.346406787633896E-1  -1.682316064834595E-1  -3.382673263549805E-1  -1.795494258403778E-1  
 7.345345345345346E8    -5.244994163513184E-1   2.029649019241333E-1   1.112511307001114E-1  -1.755527853965759E-1   1.106655821204186E-1  -1.757504045963287E-1  -3.853110074996948E-1  -2.011367827653885E-1  
 7.369369369369370E8    -5.251821875572205E-1   2.307257056236267E-1   8.964848518371582E-2  -1.787059158086777E-1   8.831098675727844E-2  -1.792145222425461E-1  -4.336144924163818E-1  -2.145448476076126E-1  
 7.393393393393394E8    -5.232630968093872E-1   2.586982548236847E-1   6.931217014789581E-2  -1.792410165071487E-1   6.802438199520111E-2  -1.795955896377564E-1  -4.809566438198090E-1  -2.206005305051804E-1  
 7.417417417417418E8    -5.191562175750732E-1   2.858017683029175E-1   5.034581571817398E-2  -1.774625182151794E-1   4.996638000011444E-2  -1.774889081716538E-1  -5.266275405883789E-1  -2.209180593490601E-1  
 7.441441441441442E8    -5.129004716873169E-1   3.115560412406921E-1   3.336062654852867E-2  -1.739144176244736E-1   3.401613235473633E-2  -1.736195236444473E-1  -5.700773000717163E-1  -2.161995619535446E-1  
 7.465465465465466E8    -5.068594813346863E-1   3.360697627067566E-1   1.927903480827808E-2  -1.692069172859192E-1   1.984666101634502E-2  -1.686810553073883E-1  -6.085881590843201E-1  -2.050266116857529E-1  
 7.489489489489490E8    -4.992851912975311E-1   3.598522245883942E-1   6.429102737456560E-3  -1.637895107269287E-1   7.313856855034828E-3  -1.631886214017868E-1  -6.447415947914124E-1  -1.909809410572052E-1  
 7.513513513513514E8    -4.898670613765717E-1   3.814719617366791E-1  -5.139323882758617E-3  -1.580317467451096E-1  -4.196492955088615E-3  -1.575502008199692E-1  -6.775079965591431E-1  -1.743108034133911E-1  
 7.537537537537538E8    -4.792222082614899E-1   4.026020169258118E-1  -1.584953069686890E-2  -1.518498212099075E-1  -1.475222129374743E-2  -1.514648050069809E-1  -7.066549658775330E-1  -1.559516042470932E-1  
 7.561561561561562E8    -4.671018421649933E-1   4.225584268569946E-1  -2.517629601061344E-2  -1.453441977500916E-1  -2.444138377904892E-2  -1.445582509040833E-1  -7.320513129234314E-1  -1.374457180500031E-1  
 7.585585585585586E8    -4.544582664966583E-1   4.425366222858429E-1  -3.328328207135201E-2  -1.382194310426712E-1  -3.258536756038666E-2  -1.373568028211594E-1  -7.524772882461548E-1  -1.155656725168228E-1  
 7.609609609609610E8    -4.419277310371399E-1   4.606808722019196E-1  -4.000288620591164E-2  -1.315169781446457E-1  -3.932843729853630E-2  -1.305297613143921E-1  -7.715901136398315E-1  -9.269715100526810E-2  
 7.633633633633634E8    -4.299607276916504E-1   4.780692458152771E-1  -4.641450569033623E-2  -1.252061873674393E-1  -4.526200145483017E-2  -1.244474574923515E-1  -7.879371643066406E-1  -7.080013304948807E-2  
 7.657657657657658E8    -4.179506301879883E-1   4.947817325592041E-1  -5.213271453976631E-2  -1.187399104237557E-1  -5.083463340997696E-2  -1.190060004591942E-1  -8.024747371673584E-1  -5.086958035826683E-2  
 7.681681681681682E8    -4.052314162254334E-1   5.114026069641113E-1  -5.742849782109261E-2  -1.124183908104897E-1  -5.637840926647186E-2  -1.133205890655518E-1  -8.163869976997376E-1  -3.252094984054565E-2  
 7.705705705705706E8    -3.928189277648926E-1   5.264914035797119E-1  -6.242476776242256E-2  -1.063077524304390E-1  -6.134352833032608E-2  -1.073153167963028E-1  -8.268830776214600E-1  -1.446512155234814E-2  
 7.729729729729730E8    -3.787906169891357E-1   5.403915047645569E-1  -6.720504909753799E-2  -9.943517297506332E-2  -6.636019796133041E-2  -1.008870899677277E-1  -8.379773497581482E-1   4.876197315752506E-3  
 7.753753753753754E8    -3.649111092090607E-1   5.523579120635986E-1  -7.112167775630951E-2  -9.243421256542206E-2  -7.053026556968689E-2  -9.374968707561493E-2  -8.468354344367981E-1   2.518246881663799E-2  
 7.777777777777778E8    -3.516204953193665E-1   5.627143979072571E-1  -7.408512383699417E-2  -8.534952998161316E-2  -7.358496636152268E-2  -8.619211614131928E-2  -8.531845808029175E-1   4.576915130019188E-2  
 7.801801801801802E8    -3.384700417518616E-1   5.726805329322815E-1  -7.609108835458756E-2  -7.872027903795242E-2  -7.534515857696533E-2  -7.864363491535187E-2  -8.558809757232666E-1   6.544261425733566E-2  
 7.825825825825826E8    -3.244308233261108E-1   5.832724571228027E-1  -7.724955677986145E-2  -7.220501452684403E-2  -7.695177197456360E-2  -7.212340831756592E-2  -8.598866462707520E-1   8.531298488378525E-2  
 7.849849849849850E8    -3.111422657966614E-1   5.947906374931335E-1  -7.840181142091751E-2  -6.612103432416916E-2  -7.771506905555725E-2  -6.616189330816269E-2  -8.622633218765259E-1   1.014142706990242E-1  
 7.873873873873874E8    -2.987892031669617E-1   6.066384911537170E-1  -7.927020639181137E-2  -6.068848446011543E-2  -7.821161299943924E-2  -6.051351502537727E-2  -8.646294474601746E-1   1.163342595100403E-1  
 7.897897897897898E8    -2.842603623867035E-1   6.191633939743042E-1  -7.985249906778336E-2  -5.526850745081902E-2  -7.902097702026367E-2  -5.523840337991715E-2  -8.681188821792603E-1   1.307302415370941E-1  
 7.921921921921922E8    -2.670566737651825E-1   6.313098073005676E-1  -8.004052191972733E-2  -4.971551895141602E-2  -7.968394458293915E-2  -5.015457421541214E-2  -8.731087446212769E-1   1.458735615015030E-1  
 7.945945945945946E8    -2.513962686061859E-1   6.430511474609375E-1  -8.005931228399277E-2  -4.466593265533447E-2  -7.952746003866196E-2  -4.541432484984398E-2  -8.738108873367310E-1   1.615533828735352E-1  
 7.969969969969970E8    -2.358089089393616E-1   6.517738103866577E-1  -7.981961965560913E-2  -4.000430554151535E-2  -7.940374314785004E-2  -4.076726734638214E-2  -8.743789792060852E-1   1.771309673786163E-1  
 7.993993993993994E8    -2.202476710081101E-1   6.584907174110413E-1  -7.941039651632309E-2  -3.570371121168137E-2  -7.922846078872681E-2  -3.625318035483360E-2  -8.745902776718140E-1   1.934581845998764E-1  
 8.018018018018018E8    -2.037038952112198E-1   6.640319824218750E-1  -7.882460206747055E-2  -3.147439286112785E-2  -7.874307781457901E-2  -3.170478343963623E-2  -8.740673661231995E-1   2.099207639694214E-1  
 8.042042042042042E8    -1.864268481731415E-1   6.704525947570801E-1  -7.834279537200928E-2  -2.730597555637360E-2  -7.819449156522751E-2  -2.744506299495697E-2  -8.737640380859375E-1   2.236371487379074E-1  
 8.066066066066066E8    -1.694430559873581E-1   6.765033602714539E-1  -7.758921384811401E-2  -2.319265902042389E-2  -7.739765942096710E-2  -2.330110780894756E-2  -8.727656602859497E-1   2.397192567586899E-1  
 8.090090090090090E8    -1.524197012186050E-1   6.814920306205750E-1  -7.670270651578903E-2  -1.927434653043747E-2  -7.651419937610626E-2  -1.941283792257309E-2  -8.710706830024719E-1   2.548398077487946E-1  
 8.114114114114114E8    -1.361357122659683E-1   6.853250861167908E-1  -7.561343908309937E-2  -1.563909649848938E-2  -7.546403259038925E-2  -1.580836623907089E-2  -8.691998124122620E-1   2.684208750724793E-1  
 8.138138138138138E8    -1.200545877218247E-1   6.881808042526245E-1  -7.449551671743393E-2  -1.202363334596157E-2  -7.429871708154678E-2  -1.218083593994379E-2  -8.666859865188599E-1   2.816967368125916E-1  
 8.162162162162162E8    -1.046844273805618E-1   6.908057332038879E-1  -7.323785871267319E-2  -8.510211482644081E-3  -7.315833866596222E-2  -8.769442327320576E-3  -8.646574020385742E-1   2.941064238548279E-1  
 8.186186186186186E8    -9.225744009017944E-2   6.916382908821106E-1  -7.198450714349747E-2  -5.332063417881727E-3  -7.184230536222458E-2  -5.501241888850927E-3  -8.623934388160706E-1   3.071331381797791E-1  
 8.210210210210210E8    -7.900153845548630E-2   6.924247741699219E-1  -7.036633789539337E-2  -2.051234710961580E-3  -7.027537375688553E-2  -2.300342079252005E-3  -8.590852022171021E-1   3.208328485488892E-1  
 8.234234234234234E8    -6.630332022905350E-2   6.933616995811462E-1  -6.862670928239822E-2   1.186218112707138E-3  -6.844154000282288E-2   8.704278152436018E-4  -8.558658957481384E-1   3.336379230022430E-1  
