#  HZ   S   RI   R     50.00 
! Rohde & Schwarz ZVB8 2Ports - Version 2.81 - 1145.1010k08 SN: 100113
! Date: 2016-05-03 01:37:40
! Measurements: S11 S21 S12 S22 
! 
 6.000000000000000E8     5.072345137596130E-1   3.112370371818543E-1  -7.742785848677158E-3   4.519390931818634E-4  -7.716976571828127E-3   4.430473200045526E-4  -9.688540697097778E-1  -9.024427831172943E-2  
 6.024024024024024E8     5.046212673187256E-1   2.782209217548370E-1  -7.736980915069580E-3   6.085722125135362E-4  -7.751176599413157E-3   5.182417226023972E-4  -9.692572355270386E-1  -7.838851213455200E-2  
 6.048048048048048E8     4.992704987525940E-1   2.458463162183762E-1  -7.705661468207836E-3   5.720687331631780E-4  -7.720168214291334E-3   5.601979210041463E-4  -9.700155258178711E-1  -6.713364273309708E-2  
 6.072072072072072E8     4.916245639324188E-1   2.140164226293564E-1  -7.735182065516710E-3   5.251975380815566E-4  -7.674139924347401E-3   4.797090950887650E-4  -9.702601432800293E-1  -5.489075928926468E-2  
 6.096096096096096E8     4.814144968986511E-1   1.851214617490768E-1  -7.812196854501963E-3   3.282341058366001E-4  -7.837999612092972E-3   3.611846477724612E-4  -9.703705310821533E-1  -4.299795255064964E-2  
 6.120120120120120E8     4.688157737255096E-1   1.615288257598877E-1  -7.868112996220589E-3   1.067946795956232E-4  -7.867434062063694E-3   1.238963013747707E-4  -9.699992537498474E-1  -3.331014141440392E-2  
 6.144144144144144E8     4.561933577060700E-1   1.411288082599640E-1  -8.030016906559467E-3  -2.804698597174138E-4  -8.040060289204121E-3  -2.384100953349844E-4  -9.705266952514648E-1  -2.228108793497086E-2  
 6.168168168168168E8     4.435566961765289E-1   1.216611862182617E-1  -8.313599042594433E-3  -8.705033687874675E-4  -8.271957747638226E-3  -8.719575707800686E-4  -9.705982804298401E-1  -1.085838582366705E-2  
 6.192192192192192E8     4.315186142921448E-1   1.049095019698143E-1  -8.959067054092884E-3  -1.550833694636822E-3  -8.964729495346546E-3  -1.607487327419221E-3  -9.700542688369751E-1   1.429355586878955E-3  
 6.216216216216216E8     4.211526215076447E-1   8.991619944572449E-2  -9.927592240273953E-3  -2.326924121007323E-3  -1.002582162618637E-2  -2.426216611638665E-3  -9.692792296409607E-1   1.389816310256720E-2  
 6.240240240240240E8     4.130428731441498E-1   7.723239064216614E-2  -1.146319322288036E-2  -3.050807164981961E-3  -1.141362078487873E-2  -3.119232831522822E-3  -9.680959582328796E-1   2.615273371338844E-2  
 6.264264264264264E8     4.096799194812775E-1   6.596795469522476E-2  -1.354598253965378E-2  -3.434965386986733E-3  -1.354394946247339E-2  -3.514087758958340E-3  -9.677408337593079E-1   3.893295302987099E-2  
 6.288288288288288E8     4.110231399536133E-1   5.198088288307190E-2  -1.594175957143307E-2  -3.247410990297794E-3  -1.590871997177601E-2  -3.330903826281428E-3  -9.667386412620544E-1   5.073771253228188E-2  
 6.312312312312312E8     4.164529740810394E-1   3.415413573384285E-2  -1.851361617445946E-2  -2.392063848674297E-3  -1.850016228854656E-2  -2.487508347257972E-3  -9.654165506362915E-1   6.154251098632813E-2  
 6.336336336336336E8     4.222981333732605E-1   9.830519556999207E-3  -2.103744633495808E-2  -7.379244198091328E-4  -2.102052047848702E-2  -9.202908258885145E-4  -9.641226530075073E-1   7.149892300367355E-2  
 6.360360360360360E8     4.263659417629242E-1  -2.087018638849258E-2  -2.316770516335964E-2   1.480274833738804E-3  -2.305492945015431E-2   1.436342718079686E-3  -9.627436399459839E-1   8.077225834131241E-2  
 6.384384384384384E8     4.253610372543335E-1  -5.617720633745194E-2  -2.467445284128189E-2   4.216862376779318E-3  -2.462706156075001E-2   4.157812800258398E-3  -9.613558650016785E-1   9.186784178018570E-2  
 6.408408408408408E8     4.175266623497009E-1  -9.620290994644165E-2  -2.567558921873570E-2   7.274101488292217E-3  -2.563624270260334E-2   7.116206455975771E-3  -9.597052335739136E-1   1.031086370348930E-1  
 6.432432432432432E8     4.019373953342438E-1  -1.375844478607178E-1  -2.599327079951763E-2   1.036150008440018E-2  -2.594202198088169E-2   1.019910350441933E-2  -9.579399228096008E-1   1.140270307660103E-1  
 6.456456456456456E8     3.792122602462769E-1  -1.779846698045731E-1  -2.582716569304466E-2   1.328869350254536E-2  -2.584579959511757E-2   1.309414394199848E-2  -9.561480879783630E-1   1.243382319808006E-1  
 6.480480480480480E8     3.515360951423645E-1  -2.148990035057068E-1  -2.529582194983959E-2   1.605564542114735E-2  -2.532889507710934E-2   1.592222042381764E-2  -9.541864395141602E-1   1.342451870441437E-1  
 6.504504504504504E8     3.181780576705933E-1  -2.470735460519791E-1  -2.440253086388111E-2   1.875139214098454E-2  -2.439724095165730E-2   1.849558949470520E-2  -9.493922591209412E-1   1.451051980257034E-1  
 6.528528528528528E8     2.820609509944916E-1  -2.749664187431335E-1  -2.314952202141285E-2   2.120807766914368E-2  -2.323010005056858E-2   2.102708630263805E-2  -9.453197121620178E-1   1.576317101716995E-1  
 6.552552552552552E8     2.436717152595520E-1  -2.982495129108429E-1  -2.171094343066216E-2   2.325402200222015E-2  -2.175703644752502E-2   2.310169115662575E-2  -9.434410333633423E-1   1.704682409763336E-1  
 6.576576576576576E8     2.035644650459290E-1  -3.167453706264496E-1  -2.011187560856342E-2   2.497720159590244E-2  -2.016632445156574E-2   2.481169626116753E-2  -9.430949687957764E-1   1.812073290348053E-1  
 6.600600600600600E8     1.617709249258041E-1  -3.307870030403137E-1  -1.837366446852684E-2   2.647037804126740E-2  -1.840602234005928E-2   2.631679736077786E-2  -9.431651830673218E-1   1.900089085102081E-1  
 6.624624624624624E8     1.207349151372910E-1  -3.388939797878265E-1  -1.654854789376259E-2   2.759181894361973E-2  -1.656542904675007E-2   2.751697041094303E-2  -9.404454231262207E-1   2.021376341581345E-1  
 6.648648648648648E8     7.711079716682434E-2  -3.438664972782135E-1  -1.473416574299336E-2   2.836753055453301E-2  -1.489429362118244E-2   2.822661586105824E-2  -9.373074173927307E-1   2.134531140327454E-1  
 6.672672672672672E8     3.512242436408997E-2  -3.441850841045380E-1  -1.311926636844873E-2   2.903336472809315E-2  -1.332930289208889E-2   2.882152236998081E-2  -9.338567256927490E-1   2.245989590883255E-1  
 6.696696696696696E8    -4.235801752656698E-3  -3.400685787200928E-1  -1.155877765268087E-2   2.924537286162376E-2  -1.174545288085938E-2   2.913502603769302E-2  -9.301698207855225E-1   2.354455590248108E-1  
 6.720720720720720E8    -3.737540170550346E-2  -3.334506154060364E-1  -1.021565962582827E-2   2.909787371754646E-2  -1.032618898898363E-2   2.899139933288097E-2  -9.263343214988709E-1   2.460545450448990E-1  
 6.744744744744744E8    -7.155134528875351E-2  -3.232008218765259E-1  -9.346541017293930E-3   2.858775667846203E-2  -9.330471046268940E-3   2.860975079238415E-2  -9.222050309181213E-1   2.579312324523926E-1  
 6.768768768768768E8    -1.039515286684036E-1  -3.099438846111298E-1  -8.830234408378601E-3   2.788495086133480E-2  -8.923112414777279E-3   2.786953747272492E-2  -9.177097678184509E-1   2.696228027343750E-1  
 6.792792792792792E8    -1.323856860399246E-1  -2.943930327892304E-1  -9.255805984139442E-3   2.705526538193226E-2  -9.324165061116219E-3   2.705199643969536E-2  -9.129762649536133E-1   2.811014056205750E-1  
 6.816816816816816E8    -1.559927314519882E-1  -2.772279977798462E-1  -1.065814401954413E-2   2.653534524142742E-2  -1.074723340570927E-2   2.644465863704681E-2  -9.078097939491272E-1   2.927453219890595E-1  
 6.840840840840840E8    -1.743875443935394E-1  -2.609753906726837E-1  -1.305589266121388E-2   2.694433741271496E-2  -1.319795288145542E-2   2.679925411939621E-2  -9.024341702461243E-1   3.045070171356201E-1  
 6.864864864864864E8    -1.880696564912796E-1  -2.465958446264267E-1  -1.612980104982853E-2   2.872353792190552E-2  -1.643253490328789E-2   2.851011231541634E-2  -8.958947062492371E-1   3.149709701538086E-1  
 6.888888888888888E8    -1.996388435363770E-1  -2.382369786500931E-1  -1.916471496224403E-2   3.252073004841805E-2  -1.950992271304131E-2   3.215705230832100E-2  -8.887460827827454E-1   3.260008990764618E-1  
 6.912912912912912E8    -2.110385000705719E-1  -2.368006706237793E-1  -2.122301235795021E-2   3.826588019728661E-2  -2.156773582100868E-2   3.798443451523781E-2  -8.820884823799133E-1   3.363327682018280E-1  
 6.936936936936936E8    -2.279143780469894E-1  -2.408055216073990E-1  -2.130787260830402E-2   4.533468559384346E-2  -2.151512168347836E-2   4.505507647991180E-2  -8.758691549301148E-1   3.464556038379669E-1  
 6.960960960960960E8    -2.541496753692627E-1  -2.448852658271790E-1  -1.888045482337475E-2   5.257940292358398E-2  -1.885093562304974E-2   5.245650187134743E-2  -8.701198101043701E-1   3.561629652976990E-1  
 6.984984984984984E8    -2.882532179355621E-1  -2.432113885879517E-1  -1.438469905406237E-2   5.889099091291428E-2  -1.362587511539459E-2   5.896213278174400E-2  -8.630062341690064E-1   3.701742589473724E-1  
 7.009009009009008E8    -3.269579112529755E-1  -2.327376306056976E-1  -8.584395051002502E-3   6.368647515773773E-2  -7.300627417862415E-3   6.370090693235397E-2  -8.562549948692322E-1   3.831478953361511E-1  
 7.033033033033032E8    -3.641015291213989E-1  -2.137808501720429E-1  -1.875514863058925E-3   6.678266078233719E-2  -8.616360137239099E-4   6.659616529941559E-2  -8.503448963165283E-1   3.935913741588593E-1  
 7.057057057057056E8    -3.979557454586029E-1  -1.888273358345032E-1   4.619079176336527E-3   6.840144097805023E-2   4.959359299391508E-3   6.829361617565155E-2  -8.457060456275940E-1   4.009207785129547E-1  
 7.081081081081080E8    -4.269388318061829E-1  -1.582094579935074E-1   1.098066195845604E-2   6.921264529228210E-2   1.045078039169312E-2   6.923420727252960E-2  -8.403018712997437E-1   4.094527959823608E-1  
 7.105105105105104E8    -4.502150416374207E-1  -1.246352717280388E-1   1.712348312139511E-2   6.933992356061935E-2   1.579011604189873E-2   6.960605084896088E-2  -8.346106410026550E-1   4.189613163471222E-1  
 7.129129129129129E8    -4.672381877899170E-1  -9.252592176198959E-2   2.251324988901615E-2   6.902371346950531E-2   2.122085727751255E-2   6.944167613983154E-2  -8.277432322502136E-1   4.302863180637360E-1  
 7.153153153153153E8    -4.809883832931519E-1  -6.125418841838837E-2   2.736650407314301E-2   6.834169477224350E-2   2.638821303844452E-2   6.871283054351807E-2  -8.194854855537415E-1   4.429160058498383E-1  
 7.177177177177178E8    -4.932603836059570E-1  -3.005262650549412E-2   3.189704939723015E-2   6.768504530191422E-2   3.151712194085121E-2   6.786606460809708E-2  -8.101609349250794E-1   4.563552737236023E-1  
 7.201201201201202E8    -5.027214884757996E-1   1.510699279606342E-3   3.658779338002205E-2   6.686122715473175E-2   3.637774661183357E-2   6.675422191619873E-2  -8.011562824249268E-1   4.693385362625122E-1  
 7.225225225225226E8    -5.103258490562439E-1   3.416017442941666E-2   4.122430831193924E-2   6.561601907014847E-2   4.108265787363052E-2   6.552575528621674E-2  -7.910087108612061E-1   4.827882051467896E-1  
 7.249249249249250E8    -5.150771141052246E-1   6.804606318473816E-2   4.632346332073212E-2   6.398011744022369E-2   4.532057791948319E-2   6.439913809299469E-2  -7.821428775787354E-1   4.927937686443329E-1  
 7.273273273273274E8    -5.168289542198181E-1   1.000557243824005E-1   5.098961293697357E-2   6.209319829940796E-2   4.945613071322441E-2   6.291820853948593E-2  -7.729393839836121E-1   5.026817917823792E-1  
 7.297297297297298E8    -5.170659422874451E-1   1.295000761747360E-1   5.521777644753456E-2   6.023685261607170E-2   5.397888273000717E-2   6.100904569029808E-2  -7.633447647094727E-1   5.131554603576660E-1  
 7.321321321321322E8    -5.155686736106873E-1   1.572520881891251E-1   5.899644643068314E-2   5.839483812451363E-2   5.871006101369858E-2   5.847069248557091E-2  -7.533465027809143E-1   5.243274569511414E-1  
 7.345345345345346E8    -5.120421051979065E-1   1.858525425195694E-1   6.284971535205841E-2   5.598761513829231E-2   6.277287751436234E-2   5.564315989613533E-2  -7.421765327453613E-1   5.361624360084534E-1  
 7.369369369369370E8    -5.066353082656860E-1   2.124762535095215E-1   6.644594669342041E-2   5.346100032329559E-2   6.661318242549896E-2   5.282388255000114E-2  -7.302262783050537E-1   5.483395457267761E-1  
 7.393393393393394E8    -4.994628727436066E-1   2.368125915527344E-1   6.989666074514389E-2   5.097642168402672E-2   7.005375623703003E-2   5.020349100232124E-2  -7.180450558662415E-1   5.596004724502564E-1  
 7.417417417417418E8    -4.914823472499847E-1   2.602141499519348E-1   7.335207611322403E-2   4.831214621663094E-2   7.335902750492096E-2   4.775585979223251E-2  -7.057336568832398E-1   5.697833895683289E-1  
 7.441441441441442E8    -4.826950132846832E-1   2.831667363643646E-1   7.681376487016678E-2   4.550461471080780E-2   7.652934640645981E-2   4.557717591524124E-2  -6.937068700790405E-1   5.788179039955139E-1  
 7.465465465465466E8    -4.742862880229950E-1   3.044924437999725E-1   8.004849404096603E-2   4.297517612576485E-2   7.967045903205872E-2   4.334301128983498E-2  -6.796721220016480E-1   5.900502204895020E-1  
 7.489489489489490E8    -4.656693339347839E-1   3.249664604663849E-1   8.346401154994965E-2   4.086269065737724E-2   8.315913379192352E-2   4.145395755767822E-2  -6.664338111877441E-1   6.003816127777100E-1  
 7.513513513513514E8    -4.552804529666901E-1   3.452347815036774E-1   8.758935332298279E-2   3.845292702317238E-2   8.730163425207138E-2   3.938151523470879E-2  -6.529437899589539E-1   6.101763844490051E-1  
 7.537537537537538E8    -4.427326321601868E-1   3.655318319797516E-1   9.222124516963959E-2   3.540064394474030E-2   9.201082587242127E-2   3.652753308415413E-2  -6.377781033515930E-1   6.202619075775147E-1  
 7.561561561561562E8    -4.286530911922455E-1   3.832204341888428E-1   9.714297205209732E-2   3.205373510718346E-2   9.678687900304794E-2   3.280345350503922E-2  -6.213864684104919E-1   6.281307935714722E-1  
 7.585585585585586E8    -4.145040214061737E-1   3.991224467754364E-1   1.018920689821243E-1   2.796091884374619E-2   1.014367789030075E-1   2.840392291545868E-2  -6.024146676063538E-1   6.375452280044556E-1  
 7.609609609609610E8    -4.012845158576965E-1   4.125885665416718E-1   1.066581755876541E-1   2.334040962159634E-2   1.057569608092308E-1   2.360092476010323E-2  -5.835614204406738E-1   6.459872126579285E-1  
 7.633633633633634E8    -3.892371058464050E-1   4.239315092563629E-1   1.112921014428139E-1   1.821220479905605E-2   1.102352440357208E-1   1.857723109424114E-2  -5.651055574417114E-1   6.529313921928406E-1  
 7.657657657657658E8    -3.776402473449707E-1   4.357048571109772E-1   1.156953498721123E-1   1.248491555452347E-2   1.147889643907547E-1   1.321096811443567E-2  -5.476885437965393E-1   6.582078933715820E-1  
 7.681681681681682E8    -3.656160235404968E-1   4.471050798892975E-1   1.198691502213478E-1   6.396199576556683E-3   1.196260079741478E-1   7.251500152051449E-3  -5.312729477882385E-1   6.623011827468872E-1  
 7.705705705705706E8    -3.543303906917572E-1   4.572386145591736E-1   1.238775849342346E-1  -4.143566475249827E-4   1.238366886973381E-1   6.490185623988509E-4  -5.137703418731690E-1   6.663678884506226E-1  
 7.729729729729730E8    -3.425424396991730E-1   4.661844372749329E-1   1.272297948598862E-1  -8.285474032163620E-3   1.281022131443024E-1  -7.011651061475277E-3  -4.950779974460602E-1   6.726504564285278E-1  
 7.753753753753754E8    -3.318687677383423E-1   4.739984273910523E-1   1.298872977495194E-1  -1.678166911005974E-2   1.310550719499588E-1  -1.556919515132904E-2  -4.734541773796082E-1   6.786798834800720E-1  
 7.777777777777778E8    -3.222061097621918E-1   4.809394478797913E-1   1.319299936294556E-1  -2.538955956697464E-2   1.327142715454102E-1  -2.439571917057037E-2  -4.492169022560120E-1   6.820512413978577E-1  
 7.801801801801802E8    -3.135133981704712E-1   4.881338775157929E-1   1.336079388856888E-1  -3.376431018114090E-2   1.334647834300995E-1  -3.266298025846481E-2  -4.232464134693146E-1   6.814881563186646E-1  
 7.825825825825826E8    -3.034529089927673E-1   4.963755905628204E-1   1.344835460186005E-1  -4.239260032773018E-2   1.344480067491531E-1  -4.183883219957352E-2  -3.968108296394348E-1   6.812855601310730E-1  
 7.849849849849850E8    -2.945471405982971E-1   5.043736100196838E-1   1.352693438529968E-1  -5.169651284813881E-2   1.352542191743851E-1  -5.063983425498009E-2  -3.732515573501587E-1   6.778219342231751E-1  
 7.873873873873874E8    -2.866709828376770E-1   5.134912729263306E-1   1.357290446758270E-1  -6.142895668745041E-2   1.354779005050659E-1  -6.006862595677376E-2  -3.500128090381622E-1   6.738062500953674E-1  
 7.897897897897898E8    -2.777892947196960E-1   5.223456025123596E-1   1.355747580528259E-1  -7.149191200733185E-2   1.352910250425339E-1  -7.037737965583801E-2  -3.258371949195862E-1   6.702035665512085E-1  
 7.921921921921922E8    -2.670441865921021E-1   5.319579243659973E-1   1.344386339187622E-1  -8.198009431362152E-2   1.346163898706436E-1  -8.140907436609268E-2  -3.013056516647339E-1   6.666302084922791E-1  
 7.945945945945946E8    -2.572032809257507E-1   5.417167544364929E-1   1.325672268867493E-1  -9.310129284858704E-2   1.329777240753174E-1  -9.204098582267761E-2  -2.736411392688751E-1   6.584341526031494E-1  
 7.969969969969970E8    -2.471554875373840E-1   5.494318604469299E-1   1.297031491994858E-1  -1.043634191155434E-1   1.303168237209320E-1  -1.033064350485802E-1  -2.462092041969299E-1   6.480453610420227E-1  
 7.993993993993994E8    -2.379646748304367E-1   5.559439063072205E-1   1.259617805480957E-1  -1.158589571714401E-1   1.263819038867950E-1  -1.149694174528122E-1  -2.190189510583878E-1   6.351903676986694E-1  
 8.018018018018018E8    -2.273362278938294E-1   5.625943541526794E-1   1.208368837833405E-1  -1.275345534086227E-1   1.210449859499931E-1  -1.270667016506195E-1  -1.912980973720551E-1   6.194573640823364E-1  
 8.042042042042042E8    -2.167997956275940E-1   5.700272917747498E-1   1.145601943135262E-1  -1.397123485803604E-1   1.147832125425339E-1  -1.391133069992065E-1  -1.663744449615479E-1   6.009988188743591E-1  
 8.066066066066066E8    -2.060323655605316E-1   5.772091150283814E-1   1.061097979545593E-1  -1.518141180276871E-1   1.066615805029869E-1  -1.511477828025818E-1  -1.405408680438995E-1   5.803812742233276E-1  
 8.090090090090090E8    -1.958640813827515E-1   5.838211178779602E-1   9.607047587633133E-2  -1.632423251867294E-1   9.672845900058746E-2  -1.627130508422852E-1  -1.165442168712616E-1   5.563317537307739E-1  
 8.114114114114114E8    -1.865452975034714E-1   5.900456309318543E-1   8.438012748956680E-2  -1.738908141851425E-1   8.505915850400925E-2  -1.733825355768204E-1  -9.514490514993668E-2   5.287911891937256E-1  
 8.138138138138138E8    -1.783958524465561E-1   5.962255001068115E-1   7.128543406724930E-2  -1.832537204027176E-1   7.200396060943604E-2  -1.827095299959183E-1  -7.688788324594498E-2   4.991238713264465E-1  
 8.162162162162162E8    -1.698007583618164E-1   6.029312014579773E-1   5.716600269079208E-2  -1.911832988262177E-1   5.788188055157661E-2  -1.905873566865921E-1  -6.109497323632240E-2   4.677664935588837E-1  
 8.186186186186186E8    -1.617680191993713E-1   6.097178459167481E-1   4.217563942074776E-2  -1.974721848964691E-1   4.281878098845482E-2  -1.967228353023529E-1  -4.786103218793869E-2   4.344865977764130E-1  
 8.210210210210210E8    -1.527774930000305E-1   6.167286038398743E-1   2.651281654834747E-2  -2.018751353025436E-1   2.676426060497761E-2  -2.016037851572037E-1  -3.746543079614639E-2   3.989493250846863E-1  
 8.234234234234234E8    -1.442012041807175E-1   6.238910555839539E-1   9.577798657119274E-3  -2.045199871063232E-1   9.990250691771507E-3  -2.042800784111023E-1  -3.100633807480335E-2   3.627535998821259E-1  
