#  HZ   S   RI   R     50.00 
! Rohde & Schwarz ZVB8 2Ports - Version 2.81 - 1145.1010k08 SN: 100113
! Date: 2016-05-03 01:37:03
! Measurements: S11 S21 S12 S22 
! 
 6.000000000000000E8     3.463281095027924E-1   7.190563082695007E-1  -4.227754194289446E-3  -1.405718387104571E-3  -4.265089519321919E-3  -1.428855117410421E-3  -9.691371321678162E-1  -1.071450039744377E-1  
 6.024024024024024E8     3.609595298767090E-1   7.039380073547363E-1  -4.263966809958220E-3  -1.357757137157023E-3  -4.243724048137665E-3  -1.277725095860660E-3  -9.701099991798401E-1  -9.619739651679993E-2  
 6.048048048048048E8     3.753771781921387E-1   6.882289648056030E-1  -4.153630230575800E-3  -1.444159774109721E-3  -4.206263460218906E-3  -1.444717170670629E-3  -9.708631634712219E-1  -8.491535484790802E-2  
 6.072072072072072E8     3.898922502994537E-1   6.707164049148560E-1  -4.133920185267925E-3  -1.493632211349905E-3  -4.120322410017252E-3  -1.533635659143329E-3  -9.715749025344849E-1  -7.337021082639694E-2  
 6.096096096096096E8     4.028832018375397E-1   6.524569988250732E-1  -4.101176746189594E-3  -1.701745204627514E-3  -4.124847706407309E-3  -1.632934203371406E-3  -9.718712568283081E-1  -6.180945038795471E-2  
 6.120120120120120E8     4.121082127094269E-1   6.358047127723694E-1  -4.074796102941036E-3  -1.829955028370023E-3  -4.126324318349361E-3  -1.864146790467203E-3  -9.716835021972656E-1  -5.331052094697952E-2  
 6.144144144144144E8     4.203018248081207E-1   6.202359795570374E-1  -4.040131811052561E-3  -2.170697785913944E-3  -4.034920129925013E-3  -2.189748920500279E-3  -9.724889397621155E-1  -4.271258786320686E-2  
 6.168168168168168E8     4.273773133754730E-1   6.050711870193481E-1  -4.030441399663687E-3  -2.644490450620651E-3  -4.007955547422171E-3  -2.690167399123311E-3  -9.728481173515320E-1  -3.171009570360184E-2  
 6.192192192192192E8     4.340361058712006E-1   5.909745693206787E-1  -4.148762673139572E-3  -3.247547429054976E-3  -4.141059704124928E-3  -3.270386718213558E-3  -9.730113744735718E-1  -2.017410658299923E-2  
 6.216216216216216E8     4.406794309616089E-1   5.781080722808838E-1  -4.469779785722494E-3  -4.032911732792854E-3  -4.426377825438976E-3  -4.033517092466354E-3  -9.726041555404663E-1  -8.191050030291081E-3  
 6.240240240240240E8     4.479006230831146E-1   5.665668845176697E-1  -5.075633991509676E-3  -4.804526921361685E-3  -5.034662783145905E-3  -4.936709534376860E-3  -9.721473455429077E-1   3.311453387141228E-3  
 6.264264264264264E8     4.560130536556244E-1   5.576959252357483E-1  -6.031204946339130E-3  -5.680083762854338E-3  -5.954716354608536E-3  -5.673299543559551E-3  -9.717221260070801E-1   1.541923731565476E-2  
 6.288288288288288E8     4.666081964969635E-1   5.496169328689575E-1  -7.318410556763411E-3  -6.245235912501812E-3  -7.262128870934248E-3  -6.379563827067614E-3  -9.715883135795593E-1   2.640536241233349E-2  
 6.312312312312312E8     4.797531068325043E-1   5.413543581962585E-1  -8.920192718505859E-3  -6.570340134203434E-3  -8.831012994050980E-3  -6.641839630901814E-3  -9.707371592521668E-1   3.662096336483955E-2  
 6.336336336336336E8     4.959488213062286E-1   5.314440131187439E-1  -1.062230579555035E-2  -6.463888101279736E-3  -1.048187818378210E-2  -6.487763952463865E-3  -9.700406193733215E-1   4.620382189750671E-2  
 6.360360360360360E8     5.140345692634583E-1   5.187583565711975E-1  -1.214473694562912E-2  -5.923158954828978E-3  -1.204417180269957E-2  -5.991163197904825E-3  -9.689195156097412E-1   5.479400232434273E-2  
 6.384384384384384E8     5.329083800315857E-1   5.036878585815430E-1  -1.357599068433046E-2  -5.171959288418293E-3  -1.349800825119019E-2  -5.129267461597920E-3  -9.682974815368652E-1   6.549021601676941E-2  
 6.408408408408408E8     5.517447590827942E-1   4.846851825714111E-1  -1.477904617786408E-2  -4.137603566050530E-3  -1.469878386706114E-2  -4.110014531761408E-3  -9.673353433609009E-1   7.580668479204178E-2  
 6.432432432432432E8     5.694115757942200E-1   4.619735181331635E-1  -1.576959714293480E-2  -2.948865294456482E-3  -1.570778898894787E-2  -2.985381754115224E-3  -9.661769270896912E-1   8.598370850086212E-2  
 6.456456456456456E8     5.850594639778137E-1   4.366715252399445E-1  -1.650920510292053E-2  -1.792509108781815E-3  -1.652542687952519E-2  -1.801707316190004E-3  -9.649584293365479E-1   9.576617926359177E-2  
 6.480480480480480E8     5.986760854721069E-1   4.095014333724976E-1  -1.716334000229836E-2  -5.181528977118433E-4  -1.714295335114002E-2  -5.936810048297048E-4  -9.635966420173645E-1   1.049077734351158E-1  
 6.504504504504504E8     6.099591255187988E-1   3.823650479316711E-1  -1.764022558927536E-2   6.862736190669239E-4  -1.759263314306736E-2   6.232226151041687E-4  -9.594978690147400E-1   1.150652617216110E-1  
 6.528528528528528E8     6.189447641372681E-1   3.540726006031036E-1  -1.797680743038654E-2   1.965019386261702E-3  -1.788268238306046E-2   1.901582465507090E-3  -9.561371803283691E-1   1.265982389450073E-1  
 6.552552552552552E8     6.259871125221252E-1   3.247926235198975E-1  -1.813899911940098E-2   3.142472589388490E-3  -1.813974417746067E-2   3.039199858903885E-3  -9.548189043998718E-1   1.384514421224594E-1  
 6.576576576576576E8     6.303024291992188E-1   2.948010861873627E-1  -1.821718551218510E-2   4.223928321152926E-3  -1.821618527173996E-2   4.112198483198881E-3  -9.554293155670166E-1   1.484945714473724E-1  
 6.600600600600600E8     6.330897808074951E-1   2.638009190559387E-1  -1.823319867253304E-2   5.340865347534418E-3  -1.807797513902187E-2   5.245148204267025E-3  -9.560765624046326E-1   1.565341353416443E-1  
 6.624624624624624E8     6.335714459419251E-1   2.353266328573227E-1  -1.800741255283356E-2   6.322407163679600E-3  -1.805565319955349E-2   6.206343416124582E-3  -9.541975259780884E-1   1.672514528036118E-1  
 6.648648648648648E8     6.321629285812378E-1   2.058693319559097E-1  -1.783371903002262E-2   7.183940149843693E-3  -1.781833171844482E-2   7.061974145472050E-3  -9.520345330238342E-1   1.777179241180420E-1  
 6.672672672672672E8     6.283681392669678E-1   1.763635128736496E-1  -1.763098314404488E-2   7.925354875624180E-3  -1.754479482769966E-2   7.714462466537952E-3  -9.495207667350769E-1   1.878945827484131E-1  
 6.696696696696696E8     6.222128868103027E-1   1.473781764507294E-1  -1.735499314963818E-2   8.570667356252670E-3  -1.734649762511253E-2   8.451290428638458E-3  -9.471382498741150E-1   1.977392137050629E-1  
 6.720720720720720E8     6.141884326934815E-1   1.195042878389359E-1  -1.698966696858406E-2   9.053487330675125E-3  -1.700704731047154E-2   8.922124281525612E-3  -9.441689848899841E-1   2.071065604686737E-1  
 6.744744744744744E8     6.046400666236877E-1   9.457368403673172E-2  -1.664855517446995E-2   9.254022501409054E-3  -1.664238423109055E-2   9.223547764122486E-3  -9.415496587753296E-1   2.177034020423889E-1  
 6.768768768768768E8     5.933291912078857E-1   7.086357474327087E-2  -1.648487336933613E-2   9.226584807038307E-3  -1.645802147686482E-2   9.208047762513161E-3  -9.386094212532044E-1   2.283980846405029E-1  
 6.792792792792792E8     5.804827213287354E-1   4.969598352909088E-2  -1.644789613783360E-2   8.886660449206829E-3  -1.650423929095268E-2   8.781879208981991E-3  -9.353018999099731E-1   2.385390996932983E-1  
 6.816816816816816E8     5.677248835563660E-1   3.205645829439163E-2  -1.698770187795162E-2   8.208782412111759E-3  -1.702048815786839E-2   8.098492398858070E-3  -9.320451617240906E-1   2.492427825927734E-1  
 6.840840840840840E8     5.561690926551819E-1   1.764843799173832E-2  -1.829713024199009E-2   7.463504560291767E-3  -1.829905435442925E-2   7.407939061522484E-3  -9.284629821777344E-1   2.599018812179565E-1  
 6.864864864864864E8     5.475460886955261E-1   6.462211254984140E-3  -2.035835757851601E-2   7.043440360575914E-3  -2.035390213131905E-2   6.964009720832110E-3  -9.240448474884033E-1   2.694321870803833E-1  
 6.888888888888888E8     5.435548424720764E-1  -4.877751693129540E-3  -2.318072505295277E-2   7.416880689561367E-3  -2.318377234041691E-2   7.210792973637581E-3  -9.195045232772827E-1   2.794592678546906E-1  
 6.912912912912912E8     5.432419776916504E-1  -1.846982166171074E-2  -2.639682590961456E-2   8.842621929943562E-3  -2.638013102114201E-2   8.617433719336987E-3  -9.145740270614624E-1   2.897692322731018E-1  
 6.936936936936936E8     5.459817647933960E-1  -3.658327087759972E-2  -2.951052226126194E-2   1.142539456486702E-2  -2.948839962482452E-2   1.132022123783827E-2  -9.102611541748047E-1   2.993260025978088E-1  
 6.960960960960960E8     5.483335256576538E-1  -6.122479215264320E-2  -3.188231959939003E-2   1.515271980315447E-2  -3.188233450055122E-2   1.500748377293348E-2  -9.062190651893616E-1   3.088390231132507E-1  
 6.984984984984984E8     5.471848249435425E-1  -9.028279036283493E-2  -3.347662463784218E-2   1.934667862951756E-2  -3.319453820586205E-2   1.972761005163193E-2  -9.010879993438721E-1   3.224330544471741E-1  
 7.009009009009008E8     5.396171212196350E-1  -1.229521706700325E-1  -3.394078835844994E-2   2.389644086360931E-2  -3.345640003681183E-2   2.448714897036552E-2  -8.960161209106445E-1   3.347716331481934E-1  
 7.033033033033032E8     5.257512927055359E-1  -1.555564105510712E-1  -3.353098034858704E-2   2.825301140546799E-2  -3.299802169203758E-2   2.881153300404549E-2  -8.917345404624939E-1   3.445397913455963E-1  
 7.057057057057056E8     5.066881179809570E-1  -1.867325454950333E-1  -3.232480213046074E-2   3.244324401021004E-2  -3.207708150148392E-2   3.261195868253708E-2  -8.883814215660095E-1   3.504889309406281E-1  
 7.081081081081080E8     4.830476641654968E-1  -2.158633619546890E-1  -3.067425638437271E-2   3.636420890688896E-2  -3.080154582858086E-2   3.615329787135124E-2  -8.849828839302063E-1   3.576456308364868E-1  
 7.105105105105104E8     4.566078186035156E-1  -2.405218183994293E-1  -2.863325923681259E-2   4.003850370645523E-2  -2.933934330940247E-2   3.954890370368958E-2  -8.812369108200073E-1   3.659855723381043E-1  
 7.129129129129129E8     4.289360046386719E-1  -2.610442340373993E-1  -2.650753222405911E-2   4.325896129012108E-2  -2.726050838828087E-2   4.271376132965088E-2  -8.769493699073792E-1   3.759504556655884E-1  
 7.153153153153153E8     4.009636044502258E-1  -2.783660590648651E-1  -2.447995729744434E-2   4.606983065605164E-2  -2.489823289215565E-2   4.568603634834290E-2  -8.714841008186340E-1   3.871749341487885E-1  
 7.177177177177178E8     3.722209632396698E-1  -2.943683862686157E-1  -2.218772284686565E-2   4.883635416626930E-2  -2.248284406960011E-2   4.862093180418015E-2  -8.652166724205017E-1   3.992413580417633E-1  
 7.201201201201202E8     3.419174551963806E-1  -3.083819150924683E-1  -1.981573924422264E-2   5.152866989374161E-2  -1.991649903357029E-2   5.133883655071259E-2  -8.590342402458191E-1   4.108983874320984E-1  
 7.225225225225226E8     3.104241192340851E-1  -3.192467391490936E-1  -1.696376316249371E-2   5.443118512630463E-2  -1.706997863948345E-2   5.407278984785080E-2  -8.522458076477051E-1   4.231147170066834E-1  
 7.249249249249250E8     2.778055369853973E-1  -3.271002769470215E-1  -1.352687552571297E-2   5.687293410301209E-2  -1.417830865830183E-2   5.642806366086006E-2  -8.466987013816834E-1   4.319749176502228E-1  
 7.273273273273274E8     2.460926771163940E-1  -3.313581347465515E-1  -9.991855360567570E-3   5.906373634934425E-2  -1.122493110597134E-2   5.861382931470871E-2  -8.408831954002380E-1   4.406495392322540E-1  
 7.297297297297298E8     2.164164632558823E-1  -3.331867456436157E-1  -6.688515655696392E-3   6.076972931623459E-2  -7.607792038470507E-3   6.043741106987000E-2  -8.351160287857056E-1   4.497170746326447E-1  
 7.321321321321322E8     1.885314881801605E-1  -3.330690562725067E-1  -3.692646278068423E-3   6.211548671126366E-2  -3.682868089526892E-3   6.188511475920677E-2  -8.288676738739014E-1   4.592041671276093E-1  
 7.345345345345346E8     1.602357327938080E-1  -3.312717676162720E-1  -2.893285127356648E-4   6.316069513559341E-2  -6.032054443494417E-5   6.295596808195114E-2  -8.225314617156982E-1   4.700615108013153E-1  
 7.369369369369370E8     1.313007026910782E-1  -3.277509212493897E-1   2.917573321610689E-3   6.401086598634720E-2   3.430024953559041E-3   6.375283002853394E-2  -8.154574036598206E-1   4.809242784976959E-1  
 7.393393393393394E8     1.038144752383232E-1  -3.219414055347443E-1   6.225645076483488E-3   6.466478109359741E-2   6.673856172710657E-3   6.440518796443939E-2  -8.082332611083984E-1   4.912383258342743E-1  
 7.417417417417418E8     7.823385298252106E-2  -3.144342303276062E-1   9.431755170226097E-3   6.522998958826065E-2   9.564408101141453E-3   6.506161391735077E-2  -8.014358282089233E-1   5.005862712860107E-1  
 7.441441441441442E8     5.479375272989273E-2  -3.060645163059235E-1   1.257037464529276E-2   6.574796885251999E-2   1.224196609109640E-2   6.567496806383133E-2  -7.948518991470337E-1   5.085005164146423E-1  
 7.465465465465466E8     3.282991424202919E-2  -2.967009842395783E-1   1.543406862765551E-2   6.654811650514603E-2   1.505026221275330E-2   6.656453758478165E-2  -7.870671749114990E-1   5.190091133117676E-1  
 7.489489489489490E8     1.091133151203394E-2  -2.867706418037415E-1   1.848674565553665E-2   6.761269271373749E-2   1.792164333164692E-2   6.764936447143555E-2  -7.803369164466858E-1   5.285356044769287E-1  
 7.513513513513514E8    -1.045552175492048E-2  -2.756822109222412E-1   2.183235250413418E-2   6.865028291940689E-2   2.114167809486389E-2   6.881620734930039E-2  -7.736968994140625E-1   5.379672646522522E-1  
 7.537537537537538E8    -3.109938278794289E-2  -2.633426785469055E-1   2.576043084263802E-2   6.966466456651688E-2   2.494818344712257E-2   7.000563293695450E-2  -7.660928964614868E-1   5.477226376533508E-1  
 7.561561561561562E8    -4.919971898198128E-2  -2.498233467340469E-1   2.985079772770405E-2   7.058681547641754E-2   2.926405146718025E-2   7.063405215740204E-2  -7.577775120735169E-1   5.556386113166809E-1  
 7.585585585585586E8    -6.682917475700378E-2  -2.338218390941620E-1   3.422337770462036E-2   7.110372185707092E-2   3.375246003270149E-2   7.091946899890900E-2  -7.471777200698853E-1   5.659167766571045E-1  
 7.609609609609610E8    -8.232604712247849E-2  -2.175322473049164E-1   3.881530463695526E-2   7.137770205736160E-2   3.821486607193947E-2   7.098804414272308E-2  -7.371129989624023E-1   5.755259394645691E-1  
 7.633633633633634E8    -9.569767862558365E-2  -2.015541195869446E-1   4.378968104720116E-2   7.137162238359451E-2   4.295793920755386E-2   7.107242196798325E-2  -7.281917929649353E-1   5.841215252876282E-1  
 7.657657657657658E8    -1.065250188112259E-1  -1.855265945196152E-1   4.882580041885376E-2   7.093181461095810E-2   4.804377257823944E-2   7.084450870752335E-2  -7.202003598213196E-1   5.915207862854004E-1  
 7.681681681681682E8    -1.140812262892723E-1  -1.699542850255966E-1   5.381635203957558E-2   7.004047930240631E-2   5.332431569695473E-2   7.038817554712296E-2  -7.139507532119751E-1   5.976667404174805E-1  
 7.705705705705706E8    -1.190544068813324E-1  -1.543652862310410E-1   5.901272967457771E-2   6.855046749114990E-2   5.855924263596535E-2   6.911838054656982E-2  -7.071241140365601E-1   6.040863394737244E-1  
 7.729729729729730E8    -1.233523860573769E-1  -1.424198001623154E-1   6.404040753841400E-2   6.622148305177689E-2   6.373827904462814E-2   6.740678846836090E-2  -7.001243829727173E-1   6.132943034172058E-1  
 7.753753753753754E8    -1.287161409854889E-1  -1.327267289161682E-1   6.866361200809479E-2   6.369723379611969E-2   6.858742237091065E-2   6.490356475114822E-2  -6.909686326980591E-1   6.238955855369568E-1  
 7.777777777777778E8    -1.344671845436096E-1  -1.244430765509605E-1   7.303152233362198E-2   6.117808446288109E-2   7.282908260822296E-2   6.208628416061401E-2  -6.790393590927124E-1   6.330584287643433E-1  
 7.801801801801802E8    -1.416721343994141E-1  -1.170335933566093E-1   7.710302621126175E-2   5.877484381198883E-2   7.641186565160751E-2   5.898925289511681E-2  -6.652461290359497E-1   6.394946575164795E-1  
 7.825825825825826E8    -1.504447907209396E-1  -1.070749610662460E-1   8.101230859756470E-2   5.625100061297417E-2   8.056465536355972E-2   5.618163943290710E-2  -6.522851586341858E-1   6.476379632949829E-1  
 7.849849849849850E8    -1.594413369894028E-1  -9.674461185932159E-2   8.502428978681564E-2   5.346369370818138E-2   8.425906300544739E-2   5.365299060940743E-2  -6.414063572883606E-1   6.526039242744446E-1  
 7.873873873873874E8    -1.689132899045944E-1  -8.561561256647110E-2   8.910606801509857E-2   5.098803713917732E-2   8.800585567951202E-2   5.118069425225258E-2  -6.319413781166077E-1   6.577180027961731E-1  
 7.897897897897898E8    -1.779301613569260E-1  -7.253839075565338E-2   9.349741786718369E-2   4.839974269270897E-2   9.251961857080460E-2   4.862985759973526E-2  -6.233542561531067E-1   6.647773385047913E-1  
 7.921921921921922E8    -1.852889955043793E-1  -5.744995176792145E-2   9.817984700202942E-2   4.516890272498131E-2   9.773427993059158E-2   4.574630036950111E-2  -6.147667765617371E-1   6.738558411598206E-1  
 7.945945945945946E8    -1.903772652149200E-1  -4.053449630737305E-2   1.031500548124313E-1   4.132655635476112E-2   1.025732085108757E-1   4.227018356323242E-2  -6.028296351432800E-1   6.803780198097229E-1  
 7.969969969969970E8    -1.927711069583893E-1  -2.478123456239700E-2   1.078468710184097E-1   3.690291941165924E-2   1.074356585741043E-1   3.793225809931755E-2  -5.907295346260071E-1   6.874219179153442E-1  
 7.993993993993994E8    -1.933768987655640E-1  -1.026234775781632E-2   1.123527362942696E-1   3.208315372467041E-2   1.121656820178032E-1   3.286831825971603E-2  -5.775117278099060E-1   6.947621107101440E-1  
 8.018018018018018E8    -1.921402812004089E-1   2.948169363662601E-3   1.166338101029396E-1   2.665922045707703E-2   1.164995655417442E-1   2.706496417522430E-2  -5.639600753784180E-1   7.020162940025330E-1  
 8.042042042042042E8    -1.905028223991394E-1   1.449962146580219E-2   1.205516979098320E-1   2.064508572220802E-2   1.203822493553162E-1   2.086979337036610E-2  -5.517294406890869E-1   7.075110077857971E-1  
 8.066066066066066E8    -1.884088665246964E-1   2.603228203952313E-2   1.238966509699822E-1   1.387834269553423E-2   1.237897574901581E-1   1.424258016049862E-2  -5.373847484588623E-1   7.150892615318298E-1  
 8.090090090090090E8    -1.855172514915466E-1   3.596085309982300E-2   1.267323344945908E-1   7.057725451886654E-3   1.265418380498886E-1   7.279748562723398E-3  -5.230507254600525E-1   7.212458848953247E-1  
 8.114114114114114E8    -1.823532283306122E-1   4.322325810790062E-2   1.288458704948425E-1  -5.597697600023821E-5   1.286667436361313E-1   3.277997311670333E-4  -5.088012814521790E-1   7.266535758972168E-1  
 8.138138138138138E8    -1.809290945529938E-1   4.847896844148636E-2   1.304495781660080E-1  -7.004133891314268E-3   1.301703602075577E-1  -6.597415544092655E-3  -4.946845173835754E-1   7.315960526466370E-1  
 8.162162162162162E8    -1.809679567813873E-1   5.382755771279335E-2   1.317926496267319E-1  -1.386278402060270E-2   1.315176486968994E-1  -1.342483982443810E-2  -4.803444445133209E-1   7.363246083259583E-1  
 8.186186186186186E8    -1.820938438177109E-1   6.046186387538910E-2   1.326730549335480E-1  -2.084676548838615E-2   1.323303282260895E-1  -2.031249925494194E-2  -4.652375876903534E-1   7.412139177322388E-1  
 8.210210210210210E8    -1.826935410499573E-1   6.719782203435898E-2   1.332034468650818E-1  -2.797178924083710E-2   1.330188810825348E-1  -2.731957286596298E-2  -4.490740895271301E-1   7.457746863365173E-1  
 8.234234234234234E8    -1.835635304450989E-1   7.252375036478043E-2   1.331680119037628E-1  -3.512966632843018E-2   1.330266147851944E-1  -3.452287986874580E-2  -4.327315390110016E-1   7.499538660049439E-1  
