#  HZ   S   RI   R     50.00 
! Rohde & Schwarz ZVB8 2Ports - Version 2.81 - 1145.1010k08 SN: 100113
! Date: 2016-05-03 01:37:11
! Measurements: S11 S21 S12 S22 
! 
 6.000000000000000E8     3.824254274368286E-1   6.751006245613098E-1  -4.766647703945637E-3  -1.222717226482928E-3  -4.728539381176233E-3  -1.302235294133425E-3  -9.692996144294739E-1  -1.035919114947319E-1  
 6.024024024024024E8     3.963918089866638E-1   6.576078534126282E-1  -4.744895268231630E-3  -1.264629652723670E-3  -4.802415147423744E-3  -1.255074865184724E-3  -9.700844287872315E-1  -9.232891350984573E-2  
 6.048048048048048E8     4.096679091453552E-1   6.393982768058777E-1  -4.721397999674082E-3  -1.353029045276344E-3  -4.692084155976772E-3  -1.365446951240301E-3  -9.707033634185791E-1  -8.093728125095367E-2  
 6.072072072072072E8     4.228413105010986E-1   6.193667054176331E-1  -4.693492315709591E-3  -1.436746912077069E-3  -4.666483029723167E-3  -1.430064323358238E-3  -9.712501764297485E-1  -6.968913972377777E-2  
 6.096096096096096E8     4.341227114200592E-1   5.985057950019836E-1  -4.666050430387259E-3  -1.600497518666089E-3  -4.642029292881489E-3  -1.537038479000330E-3  -9.714862704277039E-1  -5.789135023951531E-2  
 6.120120120120120E8     4.421086609363556E-1   5.794317722320557E-1  -4.627855028957129E-3  -1.785365282557905E-3  -4.567224998027086E-3  -1.744157518260181E-3  -9.713909626007080E-1  -4.906700551509857E-2  
 6.144144144144144E8     4.480462074279785E-1   5.616509318351746E-1  -4.586426541209221E-3  -2.158578950911760E-3  -4.597302991896868E-3  -2.198180882260203E-3  -9.719516634941101E-1  -3.866072371602058E-2  
 6.168168168168168E8     4.534331560134888E-1   5.443021655082703E-1  -4.721145611256361E-3  -2.683373168110848E-3  -4.639274440705776E-3  -2.778486348688602E-3  -9.725712537765503E-1  -2.735309861600399E-2  
 6.192192192192192E8     4.576620757579804E-1   5.284866094589233E-1  -4.867721349000931E-3  -3.292097244411707E-3  -4.778978414833546E-3  -3.332984633743763E-3  -9.726275801658630E-1  -1.578483730554581E-2  
 6.216216216216216E8     4.621408879756928E-1   5.143707394599915E-1  -5.271768197417259E-3  -4.137173760682344E-3  -5.290442612022162E-3  -4.143533296883106E-3  -9.720310568809509E-1  -3.754226956516504E-3  
 6.240240240240240E8     4.671943783760071E-1   5.019344091415405E-1  -6.062821950763464E-3  -5.054251756519079E-3  -5.986172705888748E-3  -5.107683129608631E-3  -9.710168838500977E-1   7.997886277735233E-3  
 6.264264264264264E8     4.739732742309570E-1   4.926265776157379E-1  -7.234330289065838E-3  -5.838681012392044E-3  -7.164528127759695E-3  -5.868526175618172E-3  -9.710860252380371E-1   2.013346925377846E-2  
 6.288288288288288E8     4.837941527366638E-1   4.840768277645111E-1  -8.713332936167717E-3  -6.388081703335047E-3  -8.630778640508652E-3  -6.377168931066990E-3  -9.707213640213013E-1   3.117307648062706E-2  
 6.312312312312312E8     4.967112541198731E-1   4.752711951732636E-1  -1.049463171511889E-2  -6.502603180706501E-3  -1.044226065278053E-2  -6.586582399904728E-3  -9.699203372001648E-1   4.169586673378944E-2  
 6.336336336336336E8     5.129743814468384E-1   4.637810885906220E-1  -1.231694594025612E-2  -6.249872501939535E-3  -1.224855985492468E-2  -6.321076769381762E-3  -9.689343571662903E-1   5.125635117292404E-2  
 6.360360360360360E8     5.312824845314026E-1   4.485794007778168E-1  -1.404729485511780E-2  -5.564205814152956E-3  -1.395972725003958E-2  -5.554262083023787E-3  -9.679472446441650E-1   6.005952879786491E-2  
 6.384384384384384E8     5.495520830154419E-1   4.301781058311462E-1  -1.552357058972120E-2  -4.515025299042463E-3  -1.549959555268288E-2  -4.525049589574337E-3  -9.668636918067932E-1   7.048471271991730E-2  
 6.408408408408408E8     5.673028826713562E-1   4.072656035423279E-1  -1.684734411537647E-2  -3.174185985699296E-3  -1.682172901928425E-2  -3.233761060982943E-3  -9.660217165946960E-1   8.156882226467133E-2  
 6.432432432432432E8     5.832566022872925E-1   3.807969093322754E-1  -1.788305491209030E-2  -1.826552324928343E-3  -1.776915788650513E-2  -1.919948612339795E-3  -9.647294282913208E-1   9.169606119394302E-2  
 6.456456456456456E8     5.968596339225769E-1   3.512187898159027E-1  -1.858706772327423E-2  -3.493368858471513E-4  -1.851402409374714E-2  -5.381941446103156E-4  -9.631430506706238E-1   1.015066951513290E-1  
 6.480480480480480E8     6.076418161392212E-1   3.201809227466583E-1  -1.919967122375965E-2   1.039618742652237E-3  -1.910927891731262E-2   9.260644437745214E-4  -9.620581269264221E-1   1.110194921493530E-1  
 6.504504504504504E8     6.155945062637329E-1   2.894821166992188E-1  -1.970627158880234E-2   2.459347015246749E-3  -1.958664134144783E-2   2.384972525760531E-3  -9.576838016510010E-1   1.210103258490562E-1  
 6.528528528528528E8     6.206980347633362E-1   2.576221823692322E-1  -1.994821056723595E-2   3.919878508895636E-3  -1.988392136991024E-2   3.765329718589783E-3  -9.545186161994934E-1   1.328251510858536E-1  
 6.552552552552552E8     6.231952905654907E-1   2.250267565250397E-1  -2.006143704056740E-2   5.262242630124092E-3  -1.997662708163261E-2   5.209708586335182E-3  -9.528427720069885E-1   1.449181139469147E-1  
 6.576576576576576E8     6.226893067359924E-1   1.921805441379547E-1  -2.003319188952446E-2   6.665113382041454E-3  -2.003129571676254E-2   6.591796875000000E-3  -9.529939293861389E-1   1.552565246820450E-1  
 6.600600600600600E8     6.200115084648132E-1   1.584816724061966E-1  -1.987216994166374E-2   7.939357310533524E-3  -1.980454847216606E-2   7.826880551874638E-3  -9.538534283638001E-1   1.633383482694626E-1  
 6.624624624624624E8     6.148498058319092E-1   1.275497227907181E-1  -1.951270550489426E-2   9.107446298003197E-3  -1.947509124875069E-2   8.996529504656792E-3  -9.518284797668457E-1   1.741234660148621E-1  
 6.648648648648648E8     6.072216629981995E-1   9.574194997549057E-2  -1.914153806865215E-2   1.003723591566086E-2  -1.916987076401711E-2   9.920541197061539E-3  -9.494546055793762E-1   1.846211105585098E-1  
 6.672672672672672E8     5.963560938835144E-1   6.453144550323486E-2  -1.888807676732540E-2   1.095060817897320E-2  -1.882079988718033E-2   1.073313690721989E-2  -9.468132853507996E-1   1.951372027397156E-1  
 6.696696696696696E8     5.835931897163391E-1   3.588427975773811E-2  -1.839030347764492E-2   1.167890150099993E-2  -1.846219226717949E-2   1.156483776867390E-2  -9.440628886222839E-1   2.049664705991745E-1  
 6.720720720720720E8     5.694254636764526E-1   9.169183671474457E-3  -1.793872006237507E-2   1.222348306328058E-2  -1.793191768229008E-2   1.213714759796858E-2  -9.409677982330322E-1   2.147647887468338E-1  
 6.744744744744744E8     5.536035895347595E-1  -1.484370324760675E-2  -1.746657676994801E-2   1.255201362073422E-2  -1.746772602200508E-2   1.252633798867464E-2  -9.379543066024780E-1   2.256620675325394E-1  
 6.768768768768768E8     5.362741947174072E-1  -3.680036962032318E-2  -1.708794757723808E-2   1.260717585682869E-2  -1.713527552783489E-2   1.254849229007959E-2  -9.347481727600098E-1   2.364830970764160E-1  
 6.792792792792792E8     5.179404020309448E-1  -5.552501231431961E-2  -1.703420840203762E-2   1.220094598829746E-2  -1.708112657070160E-2   1.216033659875393E-2  -9.314275383949280E-1   2.468285113573074E-1  
 6.816816816816816E8     5.002784729003906E-1  -7.049861550331116E-2  -1.760905236005783E-2   1.150185614824295E-2  -1.757324300706387E-2   1.145861949771643E-2  -9.278493523597717E-1   2.576561868190765E-1  
 6.840840840840840E8     4.851655364036560E-1  -8.277580887079239E-2  -1.899834536015987E-2   1.075422298163176E-2  -1.899286918342114E-2   1.067957468330860E-2  -9.239302873611450E-1   2.684557437896729E-1  
 6.864864864864864E8     4.734005033969879E-1  -9.216755628585815E-2  -2.131595648825169E-2   1.039772573858500E-2  -2.139331772923470E-2   1.026551611721516E-2  -9.190219640731812E-1   2.784039676189423E-1  
 6.888888888888888E8     4.662542641162872E-1  -1.029685437679291E-1  -2.447979710996151E-2   1.110100094228983E-2  -2.456953935325146E-2   1.080230157822371E-2  -9.139073491096497E-1   2.884742617607117E-1  
 6.912912912912912E8     4.627740681171417E-1  -1.165750697255135E-1  -2.795830555260181E-2   1.317345257848501E-2  -2.807124890387058E-2   1.284985058009625E-2  -9.090038537979126E-1   2.987087070941925E-1  
 6.936936936936936E8     4.609164893627167E-1  -1.360992342233658E-1  -3.109659440815449E-2   1.651360839605331E-2  -3.123351931571960E-2   1.627675257623196E-2  -9.044104218482971E-1   3.083347380161285E-1  
 6.960960960960960E8     4.571065008640289E-1  -1.617416441440582E-1  -3.338780254125595E-2   2.107249200344086E-2  -3.350703045725822E-2   2.094885520637035E-2  -8.999822139739990E-1   3.181355297565460E-1  
 6.984984984984984E8     4.488523602485657E-1  -1.914211362600327E-1  -3.454457223415375E-2   2.616981044411659E-2  -3.429159522056580E-2   2.643145807087421E-2  -8.945642709732056E-1   3.315429985523224E-1  
 7.009009009009008E8     4.326792061328888E-1  -2.232750356197357E-1  -3.437114506959915E-2   3.142869472503662E-2  -3.381130844354630E-2   3.197629749774933E-2  -8.889434337615967E-1   3.440365493297577E-1  
 7.033033033033032E8     4.099986851215363E-1  -2.530803978443146E-1  -3.300732374191284E-2   3.639366105198860E-2  -3.237512335181236E-2   3.684548288583756E-2  -8.844938874244690E-1   3.538863658905029E-1  
 7.057057057057056E8     3.821504712104797E-1  -2.796702384948731E-1  -3.098173253238201E-2   4.082689061760902E-2  -3.059807419776917E-2   4.102286696434021E-2  -8.812266588211060E-1   3.600943088531494E-1  
 7.081081081081080E8     3.497632443904877E-1  -3.029716014862061E-1  -2.834456227719784E-2   4.493007436394692E-2  -2.846417017281056E-2   4.479639604687691E-2  -8.772587776184082E-1   3.673139214515686E-1  
 7.105105105105104E8     3.152288198471069E-1  -3.204963803291321E-1  -2.533283643424511E-2   4.869343340396881E-2  -2.607115171849728E-2   4.827571287751198E-2  -8.737141489982605E-1   3.758007287979126E-1  
 7.129129129129129E8     2.802977859973908E-1  -3.330803811550140E-1  -2.226388081908226E-2   5.185106024146080E-2  -2.313222177326679E-2   5.143059417605400E-2  -8.686740398406982E-1   3.859548866748810E-1  
 7.153153153153153E8     2.467122524976730E-1  -3.417429625988007E-1  -1.922914199531078E-2   5.446610972285271E-2  -1.995583623647690E-2   5.422113463282585E-2  -8.627425432205200E-1   3.975633084774017E-1  
 7.177177177177178E8     2.133835852146149E-1  -3.488478064537048E-1  -1.621311530470848E-2   5.691493302583695E-2  -1.656639203429222E-2   5.678720399737358E-2  -8.560984134674072E-1   4.097627997398377E-1  
 7.201201201201202E8     1.792278438806534E-1  -3.538972139358521E-1  -1.307687256485224E-2   5.937577039003372E-2  -1.327962800860405E-2   5.918007716536522E-2  -8.497044444084168E-1   4.217287600040436E-1  
 7.225225225225226E8     1.454531103372574E-1  -3.556077182292938E-1  -9.600784629583359E-3   6.159880012273789E-2  -9.697761386632919E-3   6.135183200240135E-2  -8.425261378288269E-1   4.342522919178009E-1  
 7.249249249249250E8     1.110451370477676E-1  -3.542352318763733E-1  -5.555797833949328E-3   6.346659362316132E-2  -6.368082482367754E-3   6.321657449007034E-2  -8.363738656044006E-1   4.433804154396057E-1  
 7.273273273273274E8     7.862973958253861E-2  -3.498725295066834E-1  -1.592106767930090E-3   6.513509899377823E-2  -2.982522128149867E-3   6.494468450546265E-2  -8.304473757743835E-1   4.525105357170105E-1  
 7.297297297297298E8     4.841021448373795E-2  -3.436794281005859E-1   2.004338428378105E-3   6.653119623661041E-2   9.619393968023360E-4   6.636952608823776E-2  -8.238682746887207E-1   4.615561664104462E-1  
 7.321321321321322E8     2.001483738422394E-2  -3.362332880496979E-1   5.312848370522261E-3   6.760887801647186E-2   5.244351457804442E-3   6.741513311862946E-2  -8.170740604400635E-1   4.716763794422150E-1  
 7.345345345345346E8    -9.178865700960159E-3  -3.260339796543121E-1   8.908027783036232E-3   6.843084841966629E-2   9.226197376847267E-3   6.819400936365128E-2  -8.099909424781799E-1   4.827694296836853E-1  
 7.369369369369370E8    -3.750652447342873E-2  -3.134619295597076E-1   1.258167531341314E-2   6.900516897439957E-2   1.312619540840387E-2   6.865617632865906E-2  -8.022937178611755E-1   4.936225712299347E-1  
 7.393393393393394E8    -6.361003220081329E-2  -2.991867065429688E-1   1.619388535618782E-2   6.940814852714539E-2   1.665601879358292E-2   6.909220665693283E-2  -7.944484353065491E-1   5.042412877082825E-1  
 7.417417417417418E8    -8.784408867359161E-2  -2.842027246952057E-1   1.979683339595795E-2   6.978246569633484E-2   1.998858153820038E-2   6.951420009136200E-2  -7.868859767913818E-1   5.137658119201660E-1  
 7.441441441441442E8    -1.100292801856995E-1  -2.680883109569550E-1   2.341288700699806E-2   7.023139297962189E-2   2.303862385451794E-2   7.014053314924240E-2  -7.797495722770691E-1   5.219985246658325E-1  
 7.465465465465466E8    -1.305980533361435E-1  -2.505205869674683E-1   2.695738524198532E-2   7.088068127632141E-2   2.648427896201611E-2   7.090754806995392E-2  -7.707356214523315E-1   5.326554179191589E-1  
 7.489489489489490E8    -1.495885699987412E-1  -2.323587089776993E-1   3.074514679610729E-2   7.165124267339706E-2   3.020372055470944E-2   7.185239344835281E-2  -7.631863951683044E-1   5.424932241439819E-1  
 7.513513513513514E8    -1.674268990755081E-1  -2.127472460269928E-1   3.509071841835976E-2   7.234093546867371E-2   3.434468805789948E-2   7.260901480913162E-2  -7.558293938636780E-1   5.516541600227356E-1  
 7.537537537537538E8    -1.823345124721527E-1  -1.922563612461090E-1   3.985556215047836E-2   7.266093790531158E-2   3.910749033093453E-2   7.319957762956619E-2  -7.473288774490356E-1   5.618122220039368E-1  
 7.561561561561562E8    -1.941029876470566E-1  -1.715398430824280E-1   4.470400139689446E-2   7.282137125730515E-2   4.407842457294464E-2   7.305151969194412E-2  -7.380476593971252E-1   5.697767138481140E-1  
 7.585585585585586E8    -2.048844099044800E-1  -1.495803743600845E-1   4.988244548439980E-2   7.255758345127106E-2   4.923400282859802E-2   7.238627225160599E-2  -7.265259623527527E-1   5.800184607505798E-1  
 7.609609609609610E8    -2.134827375411987E-1  -1.283679902553558E-1   5.513499304652214E-2   7.202374190092087E-2   5.435749143362045E-2   7.173547148704529E-2  -7.154031395912170E-1   5.899493694305420E-1  
 7.633633633633634E8    -2.199687659740448E-1  -1.089081689715385E-1   6.073725596070290E-2   7.085040956735611E-2   5.972094461321831E-2   7.075968384742737E-2  -7.049075961112976E-1   5.987146496772766E-1  
 7.657657657657658E8    -2.251414358615875E-1  -9.063901007175446E-2   6.632403284311295E-2   6.936775892972946E-2   6.529347598552704E-2   6.960017979145050E-2  -6.961443424224854E-1   6.057983636856079E-1  
 7.681681681681682E8    -2.277987152338028E-1  -7.350458949804306E-2   7.169444113969803E-2   6.755015254020691E-2   7.117490470409393E-2   6.805668026208878E-2  -6.885422468185425E-1   6.122275590896606E-1  
 7.705705705705706E8    -2.282224297523499E-1  -5.669044330716133E-2   7.745226472616196E-2   6.499311327934265E-2   7.697615027427673E-2   6.582843512296677E-2  -6.805108189582825E-1   6.186962127685547E-1  
 7.729729729729730E8    -2.285194694995880E-1  -4.306792095303536E-2   8.291655778884888E-2   6.156305596232414E-2   8.280280232429504E-2   6.280390918254852E-2  -6.721310615539551E-1   6.275087594985962E-1  
 7.753753753753754E8    -2.300829440355301E-1  -3.110484406352043E-2   8.796795457601547E-2   5.754854530096054E-2   8.802394568920136E-2   5.889575555920601E-2  -6.614032387733460E-1   6.381593346595764E-1  
 7.777777777777778E8    -2.319872379302979E-1  -2.024007216095924E-2   9.251169115304947E-2   5.350977554917336E-2   9.246467798948288E-2   5.440121516585350E-2  -6.483391523361206E-1   6.470935344696045E-1  
 7.801801801801802E8    -2.347200214862824E-1  -1.005395967513323E-2   9.667468816041946E-2   4.962713643908501E-2   9.609051793813705E-2   4.997387155890465E-2  -6.331227421760559E-1   6.534411907196045E-1  
 7.825825825825826E8    -2.378874123096466E-1   2.239612862467766E-3   1.003986820578575E-1   4.554199054837227E-2   1.000325679779053E-1   4.562044516205788E-2  -6.184905767440796E-1   6.609382629394531E-1  
 7.849849849849850E8    -2.414072155952454E-1   1.432658173143864E-2   1.042876467108727E-1   4.134453088045120E-2   1.035964265465736E-1   4.168640077114105E-2  -6.061567664146423E-1   6.658178567886353E-1  
 7.873873873873874E8    -2.454821169376373E-1   2.688300982117653E-2   1.082261875271797E-1   3.732099756598473E-2   1.071712523698807E-1   3.772480413317680E-2  -5.953121185302734E-1   6.706267595291138E-1  
 7.897897897897898E8    -2.485028803348541E-1   4.106168821454048E-2   1.123588755726814E-1   3.315844386816025E-2   1.114724650979042E-1   3.359939530491829E-2  -5.848556160926819E-1   6.776594519615173E-1  
 7.921921921921922E8    -2.495105564594269E-1   5.595653131604195E-2   1.166166886687279E-1   2.820166572928429E-2   1.162598580121994E-1   2.898403629660606E-2  -5.744507908821106E-1   6.863000988960266E-1  
 7.945945945945946E8    -2.495922446250916E-1   7.081516087055206E-2   1.206969320774078E-1   2.272810228168964E-2   1.202604025602341E-1   2.382757514715195E-2  -5.603864789009094E-1   6.924566030502319E-1  
 7.969969969969970E8    -2.485724687576294E-1   8.411770313978195E-2   1.244410425424576E-1   1.690131612122059E-2   1.242532655596733E-1   1.821215450763702E-2  -5.459204316139221E-1   6.990574598312378E-1  
 7.993993993993994E8    -2.471015602350235E-1   9.634277969598770E-2   1.281205862760544E-1   1.090150792151690E-2   1.280030757188797E-1   1.196847297251225E-2  -5.306247472763062E-1   7.055741548538208E-1  
 8.018018018018018E8    -2.441792339086533E-1   1.079029142856598E-1   1.316878497600555E-1   4.430287517607212E-3   1.315744817256928E-1   4.857066553086042E-3  -5.148559212684631E-1   7.116031646728516E-1  
 8.042042042042042E8    -2.405677586793900E-1   1.184252724051476E-1   1.350172013044357E-1  -2.949108136817813E-3   1.347082555294037E-1  -2.752423286437988E-3  -4.996744096279144E-1   7.166891098022461E-1  
 8.066066066066066E8    -2.372128963470459E-1   1.291281729936600E-1   1.372462809085846E-1  -1.107733231037855E-2   1.369601041078568E-1  -1.075689028948546E-2  -4.832659065723419E-1   7.224173545837402E-1  
 8.090090090090090E8    -2.335483282804489E-1   1.389101892709732E-1   1.387092769145966E-1  -1.908018998801708E-2   1.385341882705689E-1  -1.876424066722393E-2  -4.663272500038147E-1   7.274650931358337E-1  
 8.114114114114114E8    -2.302054613828659E-1   1.472019851207733E-1   1.397553384304047E-1  -2.717128582298756E-2   1.395735442638397E-1  -2.680708467960358E-2  -4.491270184516907E-1   7.313624024391174E-1  
 8.138138138138138E8    -2.274420708417893E-1   1.547453850507736E-1   1.404071897268295E-1  -3.528655320405960E-2   1.402459293603897E-1  -3.469235822558403E-2  -4.320856332778931E-1   7.344948649406433E-1  
 8.162162162162162E8    -2.250313311815262E-1   1.616324037313461E-1   1.408184766769409E-1  -4.336415976285934E-2   1.406703740358353E-1  -4.265602305531502E-2  -4.150680005550385E-1   7.372948527336121E-1  
 8.186186186186186E8    -2.233197093009949E-1   1.687068492174149E-1   1.405735909938812E-1  -5.167015269398689E-2   1.404517441987991E-1  -5.101565644145012E-2  -3.963304758071899E-1   7.402590513229370E-1  
 8.210210210210210E8    -2.218219786882401E-1   1.749715507030487E-1   1.396795809268951E-1  -6.000643223524094E-2   1.396369785070419E-1  -5.942239612340927E-2  -3.770221769809723E-1   7.420358657836914E-1  
 8.234234234234234E8    -2.215497940778732E-1   1.805303096771240E-1   1.381932049989700E-1  -6.829357147216797E-2   1.382084041833878E-1  -6.785067170858383E-2  -3.571918904781342E-1   7.432900071144104E-1  
