#  HZ   S   RI   R     50.00 
! Rohde & Schwarz ZVB8 2Ports - Version 2.81 - 1145.1010k08 SN: 100113
! Date: 2016-05-03 01:38:31
! Measurements: S11 S21 S12 S22 
! 
 6.000000000000000E8     5.016221404075623E-1   2.364148497581482E-1  -1.264955755323172E-2   2.611890668049455E-3  -1.266916748136282E-2   2.549133496358991E-3  -9.626327157020569E-1  -3.590727224946022E-2  
 6.024024024024024E8     4.944868087768555E-1   2.029452770948410E-1  -1.267520524561405E-2   2.926601795479655E-3  -1.265515666455030E-2   2.898456295952201E-3  -9.620825648307800E-1  -2.137285843491554E-2  
 6.048048048048048E8     4.851331412792206E-1   1.701161712408066E-1  -1.267396938055754E-2   3.043229458853602E-3  -1.262690871953964E-2   3.024301957339048E-3  -9.613935351371765E-1  -6.907141301780939E-3  
 6.072072072072072E8     4.732452630996704E-1   1.388065963983536E-1  -1.283622719347477E-2   2.991724526509643E-3  -1.273599360138178E-2   2.974610542878509E-3  -9.598560929298401E-1   7.126638665795326E-3  
 6.096096096096096E8     4.592610895633698E-1   1.104544177651405E-1  -1.297228503972292E-2   2.895810175687075E-3  -1.291935797780752E-2   2.863535657525063E-3  -9.586166739463806E-1   2.188172005116940E-2  
 6.120120120120120E8     4.440403282642365E-1   8.654037117958069E-2  -1.327079255133867E-2   2.563692396506667E-3  -1.325075887143612E-2   2.564524998888373E-3  -9.565182924270630E-1   3.444202244281769E-2  
 6.144144144144144E8     4.272852540016174E-1   6.494415551424027E-2  -1.380449719727039E-2   2.035802695900202E-3  -1.375736854970455E-2   2.044234657660127E-3  -9.550181627273560E-1   4.861880093812943E-2  
 6.168168168168168E8     4.094672501087189E-1   4.552437365055084E-2  -1.461015921086073E-2   1.353912288323045E-3  -1.461581513285637E-2   1.258012373000383E-3  -9.527943730354309E-1   6.334189325571060E-2  
 6.192192192192192E8     3.925793170928955E-1   2.983941510319710E-2  -1.598981022834778E-2   4.493954475037754E-4  -1.595289818942547E-2   3.467636124696583E-4  -9.502523541450501E-1   7.846836000680924E-2  
 6.216216216216216E8     3.775623440742493E-1   1.716878637671471E-2  -1.805239915847778E-2  -5.039068055339158E-4  -1.793000847101212E-2  -6.117023876868188E-4  -9.466469287872315E-1   9.433711320161820E-2  
 6.240240240240240E8     3.658435046672821E-1   6.781236268579960E-3  -2.102765813469887E-2  -1.218744087964296E-3  -2.097906917333603E-2  -1.361974165774882E-3  -9.420940279960632E-1   1.097796410322189E-1  
 6.264264264264264E8     3.601611554622650E-1  -2.225625561550260E-3  -2.493114024400711E-2  -1.041391864418984E-3  -2.494264580309391E-2  -1.349103986285627E-3  -9.381365776062012E-1   1.262681782245636E-1  
 6.288288288288288E8     3.600380718708038E-1  -1.449504680931568E-2  -2.966786734759808E-2   2.803734387271106E-4  -2.955182641744614E-2   7.687865581829101E-5  -9.332992434501648E-1   1.414754092693329E-1  
 6.312312312312312E8     3.637468814849854E-1  -3.272640332579613E-2  -3.435755893588066E-2   3.139676759019494E-3  -3.429243713617325E-2   2.938512945547700E-3  -9.284318089485169E-1   1.558507084846497E-1  
 6.336336336336336E8     3.673034310340881E-1  -5.928821861743927E-2  -3.853004053235054E-2   7.554775569587946E-3  -3.854097798466682E-2   7.291977293789387E-3  -9.230813980102539E-1   1.690955758094788E-1  
 6.360360360360360E8     3.672424554824829E-1  -9.210516512393951E-2  -4.163591191172600E-2   1.310050580650568E-2  -4.159155488014221E-2   1.296049263328314E-2  -9.174189567565918E-1   1.818465590476990E-1  
 6.384384384384384E8     3.596647083759308E-1  -1.292237937450409E-1  -4.344239830970764E-2   1.930183731019497E-2  -4.346553608775139E-2   1.918773911893368E-2  -9.115684032440186E-1   1.964953839778900E-1  
 6.408408408408408E8     3.444147706031799E-1  -1.689982116222382E-1  -4.400430619716644E-2   2.590426616370678E-2  -4.403844103217125E-2   2.568409778177738E-2  -9.054165482521057E-1   2.112899869680405E-1  
 6.432432432432432E8     3.198656439781189E-1  -2.088963985443115E-1  -4.336027428507805E-2   3.233340382575989E-2  -4.334072396159172E-2   3.196966648101807E-2  -8.989163637161255E-1   2.260818928480148E-1  
 6.456456456456456E8     2.878551185131073E-1  -2.458812445402145E-1  -4.180997610092163E-2   3.847390040755272E-2  -4.198219254612923E-2   3.800656273961067E-2  -8.917121887207031E-1   2.408915609121323E-1  
 6.480480480480480E8     2.516580224037170E-1  -2.774254977703095E-1  -3.963093832135201E-2   4.419403523206711E-2  -3.981186822056770E-2   4.383388161659241E-2  -8.842325806617737E-1   2.554888725280762E-1  
 6.504504504504504E8     2.115484476089478E-1  -3.023776412010193E-1  -3.664815425872803E-2   4.972613975405693E-2  -3.686825558543205E-2   4.942576214671135E-2  -8.728337287902832E-1   2.713239490985870E-1  
 6.528528528528528E8     1.711342334747315E-1  -3.219532370567322E-1  -3.310351073741913E-2   5.457128584384918E-2  -3.315573558211327E-2   5.436594039201737E-2  -8.614858388900757E-1   2.890687882900238E-1  
 6.552552552552552E8     1.282126158475876E-1  -3.376359343528748E-1  -2.915691956877708E-2   5.877166613936424E-2  -2.920413389801979E-2   5.858187004923821E-2  -8.516468405723572E-1   3.071312308311462E-1  
 6.576576576576576E8     8.336395770311356E-2  -3.485308289527893E-1  -2.499414235353470E-2   6.259195506572723E-2  -2.509356103837490E-2   6.243738159537315E-2  -8.427713513374329E-1   3.237220346927643E-1  
 6.600600600600600E8     3.729853034019470E-2  -3.539326488971710E-1  -2.043697051703930E-2   6.597059965133667E-2  -2.057690359652042E-2   6.584682315587997E-2  -8.328675627708435E-1   3.383932113647461E-1  
 6.624624624624624E8    -7.587968837469816E-3  -3.527840375900269E-1  -1.569147221744061E-2   6.877081096172333E-2  -1.603971794247627E-2   6.858509778976440E-2  -8.189433813095093E-1   3.561959564685822E-1  
 6.648648648648648E8    -5.267004668712616E-2  -3.474004566669464E-1  -1.093409769237042E-2   7.115472853183746E-2  -1.154024992138147E-2   7.077157497406006E-2  -8.031876683235169E-1   3.738958239555359E-1  
 6.672672672672672E8    -9.480039775371552E-2  -3.375220596790314E-1  -6.466411519795656E-3   7.313475012779236E-2  -6.936740130186081E-3   7.293673604726791E-2  -7.855341434478760E-1   3.915143311023712E-1  
 6.696696696696696E8    -1.313686519861221E-1  -3.235589265823364E-1  -1.978279091417790E-3   7.468645274639130E-2  -2.215698594227433E-3   7.459729164838791E-2  -7.654903531074524E-1   4.085946977138519E-1  
 6.720720720720720E8    -1.633971333503723E-1  -3.073458969593048E-1   2.398907206952572E-3   7.558745890855789E-2   2.410746412351728E-3   7.564213871955872E-2  -7.431673407554627E-1   4.247662127017975E-1  
 6.744744744744744E8    -1.945948153734207E-1  -2.869550287723541E-1   6.401342805474997E-3   7.609226554632187E-2   6.445304490625858E-3   7.619951665401459E-2  -7.183403372764587E-1   4.412262439727783E-1  
 6.768768768768768E8    -2.215578258037567E-1  -2.648397982120514E-1   9.544772095978260E-3   7.620176672935486E-2   9.264516644179821E-3   7.622712105512619E-2  -6.904513835906982E-1   4.559318721294403E-1  
 6.792792792792792E8    -2.434087246656418E-1  -2.424581944942474E-1   1.103539299219847E-2   7.650708407163620E-2   1.066279411315918E-2   7.652775943279266E-2  -6.588788628578186E-1   4.684963524341583E-1  
 6.816816816816816E8    -2.603103816509247E-1  -2.212331593036652E-1   1.089193951338530E-2   7.846079021692276E-2   1.038910541683435E-2   7.847590744495392E-2  -6.250988245010376E-1   4.777886867523193E-1  
 6.840840840840840E8    -2.733765840530396E-1  -2.027860283851624E-1   9.855356998741627E-3   8.339064568281174E-2   9.227346628904343E-3   8.326993882656097E-2  -5.885470509529114E-1   4.827402234077454E-1  
 6.864864864864864E8    -2.840532362461090E-1  -1.872799843549728E-1   9.725197218358517E-3   9.257697314023972E-2   8.813769556581974E-3   9.236753731966019E-2  -5.494591593742371E-1   4.811808466911316E-1  
 6.888888888888888E8    -2.946304082870483E-1  -1.766588091850281E-1   1.329538226127625E-2   1.059693247079849E-1   1.207857392728329E-2   1.056698411703110E-1  -5.113990902900696E-1   4.735299944877625E-1  
 6.912912912912912E8    -3.068902194499970E-1  -1.689947545528412E-1   2.286123298108578E-2   1.217405647039414E-1   2.177365683019161E-2   1.214822530746460E-1  -4.771418571472168E-1   4.611456692218781E-1  
 6.936936936936936E8    -3.244585096836090E-1  -1.618909239768982E-1   4.008112475275993E-2   1.361719071865082E-1   3.936923667788506E-2   1.360876560211182E-1  -4.477231502532959E-1   4.467300772666931E-1  
 6.960960960960960E8    -3.462223410606384E-1  -1.527466326951981E-1   6.345897167921066E-2   1.458905339241028E-1   6.368909776210785E-2   1.457587629556656E-1  -4.209883213043213E-1   4.328893721103668E-1  
 6.984984984984984E8    -3.702420890331268E-1  -1.386939883232117E-1   9.039209783077240E-2   1.489785760641098E-1   9.249563515186310E-2   1.478339582681656E-1  -3.932866156101227E-1   4.224425852298737E-1  
 7.009009009009008E8    -3.939863443374634E-1  -1.193757131695747E-1   1.184457242488861E-1   1.446597725152969E-1   1.215240135788918E-1   1.423028111457825E-1  -3.637522161006928E-1   4.112135171890259E-1  
 7.033033033033032E8    -4.143154025077820E-1  -9.600652754306793E-2   1.453043669462204E-1   1.332560777664185E-1   1.473355591297150E-1   1.309463679790497E-1  -3.335958719253540E-1   3.979517519474030E-1  
 7.057057057057056E8    -4.303312301635742E-1  -7.205396145582199E-2   1.698108613491058E-1   1.167234554886818E-1   1.700864881277084E-1   1.157124862074852E-1  -3.017385900020599E-1   3.787369728088379E-1  
 7.081081081081080E8    -4.430972337722778E-1  -4.686421155929565E-2   1.911300569772720E-1   9.529487043619156E-2   1.899385005235672E-1   9.675174951553345E-2  -2.679166197776794E-1   3.528804779052734E-1  
 7.105105105105104E8    -4.519815444946289E-1  -2.260614745318890E-2   2.084419876337051E-1   7.039617747068405E-2   2.066207677125931E-1   7.407339662313461E-2  -2.337956428527832E-1   3.193490207195282E-1  
 7.129129129129129E8    -4.595950841903687E-1  -5.386265111155808E-4   2.210441678762436E-1   4.353857040405273E-2   2.195462882518768E-1   4.766654595732689E-2  -2.022963911294937E-1   2.776243984699249E-1  
 7.153153153153153E8    -4.669635891914368E-1   2.036531269550324E-2   2.287294417619705E-1   1.559811644256115E-2   2.280795872211456E-1   1.861449331045151E-2  -1.768172234296799E-1   2.278885543346405E-1  
 7.177177177177178E8    -4.750753939151764E-1   4.130198061466217E-2   2.321884781122208E-1  -1.295357570052147E-2   2.319723516702652E-1  -1.172298751771450E-2  -1.610535830259323E-1   1.724953949451447E-1  
 7.201201201201202E8    -4.822659492492676E-1   6.254261732101440E-2   2.311277091503143E-1  -4.313240572810173E-2   2.309092134237289E-1  -4.223209246993065E-2  -1.557517796754837E-1   1.142378598451614E-1  
 7.225225225225226E8    -4.899041950702667E-1   8.503282070159912E-2   2.244085967540741E-1  -7.333745807409287E-2   2.244237065315247E-1  -7.253770530223846E-2  -1.617007851600647E-1   5.472626909613609E-2  
 7.249249249249250E8    -4.972060024738312E-1   1.082554459571838E-1   2.118527591228485E-1  -1.021146476268768E-1   2.125603556632996E-1  -9.955590218305588E-2  -1.790913939476013E-1  -3.397678956389427E-3  
 7.273273273273274E8    -5.038965344429016E-1   1.317002624273300E-1   1.949556767940521E-1  -1.270755678415299E-1   1.964081972837448E-1  -1.235327348113060E-1  -2.059730887413025E-1  -5.664008483290672E-2  
 7.297297297297298E8    -5.101573467254639E-1   1.548855751752853E-1   1.748052835464478E-1  -1.472045183181763E-1   1.763074100017548E-1  -1.444443613290787E-1  -2.402750253677368E-1  -1.019839346408844E-1  
 7.321321321321322E8    -5.155463218688965E-1   1.781795173883438E-1   1.531019359827042E-1  -1.616669595241547E-1   1.533185988664627E-1  -1.611698567867279E-1  -2.786324322223663E-1  -1.389581859111786E-1  
 7.345345345345346E8    -5.191977620124817E-1   2.024476081132889E-1   1.303132325410843E-1  -1.720022261142731E-1   1.295967549085617E-1  -1.720874607563019E-1  -3.216153979301453E-1  -1.700149774551392E-1  
 7.369369369369370E8    -5.204737186431885E-1   2.291319817304611E-1   1.080533489584923E-1  -1.782089918851852E-1   1.064938828349114E-1  -1.787022203207016E-1  -3.688052296638489E-1  -1.931351572275162E-1  
 7.393393393393394E8    -5.192765593528748E-1   2.565469741821289E-1   8.625904470682144E-2  -1.814464032649994E-1   8.488086611032486E-2  -1.817339360713959E-1  -4.171401560306549E-1  -2.083669006824493E-1  
 7.417417417417418E8    -5.159510970115662E-1   2.827899456024170E-1   6.576442718505859E-2  -1.816864758729935E-1   6.518206745386124E-2  -1.817158013582230E-1  -4.655313193798065E-1  -2.171409428119659E-1  
 7.441441441441442E8    -5.103439092636108E-1   3.087360262870789E-1   4.713074490427971E-2  -1.797885894775391E-1   4.779131710529327E-2  -1.793172359466553E-1  -5.121731758117676E-1  -2.193646878004074E-1  
 7.465465465465466E8    -5.046972632408142E-1   3.332562744617462E-1   3.112252801656723E-2  -1.762364357709885E-1   3.189824521541596E-2  -1.756585836410523E-1  -5.559265613555908E-1  -2.137184739112854E-1  
 7.489489489489490E8    -4.974944293498993E-1   3.566859364509583E-1   1.688436605036259E-2  -1.717137396335602E-1   1.773244328796864E-2  -1.712352782487869E-1  -5.962910056114197E-1  -2.039660215377808E-1  
 7.513513513513514E8    -4.886647462844849E-1   3.790799975395203E-1   3.637591842561960E-3  -1.664137691259384E-1   4.630776587873697E-3  -1.659780591726303E-1  -6.334157586097717E-1  -1.905354261398315E-1  
 7.537537537537538E8    -4.781642556190491E-1   4.001777470111847E-1  -8.695582859218121E-3  -1.605173647403717E-1  -7.345932535827160E-3  -1.602072566747665E-1  -6.671910285949707E-1  -1.745343655347824E-1  
 7.561561561561562E8    -4.663230478763580E-1   4.199274778366089E-1  -1.933055184781551E-2  -1.540410667657852E-1  -1.850210875272751E-2  -1.533899605274200E-1  -6.962564587593079E-1  -1.575499922037125E-1  
 7.585585585585586E8    -4.543226659297943E-1   4.394062161445618E-1  -2.854223176836968E-2  -1.469506174325943E-1  -2.806809544563294E-2  -1.459595113992691E-1  -7.211708426475525E-1  -1.365285813808441E-1  
 7.609609609609610E8    -4.423204958438873E-1   4.580014050006867E-1  -3.646500408649445E-2  -1.400413960218430E-1  -3.569787368178368E-2  -1.390634924173355E-1  -7.430708408355713E-1  -1.149350330233574E-1  
 7.633633633633634E8    -4.305790960788727E-1   4.754317402839661E-1  -4.368507489562035E-2  -1.333528161048889E-1  -4.246504232287407E-2  -1.325642168521881E-1  -7.629050612449646E-1  -9.307234734296799E-2  
 7.657657657657658E8    -4.189503192901611E-1   4.926081895828247E-1  -5.015969648957253E-2  -1.267903745174408E-1  -4.877104237675667E-2  -1.268259584903717E-1  -7.806660532951355E-1  -7.288526743650436E-2  
 7.681681681681682E8    -4.066934883594513E-1   5.091212987899780E-1  -5.604386329650879E-2  -1.201616302132607E-1  -5.499152839183807E-2  -1.209814101457596E-1  -7.970798015594482E-1  -5.417091026902199E-2  
 7.705705705705706E8    -3.941449820995331E-1   5.248557925224304E-1  -6.174441799521446E-2  -1.136455237865448E-1  -6.063494831323624E-2  -1.145461127161980E-1  -8.099572658538818E-1  -3.535768017172813E-2  
 7.729729729729730E8    -3.806171119213104E-1   5.391252636909485E-1  -6.715022027492523E-2  -1.066412702202797E-1  -6.622582674026489E-2  -1.080254614353180E-1  -8.228245973587036E-1  -1.579259522259235E-2  
 7.753753753753754E8    -3.664336502552033E-1   5.523365139961243E-1  -7.164183259010315E-2  -9.902248531579971E-2  -7.093222439289093E-2  -1.004943028092384E-1  -8.334941864013672E-1   5.301581230014563E-3  
 7.777777777777778E8    -3.523854613304138E-1   5.635320544242859E-1  -7.507932186126709E-2  -9.143598377704620E-2  -7.454603165388107E-2  -9.258325397968292E-2  -8.413898944854736E-1   2.630827575922012E-2  
 7.801801801801802E8    -3.395085334777832E-1   5.727970004081726E-1  -7.746720314025879E-2  -8.459065854549408E-2  -7.671032100915909E-2  -8.453453332185745E-2  -8.455726504325867E-1   4.673833772540093E-2  
 7.825825825825826E8    -3.256280720233917E-1   5.828086733818054E-1  -7.904135435819626E-2  -7.776442915201187E-2  -7.857695966959000E-2  -7.723926007747650E-2  -8.507856130599976E-1   6.720705330371857E-2  
 7.849849849849850E8    -3.124264478683472E-1   5.943095684051514E-1  -8.033706247806549E-2  -7.114506512880325E-2  -7.967102527618408E-2  -7.102832943201065E-2  -8.538402915000916E-1   8.403309434652329E-2  
 7.873873873873874E8    -2.995457947254181E-1   6.061118841171265E-1  -8.141981810331345E-2  -6.515051424503326E-2  -8.060869574546814E-2  -6.521838158369064E-2  -8.570704460144043E-1   9.895370155572891E-2  
 7.897897897897898E8    -2.848800718784332E-1   6.188644170761108E-1  -8.215618133544922E-2  -5.918158590793610E-2  -8.139303326606751E-2  -5.945129320025444E-2  -8.614695072174072E-1   1.140915229916573E-1  
 7.921921921921922E8    -2.675727605819702E-1   6.313524246215820E-1  -8.241663873195648E-2  -5.328298360109329E-2  -8.201193809509277E-2  -5.389749631285667E-2  -8.673354983329773E-1   1.299038380384445E-1  
 7.945945945945946E8    -2.524276375770569E-1   6.428167223930359E-1  -8.236134797334671E-2  -4.806701093912125E-2  -8.182475715875626E-2  -4.878985136747360E-2  -8.690117597579956E-1   1.461494714021683E-1  
 7.969969969969970E8    -2.367010414600372E-1   6.517497897148132E-1  -8.227846771478653E-2  -4.321484640240669E-2  -8.171317726373673E-2  -4.390922561287880E-2  -8.702065348625183E-1   1.630660742521286E-1  
 7.993993993993994E8    -2.205485850572586E-1   6.591843962669373E-1  -8.194241672754288E-2  -3.863398730754852E-2  -8.144159615039825E-2  -3.924464061856270E-2  -8.711841106414795E-1   1.796502321958542E-1  
 8.018018018018018E8    -2.039657980203629E-1   6.649442315101624E-1  -8.149395138025284E-2  -3.436979278922081E-2  -8.110618591308594E-2  -3.441198542714119E-2  -8.711375594139099E-1   1.967205703258514E-1  
 8.042042042042042E8    -1.869630664587021E-1   6.713048815727234E-1  -8.097608387470245E-2  -3.017585352063179E-2  -8.061204850673676E-2  -3.002950176596642E-2  -8.712564110755920E-1   2.108376622200012E-1  
 8.066066066066066E8    -1.697114557027817E-1   6.772134900093079E-1  -8.039612323045731E-2  -2.569625712931156E-2  -8.021006733179092E-2  -2.581172809004784E-2  -8.706390857696533E-1   2.272066175937653E-1  
 8.090090090090090E8    -1.522361338138580E-1   6.820055246353149E-1  -7.951766997575760E-2  -2.150673978030682E-2  -7.946760952472687E-2  -2.179704234004021E-2  -8.694055676460266E-1   2.425068318843842E-1  
 8.114114114114114E8    -1.352762877941132E-1   6.853520274162293E-1  -7.859411090612412E-2  -1.740571297705174E-2  -7.862765341997147E-2  -1.767026446759701E-2  -8.673576116561890E-1   2.566314935684204E-1  
 8.138138138138138E8    -1.199597120285034E-1   6.878024935722351E-1  -7.747332006692886E-2  -1.349574606865645E-2  -7.751320302486420E-2  -1.376057974994183E-2  -8.652558326721191E-1   2.702867686748505E-1  
 8.162162162162162E8    -1.047208905220032E-1   6.897239089012146E-1  -7.621370255947113E-2  -9.661164134740830E-3  -7.617501914501190E-2  -9.959205985069275E-3  -8.634368181228638E-1   2.831758558750153E-1  
 8.186186186186186E8    -9.199719876050949E-2   6.914176940917969E-1  -7.470528781414032E-2  -5.993385799229145E-3  -7.457520067691803E-2  -6.319983862340450E-3  -8.613627552986145E-1   2.970293462276459E-1  
 8.210210210210210E8    -8.003057539463043E-2   6.919283866882324E-1  -7.307939231395721E-2  -2.652461873367429E-3  -7.264932990074158E-2  -2.726913662627339E-3  -8.585475683212280E-1   3.109675049781799E-1  
 8.234234234234234E8    -6.738513708114624E-2   6.933643817901611E-1  -7.097841799259186E-2   6.785682053305209E-4  -7.074497640132904E-2   4.777641734108329E-4  -8.555394411087036E-1   3.240454196929932E-1  
