#  HZ   S   RI   R     50.00 
! Rohde & Schwarz ZVB8 2Ports - Version 2.81 - 1145.1010k08 SN: 100113
! Date: 2016-05-04 02:49:02
! Measurements: S11 S21 S12 S22 
! 
 6.000000000000000E8    -8.870964646339417E-1   3.408463597297669E-1   8.155551040545106E-5  -3.564794606063515E-4   1.190380644402467E-4  -4.002782225143164E-4  -8.413672447204590E-1  -4.837170839309692E-1  
 6.024024024024024E8    -8.813015222549439E-1   3.528275489807129E-1   9.868656343314797E-5  -3.388171317055821E-4   7.135214400477707E-5  -3.677282074932009E-4  -8.460078835487366E-1  -4.752934873104096E-1  
 6.048048048048048E8    -8.753101825714111E-1   3.656904101371765E-1   2.223462797701359E-4  -3.988509997725487E-4   1.638982648728415E-4  -4.228539182804525E-4  -8.505352735519409E-1  -4.665423035621643E-1  
 6.072072072072072E8    -8.690129518508911E-1   3.792906403541565E-1   1.523503451608121E-4  -3.538674500305206E-4   1.565789279993624E-4  -4.242016293574125E-4  -8.548666834831238E-1  -4.581066966056824E-1  
 6.096096096096096E8    -8.620699644088745E-1   3.928668498992920E-1   1.738007995299995E-4  -3.444252943154424E-4   1.762851607054472E-4  -3.398405096959323E-4  -8.597187399864197E-1  -4.489650428295136E-1  
 6.120120120120120E8    -8.568993806838989E-1   4.031056463718414E-1   2.850057790055871E-4  -3.241416707169265E-4   2.315195160917938E-4  -3.432007797528058E-4  -8.632630705833435E-1  -4.416923224925995E-1  
 6.144144144144144E8    -8.503350019454956E-1   4.150564074516296E-1   3.566428495105356E-4  -4.192966734990478E-4   3.551802074071020E-4  -3.239827929064632E-4  -8.668279647827148E-1  -4.337719976902008E-1  
 6.168168168168168E8    -8.434411883354187E-1   4.271179139614105E-1   4.409815883263946E-4  -3.821169084403664E-4   4.820396716240794E-4  -3.710123128257692E-4  -8.706244230270386E-1  -4.255515038967133E-1  
 6.192192192192192E8    -8.362358212471008E-1   4.387801885604858E-1   5.445939605124295E-4  -3.857037518173456E-4   5.117671680636704E-4  -3.624040400609374E-4  -8.750306963920593E-1  -4.166302382946014E-1  
 6.216216216216216E8    -8.285595178604126E-1   4.502219259738922E-1   7.105484837666154E-4  -4.344584303908050E-4   7.292911177501082E-4  -4.805777280125767E-4  -8.796381354331970E-1  -4.068031311035156E-1  
 6.240240240240240E8    -8.209668993949890E-1   4.613749682903290E-1   8.394317119382322E-4  -5.136575200594962E-4   8.364404202438891E-4  -4.088651039637625E-4  -8.842872977256775E-1  -3.966034352779388E-1  
 6.264264264264264E8    -8.131482601165772E-1   4.736880958080292E-1   9.984059724956751E-4  -6.487733917310834E-4   1.048573525622487E-3  -6.961394101381302E-4  -8.886174559593201E-1  -3.863464295864105E-1  
 6.288288288288288E8    -8.052744865417481E-1   4.848797917366028E-1   1.188766909763217E-3  -8.831064333207905E-4   1.187385176308453E-3  -8.582278387621045E-4  -8.921005725860596E-1  -3.773219287395477E-1  
 6.312312312312312E8    -7.983809113502502E-1   4.957588016986847E-1   1.295365509577096E-3  -1.253251219168305E-3   1.270049368031323E-3  -1.244250102899969E-3  -8.953408598899841E-1  -3.691830933094025E-1  
 6.336336336336336E8    -7.919917702674866E-1   5.061332583427429E-1   1.238582772202790E-3  -1.554004731588066E-3   1.284914324060082E-3  -1.524359104223549E-3  -8.982940316200256E-1  -3.612591326236725E-1  
 6.360360360360360E8    -7.851119041442871E-1   5.166380405426025E-1   1.168732647784054E-3  -1.871275249868631E-3   1.238949713297188E-3  -1.905923476442695E-3  -9.013398289680481E-1  -3.538363277912140E-1  
 6.384384384384384E8    -7.774560451507568E-1   5.288547277450562E-1   1.029985025525093E-3  -2.238836372271180E-3   1.018614042550325E-3  -2.214568667113781E-3  -9.045829176902771E-1  -3.454653024673462E-1  
 6.408408408408408E8    -7.689714431762695E-1   5.408909916877747E-1   7.763972389511764E-4  -2.387515502050519E-3   8.085765875875950E-4  -2.419813303276897E-3  -9.076543450355530E-1  -3.367965221405029E-1  
 6.432432432432432E8    -7.605485320091248E-1   5.525245070457459E-1   4.755044064950198E-4  -2.544678747653961E-3   5.844934494234622E-4  -2.552421996369958E-3  -9.110535383224487E-1  -3.282777070999146E-1  
 6.456456456456456E8    -7.516363263130188E-1   5.637835860252380E-1   2.815679763443768E-4  -2.648892579600215E-3   3.112847043666989E-4  -2.690448658540845E-3  -9.145274758338928E-1  -3.197229504585266E-1  
 6.480480480480480E8    -7.423940896987915E-1   5.744977593421936E-1   9.833305375650525E-5  -2.799835754558444E-3   1.219974728883244E-4  -2.693276852369309E-3  -9.176873564720154E-1  -3.112054169178009E-1  
 6.504504504504504E8    -7.317993640899658E-1   5.862351059913635E-1  -1.432421704521403E-4  -2.701096935197711E-3  -1.334054250037298E-4  -2.726487116888166E-3  -9.198331832885742E-1  -3.022977411746979E-1  
 6.528528528528528E8    -7.217856049537659E-1   5.974419116973877E-1  -3.042692260351032E-4  -2.821412403136492E-3  -2.978299744427204E-4  -2.732197288423777E-3  -9.221460223197937E-1  -2.927076816558838E-1  
 6.552552552552552E8    -7.117600440979004E-1   6.079660058021545E-1  -4.653534851968288E-4  -2.721735741943121E-3  -4.071893636137247E-4  -2.714941045269370E-3  -9.248936176300049E-1  -2.841784358024597E-1  
 6.576576576576576E8    -7.016534209251404E-1   6.174384355545044E-1  -5.814444739371538E-4  -2.732822205871344E-3  -5.640985909849405E-4  -2.713756402954459E-3  -9.273847937583923E-1  -2.761218547821045E-1  
 6.600600600600600E8    -6.908251643180847E-1   6.279299259185791E-1  -6.693593459203839E-4  -2.695369999855757E-3  -5.950626218691468E-4  -2.654234878718853E-3  -9.305202364921570E-1  -2.679913938045502E-1  
 6.624624624624624E8    -6.791478991508484E-1   6.390637755393982E-1  -7.568712462671101E-4  -2.711679786443710E-3  -7.293271482922137E-4  -2.695556962862611E-3  -9.329468011856079E-1  -2.582423090934753E-1  
 6.648648648648648E8    -6.676090955734253E-1   6.498396992683411E-1  -8.363653323613107E-4  -2.660680329427123E-3  -8.257910958491266E-4  -2.680444158613682E-3  -9.353452920913696E-1  -2.484889775514603E-1  
 6.672672672672672E8    -6.558095216751099E-1   6.598886847496033E-1  -8.610595250502229E-4  -2.643856685608625E-3  -8.763013756833971E-4  -2.636136487126350E-3  -9.375852346420288E-1  -2.391143888235092E-1  
 6.696696696696696E8    -6.438703536987305E-1   6.695042848587036E-1  -8.583848830312491E-4  -2.615435747429729E-3  -8.208124199882150E-4  -2.640499500557780E-3  -9.395983219146729E-1  -2.301753312349320E-1  
 6.720720720720720E8    -6.312132477760315E-1   6.790065169334412E-1  -8.618591818958521E-4  -2.668999601155520E-3  -8.193388930521905E-4  -2.619941253215075E-3  -9.414550662040710E-1  -2.215035706758499E-1  
 6.744744744744744E8    -6.177477836608887E-1   6.882588863372803E-1  -8.623854955658317E-4  -2.686245599761605E-3  -8.318649488501251E-4  -2.655394375324249E-3  -9.432516694068909E-1  -2.124463021755219E-1  
 6.768768768768768E8    -6.045970916748047E-1   6.973978877067566E-1  -7.711500511504710E-4  -2.730400767177343E-3  -7.540485239587724E-4  -2.741993404924870E-3  -9.449903964996338E-1  -2.033599317073822E-1  
 6.792792792792792E8    -5.917756557464600E-1   7.058706879615784E-1  -6.278367945924401E-4  -2.742773853242397E-3  -5.802004016004503E-4  -2.730379113927484E-3  -9.469363689422607E-1  -1.942341476678848E-1  
 6.816816816816816E8    -5.787739753723145E-1   7.140559554100037E-1  -4.684909072238952E-4  -2.875137608498335E-3  -4.423357895575464E-4  -2.895263489335775E-3  -9.487498402595520E-1  -1.848773360252380E-1  
 6.840840840840840E8    -5.656648874282837E-1   7.219949364662170E-1  -2.724954974837601E-4  -3.194047836586833E-3  -2.347896224819124E-4  -3.145453287288547E-3  -9.504965543746948E-1  -1.749442964792252E-1  
 6.864864864864864E8    -5.519114732742310E-1   7.292746901512146E-1  -4.492592415772378E-5  -3.586499020457268E-3   7.937599002616480E-5  -3.553974907845259E-3  -9.509972929954529E-1  -1.661546528339386E-1  
 6.888888888888888E8    -5.387049913406372E-1   7.368162870407105E-1   1.616206136532128E-4  -4.167666658759117E-3   2.478773240000010E-4  -4.243524279445410E-3  -9.518960118293762E-1  -1.564135849475861E-1  
 6.912912912912912E8    -5.263422131538391E-1   7.439197301864624E-1   1.570847089169547E-4  -5.028843879699707E-3   2.817016211338341E-4  -5.013673566281796E-3  -9.527374505996704E-1  -1.468025296926498E-1  
 6.936936936936936E8    -5.148916840553284E-1   7.511693835258484E-1  -1.382393675157800E-4  -5.981583613902330E-3  -6.293178012128919E-5  -5.935054272413254E-3  -9.539039134979248E-1  -1.374389529228210E-1  
 6.960960960960960E8    -5.028554797172546E-1   7.596129775047302E-1  -7.662226562388241E-4  -6.883217487484217E-3  -7.582689286209643E-4  -6.771372631192207E-3  -9.552811980247498E-1  -1.276949197053909E-1  
 6.984984984984984E8    -4.904023706912994E-1   7.684254646301270E-1  -1.571916509419680E-3  -7.482900749891996E-3  -1.724733272567391E-3  -7.423856295645237E-3  -9.564450383186340E-1  -1.149316802620888E-1  
 7.009009009009008E8    -4.766485095024109E-1   7.770211100578308E-1  -2.528952434659004E-3  -7.910571061074734E-3  -2.716149203479290E-3  -7.766335271298885E-3  -9.575551152229309E-1  -1.035372912883759E-1  
 7.033033033033032E8    -4.616332650184631E-1   7.852380871772766E-1  -3.526038490235806E-3  -8.014617487788200E-3  -3.612231928855181E-3  -7.871822454035282E-3  -9.579435586929321E-1  -9.460885822772980E-2  
 7.057057057057056E8    -4.463466703891754E-1   7.921569347381592E-1  -4.407463129609823E-3  -7.980858907103539E-3  -4.370511043816805E-3  -7.927769795060158E-3  -9.579531550407410E-1  -8.932135999202728E-2  
 7.081081081081080E8    -4.294684231281281E-1   7.995281815528870E-1  -5.213198252022266E-3  -7.853009738028050E-3  -5.201912485063076E-3  -7.842735387384892E-3  -9.583742618560791E-1  -8.266080915927887E-2  
 7.105105105105104E8    -4.114950597286224E-1   8.068260550498962E-1  -5.992819089442492E-3  -7.760113105177879E-3  -5.884718615561724E-3  -7.809345610439777E-3  -9.588364958763123E-1  -7.499440014362335E-2  
 7.129129129129129E8    -3.949911296367645E-1   8.129453659057617E-1  -6.634030025452375E-3  -7.565307430922985E-3  -6.513124331831932E-3  -7.659786380827427E-3  -9.592755436897278E-1  -6.554168462753296E-2  
 7.153153153153153E8    -3.789797723293304E-1   8.185623288154602E-1  -7.370717357844114E-3  -7.467433344572783E-3  -7.206233683973551E-3  -7.557180244475603E-3  -9.597610831260681E-1  -5.426378548145294E-2  
 7.177177177177178E8    -3.614911437034607E-1   8.238019347190857E-1  -7.902932353317738E-3  -7.290369831025600E-3  -7.827010005712509E-3  -7.405435666441917E-3  -9.602712988853455E-1  -4.228969663381577E-2  
 7.201201201201202E8    -3.417950272560120E-1   8.290829658508301E-1  -8.642585948109627E-3  -7.182439323514700E-3  -8.608479052782059E-3  -7.222387008368969E-3  -9.604952931404114E-1  -3.118579834699631E-2  
 7.225225225225226E8    -3.226407468318939E-1   8.335301280021668E-1  -9.344744496047497E-3  -6.945079192519188E-3  -9.244566783308983E-3  -7.128157652914524E-3  -9.608317017555237E-1  -1.984739489853382E-2  
 7.249249249249250E8    -3.028769791126251E-1   8.376139402389526E-1  -1.004799176007509E-2  -6.737883668392897E-3  -9.858002886176109E-3  -6.921697873622179E-3  -9.602594375610352E-1  -1.119650807231665E-2  
 7.273273273273274E8    -2.844489812850952E-1   8.406355977058411E-1  -1.072731241583824E-2  -6.508914288133383E-3  -1.053230278193951E-2  -6.738889962434769E-3  -9.600203633308411E-1  -1.887008897028863E-3  
 7.297297297297298E8    -2.677900791168213E-1   8.429706692695618E-1  -1.131052151322365E-2  -6.169372238218784E-3  -1.126514747738838E-2  -6.424037739634514E-3  -9.596682786941528E-1   8.231722749769688E-3  
 7.321321321321322E8    -2.522048652172089E-1   8.447976112365723E-1  -1.189016923308373E-2  -5.954574793577194E-3  -1.190777868032455E-2  -6.000790745019913E-3  -9.591938853263855E-1   1.900413259863854E-2  
 7.345345345345346E8    -2.345281541347504E-1   8.463681936264038E-1  -1.252557896077633E-2  -5.820413585752249E-3  -1.249273214489222E-2  -5.633635446429253E-3  -9.581760168075562E-1   2.951513417065144E-2  
 7.369369369369370E8    -2.154274135828018E-1   8.482385873794556E-1  -1.309318654239178E-2  -5.569268949329853E-3  -1.318410877138376E-2  -5.455554462969303E-3  -9.573380947113037E-1   4.014149680733681E-2  
 7.393393393393394E8    -1.958476603031158E-1   8.491290211677551E-1  -1.390895526856184E-2  -5.381289869546890E-3  -1.389403268694878E-2  -5.266660358756781E-3  -9.565564393997192E-1   5.069517716765404E-2  
 7.417417417417418E8    -1.759359985589981E-1   8.495273590087891E-1  -1.475646067410708E-2  -5.150486715137959E-3  -1.473571080714464E-2  -5.083943717181683E-3  -9.556895494461060E-1   6.030206754803658E-2  
 7.441441441441442E8    -1.553100347518921E-1   8.488135933876038E-1  -1.571184210479260E-2  -4.670897498726845E-3  -1.563282869756222E-2  -4.819758702069521E-3  -9.547618031501770E-1   6.926362961530685E-2  
 7.465465465465466E8    -1.357945203781128E-1   8.484386205673218E-1  -1.676433347165585E-2  -4.264452029019594E-3  -1.667634956538677E-2  -4.440649878233671E-3  -9.531650543212891E-1   7.925395667552948E-2  
 7.489489489489490E8    -1.156464591622353E-1   8.467314243316650E-1  -1.777747832238674E-2  -3.758304985240102E-3  -1.780456304550171E-2  -3.909550141543150E-3  -9.520874619483948E-1   8.825907856225967E-2  
 7.513513513513514E8    -9.406421333551407E-2   8.440787792205811E-1  -1.891012862324715E-2  -3.089637961238623E-3  -1.893458515405655E-2  -3.282031975686550E-3  -9.512746930122376E-1   9.861922264099121E-2  
 7.537537537537538E8    -7.109101116657257E-2   8.396421670913696E-1  -1.999778300523758E-2  -2.113074529916048E-3  -1.996707543730736E-2  -2.321721054613590E-3  -9.497748017311096E-1   1.102484315633774E-1  
 7.561561561561562E8    -4.853784292936325E-2   8.335086703300476E-1  -2.095190063118935E-2  -1.071622711606324E-3  -2.095158398151398E-2  -1.293340814299882E-3  -9.475612640380859E-1   1.206242665648460E-1  
 7.585585585585586E8    -2.713430300354958E-2   8.264862298965454E-1  -2.190051227807999E-2  -1.068267374648713E-4  -2.179141715168953E-2  -2.584927715361118E-4  -9.442241191864014E-1   1.330289691686630E-1  
 7.609609609609610E8    -6.744855083525181E-3   8.187493681907654E-1  -2.281415648758411E-2   1.036929781548679E-3  -2.268013730645180E-2   8.672260446473956E-4  -9.413977265357971E-1   1.449172496795654E-1  
 7.633633633633634E8     1.289851497858763E-2   8.110137581825256E-1  -2.371124550700188E-2   2.159257885068655E-3  -2.359904721379280E-2   1.947564072906971E-3  -9.390649199485779E-1   1.557621359825134E-1  
 7.657657657657658E8     3.243177011609078E-2   8.032222986221314E-1  -2.460243552923203E-2   3.584554884582758E-3  -2.449512854218483E-2   3.229759866371751E-3  -9.376416206359863E-1   1.652392894029617E-1  
 7.681681681681682E8     5.159198120236397E-2   7.949371933937073E-1  -2.539646439254284E-2   4.909322597086430E-3  -2.546942606568337E-2   4.552436061203480E-3  -9.372385144233704E-1   1.731185317039490E-1  
 7.705705705705706E8     6.972312182188034E-2   7.863762378692627E-1  -2.612036466598511E-2   6.283040624111891E-3  -2.628595940768719E-2   5.922925192862749E-3  -9.348492622375488E-1   1.816934198141098E-1  
 7.729729729729730E8     9.072962403297424E-2   7.750868797302246E-1  -2.694253064692020E-2   7.773214485496283E-3  -2.717656642198563E-2   7.482210639864206E-3  -9.338117837905884E-1   1.921202987432480E-1  
 7.753753753753754E8     1.100983619689941E-1   7.611053586006165E-1  -2.772786095738411E-2   9.433588944375515E-3  -2.806546725332737E-2   9.055783040821552E-3  -9.316985607147217E-1   2.031897306442261E-1  
 7.777777777777778E8     1.279158294200897E-1   7.452222108840942E-1  -2.850764431059361E-2   1.135657262057066E-2  -2.867398597300053E-2   1.095382403582335E-2  -9.267591834068298E-1   2.150208801031113E-1  
 7.801801801801802E8     1.431206464767456E-1   7.284568548202515E-1  -2.927485108375549E-2   1.324423402547836E-2  -2.918704599142075E-2   1.294969767332077E-2  -9.189764261245728E-1   2.251508086919785E-1  
 7.825825825825826E8     1.588961035013199E-1   7.105510234832764E-1  -2.977431751787663E-2   1.531628798693419E-2  -2.967614121735096E-2   1.509801764041185E-2  -9.137420058250427E-1   2.366870343685150E-1  
 7.849849849849850E8     1.731933355331421E-1   6.944940686225891E-1  -3.020165674388409E-2   1.765797287225723E-2  -3.009160794317722E-2   1.728761754930019E-2  -9.090235829353333E-1   2.446285784244537E-1  
 7.873873873873874E8     1.869299113750458E-1   6.799600124359131E-1  -3.045713342726231E-2   2.007897384464741E-2  -3.031600080430508E-2   1.964450068771839E-2  -9.056971669197083E-1   2.520070970058441E-1  
 7.897897897897898E8     2.028318643569946E-1   6.639963388442993E-1  -3.063967078924179E-2   2.246939949691296E-2  -3.054411523044109E-2   2.203439734876156E-2  -9.035201072692871E-1   2.611880004405975E-1  
 7.921921921921922E8     2.194602936506271E-1   6.447758674621582E-1  -3.057201020419598E-2   2.506060525774956E-2  -3.075395151972771E-2   2.487970143556595E-2  -9.031330347061157E-1   2.715750634670258E-1  
 7.945945945945946E8     2.322052717208862E-1   6.269402503967285E-1  -3.038360737264156E-2   2.792219631373882E-2  -3.064325824379921E-2   2.762683667242527E-2  -8.982507586479187E-1   2.815411090850830E-1  
 7.969969969969970E8     2.438670396804810E-1   6.074852347373962E-1  -2.993458509445190E-2   3.082770109176636E-2  -3.018339909613133E-2   3.054935112595558E-2  -8.935860991477966E-1   2.919718623161316E-1  
 7.993993993993994E8     2.545680105686188E-1   5.852442979812622E-1  -2.920522540807724E-2   3.356410935521126E-2  -2.949808537960053E-2   3.326207026839256E-2  -8.887069225311279E-1   3.030942082405090E-1  
 8.018018018018018E8     2.634221613407135E-1   5.607159137725830E-1  -2.854703553020954E-2   3.632102534174919E-2  -2.869902178645134E-2   3.622376918792725E-2  -8.832988142967224E-1   3.148690760135651E-1  
 8.042042042042042E8     2.709299921989441E-1   5.362926125526428E-1  -2.764651365578175E-2   3.932539001107216E-2  -2.785807661712170E-2   3.920289129018784E-2  -8.782410621643066E-1   3.242739140987396E-1  
 8.066066066066066E8     2.763808071613312E-1   5.117450952529907E-1  -2.667767740786076E-2   4.248356074094772E-2  -2.682209573686123E-2   4.238211736083031E-2  -8.727940320968628E-1   3.353461027145386E-1  
 8.090090090090090E8     2.790013849735260E-1   4.871544539928436E-1  -2.526325359940529E-2   4.604589194059372E-2  -2.533615753054619E-2   4.592895880341530E-2  -8.668480515480042E-1   3.460695147514343E-1  
 8.114114114114114E8     2.808646559715271E-1   4.637181162834168E-1  -2.344882115721703E-2   4.939061403274536E-2  -2.361997775733471E-2   4.926749691367149E-2  -8.611600995063782E-1   3.561920523643494E-1  
 8.138138138138138E8     2.808306217193604E-1   4.385096132755280E-1  -2.153788879513741E-2   5.284563079476357E-2  -2.167409099638462E-2   5.294736474752426E-2  -8.555203080177307E-1   3.661242723464966E-1  
 8.162162162162162E8     2.769400477409363E-1   4.130582511425018E-1  -1.884325034916401E-2   5.676943808794022E-2  -1.905755139887333E-2   5.676387250423431E-2  -8.499397039413452E-1   3.758773207664490E-1  
 8.186186186186186E8     2.688357234001160E-1   3.906479179859161E-1  -1.536700688302517E-2   6.039585545659065E-2  -1.554944179952145E-2   6.035173311829567E-2  -8.436340689659119E-1   3.863221704959869E-1  
 8.210210210210210E8     2.586919963359833E-1   3.696889877319336E-1  -1.132521405816078E-2   6.346044689416885E-2  -1.167532708495855E-2   6.328906118869782E-2  -8.369261026382446E-1   3.967356681823731E-1  
 8.234234234234234E8     2.485595941543579E-1   3.516224026679993E-1  -7.042055483907461E-3   6.595385819673538E-2  -7.462787907570601E-3   6.582895666360855E-2  -8.301318883895874E-1   4.071391522884369E-1  
