#  HZ   S   RI   R     50.00 
! Rohde & Schwarz ZVB8 2Ports - Version 2.81 - 1145.1010k08 SN: 100113
! Date: 2016-05-04 02:48:29
! Measurements: S11 S21 S12 S22 
! 
 6.000000000000000E8    -8.971369266510010E-1   3.236523568630219E-1   8.059689571382478E-5  -2.607759670354426E-4   1.477728364989162E-4  -3.098564920946956E-4  -8.392313718795776E-1  -4.886063039302826E-1  
 6.024024024024024E8    -8.920478820800781E-1   3.355386555194855E-1   1.443875080440193E-4  -3.250838490203023E-4   1.372064143652096E-4  -2.267473901156336E-4  -8.437653779983521E-1  -4.802345335483551E-1  
 6.048048048048048E8    -8.869283199310303E-1   3.478960394859314E-1   1.418267493136227E-4  -2.979609998874366E-4   1.967557618627325E-4  -3.108703822363168E-4  -8.482132554054260E-1  -4.716982841491699E-1  
 6.072072072072072E8    -8.811031579971314E-1   3.611845672130585E-1   1.338200381724164E-4  -3.207976114936173E-4   2.436144714010879E-4  -2.760600764304400E-4  -8.530272841453552E-1  -4.632147550582886E-1  
 6.096096096096096E8    -8.750079274177551E-1   3.746718466281891E-1   1.579813251737505E-4  -3.187977417837828E-4   1.692008809186518E-4  -2.695456787478179E-4  -8.575256466865540E-1  -4.542451798915863E-1  
 6.120120120120120E8    -8.704369664192200E-1   3.847052454948425E-1   1.890546700451523E-4  -3.115443396382034E-4   2.484097785782069E-4  -2.956450916826725E-4  -8.610696196556091E-1  -4.469069838523865E-1  
 6.144144144144144E8    -8.645997643470764E-1   3.962880074977875E-1   2.724654041230679E-4  -2.273608988616616E-4   3.148400282952935E-4  -2.945451124105603E-4  -8.648692369461060E-1  -4.392760097980499E-1  
 6.168168168168168E8    -8.581935763359070E-1   4.080143570899963E-1   3.186317626386881E-4  -2.244227507617325E-4   3.059039881918579E-4  -1.958982320502400E-4  -8.688046932220459E-1  -4.311645925045013E-1  
 6.192192192192192E8    -8.518221378326416E-1   4.194817841053009E-1   4.766435013152659E-4  -3.086503129452467E-4   4.310025833547115E-4  -2.489072212483734E-4  -8.732076883316040E-1  -4.224891066551209E-1  
 6.216216216216216E8    -8.449554443359375E-1   4.306771159172058E-1   5.756708560511470E-4  -2.707612875383347E-4   5.905649741180241E-4  -3.286543942522258E-4  -8.777731657028198E-1  -4.127526283264160E-1  
 6.240240240240240E8    -8.380532264709473E-1   4.417654871940613E-1   7.553874747827649E-4  -2.957003307528794E-4   6.896540289744735E-4  -3.564674407243729E-4  -8.824968338012695E-1  -4.027161002159119E-1  
 6.264264264264264E8    -8.311166167259216E-1   4.537064433097839E-1   9.092561667785049E-4  -5.238681915216148E-4   8.802222437225282E-4  -5.122554721310735E-4  -8.868296742439270E-1  -3.922865688800812E-1  
 6.288288288288288E8    -8.244082331657410E-1   4.650201499462128E-1   9.897757554426789E-4  -7.370577659457922E-4   1.008344814181328E-3  -6.985256914049387E-4  -8.905617594718933E-1  -3.833089768886566E-1  
 6.312312312312312E8    -8.180478811264038E-1   4.754236936569214E-1   1.051125465892255E-3  -9.207931580021977E-4   1.029704581014812E-3  -9.005889878608286E-4  -8.937117457389832E-1  -3.751976788043976E-1  
 6.336336336336336E8    -8.121033906936646E-1   4.856340885162354E-1   1.054729917086661E-3  -1.164837274700403E-3   1.041054376401007E-3  -1.151744974777103E-3  -8.967298269271851E-1  -3.675901889801025E-1  
 6.360360360360360E8    -8.064391016960144E-1   4.958864450454712E-1   9.510230738669634E-4  -1.481780083850026E-3   9.331276523880661E-4  -1.390050631016493E-3  -8.997163176536560E-1  -3.604475259780884E-1  
 6.384384384384384E8    -7.996461391448975E-1   5.074770450592041E-1   8.681048057042062E-4  -1.652442500926554E-3   8.629956282675266E-4  -1.628619385883212E-3  -9.027288556098938E-1  -3.525394797325134E-1  
 6.408408408408408E8    -7.921696305274963E-1   5.192605853080750E-1   6.636533653363586E-4  -1.874062814749777E-3   6.828962941654027E-4  -1.810490619391203E-3  -9.060224294662476E-1  -3.439747095108032E-1  
 6.432432432432432E8    -7.847681641578674E-1   5.304694175720215E-1   4.903404042124748E-4  -1.940234797075391E-3   4.667476168833673E-4  -1.951924292370677E-3  -9.093714952468872E-1  -3.355396687984467E-1  
 6.456456456456456E8    -7.769917845726013E-1   5.414593219757080E-1   2.897376834880561E-4  -1.994970953091979E-3   3.217150515411049E-4  -1.984029542654753E-3  -9.128199219703674E-1  -3.274676799774170E-1  
 6.480480480480480E8    -7.689178586006165E-1   5.515133142471314E-1   1.726345653878525E-4  -2.048277063295245E-3   1.749782968545333E-4  -2.058440353721380E-3  -9.161959290504456E-1  -3.193416893482208E-1  
 6.504504504504504E8    -7.597541809082031E-1   5.631527900695801E-1  -1.694269485597033E-5  -2.120811957865953E-3  -3.265169652877376E-5  -2.090471331030130E-3  -9.182601571083069E-1  -3.101114034652710E-1  
 6.528528528528528E8    -7.508099675178528E-1   5.739871263504028E-1  -1.815893629100174E-4  -2.033904660493136E-3  -1.370830141240731E-4  -1.973982667550445E-3  -9.208103418350220E-1  -3.012455403804779E-1  
 6.552552552552552E8    -7.424622178077698E-1   5.840076208114624E-1  -3.087082586716861E-4  -2.010585973039269E-3  -2.708893443923444E-4  -2.059010323137045E-3  -9.232090711593628E-1  -2.928667366504669E-1  
 6.576576576576576E8    -7.340821027755737E-1   5.932688713073731E-1  -3.588051768019795E-4  -1.997147686779499E-3  -3.601655771490187E-4  -1.981418346986175E-3  -9.259679317474365E-1  -2.852573990821838E-1  
 6.600600600600600E8    -7.244015932083130E-1   6.033113598823547E-1  -5.052260239608586E-4  -1.957028638571501E-3  -4.299056017771363E-4  -1.933041028678417E-3  -9.292143583297730E-1  -2.770932614803314E-1  
 6.624624624624624E8    -7.143512964248657E-1   6.145507097244263E-1  -4.945943364873529E-4  -1.947472570464015E-3  -4.848346579819918E-4  -1.925839693285525E-3  -9.315274953842163E-1  -2.676582634449005E-1  
 6.648648648648648E8    -7.045345902442932E-1   6.251547932624817E-1  -5.309436237439513E-4  -1.994553022086620E-3  -5.419768276624382E-4  -1.945140305906534E-3  -9.340621829032898E-1  -2.581859230995178E-1  
 6.672672672672672E8    -6.945837736129761E-1   6.351124644279480E-1  -5.658168229274452E-4  -1.865973463281989E-3  -5.717707681469619E-4  -1.866935752332211E-3  -9.363589882850647E-1  -2.493546158075333E-1  
 6.696696696696696E8    -6.845214366912842E-1   6.444366574287415E-1  -5.412957980297506E-4  -1.896994537673891E-3  -5.026722792536020E-4  -1.824206905439496E-3  -9.385176301002502E-1  -2.405210137367249E-1  
 6.720720720720720E8    -6.741029620170593E-1   6.539019346237183E-1  -5.471382755786181E-4  -1.805799198336899E-3  -5.429931334219873E-4  -1.872948720119894E-3  -9.403412938117981E-1  -2.323140650987625E-1  
 6.744744744744744E8    -6.629313826560974E-1   6.636818647384644E-1  -5.230554379522800E-4  -1.840935321524739E-3  -5.106008029542863E-4  -1.853746711276472E-3  -9.423350691795349E-1  -2.234095484018326E-1  
 6.768768768768768E8    -6.514481902122498E-1   6.730888485908508E-1  -4.587065777741373E-4  -1.824406790547073E-3  -4.532923048827797E-4  -1.879563438706100E-3  -9.441003799438477E-1  -2.147708535194397E-1  
 6.792792792792792E8    -6.405929923057556E-1   6.818237900733948E-1  -3.433036617934704E-4  -1.903069671243429E-3  -3.435671678744257E-4  -1.883992343209684E-3  -9.460291862487793E-1  -2.060503661632538E-1  
 6.816816816816816E8    -6.296208500862122E-1   6.903100609779358E-1  -1.934059546329081E-4  -1.950155477970839E-3  -2.256610750919208E-4  -2.033658092841506E-3  -9.478297233581543E-1  -1.969811320304871E-1  
 6.840840840840840E8    -6.190798878669739E-1   6.985155344009399E-1  -4.848516618949361E-5  -2.089091809466481E-3  -5.225028144195676E-5  -2.098625991493464E-3  -9.500232338905335E-1  -1.875501424074173E-1  
 6.864864864864864E8    -6.072459220886231E-1   7.071445584297180E-1   1.554995687911287E-4  -2.401636214926839E-3   1.572884939378128E-4  -2.376999007537961E-3  -9.509319663047791E-1  -1.790425926446915E-1  
 6.888888888888888E8    -5.958212018013001E-1   7.153084874153137E-1   2.528979384806007E-4  -2.713313326239586E-3   2.668123343028128E-4  -2.723543439060450E-3  -9.517525434494019E-1  -1.697515249252319E-1  
 6.912912912912912E8    -5.855782628059387E-1   7.229613661766052E-1   2.905029687099159E-4  -3.259755205363035E-3   3.776338999159634E-4  -3.207565518096089E-3  -9.528232812881470E-1  -1.606397181749344E-1  
 6.936936936936936E8    -5.756984353065491E-1   7.310108542442322E-1   1.179247046820819E-4  -3.801650600507855E-3   1.778539299266413E-4  -3.786841873079538E-3  -9.543668627738953E-1  -1.513340026140213E-1  
 6.960960960960960E8    -5.654738545417786E-1   7.397857308387756E-1  -2.219643356511369E-4  -4.421757068485022E-3  -1.866715756477788E-4  -4.422810859978199E-3  -9.558109641075134E-1  -1.419047415256500E-1  
 6.984984984984984E8    -5.551098585128784E-1   7.485247254371643E-1  -7.020249613560736E-4  -4.807744640856981E-3  -7.448978140018880E-4  -4.826650023460388E-3  -9.572467803955078E-1  -1.298075914382935E-1  
 7.009009009009008E8    -5.438724756240845E-1   7.570417523384094E-1  -1.363473827950656E-3  -5.116008222103119E-3  -1.362246228381991E-3  -5.075558088719845E-3  -9.586166739463806E-1  -1.185265108942986E-1  
 7.033033033033032E8    -5.315738916397095E-1   7.653326392173767E-1  -1.864399528130889E-3  -5.150164477527142E-3  -1.885287580080330E-3  -5.145468283444643E-3  -9.592400193214417E-1  -1.100437343120575E-1  
 7.057057057057056E8    -5.193171501159668E-1   7.727639675140381E-1  -2.402337267994881E-3  -5.109747406095266E-3  -2.426246181130409E-3  -5.143183283507824E-3  -9.594445228576660E-1  -1.050879731774330E-1  
 7.081081081081080E8    -5.055618286132813E-1   7.805362343788147E-1  -2.867954783141613E-3  -5.105716641992331E-3  -2.900786465033889E-3  -5.144503433257341E-3  -9.598627090454102E-1  -9.879936277866364E-2  
 7.105105105105104E8    -4.910890758037567E-1   7.888416647911072E-1  -3.256030613556504E-3  -5.036866292357445E-3  -3.145948750898242E-3  -5.091967992484570E-3  -9.604926109313965E-1  -9.169120341539383E-2  
 7.129129129129129E8    -4.778549075126648E-1   7.959314584732056E-1  -3.661784576252103E-3  -4.886964801698923E-3  -3.597445553168654E-3  -4.984565544873476E-3  -9.610569477081299E-1  -8.285722881555557E-2  
 7.153153153153153E8    -4.654333591461182E-1   8.025152683258057E-1  -4.014668986201286E-3  -4.801833536475897E-3  -3.935245797038078E-3  -4.851548466831446E-3  -9.619022011756897E-1  -7.176249474287033E-2  
 7.177177177177178E8    -4.520739912986755E-1   8.095363974571228E-1  -4.361877683550119E-3  -4.685790278017521E-3  -4.321593791246414E-3  -4.711654502898455E-3  -9.625751972198486E-1  -6.024595722556114E-2  
 7.201201201201202E8    -4.366751015186310E-1   8.167232871055603E-1  -4.676046315580607E-3  -4.585626535117626E-3  -4.608884453773499E-3  -4.664324689656496E-3  -9.633691310882568E-1  -4.944420978426933E-2  
 7.225225225225226E8    -4.212588369846344E-1   8.235807418823242E-1  -4.968480207026005E-3  -4.521926399320364E-3  -4.938947502523661E-3  -4.565493669360876E-3  -9.637774825096130E-1  -3.893215209245682E-2  
 7.249249249249250E8    -4.053096175193787E-1   8.304409980773926E-1  -5.267569329589605E-3  -4.369194619357586E-3  -5.226850509643555E-3  -4.457993898540735E-3  -9.636106491088867E-1  -3.058331087231636E-2  
 7.273273273273274E8    -3.908656835556030E-1   8.361698985099793E-1  -5.622528959065676E-3  -4.224058240652084E-3  -5.458202678710222E-3  -4.388130735605955E-3  -9.635593891143799E-1  -2.195374295115471E-2  
 7.297297297297298E8    -3.778062462806702E-1   8.411592841148377E-1  -5.820618942379952E-3  -4.109696019440889E-3  -5.789991468191147E-3  -4.228089936077595E-3  -9.636793136596680E-1  -1.241769269108772E-2  
 7.321321321321322E8    -3.658701479434967E-1   8.455308079719544E-1  -6.087658926844597E-3  -4.039522726088762E-3  -6.013062782585621E-3  -4.087429028004408E-3  -9.634742736816406E-1  -1.824658596888185E-3  
 7.345345345345346E8    -3.520531058311462E-1   8.501211404800415E-1  -6.298507563769817E-3  -4.034681711345911E-3  -6.283378228545189E-3  -4.034185316413641E-3  -9.631640911102295E-1   7.924901321530342E-3  
 7.369369369369370E8    -3.368555009365082E-1   8.547357320785523E-1  -6.604349706321955E-3  -4.031918477267027E-3  -6.550281308591366E-3  -3.952163271605969E-3  -9.625582098960877E-1   1.811492070555687E-2  
 7.393393393393394E8    -3.215375244617462E-1   8.590555787086487E-1  -6.942133884876967E-3  -4.016817081719637E-3  -6.931327749043703E-3  -3.957716748118401E-3  -9.619966745376587E-1   2.789827249944210E-2  
 7.417417417417418E8    -3.062919676303864E-1   8.628349900245667E-1  -7.350937463343144E-3  -3.998476546257734E-3  -7.324719335883856E-3  -4.025839734822512E-3  -9.615246653556824E-1   3.694158047437668E-2  
 7.441441441441442E8    -2.908270955085754E-1   8.660936355590820E-1  -7.773936260491610E-3  -3.884170437231660E-3  -7.776634301990271E-3  -3.925628494471312E-3  -9.612415432929993E-1   4.484831541776657E-2  
 7.465465465465466E8    -2.765480875968933E-1   8.700821995735169E-1  -8.210611529648304E-3  -3.729803720489144E-3  -8.214593864977360E-3  -3.760119900107384E-3  -9.603105187416077E-1   5.435009300708771E-2  
 7.489489489489490E8    -2.619146108627319E-1   8.732131719589233E-1  -8.710060268640518E-3  -3.576853312551975E-3  -8.630744181573391E-3  -3.658126806840301E-3  -9.598779082298279E-1   6.310646981000900E-2  
 7.513513513513514E8    -2.458494007587433E-1   8.763653635978699E-1  -9.161240421235561E-3  -3.373431973159313E-3  -9.049664251506329E-3  -3.479217644780874E-3  -9.594023227691650E-1   7.260570675134659E-2  
 7.537537537537538E8    -2.278119176626205E-1   8.792951107025147E-1  -9.654279798269272E-3  -3.126953961327672E-3  -9.661836549639702E-3  -3.226294415071607E-3  -9.588036537170410E-1   8.328130096197128E-2  
 7.561561561561562E8    -2.096619457006455E-1   8.804597854614258E-1  -1.008887216448784E-2  -2.807453973218799E-3  -1.005519181489945E-2  -2.907332032918930E-3  -9.571852684020996E-1   9.354651719331741E-2  
 7.585585585585586E8    -1.922391504049301E-1   8.813821673393250E-1  -1.051439624279738E-2  -2.494389424100518E-3  -1.040607132017613E-2  -2.599275438115001E-3  -9.545713663101196E-1   1.047645509243012E-1  
 7.609609609609610E8    -1.760481745004654E-1   8.815684318542481E-1  -1.092364918440580E-2  -2.214037114754319E-3  -1.079489476978779E-2  -2.280567307025194E-3  -9.522550702095032E-1   1.162847578525543E-1  
 7.633633633633634E8    -1.602223962545395E-1   8.822153806686401E-1  -1.138805225491524E-2  -1.942539587616921E-3  -1.129606459289789E-2  -2.058758400380611E-3  -9.506776332855225E-1   1.265832930803299E-1  
 7.657657657657658E8    -1.451739072799683E-1   8.836973309516907E-1  -1.184746902436018E-2  -1.515050418674946E-3  -1.178594585508108E-2  -1.690996577963233E-3  -9.501992464065552E-1   1.350631862878799E-1  
 7.681681681681682E8    -1.300841122865677E-1   8.854102492332459E-1  -1.226957421749830E-2  -1.237927237525582E-3  -1.232774462550879E-2  -1.324563520029187E-3  -9.506651163101196E-1   1.425443291664124E-1  
 7.705705705705706E8    -1.152539178729057E-1   8.867436647415161E-1  -1.277204882353544E-2  -8.240084862336516E-4  -1.274605281651020E-2  -1.029081526212394E-3  -9.488997459411621E-1   1.503564715385437E-1  
 7.729729729729730E8    -9.785871207714081E-2   8.869240283966065E-1  -1.317423023283482E-2  -4.206244775559753E-4  -1.319954171776772E-2  -7.009770488366485E-4  -9.488989710807800E-1   1.591487228870392E-1  
 7.753753753753754E8    -8.027394115924835E-2   8.847678303718567E-1  -1.366762071847916E-2  -1.974511724256445E-5  -1.366944331675768E-2  -1.588713203091174E-4  -9.477213621139526E-1   1.698119789361954E-1  
 7.777777777777778E8    -6.389090418815613E-2   8.808943629264832E-1  -1.413310039788485E-2   4.979894729331136E-4  -1.413444802165031E-2   3.197632613591850E-4  -9.437801837921143E-1   1.808868348598480E-1  
 7.801801801801802E8    -4.914331063628197E-2   8.767896294593811E-1  -1.464940514415503E-2   9.373651118949056E-4  -1.461175642907620E-2   8.214758709073067E-4  -9.368939995765686E-1   1.908277124166489E-1  
 7.825825825825826E8    -3.276022523641586E-2   8.716627955436707E-1  -1.513162069022656E-2   1.392492558807135E-3  -1.509084925055504E-2   1.319229253567755E-3  -9.333588480949402E-1   2.014196366071701E-1  
 7.849849849849850E8    -1.732392609119415E-2   8.693280220031738E-1  -1.575309410691261E-2   2.038361970335245E-3  -1.564550213515759E-2   1.922290306538343E-3  -9.296212196350098E-1   2.085106968879700E-1  
 7.873873873873874E8    -1.825675019063056E-3   8.680238127708435E-1  -1.627322658896446E-2   2.793768187984824E-3  -1.617852225899696E-2   2.587439492344856E-3  -9.270085692405701E-1   2.154423296451569E-1  
 7.897897897897898E8     1.609467156231403E-2   8.665108680725098E-1  -1.685717329382896E-2   3.474140306934714E-3  -1.673186384141445E-2   3.326218808069825E-3  -9.262918233871460E-1   2.235504984855652E-1  
 7.921921921921922E8     3.644732758402824E-2   8.632035255432129E-1  -1.732204481959343E-2   4.319414962083101E-3  -1.732742972671986E-2   4.217140842229128E-3  -9.270679950714111E-1   2.329968065023422E-1  
 7.945945945945946E8     5.333860218524933E-2   8.601754903793335E-1  -1.786375790834427E-2   5.241157952696085E-3  -1.785480603575707E-2   5.011284723877907E-3  -9.233466982841492E-1   2.417814135551453E-1  
 7.969969969969970E8     6.932637095451355E-2   8.554095625877380E-1  -1.820615865290165E-2   6.241285707801580E-3  -1.824497617781162E-2   5.950809922069311E-3  -9.203124046325684E-1   2.514136433601379E-1  
 7.993993993993994E8     8.502737432718277E-2   8.491707444190979E-1  -1.854541338980198E-2   7.098079659044743E-3  -1.866835355758667E-2   6.955748889595270E-3  -9.168801307678223E-1   2.620058059692383E-1  
 8.018018018018018E8     1.010598838329315E-1   8.411364555358887E-1  -1.894565485417843E-2   7.986455224454403E-3  -1.893792115151882E-2   7.864507846534252E-3  -9.130101203918457E-1   2.724128663539887E-1  
 8.042042042042042E8     1.173364147543907E-1   8.341880440711975E-1  -1.928644068539143E-2   9.004980325698853E-3  -1.934769190847874E-2   8.880793116986752E-3  -9.095187187194824E-1   2.811700999736786E-1  
 8.066066066066066E8     1.335090249776840E-1   8.265693783760071E-1  -1.960757374763489E-2   1.000445429235697E-2  -1.966400444507599E-2   9.928520768880844E-3  -9.057322740554810E-1   2.913064956665039E-1  
 8.090090090090090E8     1.492161303758621E-1   8.186859488487244E-1  -1.993237249553204E-2   1.114704087376595E-2  -2.000300213694572E-2   1.115209795534611E-2  -9.017988443374634E-1   3.010922670364380E-1  
 8.114114114114114E8     1.648532599210739E-1   8.108726143836975E-1  -2.039115875959396E-2   1.233397144824266E-2  -2.033094316720963E-2   1.222879532724619E-2  -8.980083465576172E-1   3.101925253868103E-1  
 8.138138138138138E8     1.805244535207748E-1   8.021262884140015E-1  -2.086202055215836E-2   1.351641863584518E-2  -2.092245034873486E-2   1.351621933281422E-2  -8.942353725433350E-1   3.191761374473572E-1  
 8.162162162162162E8     1.960553377866745E-1   7.917885184288025E-1  -2.144272997975349E-2   1.528432779014111E-2  -2.149056829512119E-2   1.519272103905678E-2  -8.905738592147827E-1   3.283224403858185E-1  
 8.186186186186186E8     2.087575346231461E-1   7.809674739837647E-1  -2.158718556165695E-2   1.723156310617924E-2  -2.166351117193699E-2   1.710033230483532E-2  -8.861098289489746E-1   3.373540937900543E-1  
 8.210210210210210E8     2.211026847362518E-1   7.693314552307129E-1  -2.136587165296078E-2   1.911223493516445E-2  -2.144018933176994E-2   1.904713548719883E-2  -8.814634084701538E-1   3.468786776065826E-1  
 8.234234234234234E8     2.331084907054901E-1   7.578363418579102E-1  -2.099502086639404E-2   2.098529599606991E-2  -2.107426337897778E-2   2.090569213032723E-2  -8.766415119171143E-1   3.561270833015442E-1  
