#  HZ   S   RI   R     50.00 
! Rohde & Schwarz ZVB8 2Ports - Version 2.81 - 1145.1010k08 SN: 100113
! Date: 2016-05-04 02:50:25
! Measurements: S11 S21 S12 S22 
! 
 6.000000000000000E8    -8.667715191841126E-1   3.698554039001465E-1   1.008320105029270E-4  -7.859065080992878E-4   7.771122182020918E-5  -7.580224773846567E-4  -8.494576215744019E-1  -4.618289768695831E-1  
 6.024024024024024E8    -8.596843481063843E-1   3.830883800983429E-1   1.684314775047824E-4  -8.893402991816402E-4   1.583720149938017E-4  -8.691860130056739E-4  -8.540312647819519E-1  -4.522017240524292E-1  
 6.048048048048048E8    -8.524245023727417E-1   3.964385688304901E-1   1.771796669345349E-4  -8.377356571145356E-4   1.812605769373477E-4  -8.971715578809381E-4  -8.586014509201050E-1  -4.425729811191559E-1  
 6.072072072072072E8    -8.444069623947144E-1   4.105477929115295E-1   1.899507624329999E-4  -8.601571898907423E-4   1.863190555013716E-4  -8.385999826714397E-4  -8.632719516754150E-1  -4.330952465534210E-1  
 6.096096096096096E8    -8.356454372406006E-1   4.245953857898712E-1   2.929897455032915E-4  -9.262193925678730E-4   2.572266093920916E-4  -8.068215684033930E-4  -8.678520917892456E-1  -4.228739738464356E-1  
 6.120120120120120E8    -8.290781378746033E-1   4.357582032680512E-1   3.348399768583477E-4  -8.253127452917397E-4   3.231193986721337E-4  -8.427528082393110E-4  -8.714268207550049E-1  -4.142425358295441E-1  
 6.144144144144144E8    -8.206304907798767E-1   4.478383958339691E-1   5.002004909329116E-4  -9.075234993360937E-4   5.145407631061971E-4  -8.810274885036051E-4  -8.750266432762146E-1  -4.053886830806732E-1  
 6.168168168168168E8    -8.114660382270813E-1   4.604874849319458E-1   7.954434840939939E-4  -8.893319172784686E-4   7.492623990401626E-4  -9.093415574170649E-4  -8.790813088417053E-1  -3.956832885742188E-1  
 6.192192192192192E8    -8.021402359008789E-1   4.727093875408173E-1   9.902216261252761E-4  -9.746828000061214E-4   1.006899401545525E-3  -1.029175007715821E-3  -8.832315802574158E-1  -3.855836093425751E-1  
 6.216216216216216E8    -7.928312420845032E-1   4.843231439590454E-1   1.320200739428401E-3  -1.231208443641663E-3   1.385390874929726E-3  -1.201388542540371E-3  -8.874884247779846E-1  -3.745304942131043E-1  
 6.240240240240240E8    -7.829256057739258E-1   4.957459568977356E-1   1.669741934165359E-3  -1.413968158885837E-3   1.634133397601545E-3  -1.502142404206097E-3  -8.919972777366638E-1  -3.630461692810059E-1  
 6.264264264264264E8    -7.728962302207947E-1   5.081735849380493E-1   1.927276374772191E-3  -1.945656375028193E-3   2.046867972239852E-3  -1.929161953739822E-3  -8.959838151931763E-1  -3.510608375072479E-1  
 6.288288288288288E8    -7.630620002746582E-1   5.193238854408264E-1   2.224455121904612E-3  -2.602996304631233E-3   2.255722647532821E-3  -2.539939247071743E-3  -8.992642164230347E-1  -3.404702544212341E-1  
 6.312312312312312E8    -7.539774179458618E-1   5.300472378730774E-1   2.353058895096183E-3  -3.360088216140866E-3   2.289210213348270E-3  -3.291045548394322E-3  -9.021041393280029E-1  -3.306639492511749E-1  
 6.336336336336336E8    -7.458118200302124E-1   5.408882498741150E-1   2.236400032415986E-3  -4.105884581804276E-3   2.235152525827289E-3  -4.152978770434856E-3  -9.050519466400147E-1  -3.214513361454010E-1  
 6.360360360360360E8    -7.369269728660584E-1   5.518110394477844E-1   1.899015624076128E-3  -4.911271855235100E-3   1.994215184822679E-3  -4.941524937748909E-3  -9.078876376152039E-1  -3.127803206443787E-1  
 6.384384384384384E8    -7.272343635559082E-1   5.643928647041321E-1   1.359939225949347E-3  -5.626790225505829E-3   1.427126466296613E-3  -5.639365874230862E-3  -9.102739691734314E-1  -3.026716709136963E-1  
 6.408408408408408E8    -7.167741656303406E-1   5.772320032119751E-1   7.984951371327043E-4  -6.208184175193310E-3   8.092683274298906E-4  -6.151163019239903E-3  -9.134600162506104E-1  -2.923845648765564E-1  
 6.432432432432432E8    -7.054291963577271E-1   5.897945761680603E-1   1.419701293343678E-4  -6.584881339222193E-3   1.331242237938568E-4  -6.551400758326054E-3  -9.165737032890320E-1  -2.820036709308624E-1  
 6.456456456456456E8    -6.934299468994141E-1   6.018289923667908E-1  -5.586213083006442E-4  -6.858270149677992E-3  -4.827748343814164E-4  -6.893619429320097E-3  -9.196151494979858E-1  -2.716327309608460E-1  
 6.480480480480480E8    -6.806373000144959E-1   6.130670905113220E-1  -1.262149889953435E-3  -7.041199132800102E-3  -1.151124248281121E-3  -7.015508133918047E-3  -9.227085113525391E-1  -2.611806392669678E-1  
 6.504504504504504E8    -6.672210693359375E-1   6.253921389579773E-1  -1.818340853787959E-3  -7.138578686863184E-3  -1.769440714269877E-3  -7.104257587343454E-3  -9.241245388984680E-1  -2.497223764657974E-1  
 6.528528528528528E8    -6.533281803131104E-1   6.369551420211792E-1  -2.465245546773076E-3  -7.139095570892096E-3  -2.361920429393649E-3  -7.143926806747913E-3  -9.262076020240784E-1  -2.381794005632401E-1  
 6.552552552552552E8    -6.391044855117798E-1   6.477425694465637E-1  -2.941713901236653E-3  -7.141160313040018E-3  -2.847605152055621E-3  -7.175490725785494E-3  -9.281297326087952E-1  -2.271166890859604E-1  
 6.576576576576576E8    -6.251062154769898E-1   6.574156284332275E-1  -3.424555528908968E-3  -7.069531362503767E-3  -3.381168236956000E-3  -7.132220547646284E-3  -9.302834272384644E-1  -2.167222797870636E-1  
 6.600600600600600E8    -6.092177033424377E-1   6.678825616836548E-1  -3.812712617218494E-3  -7.105226628482342E-3  -3.766986774280667E-3  -7.101937197148800E-3  -9.325409531593323E-1  -2.058300822973251E-1  
 6.624624624624624E8    -5.928342938423157E-1   6.787833571434021E-1  -4.166274331510067E-3  -7.053794339299202E-3  -4.109407309442759E-3  -7.054521702229977E-3  -9.339728951454163E-1  -1.930843442678452E-1  
 6.648648648648648E8    -5.760660767555237E-1   6.890266537666321E-1  -4.502736963331699E-3  -7.049441337585449E-3  -4.412311129271984E-3  -7.120217662304640E-3  -9.353845119476318E-1  -1.801305711269379E-1  
 6.672672672672672E8    -5.589005351066589E-1   6.982514858245850E-1  -4.758898634463549E-3  -7.070175372064114E-3  -4.700000397861004E-3  -7.165551651269198E-3  -9.365681409835815E-1  -1.674173325300217E-1  
 6.696696696696696E8    -5.415599942207336E-1   7.066321372985840E-1  -4.972768947482109E-3  -7.116705644875765E-3  -4.950664471834898E-3  -7.209014147520065E-3  -9.372933506965637E-1  -1.553308218717575E-1  
 6.720720720720720E8    -5.228779911994934E-1   7.139303684234619E-1  -5.206448026001453E-3  -7.396367378532887E-3  -5.152525380253792E-3  -7.351248525083065E-3  -9.377136230468750E-1  -1.428232938051224E-1  
 6.744744744744744E8    -5.036641955375671E-1   7.211833000183106E-1  -5.381789524108172E-3  -7.541739381849766E-3  -5.435635801404715E-3  -7.514024153351784E-3  -9.376487731933594E-1  -1.300054639577866E-1  
 6.768768768768768E8    -4.845283329486847E-1   7.276218533515930E-1  -5.519319791346788E-3  -7.803229149430990E-3  -5.478612612932921E-3  -7.802080363035202E-3  -9.376066327095032E-1  -1.167944818735123E-1  
 6.792792792792792E8    -4.660417735576630E-1   7.329939603805542E-1  -5.492397118359804E-3  -8.183530531823635E-3  -5.426605232059956E-3  -8.196890354156494E-3  -9.374380111694336E-1  -1.034633144736290E-1  
 6.816816816816816E8    -4.471131265163422E-1   7.380838990211487E-1  -5.414795130491257E-3  -9.025432169437408E-3  -5.315914284437895E-3  -9.007949382066727E-3  -9.366430044174194E-1  -8.961173146963120E-2  
 6.840840840840840E8    -4.283647537231445E-1   7.422108650207520E-1  -5.413888487964869E-3  -1.018011290580034E-2  -5.284225568175316E-3  -1.019275933504105E-2  -9.357022643089294E-1  -7.491145282983780E-2  
 6.864864864864864E8    -4.092373251914978E-1   7.463614344596863E-1  -5.452885758131743E-3  -1.190544106066227E-2  -5.281235557049513E-3  -1.194283086806536E-2  -9.325917363166809E-1  -6.136002764105797E-2  
 6.888888888888888E8    -3.908762037754059E-1   7.496368288993835E-1  -6.143926642835140E-3  -1.435415633022785E-2  -6.011081859469414E-3  -1.430067885667086E-2  -9.293410778045654E-1  -4.686427116394043E-2  
 6.912912912912912E8    -3.734738528728485E-1   7.531082630157471E-1  -7.884970866143704E-3  -1.719206012785435E-2  -7.673388812690973E-3  -1.724721491336823E-2  -9.259042143821716E-1  -3.282470628619194E-2  
 6.936936936936936E8    -3.561805188655853E-1   7.576932907104492E-1  -1.085067447274923E-2  -2.004301175475121E-2  -1.064510550349951E-2  -2.007210999727249E-2  -9.223818182945252E-1  -1.892127655446529E-2  
 6.960960960960960E8    -3.375557363033295E-1   7.635121345520020E-1  -1.496400218456984E-2  -2.221732772886753E-2  -1.490421313792467E-2  -2.215247601270676E-2  -9.187801480293274E-1  -4.819823894649744E-3  
 6.984984984984984E8    -3.170118927955627E-1   7.697401642799377E-1  -1.991073600947857E-2  -2.341121807694435E-2  -2.006681449711323E-2  -2.318386547267437E-2  -9.151911139488220E-1   1.234015170484781E-2  
 7.009009009009008E8    -2.939441800117493E-1   7.750131487846375E-1  -2.531510032713413E-2  -2.333602868020535E-2  -2.548183687031269E-2  -2.286933362483978E-2  -9.109113216400147E-1   2.832752279937267E-2  
 7.033033033033032E8    -2.682128250598908E-1   7.781770229339600E-1  -3.061497211456299E-2  -2.189362980425358E-2  -3.055467829108238E-2  -2.143230102956295E-2  -9.064725637435913E-1   4.198905453085899E-2  
 7.057057057057056E8    -2.422499805688858E-1   7.785897850990295E-1  -3.521448373794556E-2  -1.964904554188252E-2  -3.519960120320320E-2  -1.958829537034035E-2  -9.012891054153442E-1   5.343975126743317E-2  
 7.081081081081080E8    -2.144154310226440E-1   7.777861952781677E-1  -3.973345458507538E-2  -1.710411719977856E-2  -3.954212740063667E-2  -1.735535822808743E-2  -8.957548141479492E-1   6.671728193759918E-2  
 7.105105105105104E8    -1.854552030563355E-1   7.752034068107605E-1  -4.405494779348373E-2  -1.392155606299639E-2  -4.387227073311806E-2  -1.477098092436791E-2  -8.891802430152893E-1   8.101333677768707E-2  
 7.129129129129129E8    -1.571907252073288E-1   7.697322964668274E-1  -4.808364436030388E-2  -1.058460865169764E-2  -4.791732877492905E-2  -1.139266043901444E-2  -8.812607526779175E-1   9.750686585903168E-2  
 7.153153153153153E8    -1.301177293062210E-1   7.620684504508972E-1  -5.195765942335129E-2  -7.035551127046347E-3  -5.189418420195580E-2  -7.578248623758555E-3  -8.724187016487122E-1   1.153455898165703E-1  
 7.177177177177178E8    -1.015030145645142E-1   7.518448829650879E-1  -5.593352392315865E-2  -2.889811061322689E-3  -5.582149326801300E-2  -3.345957491546869E-3  -8.621411323547363E-1   1.344546228647232E-1  
 7.201201201201202E8    -7.212173193693161E-2   7.394367456436157E-1  -6.002574786543846E-2   1.942575443536043E-3  -5.985398590564728E-2   1.422381610609591E-3  -8.507207632064819E-1   1.532848328351975E-1  
 7.225225225225226E8    -4.431635886430740E-2   7.245480418205261E-1  -6.410083919763565E-2   7.570735644549131E-3  -6.395896524190903E-2   6.903675384819508E-3  -8.380794525146484E-1   1.715510338544846E-1  
 7.249249249249250E8    -1.859759353101254E-2   7.088323831558228E-1  -6.782174110412598E-2   1.425512041896582E-2  -6.791830807924271E-2   1.285709533840418E-2  -8.235422372817993E-1   1.879458278417587E-1  
 7.273273273273274E8     4.747311584651470E-3   6.914234757423401E-1  -7.112836092710495E-2   2.187309786677361E-2  -7.159027457237244E-2   2.015441656112671E-2  -8.069286346435547E-1   2.045886367559433E-1  
 7.297297297297298E8     2.672497555613518E-2   6.720309853553772E-1  -7.390341907739639E-2   3.007359243929386E-2  -7.437404245138168E-2   2.886673994362354E-2  -7.877755165100098E-1   2.212682366371155E-1  
 7.321321321321322E8     4.749535769224167E-2   6.515882611274719E-1  -7.609629631042481E-2   3.847743198275566E-2  -7.611546665430069E-2   3.842901065945625E-2  -7.665976881980896E-1   2.379638552665710E-1  
 7.345345345345346E8     6.952771544456482E-2   6.289772987365723E-1  -7.780425250530243E-2   4.761573672294617E-2  -7.750149816274643E-2   4.773082211613655E-2  -7.429324984550476E-1   2.537580132484436E-1  
 7.369369369369370E8     9.185786545276642E-2   6.025886535644531E-1  -7.959377020597458E-2   5.789547413587570E-2  -7.919441163539887E-2   5.842751264572144E-2  -7.163933515548706E-1   2.689745426177979E-1  
 7.393393393393394E8     1.107434779405594E-1   5.721102356910706E-1  -8.062675595283508E-2   7.102939486503601E-2  -8.017870783805847E-2   7.147322595119476E-2  -6.862336397171021E-1   2.816596031188965E-1  
 7.417417417417418E8     1.258841305971146E-1   5.391882658004761E-1  -7.917029410600662E-2   8.670591562986374E-2  -7.914029806852341E-2   8.681767433881760E-2  -6.528347730636597E-1   2.907717823982239E-1  
 7.441441441441442E8     1.377345472574234E-1   5.080856084823608E-1  -7.456646114587784E-2   1.035931482911110E-1  -7.526874542236328E-2   1.031487882137299E-1  -6.185399293899536E-1   2.950484454631805E-1  
 7.465465465465466E8     1.459697037935257E-1   4.775943458080292E-1  -6.688688695430756E-2   1.210516393184662E-1  -6.784141808748245E-2   1.206121444702148E-1  -5.814386606216431E-1   2.957983314990997E-1  
 7.489489489489490E8     1.512694507837296E-1   4.437611103057861E-1  -5.492266640067101E-2   1.389031559228897E-1  -5.635967850685120E-2   1.382990479469299E-1  -5.429614782333374E-1   2.907702624797821E-1  
 7.513513513513514E8     1.533926427364349E-1   4.088362157344818E-1  -3.814073279500008E-2   1.559231430292130E-1  -4.002901911735535E-2   1.553695499897003E-1  -5.034055113792419E-1   2.811093330383301E-1  
 7.537537537537538E8     1.519841551780701E-1   3.742484152317047E-1  -1.584101282060146E-2   1.704842299222946E-1  -1.862462796270847E-2   1.700695902109146E-1  -4.632502496242523E-1   2.661913633346558E-1  
 7.561561561561562E8     1.481035351753235E-1   3.424589931964874E-1   9.264511987566948E-3   1.804514378309250E-1   7.217607460916042E-3   1.801186054944992E-1  -4.230947494506836E-1   2.443966418504715E-1  
 7.585585585585586E8     1.429205834865570E-1   3.127205073833466E-1   3.659587353467941E-2   1.859740018844605E-1   3.486354649066925E-2   1.852204799652100E-1  -3.831647336483002E-1   2.177375257015228E-1  
 7.609609609609610E8     1.364348083734512E-1   2.834539115428925E-1   6.600495427846909E-2   1.868848353624344E-1   6.387955695390701E-2   1.859651356935501E-1  -3.466513454914093E-1   1.819393783807755E-1  
 7.633633633633634E8     1.289024651050568E-1   2.531235814094544E-1   9.762005507946014E-2   1.819875091314316E-1   9.504279494285584E-2   1.813893616199493E-1  -3.173080980777741E-1   1.364715844392777E-1  
 7.657657657657658E8     1.194662824273109E-1   2.222718298435211E-1   1.287965178489685E-1   1.698309034109116E-1   1.265718042850494E-1   1.701177358627319E-1  -2.979097366333008E-1   8.465097844600678E-2  
 7.681681681681682E8     1.087646111845970E-1   1.928145140409470E-1   1.566232442855835E-1   1.510396450757980E-1   1.561611443758011E-1   1.517415344715118E-1  -2.878628969192505E-1   2.884866856038570E-2  
 7.705705705705706E8     9.464991092681885E-2   1.637736409902573E-1   1.801810860633850E-1   1.265594661235809E-1   1.796603649854660E-1   1.280505359172821E-1  -2.861726582050324E-1  -2.398980036377907E-2  
 7.729729729729730E8     7.565643638372421E-2   1.319831609725952E-1   1.986044645309448E-1   9.663960337638855E-2   1.984227001667023E-1   9.967207908630371E-2  -2.947421073913574E-1  -7.851076126098633E-2  
 7.753753753753754E8     5.148855969309807E-2   9.977196156978607E-2   2.101936638355255E-1   6.418049335479736E-2   2.104031443595886E-1   6.748936325311661E-2  -3.145074546337128E-1  -1.320779919624329E-1  
 7.777777777777778E8     2.168339863419533E-2   6.964010745286942E-2   2.145844697952271E-1   3.101504035294056E-2   2.144920378923416E-1   3.405406326055527E-2  -3.432245552539825E-1  -1.792860627174377E-1  
 7.801801801801802E8    -1.427296828478575E-2   4.282585904002190E-2   2.124773710966110E-1  -8.012290927581489E-4   2.112933099269867E-1   2.055254066362977E-3  -3.785180449485779E-1  -2.195301204919815E-1  
 7.825825825825826E8    -5.472699925303459E-2   2.418788708746433E-2   2.047948986291885E-1  -2.988162264227867E-2   2.040355950593948E-1  -2.790015749633312E-2  -4.195376634597778E-1  -2.508922219276428E-1  
 7.849849849849850E8    -9.543878585100174E-2   1.322866324335337E-2   1.921906918287277E-1  -5.663661658763886E-2   1.915254145860672E-1  -5.424234643578529E-2  -4.626848995685577E-1  -2.741436660289764E-1  
 7.873873873873874E8    -1.360689699649811E-1   6.628759671002626E-3   1.758443862199783E-1  -7.866095751523972E-2   1.747956871986389E-1  -7.629118114709854E-2  -5.059370398521423E-1  -2.892918586730957E-1  
 7.897897897897898E8    -1.732488721609116E-1   4.295863676816225E-3   1.575446575880051E-1  -9.509576857089996E-2   1.561868786811829E-1  -9.352082759141922E-2  -5.491596460342407E-1  -2.980550825595856E-1  
 7.921921921921922E8    -2.109315395355225E-1   6.849519908428192E-3   1.382133066654205E-1  -1.075296029448509E-1   1.380601525306702E-1  -1.066105291247368E-1  -5.901280045509338E-1  -3.006002306938171E-1  
 7.945945945945946E8    -2.471875101327896E-1   1.356669142842293E-2   1.194091215729713E-1  -1.168010160326958E-1   1.194054931402206E-1  -1.156668141484261E-1  -6.269757151603699E-1  -2.966199815273285E-1  
 7.969969969969970E8    -2.843741178512573E-1   2.283589355647564E-2   1.002784147858620E-1  -1.225735470652580E-1   1.012130826711655E-1  -1.214964464306831E-1  -6.611807942390442E-1  -2.886050641536713E-1  
 7.993993993993994E8    -3.218721449375153E-1   3.639788180589676E-2   8.253446966409683E-2  -1.250546872615814E-1   8.419762551784515E-2  -1.243660226464272E-1  -6.924502253532410E-1  -2.772145569324493E-1  
 8.018018018018018E8    -3.566261231899262E-1   5.586631968617439E-2   6.633170694112778E-2  -1.251354664564133E-1   6.785668432712555E-2  -1.250033229589462E-1  -7.215234637260437E-1  -2.632117569446564E-1  
 8.042042042042042E8    -3.860478997230530E-1   7.955000549554825E-2   5.169385299086571E-2  -1.236457303166390E-1   5.290632322430611E-2  -1.237994059920311E-1  -7.469953298568726E-1  -2.489457130432129E-1  
 8.066066066066066E8    -4.104633927345276E-1   1.056654378771782E-1   3.903810307383537E-2  -1.211372911930084E-1   3.984941914677620E-2  -1.212623193860054E-1  -7.702189683914185E-1  -2.325193732976914E-1  
 8.090090090090090E8    -4.289242029190064E-1   1.308290660381317E-1   2.785802260041237E-2  -1.179673895239830E-1   2.818759530782700E-2  -1.178507879376411E-1  -7.903952002525330E-1  -2.152356356382370E-1  
 8.114114114114114E8    -4.455007612705231E-1   1.543384045362473E-1   1.794316805899143E-2  -1.140571758151054E-1   1.776202395558357E-2  -1.136073023080826E-1  -8.079617619514465E-1  -1.979933828115463E-1  
 8.138138138138138E8    -4.630158245563507E-1   1.801474839448929E-1   9.268365800380707E-3  -1.097366511821747E-1   9.090989828109741E-3  -1.091712489724159E-1  -8.236026167869568E-1  -1.812846511602402E-1  
 8.162162162162162E8    -4.777438640594482E-1   2.099047154188156E-1   1.180882565677166E-3  -1.055906638503075E-1   1.315868925303221E-3  -1.052227094769478E-1  -8.371509909629822E-1  -1.640795469284058E-1  
 8.186186186186186E8    -4.864477217197418E-1   2.405233234167099E-1  -6.619626656174660E-3  -1.009785756468773E-1  -6.094046402722597E-3  -1.008514538407326E-1  -8.487244248390198E-1  -1.473529487848282E-1  
 8.210210210210210E8    -4.910112023353577E-1   2.697145640850067E-1  -1.374234911054373E-2  -9.522996842861176E-2  -1.315087825059891E-2  -9.563722461462021E-2  -8.583626151084900E-1  -1.305949985980988E-1  
 8.234234234234234E8    -4.919438660144806E-1   2.939008176326752E-1  -1.943025551736355E-2  -8.946895599365234E-2  -1.898595318198204E-2  -8.958536386489868E-2  -8.679073452949524E-1  -1.135821789503098E-1  
