#  HZ   S   RI   R     50.00 
! Rohde & Schwarz ZVB8 2Ports - Version 2.81 - 1145.1010k08 SN: 100113
! Date: 2016-04-20 02:28:01
! Measurements: S11 S21 S12 S22 
! 
 6.000000000000000E8     7.563079595565796E-1   4.074365496635437E-1  -1.879501342773438E-2   3.137996420264244E-2  -1.885415427386761E-2   3.139556944370270E-2   5.512732267379761E-1   7.619248628616333E-1  
 6.024024024024024E8     7.726421356201172E-1   3.690988719463348E-1  -1.758655346930027E-2   3.309918567538261E-2  -1.759353652596474E-2   3.308538720011711E-2   5.678972601890564E-1   7.494959235191345E-1  
 6.048048048048048E8     7.875342369079590E-1   3.284172415733337E-1  -1.611733436584473E-2   3.482522815465927E-2  -1.609609648585320E-2   3.469899296760559E-2   5.834725499153137E-1   7.372568845748901E-1  
 6.072072072072072E8     8.002941012382507E-1   2.864759862422943E-1  -1.455144770443440E-2   3.620597720146179E-2  -1.449995115399361E-2   3.620256856083870E-2   5.993168354034424E-1   7.244250774383545E-1  
 6.096096096096096E8     8.116648197174072E-1   2.432302832603455E-1  -1.290559396147728E-2   3.759028390049934E-2  -1.288130693137646E-2   3.755918145179749E-2   6.150451898574829E-1   7.110935449600220E-1  
 6.120120120120120E8     8.205440044403076E-1   2.017975598573685E-1  -1.131896395236254E-2   3.890860453248024E-2  -1.135404780507088E-2   3.893085569143295E-2   6.292739510536194E-1   6.987515091896057E-1  
 6.144144144144144E8     8.273175954818726E-1   1.597705930471420E-1  -9.666147641837597E-3   4.027522727847099E-2  -9.679257869720459E-3   4.020616412162781E-2   6.430721879005432E-1   6.857397556304932E-1  
 6.168168168168168E8     8.322564363479614E-1   1.160026416182518E-1  -7.962442934513092E-3   4.144395515322685E-2  -7.985707372426987E-3   4.142274707555771E-2   6.572492718696594E-1   6.722818017005920E-1  
 6.192192192192192E8     8.346306085586548E-1   7.128538191318512E-2  -6.182314362376928E-3   4.255064204335213E-2  -6.158864125609398E-3   4.254231601953507E-2   6.715066432952881E-1   6.577979922294617E-1  
 6.216216216216216E8     8.342018723487854E-1   2.533799968659878E-2  -4.445890430361033E-3   4.381030052900314E-2  -4.421613179147244E-3   4.384066537022591E-2   6.856493353843689E-1   6.422789692878723E-1  
 6.240240240240240E8     8.302453160285950E-1  -2.148242667317390E-2  -2.562976907938719E-3   4.509102553129196E-2  -2.492823405191302E-3   4.509618505835533E-2   6.992025971412659E-1   6.262072324752808E-1  
 6.264264264264264E8     8.240426778793335E-1  -6.678683310747147E-2  -4.016060556750745E-4   4.644826054573059E-2  -3.949764359276742E-4   4.640794172883034E-2   7.132780551910400E-1   6.100834608078003E-1  
 6.288288288288288E8     8.139413595199585E-1  -1.119125634431839E-1   2.021502237766981E-3   4.765652865171433E-2   2.017050515860319E-3   4.765095561742783E-2   7.262787818908691E-1   5.937700271606445E-1  
 6.312312312312312E8     8.012694120407105E-1  -1.560456454753876E-1   4.604277666658163E-3   4.868407920002937E-2   4.532992839813232E-3   4.864414781332016E-2   7.381471991539002E-1   5.773887038230896E-1  
 6.336336336336336E8     7.863429188728333E-1  -1.985494792461395E-1   7.230276707559824E-3   4.957516118884087E-2   7.213363423943520E-3   4.949406161904335E-2   7.496533393859863E-1   5.610560774803162E-1  
 6.360360360360360E8     7.690145373344421E-1  -2.401015758514404E-1   9.863561950623989E-3   5.017162859439850E-2   9.928489103913307E-3   5.019512772560120E-2   7.607604861259460E-1   5.448688268661499E-1  
 6.384384384384384E8     7.501990795135498E-1  -2.793922424316406E-1   1.251526456326246E-2   5.072949454188347E-2   1.248496863991022E-2   5.071378871798515E-2   7.720006704330444E-1   5.285193324089050E-1  
 6.408408408408408E8     7.290347218513489E-1  -3.191375732421875E-1   1.519442535936832E-2   5.131731927394867E-2   1.512084528803825E-2   5.136671662330627E-2   7.830749154090881E-1   5.118229985237122E-1  
 6.432432432432432E8     7.042321562767029E-1  -3.586653470993042E-1   1.798989996314049E-2   5.197682976722717E-2   1.795831695199013E-2   5.199528485536575E-2   7.934970855712891E-1   4.942505061626434E-1  
 6.456456456456456E8     6.764743924140930E-1  -3.960876166820526E-1   2.108628489077091E-2   5.239591374993324E-2   2.107498794794083E-2   5.236180499196053E-2   8.035165667533875E-1   4.761709868907929E-1  
 6.480480480480480E8     6.470800638198853E-1  -4.309044778347015E-1   2.437052130699158E-2   5.259830504655838E-2   2.441879175603390E-2   5.260479077696800E-2   8.130422234535217E-1   4.576383531093597E-1  
 6.504504504504504E8     6.159551143646240E-1  -4.632965028285980E-1   2.766631171107292E-2   5.259142071008682E-2   2.767509594559670E-2   5.245339497923851E-2   8.226668834686279E-1   4.398537874221802E-1  
 6.528528528528528E8     5.827651023864746E-1  -4.950159490108490E-1   3.090559877455235E-2   5.238490551710129E-2   3.093046881258488E-2   5.227264389395714E-2   8.317467570304871E-1   4.217040538787842E-1  
 6.552552552552552E8     5.472875237464905E-1  -5.249798297882080E-1   3.406203910708427E-2   5.212653055787087E-2   3.421975672245026E-2   5.204061046242714E-2   8.394623398780823E-1   4.030445218086243E-1  
 6.576576576576576E8     5.100641846656799E-1  -5.516234636306763E-1   3.755138814449310E-2   5.178962647914887E-2   3.751011192798615E-2   5.170351266860962E-2   8.467327952384949E-1   3.839979469776154E-1  
 6.600600600600600E8     4.714209735393524E-1  -5.771056413650513E-1   4.107901453971863E-2   5.127146840095520E-2   4.108196124434471E-2   5.125928297638893E-2   8.538647890090942E-1   3.632392287254334E-1  
 6.624624624624624E8     4.316222667694092E-1  -5.993131399154663E-1   4.461796581745148E-2   5.066332593560219E-2   4.450805857777596E-2   5.069833993911743E-2   8.613729476928711E-1   3.435450196266174E-1  
 6.648648648648648E8     3.889030516147614E-1  -6.193753480911255E-1   4.836775362491608E-2   5.010458081960678E-2   4.829250648617744E-2   5.005978420376778E-2   8.679845333099365E-1   3.239103257656097E-1  
 6.672672672672672E8     3.438668251037598E-1  -6.360454559326172E-1   5.237188190221787E-2   4.930891841650009E-2   5.236872658133507E-2   4.935348778963089E-2   8.734402060508728E-1   3.038838505744934E-1  
 6.696696696696696E8     2.977987229824066E-1  -6.497009992599487E-1   5.666765570640564E-2   4.826914891600609E-2   5.660926550626755E-2   4.819730296730995E-2   8.782499432563782E-1   2.835983037948608E-1  
 6.720720720720720E8     2.515245974063873E-1  -6.597508788108826E-1   6.105023622512817E-2   4.685793817043304E-2   6.102099269628525E-2   4.670687019824982E-2   8.823422193527222E-1   2.626689970493317E-1  
 6.744744744744744E8     2.040565907955170E-1  -6.659691333770752E-1   6.565491110086441E-2   4.502962902188301E-2   6.562383472919464E-2   4.497716575860977E-2   8.864809274673462E-1   2.427364438772202E-1  
 6.768768768768768E8     1.561704874038696E-1  -6.681694984436035E-1   7.038146257400513E-2   4.282740876078606E-2   7.038540393114090E-2   4.279400780797005E-2   8.900299668312073E-1   2.224321067333221E-1  
 6.792792792792792E8     1.086225584149361E-1  -6.668173670768738E-1   7.516501098871231E-2   4.025751352310181E-2   7.508113980293274E-2   4.033002257347107E-2   8.927055001258850E-1   2.020772695541382E-1  
 6.816816816816816E8     6.167947128415108E-2  -6.616010069847107E-1   8.010674268007278E-2   3.724136203527451E-2   8.006040006875992E-2   3.725665435194969E-2   8.950957655906677E-1   1.810852736234665E-1  
 6.840840840840840E8     1.670107059180737E-2  -6.530085206031799E-1   8.484995365142822E-2   3.349840641021729E-2   8.486521244049072E-2   3.355509415268898E-2   8.968398571014404E-1   1.593540608882904E-1  
 6.864864864864864E8    -2.783370204269886E-2  -6.402205228805542E-1   8.956740051507950E-2   2.947738207876682E-2   8.937501162290573E-2   2.971618063747883E-2   8.974122405052185E-1   1.391807347536087E-1  
 6.888888888888888E8    -7.109109312295914E-2  -6.246664524078369E-1   9.414051473140717E-2   2.504505217075348E-2   9.386602044105530E-2   2.556939236819744E-2   8.974416255950928E-1   1.179492697119713E-1  
 6.912912912912912E8    -1.119290962815285E-1  -6.063932776451111E-1   9.881676733493805E-2   2.039023675024509E-2   9.849514812231064E-2   2.099905535578728E-2   8.968328833580017E-1   9.633608162403107E-2  
 6.936936936936936E8    -1.511393189430237E-1  -5.865798592567444E-1   1.036755517125130E-1   1.549285091459751E-2   1.034933105111122E-1   1.583041623234749E-2   8.955045342445374E-1   7.478967308998108E-2  
 6.960960960960960E8    -1.898918300867081E-1  -5.638169646263123E-1   1.087785139679909E-1   9.600210003554821E-3   1.086305677890778E-1   9.339600801467896E-3   8.932831883430481E-1   5.275602638721466E-2  
 6.984984984984984E8    -2.264837622642517E-1  -5.366746187210083E-1   1.134589016437531E-1   2.989718923345208E-3   1.134601309895515E-1   1.358983921818435E-3   8.906625509262085E-1   2.932798676192761E-2  
 7.009009009009008E8    -2.604424953460693E-1  -5.065960884094238E-1   1.175334900617600E-1  -4.446742124855518E-3   1.172640547156334E-1  -7.115423679351807E-3   8.868484497070313E-1   6.758154835551977E-3  
 7.033033033033032E8    -2.917947769165039E-1  -4.729523956775665E-1   1.213732138276100E-1  -1.271041110157967E-2   1.209650710225105E-1  -1.529943756759167E-2   8.821889162063599E-1  -1.329861953854561E-2  
 7.057057057057056E8    -3.183090984821320E-1  -4.357702434062958E-1   1.246921867132187E-1  -2.243938297033310E-2   1.244286075234413E-1  -2.391369640827179E-2   8.769890069961548E-1  -2.956234477460384E-2  
 7.081081081081080E8    -3.401204943656921E-1  -3.971379101276398E-1   1.267839968204498E-1  -3.335428237915039E-2   1.268739253282547E-1  -3.323735669255257E-2   8.717007040977478E-1  -4.672407358884811E-2  
 7.105105105105104E8    -3.579137921333313E-1  -3.566099405288696E-1   1.277071982622147E-1  -4.447166249155998E-2   1.283394843339920E-1  -4.286970570683479E-2   8.667828440666199E-1  -6.262075901031494E-2  
 7.129129129129129E8    -3.703867197036743E-1  -3.168395459651947E-1   1.281148493289948E-1  -5.514761060476303E-2   1.291186660528183E-1  -5.315273255109787E-2   8.613201975822449E-1  -8.070711046457291E-2  
 7.153153153153153E8    -3.791890740394592E-1  -2.778238654136658E-1   1.283811628818512E-1  -6.591867655515671E-2   1.291697025299072E-1  -6.459771841764450E-2   8.548060059547424E-1  -1.007310375571251E-1  
 7.177177177177178E8    -3.831491768360138E-1  -2.388251274824143E-1   1.276509910821915E-1  -7.743183523416519E-2   1.279063671827316E-1  -7.704787701368332E-2   8.472219109535217E-1  -1.219388544559479E-1  
 7.201201201201202E8    -3.827328085899353E-1  -2.007671445608139E-1   1.254264116287231E-1  -8.982927352190018E-2   1.254781186580658E-1  -8.970268815755844E-2   8.392310738563538E-1  -1.434632688760757E-1  
 7.225225225225226E8    -3.783867657184601E-1  -1.644023656845093E-1   1.220480725169182E-1  -1.021298617124558E-1   1.218543574213982E-1  -1.023796945810318E-1   8.303644657135010E-1  -1.639973521232605E-1  
 7.249249249249250E8    -3.711413741111755E-1  -1.307371258735657E-1   1.171350106596947E-1  -1.151518598198891E-1   1.181417629122734E-1  -1.139420047402382E-1   8.195527195930481E-1  -1.822785884141922E-1  
 7.273273273273274E8    -3.616167008876801E-1  -9.984713047742844E-2   1.118074953556061E-1  -1.281801164150238E-1   1.139649152755737E-1  -1.261795014142990E-1   8.073278069496155E-1  -2.005546838045120E-1  
 7.297297297297298E8    -3.493653535842896E-1  -7.219052314758301E-2   1.066572740674019E-1  -1.417682170867920E-1   1.086166873574257E-1  -1.404373049736023E-1   7.935758829116821E-1  -2.189235836267471E-1  
 7.321321321321322E8    -3.333964943885803E-1  -4.745326563715935E-2   1.003471910953522E-1  -1.568193435668945E-1   1.002701967954636E-1  -1.568623334169388E-1   7.777082324028015E-1  -2.369720041751862E-1  
 7.345345345345346E8    -3.148027062416077E-1  -2.656826749444008E-2   9.013342857360840E-2  -1.731647104024887E-1   8.897988498210907E-2  -1.737115830183029E-1   7.604435086250305E-1  -2.519219219684601E-1  
 7.369369369369370E8    -2.960238754749298E-1  -1.060493104159832E-2   7.612979412078857E-2  -1.898686140775681E-1   7.395716756582260E-2  -1.905979812145233E-1   7.404041886329651E-1  -2.654934227466583E-1  
 7.393393393393394E8    -2.772515714168549E-1  -3.490441304165870E-4   5.730435252189636E-2  -2.063223421573639E-1   5.490255355834961E-2  -2.067138552665710E-1   7.178510427474976E-1  -2.759952247142792E-1  
 7.417417417417418E8    -2.606266736984253E-1   3.184536006301642E-3   3.277123346924782E-2  -2.210624665021896E-1   3.105923905968666E-2  -2.209927290678024E-1   6.935243606567383E-1  -2.810319364070892E-1  
 7.441441441441442E8    -2.492927908897400E-1   2.121745841577649E-3   2.343173837289214E-3  -2.317968755960465E-1   2.396613359451294E-3  -2.313200831413269E-1   6.694443225860596E-1  -2.783145308494568E-1  
 7.465465465465466E8    -2.443037778139114E-1  -1.501702645327896E-4  -3.250997513532639E-2  -2.357762604951859E-1  -3.236925974488258E-2  -2.356003820896149E-1   6.494789719581604E-1  -2.666100263595581E-1  
 7.489489489489490E8    -2.463557869195938E-1  -2.805450232699513E-3  -7.069481909275055E-2  -2.300442010164261E-1  -7.021342217922211E-2  -2.300883531570435E-1   6.367159485816956E-1  -2.468239665031433E-1  
 7.513513513513514E8    -2.564741075038910E-1  -3.123004455119371E-3  -1.084581539034843E-1  -2.119293510913849E-1  -1.081143915653229E-1  -2.124093621969223E-1   6.362673044204712E-1  -2.229109108448029E-1  
 7.537537537537538E8    -2.743608951568604E-1   4.979227203875780E-3  -1.395880430936813E-1  -1.806189715862274E-1  -1.391012370586395E-1  -1.814220696687698E-1   6.523732542991638E-1  -2.022054046392441E-1  
 7.561561561561562E8    -2.930231988430023E-1   2.594579942524433E-2  -1.563764810562134E-1  -1.413763612508774E-1  -1.562759131193161E-1  -1.412104368209839E-1   6.835603117942810E-1  -1.937060952186585E-1  
 7.585585585585586E8    -3.060199618339539E-1   5.974689498543739E-2  -1.569346338510513E-1  -1.022486612200737E-1  -1.566996574401856E-1  -1.013889014720917E-1   7.224914431571960E-1  -2.028571218252182E-1  
 7.609609609609610E8    -3.083019554615021E-1   9.990970790386200E-2  -1.451940685510635E-1  -7.067419588565826E-2  -1.445897668600082E-1  -6.978454440832138E-2   7.558161020278931E-1  -2.305261790752411E-1  
 7.633633633633634E8    -2.994086146354675E-1   1.394771188497543E-1  -1.273319125175476E-1  -4.944119602441788E-2  -1.266444474458695E-1  -4.901288449764252E-2   7.775864601135254E-1  -2.700666189193726E-1  
 7.657657657657658E8    -2.829367220401764E-1   1.753686815500259E-1  -1.082279533147812E-1  -3.797623142600060E-2  -1.077923402190208E-1  -3.789822757244110E-2   7.878506779670715E-1  -3.145976364612579E-1  
 7.681681681681682E8    -2.605552375316620E-1   2.074691504240036E-1  -9.112300723791122E-2  -3.445538133382797E-2  -9.114364534616470E-2  -3.441184759140015E-2   7.890821099281311E-1  -3.598773181438446E-1  
 7.705705705705706E8    -2.337708771228790E-1   2.358700931072235E-1  -7.766216993331909E-2  -3.601513430476189E-2  -7.780187577009201E-2  -3.604615852236748E-2   7.829329371452332E-1  -4.004071056842804E-1  
 7.729729729729730E8    -2.035873979330063E-1   2.605393528938294E-1  -6.806978583335877E-2  -3.999820724129677E-2  -6.838612258434296E-2  -4.023975506424904E-2   7.705533504486084E-1  -4.410724043846130E-1  
 7.753753753753754E8    -1.688275784254074E-1   2.793820500373840E-1  -6.181726604700089E-2  -4.560020193457604E-2  -6.216447055339813E-2  -4.597341641783714E-2   7.512725591659546E-1  -4.806374609470367E-1  
 7.777777777777778E8    -1.334876418113709E-1   2.899030745029450E-1  -5.869124084711075E-2  -5.194987729191780E-2  -5.892686545848846E-2  -5.222590640187264E-2   7.264825701713562E-1  -5.163312554359436E-1  
 7.801801801801802E8    -1.010139063000679E-1   2.949295341968536E-1  -5.811990424990654E-2  -5.823040008544922E-2  -5.802549794316292E-2  -5.823531374335289E-2   6.981097459793091E-1  -5.471373200416565E-1  
 7.825825825825826E8    -7.047824561595917E-2   2.983699738979340E-1  -5.941414460539818E-2  -6.397681683301926E-2  -5.948494747281075E-2  -6.397206336259842E-2   6.697491407394409E-1  -5.760936737060547E-1  
 7.849849849849850E8    -4.057224839925766E-2   3.007978796958923E-1  -6.253783404827118E-2  -6.929890811443329E-2  -6.223239004611969E-2  -6.940304487943649E-2   6.408070325851440E-1  -6.013934016227722E-1  
 7.873873873873874E8    -1.058104727417231E-2   3.009900450706482E-1  -6.705924123525620E-2  -7.446193695068359E-2  -6.666964292526245E-2  -7.438435405492783E-2   6.096119880676270E-1  -6.254709362983704E-1  
 7.897897897897898E8     2.053993754088879E-2   2.975299954414368E-1  -7.327131181955338E-2  -7.890636473894119E-2  -7.292818278074265E-2  -7.868447899818420E-2   5.761901140213013E-1  -6.484878659248352E-1  
 7.921921921921922E8     5.053671449422836E-2   2.883920371532440E-1  -8.117947727441788E-2  -8.198260515928268E-2  -8.099847286939621E-2  -8.185300230979919E-2   5.412697196006775E-1  -6.697557568550110E-1  
 7.945945945945946E8     7.483794540166855E-2   2.781660556793213E-1  -8.989125490188599E-2  -8.345147222280502E-2  -8.946742117404938E-2  -8.363521844148636E-2   5.056393742561340E-1  -6.863149404525757E-1  
 7.969969969969970E8     9.585697203874588E-2   2.673975229263306E-1  -9.879035502672195E-2  -8.372933417558670E-2  -9.846739470958710E-2  -8.407331258058548E-2   4.681199789047241E-1  -7.011737227439880E-1  
 7.993993993993994E8     1.140137687325478E-1   2.562729418277741E-1  -1.079478859901428E-1  -8.289052546024323E-2  -1.077573597431183E-1  -8.318788558244705E-2   4.286943078041077E-1  -7.141812443733215E-1  
 8.018018018018018E8     1.311659067869186E-1   2.471572905778885E-1  -1.168875023722649E-1  -8.124438673257828E-2  -1.169962137937546E-1  -8.118917047977448E-2   3.870395123958588E-1  -7.248291969299316E-1  
 8.042042042042042E8     1.503385901451111E-1   2.385147958993912E-1  -1.264898478984833E-1  -7.917394489049912E-2  -1.266771703958511E-1  -7.902829349040985E-2   3.453743457794190E-1  -7.319502830505371E-1  
 8.066066066066066E8     1.699164062738419E-1   2.290212363004684E-1  -1.369986087083817E-1  -7.573999464511871E-2  -1.371614187955856E-1  -7.557500153779984E-2   3.019287884235382E-1  -7.364168167114258E-1  
 8.090090090090090E8     1.897409111261368E-1   2.177572995424271E-1  -1.474079787731171E-1  -7.100819796323776E-2  -1.476138234138489E-1  -7.088113576173782E-2   2.575666308403015E-1  -7.376700043678284E-1  
 8.114114114114114E8     2.092994451522827E-1   2.037918120622635E-1  -1.580212712287903E-1  -6.550039350986481E-2  -1.582965254783630E-1  -6.541701406240463E-2   2.119143009185791E-1  -7.351365089416504E-1  
 8.138138138138138E8     2.275499999523163E-1   1.875063925981522E-1  -1.692022532224655E-1  -5.897418409585953E-2  -1.694656312465668E-1  -5.890032276511192E-2   1.654827743768692E-1  -7.283137440681458E-1  
 8.162162162162162E8     2.443187534809113E-1   1.693659275770187E-1  -1.811286807060242E-1  -5.083902925252914E-2  -1.813275367021561E-1  -5.072893202304840E-2   1.194304600358009E-1  -7.169463634490967E-1  
 8.186186186186186E8     2.587085068225861E-1   1.503850072622299E-1  -1.933443248271942E-1  -4.024393483996391E-2  -1.933643221855164E-1  -4.033574461936951E-2   7.462666183710098E-2  -7.006230950355530E-1  
 8.210210210210210E8     2.702620029449463E-1   1.301298588514328E-1  -2.044353485107422E-1  -2.715026773512363E-2  -2.045023143291473E-1  -2.717900276184082E-2   3.083135560154915E-2  -6.800932288169861E-1  
 8.234234234234234E8     2.806230485439301E-1   1.091371476650238E-1  -2.140177488327026E-1  -1.244170684367418E-2  -2.140770405530930E-1  -1.263912860304117E-2  -1.195047888904810E-2  -6.562979221343994E-1  
