#  HZ   S   RI   R     50.00 
! Rohde & Schwarz ZVB8 2Ports - Version 2.81 - 1145.1010k08 SN: 100113
! Date: 2016-04-20 03:09:24
! Measurements: S11 S21 S12 S22 
! 
 6.000000000000000E8     7.695598006248474E-1   4.118303954601288E-1  -1.998148672282696E-2   3.077236004173756E-2  -2.002706006169319E-2   3.070700727403164E-2   5.537458658218384E-1   7.612392306327820E-1  
 6.024024024024024E8     7.850808501243591E-1   3.735585510730743E-1  -1.895780302584171E-2   3.270574659109116E-2  -1.904640160501003E-2   3.266312554478645E-2   5.699942111968994E-1   7.488754391670227E-1  
 6.048048048048048E8     7.997314333915710E-1   3.328577578067780E-1  -1.770979911088944E-2   3.465556353330612E-2  -1.768847554922104E-2   3.464823588728905E-2   5.859229564666748E-1   7.362692952156067E-1  
 6.072072072072072E8     8.121172785758972E-1   2.895868122577667E-1  -1.623000018298626E-2   3.653060272336006E-2  -1.618182100355625E-2   3.651785850524902E-2   6.013798117637634E-1   7.239283323287964E-1  
 6.096096096096096E8     8.221582770347595E-1   2.447168529033661E-1  -1.465028803795576E-2   3.831366077065468E-2  -1.473055221140385E-2   3.825213015079498E-2   6.170129776000977E-1   7.102571725845337E-1  
 6.120120120120120E8     8.296694755554199E-1   2.010985761880875E-1  -1.321411412209272E-2   4.010492563247681E-2  -1.320630870759487E-2   4.012330994009972E-2   6.309333443641663E-1   6.978513598442078E-1  
 6.144144144144144E8     8.346812129020691E-1   1.571082472801209E-1  -1.136905048042536E-2   4.190872237086296E-2  -1.146410219371319E-2   4.190412163734436E-2   6.452940702438355E-1   6.848186254501343E-1  
 6.168168168168168E8     8.366887569427490E-1   1.110103279352188E-1  -9.488438256084919E-3   4.368385672569275E-2  -9.585849009454250E-3   4.370950907468796E-2   6.590702533721924E-1   6.712645292282105E-1  
 6.192192192192192E8     8.352985382080078E-1   6.416685879230499E-2  -7.331066764891148E-3   4.545996338129044E-2  -7.371133193373680E-3   4.541957378387451E-2   6.731303930282593E-1   6.567338705062866E-1  
 6.216216216216216E8     8.305060267448425E-1   1.702987030148506E-2  -4.969306290149689E-3   4.711296036839485E-2  -4.990118555724621E-3   4.718390107154846E-2   6.871759295463562E-1   6.411971449851990E-1  
 6.240240240240240E8     8.231648206710815E-1  -2.975204773247242E-2  -2.343008760362864E-3   4.860982671380043E-2  -2.310878597199917E-3   4.855582118034363E-2   7.007911205291748E-1   6.248458027839661E-1  
 6.264264264264264E8     8.140214085578919E-1  -7.508184015750885E-2   3.527297521941364E-4   4.981696233153343E-2   3.096519503742456E-4   4.976003617048264E-2   7.148846387863159E-1   6.085938811302185E-1  
 6.288288288288288E8     8.013781309127808E-1  -1.207874417304993E-1   2.947360975667834E-3   5.103961750864983E-2   2.989653265103698E-3   5.095169320702553E-2   7.273241877555847E-1   5.927085280418396E-1  
 6.312312312312312E8     7.860310077667236E-1  -1.658608019351959E-1   5.821184255182743E-3   5.224341899156570E-2   5.848018918186426E-3   5.217988789081574E-2   7.393891215324402E-1   5.766209363937378E-1  
 6.336336336336336E8     7.680328488349915E-1  -2.104180604219437E-1   8.933001197874546E-3   5.327158421278000E-2   8.929743431508541E-3   5.329048633575440E-2   7.507986426353455E-1   5.603430867195129E-1  
 6.360360360360360E8     7.470448613166809E-1  -2.542198300361633E-1   1.212121080607176E-2   5.421693623065949E-2   1.207466702908278E-2   5.421015247702599E-2   7.615939974784851E-1   5.441601872444153E-1  
 6.384384384384384E8     7.236509919166565E-1  -2.958573102951050E-1   1.554581709206104E-2   5.491774901747704E-2   1.550148427486420E-2   5.491554737091065E-2   7.729154229164124E-1   5.279984474182129E-1  
 6.408408408408408E8     6.967465877532959E-1  -3.373199999332428E-1   1.909867487847805E-2   5.543494224548340E-2   1.910335384309292E-2   5.543695762753487E-2   7.838029265403748E-1   5.115967392921448E-1  
 6.432432432432432E8     6.664340496063232E-1  -3.773326277732849E-1   2.290120907127857E-2   5.557502061128616E-2   2.285908348858357E-2   5.571285635232925E-2   7.940336465835571E-1   4.941569268703461E-1  
 6.456456456456456E8     6.335753202438355E-1  -4.158982336521149E-1   2.666034176945686E-2   5.543835088610649E-2   2.664409764111042E-2   5.543037503957748E-2   8.039256930351257E-1   4.767572581768036E-1  
 6.480480480480480E8     5.985900163650513E-1  -4.526508748531342E-1   3.037909977138042E-2   5.494702607393265E-2   3.033860772848129E-2   5.499994754791260E-2   8.138229846954346E-1   4.583182930946350E-1  
 6.504504504504504E8     5.608076453208923E-1  -4.871499240398407E-1   3.394321724772453E-2   5.448177829384804E-2   3.403840959072113E-2   5.442047864198685E-2   8.237366676330566E-1   4.404308795928955E-1  
 6.528528528528528E8     5.191299915313721E-1  -5.202620625495911E-1   3.751631081104279E-2   5.392244458198547E-2   3.757683560252190E-2   5.375597625970841E-2   8.327421545982361E-1   4.226077497005463E-1  
 6.552552552552552E8     4.735108613967896E-1  -5.505464673042297E-1   4.132982715964317E-2   5.328599363565445E-2   4.146615043282509E-2   5.317548289895058E-2   8.408366441726685E-1   4.042037427425385E-1  
 6.576576576576576E8     4.259420633316040E-1  -5.768387913703919E-1   4.536281526088715E-2   5.214839428663254E-2   4.545732587575913E-2   5.215225368738174E-2   8.482202291488648E-1   3.852528631687164E-1  
 6.600600600600600E8     3.755773007869721E-1  -5.992853045463562E-1   4.938652366399765E-2   5.076923221349716E-2   4.940988495945931E-2   5.071157589554787E-2   8.553172349929810E-1   3.646751046180725E-1  
 6.624624624624624E8     3.248896598815918E-1  -6.160007119178772E-1   5.327267572283745E-2   4.902409017086029E-2   5.321792513132095E-2   4.909867048263550E-2   8.631528019905090E-1   3.450510203838348E-1  
 6.648648648648648E8     2.727800607681274E-1  -6.288217306137085E-1   5.710044130682945E-2   4.718991369009018E-2   5.700975656509399E-2   4.733053222298622E-2   8.699248433113098E-1   3.253587782382965E-1  
 6.672672672672672E8     2.208555489778519E-1  -6.382254958152771E-1   6.079306453466415E-2   4.514746740460396E-2   6.073150783777237E-2   4.523376002907753E-2   8.757405281066895E-1   3.056380152702332E-1  
 6.696696696696696E8     1.695883423089981E-1  -6.457378268241882E-1   6.409184634685516E-2   4.315280169248581E-2   6.414417922496796E-2   4.308304563164711E-2   8.811399340629578E-1   2.854241430759430E-1  
 6.720720720720720E8     1.177383288741112E-1  -6.524849534034729E-1   6.748474389314652E-2   4.142649099230766E-2   6.747776269912720E-2   4.134169965982437E-2   8.858664631843567E-1   2.647437751293182E-1  
 6.744744744744744E8     6.299106031656265E-2  -6.560916304588318E-1   7.127976417541504E-2   3.983407095074654E-2   7.136527448892593E-2   3.978247195482254E-2   8.906887769699097E-1   2.443150877952576E-1  
 6.768768768768768E8     4.451331216841936E-3  -6.568504571914673E-1   7.580395787954330E-2   3.812444210052490E-2   7.583348453044891E-2   3.814156353473663E-2   8.947980403900147E-1   2.236413359642029E-1  
 6.792792792792792E8    -5.798903852701187E-2  -6.518676280975342E-1   8.107171952724457E-2   3.607686609029770E-2   8.107151836156845E-2   3.613873198628426E-2   8.979409337043762E-1   2.026983350515366E-1  
 6.816816816816816E8    -1.222569122910500E-1  -6.384753584861755E-1   8.685149997472763E-2   3.308944404125214E-2   8.680786937475205E-2   3.323071449995041E-2   9.006205797195435E-1   1.807146668434143E-1  
 6.840840840840840E8    -1.852218210697174E-1  -6.160755157470703E-1   9.285297244787216E-2   2.913076803088188E-2   9.282379597425461E-2   2.920290641486645E-2   9.023942947387695E-1   1.583338379859924E-1  
 6.864864864864864E8    -2.448628693819046E-1  -5.843402147293091E-1   9.876237809658051E-2   2.403682842850685E-2   9.859505295753479E-2   2.435983344912529E-2   9.033331871032715E-1   1.374112516641617E-1  
 6.888888888888888E8    -2.996803522109985E-1  -5.468525290489197E-1   1.044350862503052E-1   1.807851344347000E-2   1.042584106326103E-1   1.870371773838997E-2   9.034713506698608E-1   1.152381449937820E-1  
 6.912912912912912E8    -3.496873080730438E-1  -5.047544836997986E-1   1.099561005830765E-1   1.120612211525440E-2   1.097317561507225E-1   1.183502934873104E-2   9.026582241058350E-1   9.277956932783127E-2  
 6.936936936936936E8    -3.942043185234070E-1  -4.583035111427307E-1   1.147195845842362E-1   3.348600119352341E-3   1.146557629108429E-1   3.753531491383910E-3   9.011338353157044E-1   7.018695771694183E-2  
 6.960960960960960E8    -4.335596263408661E-1  -4.082695245742798E-1   1.185680925846100E-1  -4.886682610958815E-3   1.184457764029503E-1  -5.103983450680971E-3   8.987850546836853E-1   4.770070314407349E-2  
 6.984984984984984E8    -4.672271609306335E-1  -3.540056347846985E-1   1.218730583786964E-1  -1.301093492656946E-2   1.216452345252037E-1  -1.469731982797384E-2   8.961247801780701E-1   2.314814925193787E-2  
 7.009009009009008E8    -4.947932958602905E-1  -2.969481050968170E-1   1.249584481120110E-1  -2.175222337245941E-2   1.242681443691254E-1  -2.466570585966110E-2   8.921528458595276E-1  -7.866314845159650E-4  
 7.033033033033032E8    -5.153329968452454E-1  -2.363826632499695E-1   1.276857256889343E-1  -3.161718696355820E-2   1.268613040447235E-1  -3.439557552337647E-2   8.870701193809509E-1  -2.246001735329628E-2  
 7.057057057057056E8    -5.258076786994934E-1  -1.744886338710785E-1   1.296794265508652E-1  -4.309521988034248E-2   1.291470974683762E-1  -4.465599358081818E-2   8.809565305709839E-1  -4.098129644989967E-2  
 7.081081081081080E8    -5.278640389442444E-1  -1.139929741621018E-1   1.299728900194168E-1  -5.583618953824043E-2   1.300204545259476E-1  -5.564942210912705E-2   8.737819790840149E-1  -5.945936962962151E-2  
 7.105105105105104E8    -5.216977000236511E-1  -5.582753941416740E-2   1.285442709922791E-1  -6.882517039775848E-2   1.295544058084488E-1  -6.721422821283341E-2   8.667334914207459E-1  -7.672698050737381E-2  
 7.129129129129129E8    -5.097505450248718E-1  -5.263781640678644E-3   1.260556578636169E-1  -8.087500184774399E-2   1.274746209383011E-1  -7.888515293598175E-2   8.590469956398010E-1  -9.513149410486221E-2  
 7.153153153153153E8    -4.953792393207550E-1   3.948945924639702E-2   1.231593936681747E-1  -9.223548322916031E-2   1.242468357086182E-1  -9.097565710544586E-2   8.499918580055237E-1  -1.157800778746605E-1  
 7.177177177177178E8    -4.801902770996094E-1   7.977418601512909E-2   1.197737827897072E-1  -1.034495458006859E-1   1.201162114739418E-1  -1.031413897871971E-1   8.395566940307617E-1  -1.375236362218857E-1  
 7.201201201201202E8    -4.641884863376617E-1   1.204621195793152E-1   1.158994287252426E-1  -1.154969632625580E-1   1.159244924783707E-1  -1.154929473996162E-1   8.283875584602356E-1  -1.590647399425507E-1  
 7.225225225225226E8    -4.436225593090057E-1   1.609353125095367E-1   1.113709732890129E-1  -1.284686028957367E-1   1.109973564743996E-1  -1.286497414112091E-1   8.160151243209839E-1  -1.785500645637512E-1  
 7.249249249249250E8    -4.182657003402710E-1   1.985116451978684E-1   1.045317873358727E-1  -1.432328075170517E-1   1.057867109775543E-1  -1.421102732419968E-1   8.020104765892029E-1  -1.953683495521545E-1  
 7.273273273273274E8    -3.886562287807465E-1   2.311779409646988E-1   9.577836841344833E-2  -1.589575707912445E-1   9.861898422241211E-2  -1.571224629878998E-1   7.866441011428833E-1  -2.113565057516098E-1  
 7.297297297297298E8    -3.563698232173920E-1   2.571511566638947E-1   8.512774854898453E-2  -1.748433411121368E-1   8.778210729360580E-2  -1.737161874771118E-1   7.694115042686462E-1  -2.265383750200272E-1  
 7.321321321321322E8    -3.218668103218079E-1   2.757238447666168E-1   7.235014438629150E-2  -1.906594187021256E-1   7.238095253705978E-2  -1.907932162284851E-1   7.507564425468445E-1  -2.403752952814102E-1  
 7.345345345345346E8    -2.867201864719391E-1   2.868898808956146E-1   5.479714646935463E-2  -2.064099460840225E-1   5.367447808384895E-2  -2.068632990121841E-1   7.312914133071899E-1  -2.504865527153015E-1  
 7.369369369369370E8    -2.547069787979126E-1   2.898062765598297E-1   3.218713775277138E-2  -2.207470834255219E-1   2.984071336686611E-2  -2.210705578327179E-1   7.100570201873779E-1  -2.580438852310181E-1  
 7.393393393393394E8    -2.286693453788757E-1   2.855365872383118E-1   4.760891664773226E-3  -2.321274727582932E-1   2.197289140895009E-3  -2.320336997509003E-1   6.880261301994324E-1  -2.613023817539215E-1  
 7.417417417417418E8    -2.103603482246399E-1   2.771309912204742E-1  -2.815816551446915E-2  -2.391804009675980E-1  -2.978614158928394E-2  -2.386676669120789E-1   6.659319996833801E-1  -2.586365044116974E-1  
 7.441441441441442E8    -1.998415887355804E-1   2.664733827114105E-1  -6.643384695053101E-2  -2.385885566473007E-1  -6.637986004352570E-2  -2.383306920528412E-1   6.468821167945862E-1  -2.485584616661072E-1  
 7.465465465465466E8    -2.004615813493729E-1   2.579439282417297E-1  -1.061146482825279E-1  -2.276505231857300E-1  -1.059124097228050E-1  -2.275792956352234E-1   6.354303359985352E-1  -2.307181507349014E-1  
 7.489489489489490E8    -2.119703143835068E-1   2.560937404632568E-1  -1.435917913913727E-1  -2.037334293127060E-1  -1.431921571493149E-1  -2.040925472974777E-1   6.345905065536499E-1  -2.081438153982163E-1  
 7.513513513513514E8    -2.278905510902405E-1   2.674973607063294E-1  -1.724126338958740E-1  -1.676447689533234E-1  -1.721281856298447E-1  -1.682687848806381E-1   6.471334099769592E-1  -1.872282922267914E-1  
 7.537537537537538E8    -2.407205104827881E-1   2.929035425186157E-1  -1.873276382684708E-1  -1.236780881881714E-1  -1.871993541717529E-1  -1.247157007455826E-1   6.730225682258606E-1  -1.768470257520676E-1  
 7.561561561561562E8    -2.434575259685516E-1   3.288543522357941E-1  -1.853936761617661E-1  -8.074437826871872E-2  -1.851970553398132E-1  -8.073543012142181E-2   7.062303423881531E-1  -1.807648688554764E-1  
 7.585585585585586E8    -2.332204878330231E-1   3.701936602592468E-1  -1.701003462076187E-1  -4.571294412016869E-2  -1.696132868528366E-1  -4.501256346702576E-2   7.403950691223145E-1  -1.986792832612991E-1  
 7.609609609609610E8    -2.104694098234177E-1   4.093903005123138E-1  -1.475912928581238E-1  -2.201948128640652E-2  -1.467649638652802E-1  -2.145359292626381E-2   7.678719758987427E-1  -2.304373830556870E-1  
 7.633633633633634E8    -1.773889213800430E-1   4.417642951011658E-1  -1.236454620957375E-1  -9.844938293099403E-3  -1.227985471487045E-1  -9.575597010552883E-3   7.852386832237244E-1  -2.708326876163483E-1  
 7.657657657657658E8    -1.381276845932007E-1   4.639572501182556E-1  -1.022803485393524E-1  -6.910045631229878E-3  -1.017644777894020E-1  -6.922956090420485E-3   7.925167679786682E-1  -3.151563405990601E-1  
 7.681681681681682E8    -9.762332588434219E-2   4.762388169765472E-1  -8.569315075874329E-2  -1.031594164669514E-2  -8.565043658018112E-2  -1.031339168548584E-2   7.919352054595947E-1  -3.596871793270111E-1  
 7.705705705705706E8    -6.007942929863930E-2   4.814178645610809E-1  -7.422900199890137E-2  -1.724339462816715E-2  -7.432040572166443E-2  -1.725966483354569E-2   7.844993472099304E-1  -3.996876776218414E-1  
 7.729729729729730E8    -2.478577941656113E-2   4.798767864704132E-1  -6.779508292675018E-2  -2.518429420888424E-2  -6.806912273168564E-2  -2.549182996153832E-2   7.713815569877625E-1  -4.395498633384705E-1  
 7.753753753753754E8     5.340476520359516E-3   4.732770025730133E-1  -6.556384265422821E-2  -3.300573304295540E-2  -6.590447574853897E-2  -3.337587788701057E-2   7.519562244415283E-1  -4.782202243804932E-1  
 7.777777777777778E8     2.969819121062756E-2   4.650372266769409E-1  -6.630405783653259E-2  -3.968406841158867E-2  -6.658165156841278E-2  -3.992005810141563E-2   7.267242670059204E-1  -5.131508111953735E-1  
 7.801801801801802E8     5.009594932198525E-2   4.577030837535858E-1  -6.903612613677979E-2  -4.514722526073456E-2  -6.895196437835693E-2  -4.513585194945335E-2   6.981061100959778E-1  -5.435781478881836E-1  
 7.825825825825826E8     6.939643621444702E-2   4.512222409248352E-1  -7.316157966852188E-2  -4.924226179718971E-2  -7.327342778444290E-2  -4.920279607176781E-2   6.697089076042175E-1  -5.720827579498291E-1  
 7.849849849849850E8     8.806508034467697E-2   4.464690089225769E-1  -7.869082689285278E-2  -5.221202969551086E-2  -7.849613577127457E-2  -5.243966355919838E-2   6.407107710838318E-1  -5.967056751251221E-1  
 7.873873873873874E8     1.066865175962448E-1   4.420131146907806E-1  -8.517552167177200E-2  -5.428232252597809E-2  -8.477169275283814E-2  -5.446560308337212E-2   6.094797849655151E-1  -6.201109290122986E-1  
 7.897897897897898E8     1.269282698631287E-1   4.364525973796845E-1  -9.250362217426300E-2  -5.513652786612511E-2  -9.208534657955170E-2  -5.499566718935967E-2   5.758890509605408E-1  -6.428491473197937E-1  
 7.921921921921922E8     1.476175636053085E-1   4.276674687862396E-1  -1.006737500429153E-1  -5.437889695167542E-2  -1.004842519760132E-1  -5.449233204126358E-2   5.414077639579773E-1  -6.634805798530579E-1  
 7.945945945945946E8     1.634768098592758E-1   4.196502268314362E-1  -1.093139648437500E-1  -5.210112780332565E-2  -1.089280471205711E-1  -5.229426920413971E-2   5.054723024368286E-1  -6.795067191123962E-1  
 7.969969969969970E8     1.779281795024872E-1   4.127413034439087E-1  -1.173404827713966E-1  -4.815090075135231E-2  -1.170671358704567E-1  -4.856967553496361E-2   4.682974219322205E-1  -6.936348080635071E-1  
 7.993993993993994E8     1.932851225137711E-1   4.059192836284638E-1  -1.247774362564087E-1  -4.346908256411552E-2  -1.247373297810555E-1  -4.381284862756729E-2   4.296236038208008E-1  -7.058654427528381E-1  
 8.018018018018018E8     2.101344764232636E-1   3.968506455421448E-1  -1.318967342376709E-1  -3.829643502831459E-2  -1.320727020502091E-1  -3.824000433087349E-2   3.885934650897980E-1  -7.160111069679260E-1  
 8.042042042042042E8     2.272142171859741E-1   3.859814107418060E-1  -1.395059674978256E-1  -3.244614601135254E-2  -1.395790576934815E-1  -3.226066008210182E-2   3.479357063770294E-1  -7.226325273513794E-1  
 8.066066066066066E8     2.423112839460373E-1   3.731730282306671E-1  -1.472445279359818E-1  -2.514176070690155E-2  -1.474887281656265E-1  -2.498598210513592E-2   3.054439723491669E-1  -7.272577285766602E-1  
 8.090090090090090E8     2.552361786365509E-1   3.596916496753693E-1  -1.546199917793274E-1  -1.670392416417599E-2  -1.548920273780823E-1  -1.648717559874058E-2   2.619740962982178E-1  -7.282561063766480E-1  
 8.114114114114114E8     2.665264904499054E-1   3.453553915023804E-1  -1.618166565895081E-1  -7.229602430015802E-3  -1.619577109813690E-1  -7.023274432867765E-3   2.176991552114487E-1  -7.255800962448120E-1  
 8.138138138138138E8     2.760576903820038E-1   3.307457268238068E-1  -1.686381697654724E-1   3.957421984523535E-3  -1.688931435346603E-1   4.096274264156818E-3   1.730863898992539E-1  -7.195393443107605E-1  
 8.162162162162162E8     2.846224606037140E-1   3.167081177234650E-1  -1.743996590375900E-1   1.652767881751061E-2  -1.744959205389023E-1   1.672170311212540E-2   1.282763183116913E-1  -7.099919319152832E-1  
 8.186186186186186E8     2.919767498970032E-1   3.028789460659027E-1  -1.789688318967819E-1   2.969560027122498E-2  -1.790303438901901E-1   2.975621260702610E-2   8.349416404962540E-2  -6.957159638404846E-1  
 8.210210210210210E8     2.977225780487061E-1   2.874546051025391E-1  -1.827681362628937E-1   4.408346861600876E-2  -1.829104572534561E-1   4.415421187877655E-2   3.837699815630913E-2  -6.766377091407776E-1  
 8.234234234234234E8     3.022262454032898E-1   2.720011770725250E-1  -1.851554512977600E-1   5.971226468682289E-2  -1.853178292512894E-1   5.968368425965309E-2  -5.146346986293793E-3  -6.527983546257019E-1  
