#  HZ   S   RI   R     50.00 
! Rohde & Schwarz ZVB8 2Ports - Version 2.81 - 1145.1010k08 SN: 100113
! Date: 2016-04-20 03:20:25
! Measurements: S11 S21 S12 S22 
! 
 6.000000000000000E8     7.711342573165894E-1   3.970701694488525E-1  -1.699814572930336E-2   3.252967074513435E-2  -1.699696294963360E-2   3.245397284626961E-2   5.499727129936218E-1   7.620319128036499E-1  
 6.024024024024024E8     7.846829295158386E-1   3.583160340785980E-1  -1.555719505995512E-2   3.456724062561989E-2  -1.574323885142803E-2   3.452295064926148E-2   5.661748647689819E-1   7.495982646942139E-1  
 6.048048048048048E8     7.960241436958313E-1   3.178380727767944E-1  -1.395308878272772E-2   3.648511320352554E-2  -1.390569563955069E-2   3.651810809969902E-2   5.818401575088501E-1   7.372941970825195E-1  
 6.072072072072072E8     8.053794503211975E-1   2.758285403251648E-1  -1.186006050556898E-2   3.817040100693703E-2  -1.190047152340412E-2   3.814715147018433E-2   5.971361398696899E-1   7.246204614639282E-1  
 6.096096096096096E8     8.128390312194824E-1   2.328172773122788E-1  -9.703474119305611E-3   3.960873559117317E-2  -9.717524051666260E-3   3.961152210831642E-2   6.127424836158752E-1   7.111313939094544E-1  
 6.120120120120120E8     8.177746534347534E-1   1.921938061714172E-1  -7.504522334784269E-3   4.081814736127853E-2  -7.598626893013716E-3   4.082491993904114E-2   6.268118023872376E-1   6.986619234085083E-1  
 6.144144144144144E8     8.215339183807373E-1   1.520503610372543E-1  -5.377978086471558E-3   4.180019348859787E-2  -5.420188885182142E-3   4.182226210832596E-2   6.407161355018616E-1   6.860076785087585E-1  
 6.168168168168168E8     8.238592147827148E-1   1.100545674562454E-1  -3.312856657430530E-3   4.261810332536697E-2  -3.318812698125839E-3   4.271632432937622E-2   6.546691656112671E-1   6.724301576614380E-1  
 6.192192192192192E8     8.243138790130615E-1   6.643826514482498E-2  -1.179490238428116E-3   4.331914708018303E-2  -1.260563265532255E-3   4.340042918920517E-2   6.685405969619751E-1   6.580008864402771E-1  
 6.216216216216216E8     8.223035931587219E-1   2.157023176550865E-2   7.530209259130061E-4   4.406192153692246E-2   7.575092022307217E-4   4.411363229155541E-2   6.827591657638550E-1   6.426327228546143E-1  
 6.240240240240240E8     8.176473379135132E-1  -2.430603653192520E-2   2.745060482993722E-3   4.479200765490532E-2   2.810165984556079E-3   4.480602964758873E-2   6.966978311538696E-1   6.265251040458679E-1  
 6.264264264264264E8     8.110026121139526E-1  -6.985399872064591E-2   4.699532408267260E-3   4.563529789447784E-2   4.748175386339426E-3   4.561990126967430E-2   7.107958197593689E-1   6.101201176643372E-1  
 6.288288288288288E8     8.010913729667664E-1  -1.166794747114182E-1   6.800337694585323E-3   4.653388261795044E-2   6.737204268574715E-3   4.656123369932175E-2   7.236034870147705E-1   5.942949652671814E-1  
 6.312312312312312E8     7.877747416496277E-1  -1.640833765268326E-1   8.986687287688255E-3   4.764261469244957E-2   8.946182206273079E-3   4.756294190883637E-2   7.356962561607361E-1   5.778561234474182E-1  
 6.336336336336336E8     7.702230215072632E-1  -2.120483815670013E-1   1.147713232785463E-2   4.874956607818604E-2   1.154616661369801E-2   4.869199171662331E-2   7.473139166831970E-1   5.614454150199890E-1  
 6.360360360360360E8     7.482882142066956E-1  -2.585379183292389E-1   1.434760913252831E-2   4.962516948580742E-2   1.441453862935305E-2   4.960757866501808E-2   7.584191560745239E-1   5.450586080551148E-1  
 6.384384384384384E8     7.233154177665710E-1  -3.023921549320221E-1   1.742655970156193E-2   5.042476579546928E-2   1.737922243773937E-2   5.033595487475395E-2   7.696018815040588E-1   5.288231372833252E-1  
 6.408408408408408E8     6.943908333778381E-1  -3.457540273666382E-1   2.074247226119041E-2   5.094011500477791E-2   2.072449214756489E-2   5.093642324209213E-2   7.806482911109924E-1   5.121505260467529E-1  
 6.432432432432432E8     6.615359783172607E-1  -3.879616856575012E-1   2.422395534813404E-2   5.116500332951546E-2   2.415159344673157E-2   5.120432749390602E-2   7.908720374107361E-1   4.946115314960480E-1  
 6.456456456456456E8     6.252389550209045E-1  -4.281775355339050E-1   2.770953997969627E-2   5.121362209320068E-2   2.767652273178101E-2   5.116312205791473E-2   8.011098504066467E-1   4.764033854007721E-1  
 6.480480480480480E8     5.858608484268189E-1  -4.651930332183838E-1   3.125204890966415E-2   5.090176314115524E-2   3.125519677996635E-2   5.091476067900658E-2   8.108163475990295E-1   4.577755630016327E-1  
 6.504504504504504E8     5.438959598541260E-1  -4.994962215423584E-1   3.475738689303398E-2   5.053349956870079E-2   3.484164178371429E-2   5.051126331090927E-2   8.207186460494995E-1   4.394694864749908E-1  
 6.528528528528528E8     4.981851875782013E-1  -5.314651727676392E-1   3.840301558375359E-2   5.009764805436134E-2   3.846342861652374E-2   4.993232339620590E-2   8.294221758842468E-1   4.209832847118378E-1  
 6.552552552552552E8     4.486293494701386E-1  -5.605348348617554E-1   4.233969748020172E-2   4.936706274747849E-2   4.228629544377327E-2   4.932878538966179E-2   8.372966051101685E-1   4.021637439727783E-1  
 6.576576576576576E8     3.960443735122681E-1  -5.847550630569458E-1   4.631089791655541E-2   4.835416749119759E-2   4.638786986470223E-2   4.824613034725189E-2   8.443061709403992E-1   3.826580047607422E-1  
 6.600600600600600E8     3.414333462715149E-1  -6.036843061447144E-1   5.049192160367966E-2   4.675067961215973E-2   5.053663253784180E-2   4.676491767168045E-2   8.512912988662720E-1   3.617977499961853E-1  
 6.624624624624624E8     2.871307730674744E-1  -6.165155768394470E-1   5.445193499326706E-2   4.493843391537666E-2   5.451487377285957E-2   4.495044797658920E-2   8.583227992057800E-1   3.418042361736298E-1  
 6.648648648648648E8     2.319796830415726E-1  -6.256536841392517E-1   5.832429230213165E-2   4.292022436857224E-2   5.823425948619843E-2   4.308103024959564E-2   8.645203709602356E-1   3.219231367111206E-1  
 6.672672672672672E8     1.763837933540344E-1  -6.311057806015015E-1   6.222357228398323E-2   4.082029312849045E-2   6.216387078166008E-2   4.090015590190888E-2   8.697505593299866E-1   3.019697964191437E-1  
 6.696696696696696E8     1.205090284347534E-1  -6.335069537162781E-1   6.618651747703552E-2   3.846408426761627E-2   6.607159972190857E-2   3.853442892432213E-2   8.745612502098084E-1   2.818830907344818E-1  
 6.720720720720720E8     6.408201158046722E-2  -6.323112845420837E-1   7.015491276979446E-2   3.580183908343315E-2   7.016544789075851E-2   3.576587885618210E-2   8.786701560020447E-1   2.612445354461670E-1  
 6.744744744744744E8     6.358699407428503E-3  -6.259873509407044E-1   7.422409951686859E-2   3.274464234709740E-2   7.429379224777222E-2   3.272502496838570E-2   8.827233314514160E-1   2.409095168113709E-1  
 6.768768768768768E8    -5.238074809312820E-2  -6.144369840621948E-1   7.825551182031632E-2   2.922914735972881E-2   7.819451391696930E-2   2.923931740224361E-2   8.858641982078552E-1   2.206384539604187E-1  
 6.792792792792792E8    -1.106240078806877E-1  -5.969998240470886E-1   8.208968490362167E-2   2.545926161110401E-2   8.202766627073288E-2   2.545617893338203E-2   8.886579275131226E-1   2.001727372407913E-1  
 6.816816816816816E8    -1.670642644166946E-1  -5.731296539306641E-1   8.587814122438431E-2   2.162252925336361E-2   8.580332249403000E-2   2.169643901288509E-2   8.908507823944092E-1   1.791535913944244E-1  
 6.840840840840840E8    -2.200694382190704E-1  -5.432487726211548E-1   9.006073325872421E-2   1.742801442742348E-2   8.993815630674362E-2   1.754179596900940E-2   8.923017382621765E-1   1.571429073810577E-1  
 6.864864864864864E8    -2.692335844039917E-1  -5.068750977516174E-1   9.432996064424515E-2   1.231971476227045E-2   9.412914514541626E-2   1.263311039656401E-2   8.926074504852295E-1   1.369722783565521E-1  
 6.888888888888888E8    -3.140632212162018E-1  -4.663891494274139E-1   9.816613793373108E-2   6.330301985144615E-3   9.795462340116501E-2   6.863525602966547E-3   8.925585150718689E-1   1.155049502849579E-1  
 6.912912912912912E8    -3.529087901115418E-1  -4.226899147033691E-1   1.015363037586212E-1   9.387137652083766E-6   1.014535054564476E-1   6.811685743741691E-4   8.916848897933960E-1   9.404837340116501E-2  
 6.936936936936936E8    -3.865906894207001E-1  -3.767987489700317E-1   1.048583686351776E-1  -6.501658353954554E-3   1.047037094831467E-1  -6.045951042324305E-3   8.898298740386963E-1   7.267792522907257E-2  
 6.960960960960960E8    -4.141379594802856E-1  -3.294337689876556E-1   1.078787669539452E-1  -1.369155850261450E-2   1.077143251895905E-1  -1.379970367997885E-2   8.874452710151672E-1   5.056592822074890E-2  
 6.984984984984984E8    -4.365819096565247E-1  -2.818835079669952E-1   1.101869717240334E-1  -2.132550999522209E-2   1.097798496484757E-1  -2.281241305172443E-2   8.843265771865845E-1   2.666095085442066E-2  
 7.009009009009008E8    -4.559042155742645E-1  -2.347130030393601E-1   1.118252351880074E-1  -2.907684631645680E-2   1.110062524676323E-1  -3.163065761327744E-2   8.800122737884522E-1   4.188286140561104E-3  
 7.033033033033032E8    -4.716034829616547E-1  -1.860600113868713E-1   1.129068359732628E-1  -3.749684616923332E-2   1.120377108454704E-1  -3.988169133663178E-2   8.750271797180176E-1  -1.554635725915432E-2  
 7.057057057057056E8    -4.825144708156586E-1  -1.356687843799591E-1   1.138440221548080E-1  -4.647478088736534E-2   1.132161170244217E-1  -4.792002588510513E-2   8.696290850639343E-1  -3.222167864441872E-2  
 7.081081081081080E8    -4.871765077114105E-1  -8.491974323987961E-2   1.142026931047440E-1  -5.652486532926559E-2   1.143109649419785E-1  -5.648309364914894E-2   8.636946678161621E-1  -4.956728219985962E-2  
 7.105105105105104E8    -4.868578612804413E-1  -3.417813405394554E-2   1.140438765287399E-1  -6.763391196727753E-2   1.150297448039055E-1  -6.612192094326019E-2   8.580650687217712E-1  -6.574765592813492E-2  
 7.129129129129129E8    -4.815978407859802E-1   1.306453067809343E-2   1.127265393733978E-1  -7.908137142658234E-2   1.141326725482941E-1  -7.721868902444840E-2   8.514457941055298E-1  -8.374025672674179E-2  
 7.153153153153153E8    -4.723758101463318E-1   5.773664638400078E-2   1.106538847088814E-1  -9.035671502351761E-2   1.117053031921387E-1  -8.912501484155655E-2   8.432216048240662E-1  -1.039410009980202E-1  
 7.177177177177178E8    -4.588513076305389E-1   9.959407150745392E-2   1.073860600590706E-1  -1.023446395993233E-1   1.077573746442795E-1  -1.021125316619873E-1   8.339566588401794E-1  -1.252116411924362E-1  
 7.201201201201202E8    -4.426245987415314E-1   1.385080963373184E-1   1.021701395511627E-1  -1.150149181485176E-1   1.022464856505394E-1  -1.148871779441834E-1   8.234658837318420E-1  -1.455146074295044E-1  
 7.225225225225226E8    -4.237816929817200E-1   1.756983995437622E-1   9.557931125164032E-2  -1.275081783533096E-1   9.528747200965881E-2  -1.277176737785339E-1   8.121430873870850E-1  -1.645388454198837E-1  
 7.249249249249250E8    -4.015059471130371E-1   2.108172327280045E-1   8.642905205488205E-2  -1.407047659158707E-1   8.774156868457794E-2  -1.398461759090424E-1   7.994114756584168E-1  -1.800061017274857E-1  
 7.273273273273274E8    -3.758035004138947E-1   2.418747842311859E-1   7.542061805725098E-2  -1.536765247583389E-1   7.823891937732697E-2  -1.522813141345978E-1   7.857201099395752E-1  -1.945353746414185E-1  
 7.297297297297298E8    -3.477829694747925E-1   2.669697105884552E-1   6.335243582725525E-2  -1.656898111104965E-1   6.581911444664002E-2  -1.648104935884476E-1   7.712931632995606E-1  -2.085735797882080E-1  
 7.321321321321322E8    -3.184324204921722E-1   2.853833734989166E-1   5.028458312153816E-2  -1.771343052387238E-1   5.044363811612129E-2  -1.772043853998184E-1   7.561528086662293E-1  -2.224668562412262E-1  
 7.345345345345346E8    -2.884880900382996E-1   2.984599769115448E-1   3.341336920857430E-2  -1.881598383188248E-1   3.250226005911827E-2  -1.883754134178162E-1   7.402656674385071E-1  -2.329815924167633E-1  
 7.369369369369370E8    -2.623741030693054E-1   3.044064044952393E-1   1.316857617348433E-2  -1.971816122531891E-1   1.123139820992947E-2  -1.972842514514923E-1   7.230169177055359E-1  -2.424224764108658E-1  
 7.393393393393394E8    -2.408639788627625E-1   3.070393502712250E-1  -1.028941478580236E-2  -2.040246576070786E-1  -1.240489725023508E-2  -2.038099765777588E-1   7.042925357818604E-1  -2.488081604242325E-1  
 7.417417417417418E8    -2.236072272062302E-1   3.056456148624420E-1  -3.805961832404137E-2  -2.072923034429550E-1  -3.943516686558723E-2  -2.067111730575562E-1   6.848572492599487E-1  -2.509417235851288E-1  
 7.441441441441442E8    -2.138888686895371E-1   3.025380969047546E-1  -6.929703056812286E-2  -2.038200497627258E-1  -6.908836215734482E-2  -2.035324573516846E-1   6.673247218132019E-1  -2.465832084417343E-1  
 7.465465465465466E8    -2.122719734907150E-1   3.040564060211182E-1  -1.003296822309494E-1  -1.924605816602707E-1  -9.994940459728241E-2  -1.924261748790741E-1   6.545085310935974E-1  -2.355618029832840E-1  
 7.489489489489490E8    -2.152725309133530E-1   3.115969002246857E-1  -1.294788122177124E-1  -1.720818579196930E-1  -1.289508193731308E-1  -1.724621951580048E-1   6.487029790878296E-1  -2.189811468124390E-1  
 7.513513513513514E8    -2.189132422208786E-1   3.264404237270355E-1  -1.525217890739441E-1  -1.424515396356583E-1  -1.521071791648865E-1  -1.431880742311478E-1   6.538612842559815E-1  -2.007145881652832E-1  
 7.537537537537538E8    -2.202683240175247E-1   3.495282232761383E-1  -1.649170517921448E-1  -1.057088598608971E-1  -1.646605134010315E-1  -1.066320911049843E-1   6.723587512969971E-1  -1.880299896001816E-1  
 7.561561561561562E8    -2.141377776861191E-1   3.799120187759399E-1  -1.627946048974991E-1  -6.938773393630981E-2  -1.626657396554947E-1  -6.941614300012589E-2   7.023213505744934E-1  -1.865700334310532E-1  
 7.585585585585586E8    -1.974570304155350E-1   4.130090773105621E-1  -1.494189798831940E-1  -3.972340375185013E-2  -1.489792764186859E-1  -3.914983943104744E-2   7.376854419708252E-1  -1.999317854642868E-1  
 7.609609609609610E8    -1.721564531326294E-1   4.421046674251556E-1  -1.294472366571426E-1  -1.995191350579262E-2  -1.286910921335220E-1  -1.947126165032387E-2   7.678171396255493E-1  -2.299573272466660E-1  
 7.633633633633634E8    -1.412534713745117E-1   4.641363620758057E-1  -1.087283343076706E-1  -1.069915015250444E-2  -1.079152747988701E-1  -1.053047925233841E-2   7.866860032081604E-1  -2.709950804710388E-1  
 7.657657657657658E8    -1.083946377038956E-1   4.789475798606873E-1  -9.124699234962463E-2  -9.324364364147186E-3  -9.074592590332031E-2  -9.400190785527229E-3   7.940527200698853E-1  -3.164875805377960E-1  
 7.681681681681682E8    -7.667388021945953E-2   4.887228012084961E-1  -7.843144983053207E-2  -1.258549373596907E-2  -7.841367274522781E-2  -1.265665050595999E-2   7.930137515068054E-1  -3.611839115619659E-1  
 7.705705705705706E8    -4.629451036453247E-2   4.954986572265625E-1  -6.991215795278549E-2  -1.795478351414204E-2  -6.999145448207855E-2  -1.810989901423454E-2   7.849828600883484E-1  -4.008431136608124E-1  
 7.729729729729730E8    -1.691227778792381E-2   4.974747300148010E-1  -6.506398320198059E-2  -2.354288473725319E-2  -6.529829651117325E-2  -2.397504635155201E-2   7.715047001838684E-1  -4.409403502941132E-1  
 7.753753753753754E8     9.788676165044308E-3   4.975847303867340E-1  -6.289976835250855E-2  -2.898183651268482E-2  -6.316136568784714E-2  -2.938600629568100E-2   7.521249651908875E-1  -4.787822067737579E-1  
 7.777777777777778E8     3.536764904856682E-2   4.957335591316223E-1  -6.298776715993881E-2  -3.395325317978859E-2  -6.311302632093430E-2  -3.414582833647728E-2   7.273682951927185E-1  -5.134112238883972E-1  
 7.801801801801802E8     5.964233726263046E-2   4.926381409168243E-1  -6.451138854026794E-2  -3.810985386371613E-2  -6.437028199434280E-2  -3.828844800591469E-2   6.987688541412354E-1  -5.438711643218994E-1  
 7.825825825825826E8     8.369312435388565E-2   4.874740839004517E-1  -6.722959876060486E-2  -4.174643009901047E-2  -6.727044284343720E-2  -4.177163168787956E-2   6.702910065650940E-1  -5.722051858901978E-1  
 7.849849849849850E8     1.062480211257935E-1   4.813794493675232E-1  -7.139512896537781E-2  -4.460282251238823E-2  -7.130056619644165E-2  -4.471443593502045E-2   6.411504745483398E-1  -5.971145629882813E-1  
 7.873873873873874E8     1.274790018796921E-1   4.746572077274323E-1  -7.658587396144867E-2  -4.656222462654114E-2  -7.624929398298264E-2  -4.662721231579781E-2   6.101747155189514E-1  -6.206600666046143E-1  
 7.897897897897898E8     1.485633105039597E-1   4.657996296882629E-1  -8.258931338787079E-2  -4.783371090888977E-2  -8.217801153659821E-2  -4.775834456086159E-2   5.763807296752930E-1  -6.433772444725037E-1  
 7.921921921921922E8     1.681225150823593E-1   4.546088874340057E-1  -8.942460268735886E-2  -4.767867922782898E-2  -8.928950130939484E-2  -4.761795327067375E-2   5.411624908447266E-1  -6.643024086952210E-1  
 7.945945945945946E8     1.836915463209152E-1   4.453285038471222E-1  -9.661512821912766E-2  -4.645826295018196E-2  -9.632918238639832E-2  -4.669564962387085E-2   5.050621032714844E-1  -6.800757050514221E-1  
 7.969969969969970E8     1.973780095577240E-1   4.352782964706421E-1  -1.039499789476395E-1  -4.412100464105606E-2  -1.036585494875908E-1  -4.443282261490822E-2   4.673434495925903E-1  -6.938214898109436E-1  
 7.993993993993994E8     2.093781530857086E-1   4.252020418643951E-1  -1.112780645489693E-1  -4.076834395527840E-2  -1.112086921930313E-1  -4.106928408145905E-2   4.280420541763306E-1  -7.055894732475281E-1  
 8.018018018018018E8     2.201940864324570E-1   4.142556488513947E-1  -1.187170892953873E-1  -3.645988926291466E-2  -1.188338100910187E-1  -3.651334345340729E-2   3.866945505142212E-1  -7.149407863616943E-1  
 8.042042042042042E8     2.304356545209885E-1   4.048376679420471E-1  -1.259867995977402E-1  -3.098648600280285E-2  -1.261402815580368E-1  -3.079601190984249E-2   3.459190726280212E-1  -7.206338047981262E-1  
 8.066066066066066E8     2.396769225597382E-1   3.960750997066498E-1  -1.331119835376740E-1  -2.458728291094303E-2  -1.332591772079468E-1  -2.446211874485016E-2   3.031628727912903E-1  -7.243318557739258E-1  
 8.090090090090090E8     2.475305944681168E-1   3.881267905235291E-1  -1.400135755538940E-1  -1.720793545246124E-2  -1.402454078197479E-1  -1.705696247518063E-2   2.595115602016449E-1  -7.237166166305542E-1  
 8.114114114114114E8     2.555681467056274E-1   3.810246586799622E-1  -1.467728316783905E-1  -8.979200385510922E-3  -1.468769758939743E-1  -8.759854361414909E-3   2.151254415512085E-1  -7.191709280014038E-1  
 8.138138138138138E8     2.638809680938721E-1   3.743464350700378E-1  -1.535161286592484E-1   3.770402108784765E-4  -1.537786126136780E-1   4.975101328454912E-4   1.713642477989197E-1  -7.103428840637207E-1  
 8.162162162162162E8     2.727174162864685E-1   3.675550222396851E-1  -1.602834612131119E-1   1.134069263935089E-2  -1.603118479251862E-1   1.142960134893656E-2   1.288240998983383E-1  -6.978650093078613E-1  
 8.186186186186186E8     2.804318666458130E-1   3.610768318176270E-1  -1.656759083271027E-1   2.423334494233131E-2  -1.657547354698181E-1   2.431081980466843E-2   8.801788091659546E-2  -6.812338232994080E-1  
 8.210210210210210E8     2.885859310626984E-1   3.542193174362183E-1  -1.693639606237412E-1   3.826915845274925E-2  -1.694886684417725E-1   3.823475912213326E-2   4.826906323432922E-2  -6.617407202720642E-1  
 8.234234234234234E8     2.972725927829742E-1   3.465892970561981E-1  -1.716875582933426E-1   5.279548093676567E-2  -1.718539893627167E-1   5.270294472575188E-2   9.412175044417381E-3  -6.389038562774658E-1  
