#  HZ   S   RI   R     50.00 
! Rohde & Schwarz ZVB8 2Ports - Version 2.81 - 1145.1010k08 SN: 100113
! Date: 2016-04-20 02:37:23
! Measurements: S11 S21 S12 S22 
! 
 6.000000000000000E8     7.487889528274536E-1   4.009354412555695E-1  -2.261625044047833E-2   2.994399890303612E-2  -2.263515442609787E-2   2.983813732862473E-2   5.587010979652405E-1   7.542287707328796E-1  
 6.024024024024024E8     7.661426067352295E-1   3.633489906787872E-1  -2.169820852577686E-2   3.206306695938110E-2  -2.166843786835671E-2   3.212835267186165E-2   5.746335387229919E-1   7.417742013931274E-1  
 6.048048048048048E8     7.822667360305786E-1   3.232536017894745E-1  -2.053863182663918E-2   3.434421122074127E-2  -2.055035717785358E-2   3.434953093528748E-2   5.901342034339905E-1   7.293374538421631E-1  
 6.072072072072072E8     7.961163520812988E-1   2.800937891006470E-1  -1.922539435327053E-2   3.660607710480690E-2  -1.921295747160912E-2   3.656890243291855E-2   6.053861975669861E-1   7.169003486633301E-1  
 6.096096096096096E8     8.077009916305542E-1   2.351498156785965E-1  -1.770675927400589E-2   3.903035074472427E-2  -1.768296398222446E-2   3.904451429843903E-2   6.207888126373291E-1   7.031732797622681E-1  
 6.120120120120120E8     8.153846263885498E-1   1.917119920253754E-1  -1.593548431992531E-2   4.141753539443016E-2  -1.600074395537376E-2   4.137058183550835E-2   6.344642043113709E-1   6.907031536102295E-1  
 6.144144144144144E8     8.201933503150940E-1   1.483673453330994E-1  -1.374454610049725E-2   4.365906491875649E-2  -1.379558816552162E-2   4.361532256007195E-2   6.478800773620606E-1   6.776234507560730E-1  
 6.168168168168168E8     8.224657773971558E-1   1.038556322455406E-1  -1.126030180603266E-2   4.557853937149048E-2  -1.140864752233028E-2   4.558334872126579E-2   6.615036129951477E-1   6.644036173820496E-1  
 6.192192192192192E8     8.220249414443970E-1   5.922980234026909E-2  -8.779258467257023E-3   4.744575917720795E-2  -8.838059380650520E-3   4.754318669438362E-2   6.750987172126770E-1   6.499537229537964E-1  
 6.216216216216216E8     8.184576034545898E-1   1.444194838404656E-2  -5.966057535260916E-3   4.909398779273033E-2  -5.958892870694399E-3   4.911241307854652E-2   6.887942552566528E-1   6.343198418617249E-1  
 6.240240240240240E8     8.125306963920593E-1  -3.017631173133850E-2  -3.016541246324778E-3   5.043265223503113E-2  -2.962611848488450E-3   5.038540810346603E-2   7.023379206657410E-1   6.184380054473877E-1  
 6.264264264264264E8     8.054217100143433E-1  -7.297051697969437E-2  -3.082015246036463E-5   5.157715454697609E-2  -4.070765498909168E-5   5.160119384527206E-2   7.157030701637268E-1   6.024454236030579E-1  
 6.288288288288288E8     7.954998612403870E-1  -1.162769943475723E-1   2.960700076073408E-3   5.262294411659241E-2   2.992370631545782E-3   5.258384719491005E-2   7.279287576675415E-1   5.865746736526489E-1  
 6.312312312312312E8     7.832028865814209E-1  -1.598062515258789E-1   6.041135638952255E-3   5.352313816547394E-2   5.985210649669170E-3   5.343841388821602E-2   7.396973967552185E-1   5.707285404205322E-1  
 6.336336336336336E8     7.676391601562500E-1  -2.029653936624527E-1   9.083191864192486E-3   5.432933568954468E-2   9.105631150305271E-3   5.426490306854248E-2   7.505292892456055E-1   5.546996593475342E-1  
 6.360360360360360E8     7.487249970436096E-1  -2.447814494371414E-1   1.228475291281939E-2   5.500498041510582E-2   1.226791180670261E-2   5.491840466856957E-2   7.612034082412720E-1   5.386079549789429E-1  
 6.384384384384384E8     7.275831699371338E-1  -2.836127877235413E-1   1.570536755025387E-2   5.552078410983086E-2   1.566402241587639E-2   5.557250231504440E-2   7.723694443702698E-1   5.227761268615723E-1  
 6.408408408408408E8     7.036647200584412E-1  -3.222377598285675E-1   1.921820081770420E-2   5.597307160496712E-2   1.914201863110066E-2   5.593497678637505E-2   7.828449010848999E-1   5.064290761947632E-1  
 6.432432432432432E8     6.770570278167725E-1  -3.596113324165344E-1   2.291298843920231E-2   5.600190162658691E-2   2.286349423229694E-2   5.610112845897675E-2   7.928584218025208E-1   4.893786907196045E-1  
 6.456456456456456E8     6.478940248489380E-1  -3.952920436859131E-1   2.658865414559841E-2   5.594070628285408E-2   2.656956203281879E-2   5.595819652080536E-2   8.026839494705200E-1   4.717507064342499E-1  
 6.480480480480480E8     6.165931224822998E-1  -4.284595251083374E-1   3.028649650514126E-2   5.561440438032150E-2   3.032477572560310E-2   5.560239776968956E-2   8.118808865547180E-1   4.535346031188965E-1  
 6.504504504504504E8     5.833565592765808E-1  -4.585271477699280E-1   3.418026491999626E-2   5.520458146929741E-2   3.423257917165756E-2   5.517027527093887E-2   8.213778734207153E-1   4.358740448951721E-1  
 6.528528528528528E8     5.478026866912842E-1  -4.866546392440796E-1   3.818871080875397E-2   5.442078784108162E-2   3.829620406031609E-2   5.436474829912186E-2   8.299423456192017E-1   4.181122183799744E-1  
 6.552552552552552E8     5.114616155624390E-1  -5.122655034065247E-1   4.206845164299011E-2   5.337831750512123E-2   4.213270172476769E-2   5.329717323184013E-2   8.377821445465088E-1   4.002239704132080E-1  
 6.576576576576576E8     4.737141430377960E-1  -5.358228087425232E-1   4.593673348426819E-2   5.215353146195412E-2   4.598331078886986E-2   5.208921432495117E-2   8.444895744323731E-1   3.815577924251556E-1  
 6.600600600600600E8     4.340389072895050E-1  -5.574926733970642E-1   5.001511797308922E-2   5.076116323471069E-2   5.005245283246040E-2   5.063943937420845E-2   8.512869477272034E-1   3.613018989562988E-1  
 6.624624624624624E8     3.932761847972870E-1  -5.743368864059448E-1   5.440809950232506E-2   4.893328994512558E-2   5.432851612567902E-2   4.897453263401985E-2   8.583945035934448E-1   3.421818912029266E-1  
 6.648648648648648E8     3.512155711650848E-1  -5.877300500869751E-1   5.875928327441216E-2   4.674955084919930E-2   5.865696817636490E-2   4.670384898781776E-2   8.647110462188721E-1   3.228439986705780E-1  
 6.672672672672672E8     3.088197112083435E-1  -5.980963110923767E-1   6.301932781934738E-2   4.395096004009247E-2   6.296648085117340E-2   4.394999146461487E-2   8.699590563774109E-1   3.036541044712067E-1  
 6.696696696696696E8     2.672138512134552E-1  -6.056237816810608E-1   6.687690317630768E-2   4.065869003534317E-2   6.680870056152344E-2   4.062165692448616E-2   8.745824098587036E-1   2.840029001235962E-1  
 6.720720720720720E8     2.265480458736420E-1  -6.110830903053284E-1   7.017663121223450E-2   3.698316588997841E-2   7.028207927942276E-2   3.699776902794838E-2   8.788421750068665E-1   2.646617591381073E-1  
 6.744744744744744E8     1.862804293632507E-1  -6.142613887786865E-1   7.338341325521469E-2   3.344212844967842E-2   7.332748174667358E-2   3.342147171497345E-2   8.829593062400818E-1   2.449609339237213E-1  
 6.768768768768768E8     1.446518450975418E-1  -6.158031821250916E-1   7.637727260589600E-2   2.995797991752625E-2   7.640833407640457E-2   2.993102185428143E-2   8.865305781364441E-1   2.254955023527145E-1  
 6.792792792792792E8     1.019097939133644E-1  -6.132308840751648E-1   7.959319651126862E-2   2.587704546749592E-2   7.964625209569931E-2   2.593480423092842E-2   8.896690011024475E-1   2.059406489133835E-1  
 6.816816816816816E8     6.215288490056992E-2  -6.063107848167419E-1   8.206573128700256E-2   2.141860686242580E-2   8.206735551357269E-2   2.147811837494373E-2   8.924969434738159E-1   1.856687664985657E-1  
 6.840840840840840E8     2.511126548051834E-2  -5.983207225799561E-1   8.387630432844162E-2   1.727409474551678E-2   8.386567234992981E-2   1.727560535073280E-2   8.945301771163940E-1   1.647925674915314E-1  
 6.864864864864864E8    -1.216880977153778E-2  -5.897634029388428E-1   8.589377254247665E-2   1.362128462642431E-2   8.568754792213440E-2   1.384420320391655E-2   8.958380222320557E-1   1.452078074216843E-1  
 6.888888888888888E8    -5.119212344288826E-2  -5.783735513687134E-1   8.827318251132965E-2   9.518142789602280E-3   8.802715688943863E-2   1.010866276919842E-2   8.965219259262085E-1   1.241200789809227E-1  
 6.912912912912912E8    -8.874911069869995E-2  -5.634185671806335E-1   9.024874120950699E-2   5.393274128437042E-3   9.013205766677856E-2   5.989712662994862E-3   8.971898555755615E-1   1.032546833157539E-1  
 6.936936936936936E8    -1.236576884984970E-1  -5.456883311271668E-1   9.224929660558701E-2   1.470168004743755E-3   9.217895567417145E-2   1.824315637350082E-3   8.966053128242493E-1   8.186208456754684E-2  
 6.960960960960960E8    -1.566364169120789E-1  -5.272251963615418E-1   9.437756240367889E-2  -2.126159612089396E-3   9.428709000349045E-2  -2.212340245023370E-3   8.954970836639404E-1   6.008323654532433E-2  
 6.984984984984984E8    -1.893955022096634E-1  -5.062955021858215E-1   9.721261262893677E-2  -5.570852663367987E-3   9.710370004177094E-2  -6.857871077954769E-3   8.938114047050476E-1   3.618125244975090E-2  
 7.009009009009008E8    -2.210191339254379E-1  -4.814874827861786E-1   1.006153151392937E-1  -9.574932977557182E-3   1.003447473049164E-1  -1.188923045992851E-2   8.909945487976074E-1   1.300900429487228E-2  
 7.033033033033032E8    -2.489175200462341E-1  -4.529195725917816E-1   1.044523417949677E-1  -1.502334419637919E-2   1.040396764874458E-1  -1.715336926281452E-2   8.868338465690613E-1  -7.587850559502840E-3  
 7.057057057057056E8    -2.722607851028442E-1  -4.237798750400543E-1   1.080072969198227E-1  -2.183502912521362E-2   1.078549474477768E-1  -2.311000041663647E-2   8.817495703697205E-1  -2.468846179544926E-2  
 7.081081081081080E8    -2.943420708179474E-1  -3.938206732273102E-1   1.111352294683456E-1  -2.990484796464443E-2   1.112211793661118E-1  -2.979009971022606E-2   8.762935996055603E-1  -4.252295196056366E-2  
 7.105105105105104E8    -3.131932020187378E-1  -3.605488538742065E-1   1.137311458587647E-1  -3.873373940587044E-2   1.143379360437393E-1  -3.722580149769783E-2   8.711668252944946E-1  -5.894047394394875E-2  
 7.129129129129129E8    -3.274830877780914E-1  -3.278716206550598E-1   1.161126568913460E-1  -4.771798104047775E-2   1.170647367835045E-1  -4.586894437670708E-2   8.653023242950440E-1  -7.705872505903244E-2  
 7.153153153153153E8    -3.375244438648224E-1  -2.953076064586639E-1   1.185819655656815E-1  -5.764827877283096E-2   1.192955449223518E-1  -5.653209984302521E-2   8.583143353462219E-1  -9.745647013187408E-2  
 7.177177177177178E8    -3.429622054100037E-1  -2.646972835063934E-1   1.197883188724518E-1  -6.913512200117111E-2   1.203611493110657E-1  -6.898578256368637E-2   8.498642444610596E-1  -1.187056824564934E-1  
 7.201201201201202E8    -3.471879065036774E-1  -2.365177273750305E-1   1.192325502634049E-1  -8.226054906845093E-2   1.192202642560005E-1  -8.215697854757309E-2   8.411598801612854E-1  -1.396108865737915E-1  
 7.225225225225226E8    -3.501268923282623E-1  -2.086119204759598E-1   1.164411678910255E-1  -9.532807022333145E-2   1.163166463375092E-1  -9.549228101968765E-2   8.319219946861267E-1  -1.592259258031845E-1  
 7.249249249249250E8    -3.508306443691254E-1  -1.822490990161896E-1   1.114362552762032E-1  -1.088620126247406E-1   1.123804152011871E-1  -1.077888906002045E-1   8.215153813362122E-1  -1.767634749412537E-1  
 7.273273273273274E8    -3.516483306884766E-1  -1.589976102113724E-1   1.054617241024971E-1  -1.216656714677811E-1   1.076078265905380E-1  -1.197812929749489E-1   8.098539710044861E-1  -1.946707516908646E-1  
 7.297297297297298E8    -3.519746959209442E-1  -1.360454112291336E-1   9.948182106018066E-2  -1.346651017665863E-1   1.013601198792458E-1  -1.333225816488266E-1   7.958340644836426E-1  -2.130608707666397E-1  
 7.321321321321322E8    -3.498273491859436E-1  -1.145713999867439E-1   9.221750497817993E-2  -1.474768221378326E-1   9.211528301239014E-2  -1.477691382169724E-1   7.797072529792786E-1  -2.310342937707901E-1  
 7.345345345345346E8    -3.469698429107666E-1  -9.269379824399948E-2   8.232564479112625E-2  -1.608323156833649E-1   8.130563795566559E-2  -1.614981889724731E-1   7.620292305946350E-1  -2.450432479381561E-1  
 7.369369369369370E8    -3.434341549873352E-1  -7.204068452119827E-2   7.044693827629089E-2  -1.741930842399597E-1   6.841425597667694E-2  -1.750223487615585E-1   7.420203089714050E-1  -2.576653957366943E-1  
 7.393393393393394E8    -3.383469581604004E-1  -5.330489948391914E-2   5.558387562632561E-2  -1.880628019571304E-1   5.343963205814362E-2  -1.885087639093399E-1   7.194195389747620E-1  -2.668991386890411E-1  
 7.417417417417418E8    -3.324676156044006E-1  -3.780805319547653E-2   3.652470558881760E-2  -2.019312828779221E-1   3.495090827345848E-2  -2.019937038421631E-1   6.954730153083801E-1  -2.702578008174896E-1  
 7.441441441441442E8    -3.268649578094482E-1  -2.567496709525585E-2   1.172669790685177E-2  -2.141463756561279E-1   1.174772065132856E-2  -2.138686329126358E-1   6.725674867630005E-1  -2.655562162399292E-1  
 7.465465465465466E8    -3.232776522636414E-1  -1.617185026407242E-2  -1.841682568192482E-2  -2.222824990749359E-1  -1.822734251618385E-2  -2.221822887659073E-1   6.555480360984802E-1  -2.517777681350708E-1  
 7.489489489489490E8    -3.251966238021851E-1  -1.098046917468309E-2  -5.406488850712776E-2  -2.218493968248367E-1  -5.366131663322449E-2  -2.219907939434052E-1   6.472734212875366E-1  -2.319510430097580E-1  
 7.513513513513514E8    -3.363781273365021E-1  -4.565878771245480E-3  -9.094449132680893E-2  -2.097114026546478E-1  -9.061954170465469E-2  -2.101853489875794E-1   6.511771678924561E-1  -2.105033695697784E-1  
 7.537537537537538E8    -3.549383580684662E-1   9.166909381747246E-3  -1.238040477037430E-1  -1.847235262393951E-1  -1.234133988618851E-1  -1.855241805315018E-1   6.696138978004456E-1  -1.950610578060150E-1  
 7.561561561561562E8    -3.767103254795075E-1   3.436640277504921E-2  -1.451086997985840E-1  -1.507815271615982E-1  -1.450110524892807E-1  -1.507064998149872E-1   6.996656060218811E-1  -1.917752921581268E-1  
 7.585585585585586E8    -3.945213854312897E-1   7.463595271110535E-2  -1.529989987611771E-1  -1.137156113982201E-1  -1.527783423662186E-1  -1.128958836197853E-1   7.346073389053345E-1  -2.037700414657593E-1  
 7.609609609609610E8    -4.033321738243103E-1   1.236541122198105E-1  -1.476139128208160E-1  -7.967396825551987E-2  -1.470111161470413E-1  -7.875952124595642E-2   7.641720175743103E-1  -2.322665601968765E-1  
 7.633633633633634E8    -3.994007408618927E-1   1.774262338876724E-1  -1.330186426639557E-1  -5.424629151821137E-2  -1.322755217552185E-1  -5.368666723370552E-2   7.834197878837585E-1  -2.705973088741303E-1  
 7.657657657657658E8    -3.825166523456574E-1   2.290033996105194E-1  -1.150572523474693E-1  -3.872722387313843E-2  -1.146042719483376E-1  -3.866195678710938E-2   7.925068736076355E-1  -3.138380050659180E-1  
 7.681681681681682E8    -3.570203185081482E-1   2.754170894622803E-1  -9.799759089946747E-2  -3.131543844938278E-2  -9.802214801311493E-2  -3.129813820123673E-2   7.931202650070190E-1  -3.577014803886414E-1  
 7.705705705705706E8    -3.253694474697113E-1   3.183886110782623E-1  -8.307239413261414E-2  -2.933747135102749E-2  -8.315577358007431E-2  -2.938386984169483E-2   7.869732379913330E-1  -3.964234888553619E-1  
 7.729729729729730E8    -2.863823771476746E-1   3.566916584968567E-1  -7.093168050050736E-2  -3.076013922691345E-2  -7.128702104091644E-2  -3.109632432460785E-2   7.752305865287781E-1  -4.362733960151672E-1  
 7.753753753753754E8    -2.408804446458817E-1   3.876992166042328E-1  -6.171200424432755E-2  -3.487906977534294E-2  -6.198479607701302E-2  -3.526408225297928E-2   7.569400668144226E-1  -4.751759767532349E-1  
 7.777777777777778E8    -1.925126463174820E-1   4.085033833980560E-1  -5.548605322837830E-2  -4.069098830223084E-2  -5.561365559697151E-2  -4.085308685898781E-2   7.331122159957886E-1  -5.104315876960754E-1  
 7.801801801801802E8    -1.457713693380356E-1   4.210066199302673E-1  -5.179612338542938E-2  -4.717624187469482E-2  -5.181073024868965E-2  -4.720198735594750E-2   7.056348323822022E-1  -5.413120985031128E-1  
 7.825825825825826E8    -9.975289553403854E-2   4.296444654464722E-1  -5.004563555121422E-2  -5.394954234361649E-2  -5.006311088800430E-2  -5.393475666642189E-2   6.780732870101929E-1  -5.705412626266480E-1  
 7.849849849849850E8    -5.409787967801094E-2   4.351401627063751E-1  -5.036273971199989E-2  -6.118150427937508E-2  -5.018864944577217E-2  -6.138689443469048E-2   6.498621702194214E-1  -5.964920520782471E-1  
 7.873873873873874E8    -6.540728267282248E-3   4.361727237701416E-1  -5.296791717410088E-2  -6.909412890672684E-2  -5.252232030034065E-2  -6.900722533464432E-2   6.196190118789673E-1  -6.209702491760254E-1  
 7.897897897897898E8     4.213804379105568E-2   4.288083314895630E-1  -5.820780247449875E-2  -7.638208568096161E-2  -5.792710930109024E-2  -7.615113258361816E-2   5.867728590965271E-1  -6.448633074760437E-1  
 7.921921921921922E8     8.715493977069855E-2   4.123782813549042E-1  -6.551564484834671E-2  -8.208646625280380E-2  -6.538047641515732E-2  -8.201662451028824E-2   5.525479912757874E-1  -6.672222018241882E-1  
 7.945945945945946E8     1.236547753214836E-1   3.939039111137390E-1  -7.421322911977768E-2  -8.636098355054855E-2  -7.377212494611740E-2  -8.643458038568497E-2   5.171833038330078E-1  -6.849467754364014E-1  
 7.969969969969970E8     1.548637151718140E-1   3.748283684253693E-1  -8.323059231042862E-2  -8.922175318002701E-2  -8.285587280988693E-2  -8.943245559930801E-2   4.798796474933624E-1  -7.009769678115845E-1  
 7.993993993993994E8     1.847767084836960E-1   3.551901876926422E-1  -9.268709272146225E-2  -9.146559983491898E-2  -9.255833923816681E-2  -9.169851988554001E-2   4.405038952827454E-1  -7.156176567077637E-1  
 8.018018018018018E8     2.143665105104446E-1   3.317923545837402E-1  -1.034840047359467E-1  -9.332948178052902E-2  -1.037024632096291E-1  -9.328297525644302E-2   3.988632261753082E-1  -7.274326086044312E-1  
 8.042042042042042E8     2.405562549829483E-1   3.032894730567932E-1  -1.163481622934341E-1  -9.355296194553375E-2  -1.165881901979446E-1  -9.344039857387543E-2   3.572859168052673E-1  -7.358517646789551E-1  
 8.066066066066066E8     2.581981122493744E-1   2.737981379032135E-1  -1.297607421875000E-1  -9.076490253210068E-2  -1.300410181283951E-1  -9.069262444972992E-2   3.139283359050751E-1  -7.424556612968445E-1  
 8.090090090090090E8     2.710225880146027E-1   2.476210594177246E-1  -1.426672488451004E-1  -8.645233511924744E-2  -1.428478509187698E-1  -8.637240529060364E-2   2.691817581653595E-1  -7.457375526428223E-1  
 8.114114114114114E8     2.819496691226959E-1   2.235545814037323E-1  -1.555924266576767E-1  -8.090741932392120E-2  -1.559530794620514E-1  -8.078638464212418E-2   2.227323055267334E-1  -7.455965876579285E-1  
 8.138138138138138E8     2.921764850616455E-1   2.002921998500824E-1  -1.688490808010101E-1  -7.385736703872681E-2  -1.691166907548904E-1  -7.384236156940460E-2   1.750250905752182E-1  -7.414274215698242E-1  
 8.162162162162162E8     3.010120689868927E-1   1.769703179597855E-1  -1.822259575128555E-1  -6.479484587907791E-2  -1.824560761451721E-1  -6.486102193593979E-2   1.274460703134537E-1  -7.334057688713074E-1  
 8.186186186186186E8     3.069399893283844E-1   1.549521386623383E-1  -1.952679902315140E-1  -5.373724177479744E-2  -1.952864676713944E-1  -5.375220626592636E-2   7.941218465566635E-2  -7.203564643859863E-1  
 8.210210210210210E8     3.105257153511047E-1   1.348319649696350E-1  -2.067804187536240E-1  -4.033073782920837E-2  -2.068510949611664E-1  -4.039177671074867E-2   3.111172653734684E-2  -7.028200030326843E-1  
 8.234234234234234E8     3.158879280090332E-1   1.166588962078095E-1  -2.170296460390091E-1  -2.631122060120106E-2  -2.171748876571655E-1  -2.656235173344612E-2  -1.723306253552437E-2  -6.807297468185425E-1  
