#  HZ   S   RI   R     50.00 
! Rohde & Schwarz ZVB8 2Ports - Version 2.81 - 1145.1010k08 SN: 100113
! Date: 2016-03-31 04:51:41
! Measurements: S11 S21 S12 S22 
! 
 6.000000000000000E8     4.284690693020821E-2   9.348467588424683E-1  -1.226486638188362E-2   7.734850514680147E-3  -1.232562772929668E-2   7.743703667074442E-3  -8.963380753993988E-2   9.453060626983643E-1  
 6.024024024024024E8     6.189822405576706E-2   9.328186511993408E-1  -1.260176673531532E-2   8.462869562208653E-3  -1.263600308448076E-2   8.428995497524738E-3  -7.064033299684525E-2   9.462733268737793E-1  
 6.048048048048048E8     8.212383836507797E-2   9.304662346839905E-1  -1.294529810547829E-2   9.184796363115311E-3  -1.286654733121395E-2   9.231708943843842E-3  -5.169631540775299E-2   9.466555714607239E-1  
 6.072072072072072E8     1.032243818044663E-1   9.272415041923523E-1  -1.319829095155001E-2   1.005011424422264E-2  -1.320437248796225E-2   1.004056818783283E-2  -3.299576044082642E-2   9.471122622489929E-1  
 6.096096096096096E8     1.250139921903610E-1   9.230611920356751E-1  -1.350902672857046E-2   1.095793023705483E-2  -1.346649695187807E-2   1.094433665275574E-2  -1.405622158199549E-2   9.469228982925415E-1  
 6.120120120120120E8     1.436287611722946E-1   9.191898703575134E-1  -1.392873656004667E-2   1.197925023734570E-2  -1.389795262366533E-2   1.192438974976540E-2   3.186669433489442E-3   9.461795091629028E-1  
 6.144144144144144E8     1.625320166349411E-1   9.144808053970337E-1  -1.414693705737591E-2   1.322592422366142E-2  -1.422715559601784E-2   1.329573709517717E-2   2.165614627301693E-2   9.459826350212097E-1  
 6.168168168168168E8     1.815182119607925E-1   9.096118807792664E-1  -1.432570070028305E-2   1.458640675991774E-2  -1.433580555021763E-2   1.448647957295179E-2   4.004605486989021E-2   9.447195529937744E-1  
 6.192192192192192E8     2.008901238441467E-1   9.038587212562561E-1  -1.429348997771740E-2   1.585758477449417E-2  -1.434838958084583E-2   1.583795621991158E-2   5.934092029929161E-2   9.430897831916809E-1  
 6.216216216216216E8     2.208144813776016E-1   8.975201845169067E-1  -1.420941483229399E-2   1.711097732186317E-2  -1.425874046981335E-2   1.702950149774551E-2   7.951613515615463E-2   9.410898089408875E-1  
 6.240240240240240E8     2.411551326513290E-1   8.903295397758484E-1  -1.416959427297115E-2   1.842037402093411E-2  -1.427619345486164E-2   1.843758858740330E-2   1.000917330384255E-1   9.380232095718384E-1  
 6.264264264264264E8     2.602458298206329E-1   8.826754093170166E-1  -1.419003680348396E-2   1.989715546369553E-2  -1.425083354115486E-2   1.991971023380756E-2   1.208753883838654E-1   9.346166849136353E-1  
 6.288288288288288E8     2.793869078159332E-1   8.743495345115662E-1  -1.415841188281775E-2   2.149636484682560E-2  -1.423098333179951E-2   2.134046144783497E-2   1.402992606163025E-1   9.310622811317444E-1  
 6.312312312312312E8     2.975744307041168E-1   8.653381466865540E-1  -1.405891310423613E-2   2.313721925020218E-2  -1.403845101594925E-2   2.309180237352848E-2   1.598485261201859E-1   9.268157482147217E-1  
 6.336336336336336E8     3.158060014247894E-1   8.559859991073608E-1  -1.394072175025940E-2   2.507992833852768E-2  -1.395031344145536E-2   2.504797279834747E-2   1.788616329431534E-1   9.222663044929504E-1  
 6.360360360360360E8     3.337384760379791E-1   8.454561233520508E-1  -1.356292236596346E-2   2.730461582541466E-2  -1.356207951903343E-2   2.722649835050106E-2   1.976601928472519E-1   9.170962572097778E-1  
 6.384384384384384E8     3.506134152412415E-1   8.353476524353027E-1  -1.272054854780436E-2   2.952886745333672E-2  -1.275674253702164E-2   2.938180975615978E-2   2.174307852983475E-1   9.113957285881043E-1  
 6.408408408408408E8     3.674020469188690E-1   8.245412707328796E-1  -1.173818577080965E-2   3.166659548878670E-2  -1.179060805588961E-2   3.159090504050255E-2   2.374694496393204E-1   9.051577448844910E-1  
 6.432432432432432E8     3.840779662132263E-1   8.126940727233887E-1  -1.058911904692650E-2   3.396454453468323E-2  -1.061821635812521E-2   3.384856134653091E-2   2.571924626827240E-1   8.982576727867127E-1  
 6.456456456456456E8     4.000990688800812E-1   7.997968792915344E-1  -9.248665533959866E-3   3.618248552083969E-2  -9.232517331838608E-3   3.605807572603226E-2   2.767324745655060E-1   8.904544115066528E-1  
 6.480480480480480E8     4.155503809452057E-1   7.862315773963928E-1  -7.648485247045755E-3   3.853864595293999E-2  -7.618100848048925E-3   3.857031837105751E-2   2.964366078376770E-1   8.817959427833557E-1  
 6.504504504504504E8     4.302155971527100E-1   7.740529775619507E-1  -5.643554963171482E-3   4.092453420162201E-2  -5.638392642140389E-3   4.087914898991585E-2   3.165416121482849E-1   8.738657832145691E-1  
 6.528528528528528E8     4.436459243297577E-1   7.612630724906921E-1  -3.236121963709593E-3   4.317257553339005E-2  -3.156989812850952E-3   4.313013330101967E-2   3.355270326137543E-1   8.653796315193176E-1  
 6.552552552552552E8     4.562722146511078E-1   7.482759952545166E-1  -6.373795913532376E-4   4.511676356196404E-2  -5.733818979933858E-4   4.499952122569084E-2   3.536403179168701E-1   8.565965294837952E-1  
 6.576576576576576E8     4.680099189281464E-1   7.342035174369812E-1   2.075012307614088E-3   4.728879779577255E-2   2.071745228022337E-3   4.720993340015411E-2   3.708620071411133E-1   8.463339805603027E-1  
 6.600600600600600E8     4.795805215835571E-1   7.191558480262756E-1   5.885007791221142E-3   4.943488910794258E-2   5.807589739561081E-3   4.933699965476990E-2   3.887682259082794E-1   8.343778848648071E-1  
 6.624624624624624E8     4.895814955234528E-1   7.079489827156067E-1   1.019681058824062E-2   5.039545148611069E-2   1.004453003406525E-2   5.025605484843254E-2   4.060030877590179E-1   8.245068192481995E-1  
 6.648648648648648E8     5.004637241363525E-1   6.966109871864319E-1   1.388644613325596E-2   5.038847029209137E-2   1.375957019627094E-2   5.033976957201958E-2   4.230771064758301E-1   8.146183490753174E-1  
 6.672672672672672E8     5.111362934112549E-1   6.845757961273193E-1   1.713886670768261E-2   5.053229629993439E-2   1.694674976170063E-2   5.053726583719254E-2   4.400310516357422E-1   8.042368292808533E-1  
 6.696696696696696E8     5.218594074249268E-1   6.714461445808411E-1   2.040897309780121E-2   5.066703259944916E-2   2.019423991441727E-2   5.059500411152840E-2   4.561683237552643E-1   7.932435274124146E-1  
 6.720720720720720E8     5.326330065727234E-1   6.579254865646362E-1   2.381932921707630E-2   5.076730251312256E-2   2.360504493117333E-2   5.070081725716591E-2   4.719295203685761E-1   7.819041013717651E-1  
 6.744744744744744E8     5.421579480171204E-1   6.458498835563660E-1   2.722532488405705E-2   5.047636106610298E-2   2.709874883294106E-2   5.051798000931740E-2   4.882902801036835E-1   7.704964280128479E-1  
 6.768768768768768E8     5.521914362907410E-1   6.335270404815674E-1   3.055185265839100E-2   5.018525570631027E-2   3.036484122276306E-2   5.021221563220024E-2   5.042330026626587E-1   7.586619853973389E-1  
 6.792792792792792E8     5.612939000129700E-1   6.209304928779602E-1   3.408893197774887E-2   4.972699284553528E-2   3.398974612355232E-2   4.969955608248711E-2   5.195870995521545E-1   7.462750077247620E-1  
 6.816816816816816E8     5.707596540451050E-1   6.085879206657410E-1   3.759283199906349E-2   4.877404496073723E-2   3.747553005814552E-2   4.873038455843926E-2   5.351263880729675E-1   7.335140109062195E-1  
 6.840840840840840E8     5.807745456695557E-1   5.959342122077942E-1   4.099769145250320E-2   4.762116447091103E-2   4.087400436401367E-2   4.759852960705757E-2   5.503255724906921E-1   7.199522852897644E-1  
 6.864864864864864E8     5.902068018913269E-1   5.830557942390442E-1   4.407472908496857E-2   4.616858810186386E-2   4.379490390419960E-2   4.626229405403137E-2   5.636038184165955E-1   7.069984674453735E-1  
 6.888888888888888E8     6.003115177154541E-1   5.696709752082825E-1   4.685242846608162E-2   4.486501961946487E-2   4.627184569835663E-2   4.512543976306915E-2   5.772578120231628E-1   6.931996941566467E-1  
 6.912912912912912E8     6.091045141220093E-1   5.554918646812439E-1   4.977141320705414E-2   4.396113008260727E-2   4.931466653943062E-2   4.421547427773476E-2   5.908356308937073E-1   6.787555813789368E-1  
 6.936936936936936E8     6.173895001411438E-1   5.412954688072205E-1   5.278940871357918E-2   4.290023446083069E-2   5.240927636623383E-2   4.311772435903549E-2   6.041459441184998E-1   6.641835570335388E-1  
 6.960960960960960E8     6.246806979179382E-1   5.268623232841492E-1   5.618713423609734E-2   4.204738885164261E-2   5.605269968509674E-2   4.221263155341148E-2   6.172796487808228E-1   6.482897400856018E-1  
 6.984984984984984E8     6.312986016273499E-1   5.151381492614746E-1   5.978059768676758E-2   4.066472873091698E-2   6.020817533135414E-2   3.996837139129639E-2   6.320744156837463E-1   6.303622722625732E-1  
 7.009009009009008E8     6.386135816574097E-1   5.032586455345154E-1   6.302972137928009E-2   3.888457268476486E-2   6.371641904115677E-2   3.747519105672836E-2   6.461085677146912E-1   6.124952435493469E-1  
 7.033033033033032E8     6.460903286933899E-1   4.901208877563477E-1   6.661048531532288E-2   3.701154142618179E-2   6.720767915248871E-2   3.562326356768608E-2   6.574110388755798E-1   5.952761769294739E-1  
 7.057057057057056E8     6.535543203353882E-1   4.771453440189362E-1   7.042640447616577E-2   3.430104628205299E-2   7.069639116525650E-2   3.349721059203148E-2   6.659130454063416E-1   5.803301334381104E-1  
 7.081081081081080E8     6.625282168388367E-1   4.626256823539734E-1   7.410136610269547E-2   3.088975697755814E-2   7.386008650064468E-2   3.105896338820458E-2   6.745615005493164E-1   5.643780231475830E-1  
 7.105105105105104E8     6.714735031127930E-1   4.491413235664368E-1   7.729400694370270E-2   2.729259245097637E-2   7.682154327630997E-2   2.846589498221874E-2   6.827584505081177E-1   5.494880080223084E-1  
 7.129129129129129E8     6.801658272743225E-1   4.362388551235199E-1   7.990959286689758E-2   2.415278926491737E-2   7.935671508312225E-2   2.554744854569435E-2   6.918787360191345E-1   5.325300693511963E-1  
 7.153153153153153E8     6.882099509239197E-1   4.229083359241486E-1   8.258908241987228E-2   2.131252363324165E-2   8.228401094675064E-2   2.238028123974800E-2   7.017299532890320E-1   5.131060481071472E-1  
 7.177177177177178E8     6.967748999595642E-1   4.093964695930481E-1   8.521190285682678E-2   1.812020875513554E-2   8.505443483591080E-2   1.851270347833633E-2   7.121654748916626E-1   4.916018247604370E-1  
 7.201201201201202E8     7.070792317390442E-1   3.942855894565582E-1   8.763792365789414E-2   1.456283032894135E-2   8.757386356592178E-2   1.469672005623579E-2   7.219080328941345E-1   4.687029421329498E-1  
 7.225225225225226E8     7.176923155784607E-1   3.790455758571625E-1   8.957425504922867E-2   1.118326559662819E-2   8.942090719938278E-2   1.108928304165602E-2   7.302682995796204E-1   4.467188119888306E-1  
 7.249249249249250E8     7.281806468963623E-1   3.606896996498108E-1   9.155324846506119E-2   7.909638807177544E-3   9.134503453969955E-2   8.955501019954681E-3   7.357566356658936E-1   4.256141185760498E-1  
 7.273273273273274E8     7.371832728385925E-1   3.411954939365387E-1   9.425242990255356E-2   5.041650496423245E-3   9.400250017642975E-2   6.970049347728491E-3   7.400785684585571E-1   4.038697481155396E-1  
 7.297297297297298E8     7.445065975189209E-1   3.224017024040222E-1   9.764707088470459E-2   2.330054529011250E-3   9.745050221681595E-2   3.995183389633894E-3   7.433682680130005E-1   3.814392685890198E-1  
 7.321321321321322E8     7.499743700027466E-1   3.044624626636505E-1   1.014584973454475E-1  -4.508362035267055E-4   1.012900248169899E-1  -1.703971938695759E-4   7.464287877082825E-1   3.590044677257538E-1  
 7.345345345345346E8     7.547354102134705E-1   2.874812781810761E-1   1.055721864104271E-1  -4.524784162640572E-3   1.054344847798348E-1  -4.722837824374437E-3   7.481303215026856E-1   3.392234146595001E-1  
 7.369369369369370E8     7.597165107727051E-1   2.694010734558106E-1   1.091025397181511E-1  -9.697118774056435E-3   1.089131161570549E-1  -1.049537025392056E-2   7.500268220901489E-1   3.188629150390625E-1  
 7.393393393393394E8     7.648512125015259E-1   2.503339648246765E-1   1.120000332593918E-1  -1.540654432028532E-2   1.116623878479004E-1  -1.624820567667484E-2   7.520082592964172E-1   2.982714772224426E-1  
 7.417417417417418E8     7.690687775611877E-1   2.297071814537048E-1   1.142516285181046E-1  -2.122127078473568E-2   1.140570491552353E-1  -2.154892124235630E-2   7.535739541053772E-1   2.774346172809601E-1  
 7.441441441441442E8     7.720637917518616E-1   2.080621719360352E-1   1.167847141623497E-1  -2.686270512640476E-2   1.167876198887825E-1  -2.646671794354916E-2   7.539169192314148E-1   2.563651502132416E-1  
 7.465465465465466E8     7.733239531517029E-1   1.907166391611099E-1   1.201258301734924E-1  -3.244300559163094E-2   1.203368976712227E-1  -3.186403959989548E-2   7.534455060958862E-1   2.370131611824036E-1  
 7.489489489489490E8     7.735265493392944E-1   1.735975593328476E-1   1.236876770853996E-1  -3.927645832300186E-2   1.239351332187653E-1  -3.870205208659172E-2   7.515293359756470E-1   2.185749262571335E-1  
 7.513513513513514E8     7.742068767547607E-1   1.555364578962326E-1   1.264434456825256E-1  -4.766601696610451E-2   1.269139796495438E-1  -4.703636094927788E-2   7.495113015174866E-1   2.001970559358597E-1  
 7.537537537537538E8     7.759268879890442E-1   1.349584609270096E-1   1.276554167270660E-1  -5.685973167419434E-2   1.282357722520828E-1  -5.606278777122498E-2   7.484251856803894E-1   1.807966381311417E-1  
 7.561561561561562E8     7.760131955146790E-1   1.126580014824867E-1   1.280610114336014E-1  -6.490172445774078E-2   1.280996501445770E-1  -6.452997028827667E-2   7.480000853538513E-1   1.602544635534287E-1  
 7.585585585585586E8     7.739251255989075E-1   9.296326339244843E-2   1.291633546352387E-1  -7.294566929340363E-2   1.284913271665573E-1  -7.254210859537125E-2   7.471937537193298E-1   1.406168192625046E-1  
 7.609609609609610E8     7.708544135093689E-1   7.422515004873276E-2   1.300667077302933E-1  -8.203774690628052E-2   1.290697306394577E-1  -8.135340362787247E-2   7.441619634628296E-1   1.220081672072411E-1  
 7.633633633633634E8     7.686499953269959E-1   5.563348159193993E-2   1.300830841064453E-1  -9.179212898015976E-2   1.294082701206207E-1  -9.071321040391922E-2   7.409163117408752E-1   1.034015268087387E-1  
 7.657657657657658E8     7.671806216239929E-1   3.675640374422073E-2   1.298061758279800E-1  -1.018871590495110E-1   1.296074986457825E-1  -1.006901338696480E-1   7.376840114593506E-1   8.420780301094055E-2  
 7.681681681681682E8     7.671951651573181E-1   1.851505786180496E-2   1.289655864238739E-1  -1.124514117836952E-1   1.292923092842102E-1  -1.119472905993462E-1   7.343804836273193E-1   6.479114294052124E-2  
 7.705705705705706E8     7.674113512039185E-1   1.773091382347047E-3   1.269447207450867E-1  -1.235502213239670E-1   1.276745945215225E-1  -1.233490332961083E-1   7.305335998535156E-1   4.956213012337685E-2  
 7.729729729729730E8     7.660930752754211E-1  -2.041989564895630E-2   1.231312528252602E-1  -1.340879946947098E-1   1.247467547655106E-1  -1.343581378459930E-1   7.276887297630310E-1   3.165350854396820E-2  
 7.753753753753754E8     7.609840035438538E-1  -4.334743320941925E-2   1.196195110678673E-1  -1.443364471197128E-1   1.214072108268738E-1  -1.448934078216553E-1   7.221581935882568E-1   1.035226043313742E-2  
 7.777777777777778E8     7.532554268836975E-1  -6.512981653213501E-2   1.163073033094406E-1  -1.554689258337021E-1   1.175757125020027E-1  -1.558450311422348E-1   7.129653692245483E-1  -9.923645295202732E-3  
 7.801801801801802E8     7.448916435241699E-1  -8.512236177921295E-2   1.119990646839142E-1  -1.674689799547195E-1   1.123499050736427E-1  -1.670171767473221E-1   7.021507024765015E-1  -2.871711552143097E-2  
 7.825825825825826E8     7.348225712776184E-1  -1.044866442680359E-1   1.062080115079880E-1  -1.789069175720215E-1   1.061916053295136E-1  -1.786780953407288E-1   6.934019327163696E-1  -4.642097279429436E-2  
 7.849849849849850E8     7.256555557250977E-1  -1.240645051002502E-1   1.000718846917152E-1  -1.907081604003906E-1   1.005318686366081E-1  -1.896648854017258E-1   6.840218305587769E-1  -6.304001808166504E-2  
 7.873873873873874E8     7.160002589225769E-1  -1.429831981658936E-1   9.389427304267883E-2  -2.033748775720596E-1   9.433825314044952E-2  -2.019063085317612E-1   6.732597351074219E-1  -8.018928766250610E-2  
 7.897897897897898E8     7.051700949668884E-1  -1.624104976654053E-1   8.632306009531021E-2  -2.176050692796707E-1   8.646808564662933E-2  -2.162969857454300E-1   6.611970067024231E-1  -9.741724282503128E-2  
 7.921921921921922E8     6.941686272621155E-1  -1.829667240381241E-1   7.513085752725601E-2  -2.325376123189926E-1   7.564319670200348E-2  -2.321762889623642E-1   6.494101881980896E-1  -1.134481579065323E-1  
 7.945945945945946E8     6.843789815902710E-1  -2.013393789529800E-1   6.095783039927483E-2  -2.473133057355881E-1   6.227329745888710E-2  -2.467567771673203E-1   6.374174356460571E-1  -1.277904361486435E-1  
 7.969969969969970E8     6.722038388252258E-1  -2.210337817668915E-1   4.429355636239052E-2  -2.591607272624970E-1   4.594749584794045E-2  -2.588796615600586E-1   6.251475811004639E-1  -1.440513730049133E-1  
 7.993993993993994E8     6.560068130493164E-1  -2.405852824449539E-1   2.791801653802395E-2  -2.688377797603607E-1   2.941940911114216E-2  -2.689107954502106E-1   6.098039150238037E-1  -1.614490002393723E-1  
 8.018018018018018E8     6.374491453170776E-1  -2.575410902500153E-1   1.116191968321800E-2  -2.788541316986084E-1   1.164760719984770E-2  -2.790909409523010E-1   5.924069285392761E-1  -1.776387095451355E-1  
 8.042042042042042E8     6.201121807098389E-1  -2.725590169429779E-1  -8.356424048542976E-3  -2.887157797813416E-1  -7.934944704174995E-3  -2.886820733547211E-1   5.749798417091370E-1  -1.923020482063294E-1  
 8.066066066066066E8     6.026321649551392E-1  -2.862621545791626E-1  -3.023155219852924E-2  -2.966348230838776E-1  -2.981147728860378E-2  -2.967804968357086E-1   5.563895106315613E-1  -2.070330381393433E-1  
 8.090090090090090E8     5.849084258079529E-1  -3.003702163696289E-1  -5.391250923275948E-2  -3.019364178180695E-1  -5.353755131363869E-2  -3.022129535675049E-1   5.358793139457703E-1  -2.222241014242172E-1  
 8.114114114114114E8     5.658342242240906E-1  -3.134203851222992E-1  -7.795104384422302E-2  -3.048246800899506E-1  -7.776354253292084E-2  -3.050535619258881E-1   5.114542245864868E-1  -2.364468872547150E-1  
 8.138138138138138E8     5.460920333862305E-1  -3.245516717433929E-1  -1.032112613320351E-1  -3.057013750076294E-1  -1.029110029339790E-1  -3.058295547962189E-1   4.847419559955597E-1  -2.486084550619125E-1  
 8.162162162162162E8     5.271007418632507E-1  -3.336187005043030E-1  -1.292400658130646E-1  -3.036285340785980E-1  -1.287458986043930E-1  -3.036239445209503E-1   4.553196728229523E-1  -2.582974135875702E-1  
 8.186186186186186E8     5.095597505569458E-1  -3.405015170574188E-1  -1.553559154272080E-1  -2.989183068275452E-1  -1.547449827194214E-1  -2.989992499351502E-1   4.249694645404816E-1  -2.633668780326843E-1  
 8.210210210210210E8     4.923412501811981E-1  -3.479684293270111E-1  -1.810449510812759E-1  -2.902640998363495E-1  -1.804651468992233E-1  -2.904712855815888E-1   3.941258192062378E-1  -2.652485966682434E-1  
 8.234234234234234E8     4.748703837394714E-1  -3.562605977058411E-1  -2.051004469394684E-1  -2.781915366649628E-1  -2.044449001550674E-1  -2.784223556518555E-1   3.623111546039581E-1  -2.656415700912476E-1  
