#  HZ   S   RI   R     50.00 
! Rohde & Schwarz ZVB8 2Ports - Version 2.81 - 1145.1010k08 SN: 100113
! Date: 2016-03-31 05:07:29
! Measurements: S11 S21 S12 S22 
! 
 6.000000000000000E8     3.690763562917709E-2   9.336618781089783E-1  -1.222004648298025E-2   7.889544591307640E-3  -1.225051656365395E-2   7.823694497346878E-3  -7.173588871955872E-2   9.468952417373657E-1  
 6.024024024024024E8     5.592476204037666E-2   9.320057034492493E-1  -1.256911177188158E-2   8.600341156125069E-3  -1.263281982392073E-2   8.530564606189728E-3  -5.169974640011787E-2   9.472050070762634E-1  
 6.048048048048048E8     7.543572783470154E-2   9.303591251373291E-1  -1.291894540190697E-2   9.292757138609886E-3  -1.294883061200380E-2   9.275874122977257E-3  -3.188457712531090E-2   9.474143385887146E-1  
 6.072072072072072E8     9.640287607908249E-2   9.273280501365662E-1  -1.332427747547627E-2   1.006121560931206E-2  -1.326148491352797E-2   1.011157967150211E-2  -1.207314059138298E-2   9.471754431724548E-1  
 6.096096096096096E8     1.179633438587189E-1   9.241406917572022E-1  -1.382261980324984E-2   1.095819752663374E-2  -1.383270882070065E-2   1.096737198531628E-2   8.604826405644417E-3   9.464244246482849E-1  
 6.120120120120120E8     1.364047527313232E-1   9.207093715667725E-1  -1.428001280874014E-2   1.207254268229008E-2  -1.434451621025801E-2   1.200861856341362E-2   2.702554501593113E-2   9.453123211860657E-1  
 6.144144144144144E8     1.552290320396423E-1   9.170646071434021E-1  -1.469322480261326E-2   1.328452955931425E-2  -1.466497126966715E-2   1.317955832928419E-2   4.621281847357750E-2   9.442189335823059E-1  
 6.168168168168168E8     1.744391620159149E-1   9.127155542373657E-1  -1.489571295678616E-2   1.459840871393681E-2  -1.492381747812033E-2   1.455663517117500E-2   6.651223450899124E-2   9.424352645874023E-1  
 6.192192192192192E8     1.938847452402115E-1   9.080994129180908E-1  -1.503164879977703E-2   1.589255407452583E-2  -1.501053851097822E-2   1.583234407007694E-2   8.695483207702637E-2   9.397871494293213E-1  
 6.216216216216216E8     2.139168232679367E-1   9.026496410369873E-1  -1.506470143795013E-2   1.719254069030285E-2  -1.511070691049099E-2   1.717410050332546E-2   1.087444275617600E-1   9.364906549453735E-1  
 6.240240240240240E8     2.347116619348526E-1   8.966336846351624E-1  -1.519009191542864E-2   1.848702505230904E-2  -1.520659960806370E-2   1.845240779221058E-2   1.307156234979630E-1   9.323290586471558E-1  
 6.264264264264264E8     2.548229098320007E-1   8.897261023521423E-1  -1.535346638411284E-2   1.985384337604046E-2  -1.544557977467775E-2   1.980380527675152E-2   1.523740291595459E-1   9.280019402503967E-1  
 6.288288288288288E8     2.744727134704590E-1   8.822003006935120E-1  -1.561448816210032E-2   2.138060145080090E-2  -1.573318243026733E-2   2.136879041790962E-2   1.735571771860123E-1   9.228469729423523E-1  
 6.312312312312312E8     2.937966585159302E-1   8.735979199409485E-1  -1.597505994141102E-2   2.321966364979744E-2  -1.600605994462967E-2   2.318794466555119E-2   1.942101418972015E-1   9.173778295516968E-1  
 6.336336336336336E8     3.129092752933502E-1   8.646410703659058E-1  -1.616562344133854E-2   2.539657801389694E-2  -1.618822850286961E-2   2.538921870291233E-2   2.145145386457443E-1   9.112427234649658E-1  
 6.360360360360360E8     3.313042819499970E-1   8.549082279205322E-1  -1.593514904379845E-2   2.780189365148544E-2  -1.593822427093983E-2   2.773798629641533E-2   2.343699932098389E-1   9.041452407836914E-1  
 6.384384384384384E8     3.493580222129822E-1   8.456925153732300E-1  -1.550663355737925E-2   3.012586757540703E-2  -1.555929891765118E-2   3.001696430146694E-2   2.555764615535736E-1   8.970773220062256E-1  
 6.408408408408408E8     3.675900697708130E-1   8.353284597396851E-1  -1.500345673412085E-2   3.262250497937203E-2  -1.508633047342300E-2   3.257368505001068E-2   2.765527367591858E-1   8.890747427940369E-1  
 6.432432432432432E8     3.853443264961243E-1   8.233789205551148E-1  -1.425858587026596E-2   3.541333228349686E-2  -1.433902513235807E-2   3.536451980471611E-2   2.975755333900452E-1   8.797962069511414E-1  
 6.456456456456456E8     4.027553200721741E-1   8.106352090835571E-1  -1.306909229606390E-2   3.826141729950905E-2  -1.312377862632275E-2   3.819437697529793E-2   3.180086612701416E-1   8.693919181823731E-1  
 6.480480480480480E8     4.194021224975586E-1   7.972599267959595E-1  -1.150801312178373E-2   4.110584408044815E-2  -1.147188991308212E-2   4.102832823991776E-2   3.381979167461395E-1   8.587040901184082E-1  
 6.504504504504504E8     4.352656900882721E-1   7.853535413742065E-1  -9.632650762796402E-3   4.374623298645020E-2  -9.585753083229065E-3   4.374248534440994E-2   3.590117692947388E-1   8.482804894447327E-1  
 6.528528528528528E8     4.503968060016632E-1   7.731505632400513E-1  -7.576630450785160E-3   4.624944180250168E-2  -7.544939871877432E-3   4.620998725295067E-2   3.789688944816589E-1   8.375211954116821E-1  
 6.552552552552552E8     4.651945233345032E-1   7.601990699768066E-1  -5.472362507134676E-3   4.865315183997154E-2  -5.443248897790909E-3   4.853865131735802E-2   3.977375924587250E-1   8.260132670402527E-1  
 6.576576576576576E8     4.793508052825928E-1   7.460248470306397E-1  -3.300442826002836E-3   5.129137635231018E-2  -3.328003687784076E-3   5.119781941175461E-2   4.160793423652649E-1   8.131467103958130E-1  
 6.600600600600600E8     4.942425787448883E-1   7.303482890129089E-1  -6.365329609252513E-4   5.418764799833298E-2  -7.983098621480167E-4   5.408076196908951E-2   4.348348677158356E-1   7.981742620468140E-1  
 6.624624624624624E8     5.077260136604309E-1   7.164640426635742E-1   2.507383702322841E-3   5.687209963798523E-2   2.315325429663062E-3   5.677134543657303E-2   4.534591734409332E-1   7.844670414924622E-1  
 6.648648648648648E8     5.202422738075256E-1   7.019963264465332E-1   5.715396255254746E-3   5.936780944466591E-2   5.470782984048128E-3   5.936781689524651E-2   4.709892570972443E-1   7.704279422760010E-1  
 6.672672672672672E8     5.320088863372803E-1   6.865809559822083E-1   9.443805553019047E-3   6.220309063792229E-2   9.173397906124592E-3   6.213657557964325E-2   4.878070950508118E-1   7.559263706207275E-1  
 6.696696696696696E8     5.427479743957520E-1   6.700775623321533E-1   1.378087978810072E-2   6.505240499973297E-2   1.350040547549725E-2   6.494693458080292E-2   5.032879710197449E-1   7.404888868331909E-1  
 6.720720720720720E8     5.527318716049194E-1   6.532739996910095E-1   1.881688833236694E-2   6.727056950330734E-2   1.869637705385685E-2   6.719069182872772E-2   5.184741616249085E-1   7.246571183204651E-1  
 6.744744744744744E8     5.609623193740845E-1   6.386862993240356E-1   2.450992166996002E-2   6.899707764387131E-2   2.430880255997181E-2   6.895232945680618E-2   5.338557958602905E-1   7.089991569519043E-1  
 6.768768768768768E8     5.689544081687927E-1   6.247484087944031E-1   3.055472858250141E-2   6.991018354892731E-2   3.037090972065926E-2   6.989195942878723E-2   5.481430888175964E-1   6.931342482566834E-1  
 6.792792792792792E8     5.768317580223084E-1   6.115892529487610E-1   3.645024821162224E-2   6.993301957845688E-2   3.631913661956787E-2   6.995855271816254E-2   5.622835755348206E-1   6.772036552429199E-1  
 6.816816816816816E8     5.856461524963379E-1   5.983973741531372E-1   4.216687753796578E-2   6.956192851066589E-2   4.198320955038071E-2   6.948642432689667E-2   5.763807296752930E-1   6.601567864418030E-1  
 6.840840840840840E8     5.945993065834045E-1   5.850233435630798E-1   4.771854355931282E-2   6.877944618463516E-2   4.743062332272530E-2   6.869377940893173E-2   5.900287032127380E-1   6.425856947898865E-1  
 6.864864864864864E8     6.032910943031311E-1   5.710931420326233E-1   5.292622372508049E-2   6.776978820562363E-2   5.248237028717995E-2   6.782430410385132E-2   6.022967696189880E-1   6.257683634757996E-1  
 6.888888888888888E8     6.122671961784363E-1   5.568504929542542E-1   5.805272608995438E-2   6.668695062398911E-2   5.741225928068161E-2   6.701862066984177E-2   6.145449876785278E-1   6.072472333908081E-1  
 6.912912912912912E8     6.200020313262940E-1   5.416628718376160E-1   6.348218023777008E-2   6.596820801496506E-2   6.276130676269531E-2   6.635572016239166E-2   6.263204216957092E-1   5.880782604217529E-1  
 6.936936936936936E8     6.269610524177551E-1   5.271854400634766E-1   6.943512707948685E-2   6.500672549009323E-2   6.901650875806809E-2   6.529027968645096E-2   6.372862458229065E-1   5.686227679252625E-1  
 6.960960960960960E8     6.335963010787964E-1   5.127038955688477E-1   7.554706186056137E-2   6.350081413984299E-2   7.545362412929535E-2   6.354391574859619E-2   6.478979587554932E-1   5.480331182479858E-1  
 6.984984984984984E8     6.390361189842224E-1   5.001727938652039E-1   8.207085728645325E-2   6.165579706430435E-2   8.281865715980530E-2   6.063818931579590E-2   6.591629981994629E-1   5.249534845352173E-1  
 7.009009009009008E8     6.447243690490723E-1   4.884166717529297E-1   8.859463781118393E-2   5.851506441831589E-2   8.963236957788467E-2   5.661764740943909E-2   6.690867543220520E-1   5.025815963745117E-1  
 7.033033033033032E8     6.512581110000610E-1   4.758894145488739E-1   9.491218626499176E-2   5.466927587985992E-2   9.579662233591080E-2   5.275814980268478E-2   6.764942407608032E-1   4.811139106750488E-1  
 7.057057057057056E8     6.579756140708923E-1   4.632376432418823E-1   1.010885238647461E-1   4.986928030848503E-2   1.014681980013847E-1   4.886651039123535E-2   6.813981533050537E-1   4.617430865764618E-1  
 7.081081081081080E8     6.661489009857178E-1   4.489831626415253E-1   1.069685369729996E-1   4.435941204428673E-2   1.067321971058846E-1   4.466868564486504E-2   6.860021948814392E-1   4.410918354988098E-1  
 7.105105105105104E8     6.749813556671143E-1   4.361501932144165E-1   1.124571859836578E-1   3.836656361818314E-2   1.117422282695770E-1   4.003500193357468E-2   6.896154880523682E-1   4.218377172946930E-1  
 7.129129129129129E8     6.838595867156982E-1   4.231011569499970E-1   1.166374161839485E-1   3.289813920855522E-2   1.159809678792954E-1   3.496441245079041E-2   6.940314769744873E-1   4.005449712276459E-1  
 7.153153153153153E8     6.922805905342102E-1   4.093785285949707E-1   1.210662946105003E-1   2.856014482676983E-2   1.206556856632233E-1   3.001843206584454E-2   6.985247731208801E-1   3.755827844142914E-1  
 7.177177177177178E8     7.002930641174316E-1   3.946096897125244E-1   1.265030056238174E-1   2.378452941775322E-2   1.263653188943863E-1   2.435757033526897E-2   7.008894085884094E-1   3.492540121078491E-1  
 7.201201201201202E8     7.094753980636597E-1   3.789408206939697E-1   1.320181488990784E-1   1.728634163737297E-2   1.318773776292801E-1   1.754632592201233E-2   7.017914056777954E-1   3.233753144741058E-1  
 7.225225225225226E8     7.183302044868469E-1   3.635731339454651E-1   1.366054564714432E-1   1.047218218445778E-2   1.364478170871735E-1   1.040571276098490E-2   7.015445828437805E-1   2.988654375076294E-1  
 7.249249249249250E8     7.270922064781189E-1   3.456540107727051E-1   1.410185396671295E-1   2.734630135819316E-3   1.407634615898132E-1   4.455351270735264E-3   6.992209553718567E-1   2.761734127998352E-1  
 7.273273273273274E8     7.348875403404236E-1   3.270833194255829E-1   1.457461714744568E-1  -4.833465442061424E-3   1.455644965171814E-1  -1.901946729049087E-3   6.952509284019470E-1   2.529882192611694E-1  
 7.297297297297298E8     7.409152388572693E-1   3.094645738601685E-1   1.509959846735001E-1  -1.259173080325127E-2   1.510024219751358E-1  -9.846422821283341E-3   6.900029182434082E-1   2.302035093307495E-1  
 7.321321321321322E8     7.460328936576843E-1   2.938396632671356E-1   1.560408174991608E-1  -2.084430679678917E-2   1.559943705797195E-1  -2.037929743528366E-2   6.842297911643982E-1   2.080275863409042E-1  
 7.345345345345346E8     7.517396211624146E-1   2.787690162658691E-1   1.600671410560608E-1  -3.051543794572353E-2   1.597284972667694E-1  -3.091079927980900E-2   6.780242323875427E-1   1.882924437522888E-1  
 7.369369369369370E8     7.578235864639282E-1   2.612682282924652E-1   1.633463948965073E-1  -4.099833220243454E-2   1.628367900848389E-1  -4.210290685296059E-2   6.715715527534485E-1   1.684185713529587E-1  
 7.393393393393394E8     7.636409401893616E-1   2.425174117088318E-1   1.655772179365158E-1  -5.222930759191513E-2   1.650308519601822E-1  -5.343880504369736E-2   6.646926999092102E-1   1.486875861883164E-1  
 7.417417417417418E8     7.688895463943481E-1   2.222553491592407E-1   1.669020503759384E-1  -6.401826441287994E-2   1.666338145732880E-1  -6.462546437978745E-2   6.568617820739746E-1   1.293073445558548E-1  
 7.441441441441442E8     7.729548811912537E-1   2.005200386047363E-1   1.676386892795563E-1  -7.626311480998993E-2   1.679261922836304E-1  -7.554740458726883E-2   6.485264897346497E-1   1.112854033708572E-1  
 7.465465465465466E8     7.750684022903442E-1   1.832750290632248E-1   1.686171591281891E-1  -8.815089613199234E-2   1.691114008426666E-1  -8.750541508197784E-2   6.402558088302612E-1   9.580769389867783E-2  
 7.489489489489490E8     7.770465612411499E-1   1.655700057744980E-1   1.686350554227829E-1  -1.011794582009316E-1   1.693065017461777E-1  -1.003842726349831E-1   6.325421333312988E-1   8.127155900001526E-2  
 7.513513513513514E8     7.789538502693176E-1   1.462317854166031E-1   1.670600622892380E-1  -1.147010326385498E-1   1.679864674806595E-1  -1.139678657054901E-1   6.257222890853882E-1   6.490076333284378E-2  
 7.537537537537538E8     7.808220982551575E-1   1.231870055198669E-1   1.639983505010605E-1  -1.284405887126923E-1   1.652391552925110E-1  -1.274555772542954E-1   6.183673143386841E-1   4.576670005917549E-2  
 7.561561561561562E8     7.804702520370483E-1   9.975208342075348E-2   1.610026359558106E-1  -1.414132267236710E-1   1.612871736288071E-1  -1.407475173473358E-1   6.097884774208069E-1   2.568366192281246E-2  
 7.585585585585586E8     7.776802778244019E-1   7.895889878273010E-2   1.580830216407776E-1  -1.550212800502777E-1   1.575305610895157E-1  -1.540781557559967E-1   5.996103286743164E-1   7.431293837726116E-3  
 7.609609609609610E8     7.747408151626587E-1   5.960939079523087E-2   1.540427953004837E-1  -1.702157855033875E-1   1.532306075096130E-1  -1.688494980335236E-1   5.872220993041992E-1  -9.273565374314785E-3  
 7.633633633633634E8     7.722910046577454E-1   4.073411226272583E-2   1.478050351142883E-1  -1.861272007226944E-1   1.473400890827179E-1  -1.841533184051514E-1   5.743340253829956E-1  -2.523273043334484E-2  
 7.657657657657658E8     7.718327641487122E-1   2.056291140615940E-2   1.395794749259949E-1  -2.017853111028671E-1   1.399560868740082E-1  -1.999611854553223E-1   5.609908103942871E-1  -4.146361351013184E-2  
 7.681681681681682E8     7.718610763549805E-1  -6.768375751562417E-4   1.301995962858200E-1  -2.163397371768951E-1   1.310841441154480E-1  -2.156506478786469E-1   5.473400354385376E-1  -5.797555297613144E-2  
 7.705705705705706E8     7.710683345794678E-1  -2.084531821310520E-2   1.204845011234283E-1  -2.306524217128754E-1   1.219751760363579E-1  -2.303720861673355E-1   5.325270295143127E-1  -7.054153084754944E-2  
 7.729729729729730E8     7.669461965560913E-1  -4.457550123333931E-2   1.087595820426941E-1  -2.449803650379181E-1   1.111788153648377E-1  -2.458688616752625E-1   5.172034502029419E-1  -8.388409763574600E-2  
 7.753753753753754E8     7.590535879135132E-1  -6.843367964029312E-2   9.606812894344330E-2  -2.594279944896698E-1   9.836483746767044E-2  -2.610757946968079E-1   4.998372793197632E-1  -9.814870357513428E-2  
 7.777777777777778E8     7.500798106193543E-1  -9.095743298530579E-2   8.144310116767883E-2  -2.748079299926758E-1   8.307322114706039E-2  -2.759064137935638E-1   4.796895682811737E-1  -1.108658388257027E-1  
 7.801801801801802E8     7.401846051216126E-1  -1.119427680969238E-1   6.412091851234436E-2  -2.895290553569794E-1   6.480900198221207E-2  -2.889773547649384E-1   4.586351215839386E-1  -1.221994161605835E-1  
 7.825825825825826E8     7.281849384307861E-1  -1.323865503072739E-1   4.455121979117394E-2  -3.019244670867920E-1   4.446909204125404E-2  -3.016693592071533E-1   4.385670721530914E-1  -1.333003342151642E-1  
 7.849849849849850E8     7.170317173004150E-1  -1.534774303436279E-1   2.260721661150456E-2  -3.129970133304596E-1   2.359067089855671E-2  -3.121609389781952E-1   4.164207577705383E-1  -1.433293819427490E-1  
 7.873873873873874E8     7.047767043113709E-1  -1.745909601449966E-1   2.428456646157429E-4  -3.226025104522705E-1   1.646595424972475E-3  -3.209868371486664E-1   3.908479809761047E-1  -1.524570137262344E-1  
 7.897897897897898E8     6.904786825180054E-1  -1.958835273981094E-1  -2.374304831027985E-2  -3.311069011688232E-1  -2.275862172245979E-2  -3.296211063861847E-1   3.623226284980774E-1  -1.592416614294052E-1  
 7.921921921921922E8     6.744134426116943E-1  -2.176973223686218E-1  -5.034753680229187E-2  -3.370817601680756E-1  -4.962524399161339E-2  -3.372253477573395E-1   3.320799171924591E-1  -1.624639928340912E-1  
 7.945945945945946E8     6.585907340049744E-1  -2.358825355768204E-1  -7.935520261526108E-2  -3.419977724552155E-1  -7.735690474510193E-2  -3.420968055725098E-1   3.015467822551727E-1  -1.598578989505768E-1  
 7.969969969969970E8     6.402581334114075E-1  -2.535400986671448E-1  -1.103698760271072E-1  -3.423306643962860E-1  -1.081771478056908E-1  -3.431889414787293E-1   2.712682187557221E-1  -1.553330421447754E-1  
 7.993993993993994E8     6.195557713508606E-1  -2.689753174781799E-1  -1.414012014865875E-1  -3.386977016925812E-1  -1.397302150726318E-1  -3.397490978240967E-1   2.394944429397583E-1  -1.475238502025604E-1  
 8.018018018018018E8     5.981870293617249E-1  -2.821973264217377E-1  -1.730014085769653E-1  -3.309469819068909E-1  -1.724369823932648E-1  -3.316457867622376E-1   2.082875519990921E-1  -1.355518847703934E-1  
 8.042042042042042E8     5.781434178352356E-1  -2.945021688938141E-1  -2.038888633251190E-1  -3.183831572532654E-1  -2.034599483013153E-1  -3.186489939689636E-1   1.774786412715912E-1  -1.199340000748634E-1  
 8.066066066066066E8     5.574644207954407E-1  -3.051505982875824E-1  -2.327151596546173E-1  -3.011775612831116E-1  -2.323488444089890E-1  -3.017890155315399E-1   1.462640464305878E-1  -9.830704331398010E-2  
 8.090090090090090E8     5.369628667831421E-1  -3.147824406623840E-1  -2.581357657909393E-1  -2.805174291133881E-1  -2.579529285430908E-1  -2.810660898685455E-1   1.180409118533135E-1  -6.944660842418671E-2  
 8.114114114114114E8     5.156528353691101E-1  -3.236688375473023E-1  -2.793683111667633E-1  -2.574920356273651E-1  -2.792344987392426E-1  -2.580937445163727E-1   9.547445923089981E-2  -3.501049429178238E-2  
 8.138138138138138E8     4.942141473293304E-1  -3.305445313453674E-1  -2.971611618995667E-1  -2.342518270015717E-1  -2.968872785568237E-1  -2.346586436033249E-1   8.050440251827240E-2   2.676482079550624E-3  
 8.162162162162162E8     4.734056591987610E-1  -3.354948163032532E-1  -3.128442466259003E-1  -2.105940878391266E-1  -3.124521672725678E-1  -2.110060006380081E-1   7.315990328788757E-2   4.100970923900604E-2  
 8.186186186186186E8     4.537676870822907E-1  -3.372570574283600E-1  -3.261802494525909E-1  -1.862463355064392E-1  -3.255660235881805E-1  -1.867221444845200E-1   7.266047596931458E-2   7.908776402473450E-2  
 8.210210210210210E8     4.355986416339874E-1  -3.380155563354492E-1  -3.370896577835083E-1  -1.608887165784836E-1  -3.364625275135040E-1  -1.613988429307938E-1   7.820732146501541E-2   1.141605153679848E-1  
 8.234234234234234E8     4.191807508468628E-1  -3.396911621093750E-1  -3.441181778907776E-1  -1.338742077350617E-1  -3.435710072517395E-1  -1.345362961292267E-1   8.712273836135864E-2   1.458470523357391E-1  
