#  HZ   S   RI   R     50.00 
! Rohde & Schwarz ZVB8 2Ports - Version 2.81 - 1145.1010k08 SN: 100113
! Date: 2016-03-31 05:15:15
! Measurements: S11 S21 S12 S22 
! 
 6.000000000000000E8     2.661156281828880E-2   9.366924762725830E-1  -1.546027138829231E-2   9.969916194677353E-3  -1.557351369410753E-2   9.902101941406727E-3  -3.637266531586647E-2   9.450541734695435E-1  
 6.024024024024024E8     4.558232426643372E-2   9.350350499153137E-1  -1.595727168023586E-2   1.089223846793175E-2  -1.593386195600033E-2   1.087955664843321E-2  -1.558955945074558E-2   9.444454908370972E-1  
 6.048048048048048E8     6.611590087413788E-2   9.333546161651611E-1  -1.636295951902866E-2   1.196681428700686E-2  -1.634818129241467E-2   1.197605673223734E-2   5.539284553378820E-3   9.434643983840942E-1  
 6.072072072072072E8     8.717904984951019E-2   9.304041266441345E-1  -1.679568365216255E-2   1.313293911516666E-2  -1.682787388563156E-2   1.302310917526484E-2   2.606487087905407E-2   9.420050382614136E-1  
 6.096096096096096E8     1.089884117245674E-1   9.267395138740540E-1  -1.721880026161671E-2   1.445879787206650E-2  -1.725393347442150E-2   1.441622339189053E-2   4.735398292541504E-2   9.402401447296143E-1  
 6.120120120120120E8     1.274674385786057E-1   9.230602383613586E-1  -1.787033118307591E-2   1.596469245851040E-2  -1.773576624691486E-2   1.596660166978836E-2   6.672722101211548E-2   9.379218220710754E-1  
 6.144144144144144E8     1.461755782365799E-1   9.189088344573975E-1  -1.806783489882946E-2   1.766465231776238E-2  -1.811950094997883E-2   1.761442609131336E-2   8.711779862642288E-2   9.354364275932312E-1  
 6.168168168168168E8     1.655578464269638E-1   9.141592979431152E-1  -1.814257167279720E-2   1.947947964072228E-2  -1.828743889927864E-2   1.950388960540295E-2   1.084411516785622E-1   9.319460391998291E-1  
 6.192192192192192E8     1.845703572034836E-1   9.089782834053040E-1  -1.809895224869251E-2   2.133922278881073E-2  -1.817319169640541E-2   2.127618528902531E-2   1.297881454229355E-1   9.277417063713074E-1  
 6.216216216216216E8     2.041911035776138E-1   9.033180475234985E-1  -1.780618913471699E-2   2.305149845778942E-2  -1.788525469601154E-2   2.305176295340061E-2   1.524816453456879E-1   9.227500557899475E-1  
 6.240240240240240E8     2.243422120809555E-1   8.970107436180115E-1  -1.771860755980015E-2   2.476626634597778E-2  -1.780439727008343E-2   2.468654885888100E-2   1.754322052001953E-1   9.171062111854553E-1  
 6.264264264264264E8     2.437969446182251E-1   8.901358246803284E-1  -1.766955293715000E-2   2.652369812130928E-2  -1.772337779402733E-2   2.636609785258770E-2   1.987438201904297E-1   9.105844497680664E-1  
 6.288288288288288E8     2.631634473800659E-1   8.827156424522400E-1  -1.777520217001438E-2   2.834276668727398E-2  -1.783646084368229E-2   2.824165299534798E-2   2.209676504135132E-1   9.037611484527588E-1  
 6.312312312312312E8     2.821285128593445E-1   8.745579123497009E-1  -1.793794520199299E-2   3.048735857009888E-2  -1.799484714865685E-2   3.048182837665081E-2   2.428681999444962E-1   8.957918286323547E-1  
 6.336336336336336E8     3.009822666645050E-1   8.661366701126099E-1  -1.805053837597370E-2   3.319882974028587E-2  -1.804703101515770E-2   3.305958583950996E-2   2.645324170589447E-1   8.870118856430054E-1  
 6.360360360360360E8     3.194381296634674E-1   8.567184209823608E-1  -1.775007881224155E-2   3.618325293064117E-2  -1.777838356792927E-2   3.608763590455055E-2   2.859281599521637E-1   8.773767948150635E-1  
 6.384384384384384E8     3.375164568424225E-1   8.473026156425476E-1  -1.710437238216400E-2   3.934182971715927E-2  -1.718905754387379E-2   3.921863436698914E-2   3.081144094467163E-1   8.670854568481445E-1  
 6.408408408408408E8     3.556176126003265E-1   8.367979526519775E-1  -1.623789779841900E-2   4.261272028088570E-2  -1.629058644175530E-2   4.247890412807465E-2   3.302308917045593E-1   8.556609749794006E-1  
 6.432432432432432E8     3.733459711074829E-1   8.253889083862305E-1  -1.498422212898731E-2   4.615322127938271E-2  -1.509846560657024E-2   4.604300856590271E-2   3.521401286125183E-1   8.429457545280457E-1  
 6.456456456456456E8     3.905948102474213E-1   8.124270439147949E-1  -1.334287226200104E-2   4.978067800402641E-2  -1.347463019192219E-2   4.969478398561478E-2   3.733663856983185E-1   8.292955160140991E-1  
 6.480480480480480E8     4.073745310306549E-1   7.990933060646057E-1  -1.126607973128557E-2   5.370138958096504E-2  -1.141377817839384E-2   5.363530665636063E-2   3.945507407188416E-1   8.141970038414002E-1  
 6.504504504504504E8     4.230194985866547E-1   7.867813706398010E-1  -8.649115450680256E-3   5.758062750101090E-2  -8.653888478875160E-3   5.749873444437981E-2   4.157222509384155E-1   7.993903160095215E-1  
 6.528528528528528E8     4.376564323902130E-1   7.739245891571045E-1  -5.506440065801144E-3   6.139843910932541E-2  -5.537268240004778E-3   6.130245327949524E-2   4.354954957962036E-1   7.840996980667114E-1  
 6.552552552552552E8     4.515997171401978E-1   7.605189085006714E-1  -1.968251541256905E-3   6.522297859191895E-2  -2.001408487558365E-3   6.507702171802521E-2   4.543390572071075E-1   7.674937844276428E-1  
 6.576576576576576E8     4.639523029327393E-1   7.461340427398682E-1   2.313199220225215E-3   6.948223710060120E-2   2.300690161064267E-3   6.930387020111084E-2   4.716036021709442E-1   7.490137815475464E-1  
 6.600600600600600E8     4.762119352817535E-1   7.309551239013672E-1   8.411200717091560E-3   7.309219241142273E-2   8.383085019886494E-3   7.301707565784454E-2   4.878668189048767E-1   7.286893725395203E-1  
 6.624624624624624E8     4.870738387107849E-1   7.197784781455994E-1   1.527432631701231E-2   7.502143085002899E-2   1.489036995917559E-2   7.485124468803406E-2   5.035231709480286E-1   7.112313508987427E-1  
 6.648648648648648E8     4.987785816192627E-1   7.086149454116821E-1   2.089333347976208E-2   7.558845728635788E-2   2.062642574310303E-2   7.544125616550446E-2   5.192942619323731E-1   6.940944194793701E-1  
 6.672672672672672E8     5.105208158493042E-1   6.963306665420532E-1   2.610410191118717E-2   7.646957039833069E-2   2.577081695199013E-2   7.643846422433853E-2   5.344742536544800E-1   6.760538816452026E-1  
 6.696696696696696E8     5.223787426948547E-1   6.833625435829163E-1   3.149854391813278E-2   7.746560126543045E-2   3.113360330462456E-2   7.727062702178955E-2   5.489892363548279E-1   6.569941639900208E-1  
 6.720720720720720E8     5.344913005828857E-1   6.696946024894714E-1   3.709416836500168E-2   7.795470952987671E-2   3.684133663773537E-2   7.786688953638077E-2   5.625646710395813E-1   6.368610858917236E-1  
 6.744744744744744E8     5.455816388130188E-1   6.576698422431946E-1   4.257236421108246E-2   7.819700986146927E-2   4.237191379070282E-2   7.811850309371948E-2   5.767055749893189E-1   6.167626976966858E-1  
 6.768768768768768E8     5.568487644195557E-1   6.448820233345032E-1   4.801284521818161E-2   7.852742820978165E-2   4.771208390593529E-2   7.841073721647263E-2   5.898897051811218E-1   5.954098105430603E-1  
 6.792792792792792E8     5.677224993705750E-1   6.323478221893311E-1   5.362569168210030E-2   7.868231087923050E-2   5.339744314551354E-2   7.860162854194641E-2   6.020024418830872E-1   5.727967619895935E-1  
 6.816816816816816E8     5.792878866195679E-1   6.193540096282959E-1   5.923545733094215E-2   7.870981097221375E-2   5.886430665850639E-2   7.867097854614258E-2   6.131345033645630E-1   5.489249229431152E-1  
 6.840840840840840E8     5.911592245101929E-1   6.052458882331848E-1   6.500541418790817E-2   7.926107943058014E-2   6.466841697692871E-2   7.932103425264359E-2   6.227349638938904E-1   5.228242874145508E-1  
 6.864864864864864E8     6.021270155906677E-1   5.904825329780579E-1   7.164432853460312E-2   7.995423674583435E-2   7.105125486850739E-2   8.000157028436661E-2   6.282389760017395E-1   4.976003170013428E-1  
 6.888888888888888E8     6.131275296211243E-1   5.756263136863709E-1   7.905931025743485E-2   8.010748773813248E-2   7.815936952829361E-2   8.055512607097626E-2   6.323744058609009E-1   4.723598062992096E-1  
 6.912912912912912E8     6.239033937454224E-1   5.600226521492004E-1   8.684271574020386E-2   8.035320788621903E-2   8.589030057191849E-2   8.096203207969666E-2   6.349767446517944E-1   4.469430744647980E-1  
 6.936936936936936E8     6.336218714714050E-1   5.431583523750305E-1   9.547541290521622E-2   8.085276931524277E-2   9.490443766117096E-2   8.137048780918121E-2   6.361817717552185E-1   4.216001033782959E-1  
 6.960960960960960E8     6.425617933273315E-1   5.252196788787842E-1   1.061129420995712E-1   8.123993873596191E-2   1.059627458453178E-1   8.133564889431000E-2   6.346402168273926E-1   3.953914046287537E-1  
 6.984984984984984E8     6.490557193756104E-1   5.090367794036865E-1   1.187449619174004E-1   8.014797419309616E-2   1.195626556873322E-1   7.869657874107361E-2   6.310151219367981E-1   3.702006936073303E-1  
 7.009009009009008E8     6.547211408615112E-1   4.927096366882324E-1   1.319567859172821E-1   7.632490992546082E-2   1.333352178335190E-1   7.353296130895615E-2   6.265456676483154E-1   3.477648496627808E-1  
 7.033033033033032E8     6.590527892112732E-1   4.763640165328980E-1   1.465478986501694E-1   7.020095735788345E-2   1.475710123777390E-1   6.733603775501251E-2   6.197259426116943E-1   3.280276060104370E-1  
 7.057057057057056E8     6.625394821166992E-1   4.611716568470001E-1   1.614593416452408E-1   5.998030304908752E-2   1.617684066295624E-1   5.831152200698853E-2   6.103647947311401E-1   3.141008019447327E-1  
 7.081081081081080E8     6.669675111770630E-1   4.462762176990509E-1   1.748798042535782E-1   4.553034156560898E-2   1.744796186685562E-1   4.600472003221512E-2   6.032747030258179E-1   3.026350140571594E-1  
 7.105105105105104E8     6.732107400894165E-1   4.337272346019745E-1   1.848129183053970E-1   2.880251966416836E-2   1.841468214988709E-1   3.169280290603638E-2   6.002575755119324E-1   2.937963008880615E-1  
 7.129129129129129E8     6.793596148490906E-1   4.215674102306366E-1   1.918721497058868E-1   1.313658710569143E-2   1.915909200906754E-1   1.659293659031391E-2   6.005673408508301E-1   2.803688347339630E-1  
 7.153153153153153E8     6.851798295974731E-1   4.095033109188080E-1   1.984075158834457E-1  -2.358466619625688E-3   1.983448266983032E-1   7.341650780290365E-5   5.999260544776917E-1   2.638384103775024E-1  
 7.177177177177178E8     6.921611428260803E-1   3.974022269248962E-1   2.032976299524307E-1  -1.980247348546982E-2   2.032452672719955E-1  -1.882625557482243E-2   6.001281738281250E-1   2.472723424434662E-1  
 7.201201201201202E8     7.010172009468079E-1   3.840692043304443E-1   2.052499204874039E-1  -3.882144019007683E-2   2.050823867321014E-1  -3.831175714731216E-2   6.024811267852783E-1   2.300231754779816E-1  
 7.225225225225226E8     7.106348872184753E-1   3.710011839866638E-1   2.038114666938782E-1  -5.692616477608681E-2   2.035735249519348E-1  -5.685454234480858E-2   6.069424152374268E-1   2.106625139713287E-1  
 7.249249249249250E8     7.209885120391846E-1   3.553616404533386E-1   2.000200599431992E-1  -7.438519597053528E-2   2.005068808794022E-1  -7.181797921657562E-2   6.097846031188965E-1   1.880566179752350E-1  
 7.273273273273274E8     7.308829426765442E-1   3.378121852874756E-1   1.957433819770813E-1  -8.986539393663406E-2   1.972414851188660E-1  -8.556637167930603E-2   6.089335083961487E-1   1.610227674245834E-1  
 7.297297297297298E8     7.396186590194702E-1   3.209196031093597E-1   1.922807991504669E-1  -1.036140322685242E-1   1.937337517738342E-1  -1.001246571540833E-1   6.034694910049439E-1   1.325801759958267E-1  
 7.321321321321322E8     7.472997903823853E-1   3.041968047618866E-1   1.890544891357422E-1  -1.166843324899674E-1   1.890898644924164E-1  -1.158863529562950E-1   5.948786139488220E-1   1.046113297343254E-1  
 7.345345345345346E8     7.548663020133972E-1   2.876643240451813E-1   1.841300576925278E-1  -1.308655142784119E-1   1.835746765136719E-1  -1.310279369354248E-1   5.846592783927918E-1   7.904235273599625E-2  
 7.369369369369370E8     7.627770900726318E-1   2.687658071517944E-1   1.775514632463455E-1  -1.442388445138931E-1   1.762759387493134E-1  -1.452076435089111E-1   5.725538134574890E-1   5.181683599948883E-2  
 7.393393393393394E8     7.699502706527710E-1   2.476951330900192E-1   1.702569574117661E-1  -1.570945531129837E-1   1.690058708190918E-1  -1.581449061632156E-1   5.563662052154541E-1   2.380072511732578E-2  
 7.417417417417418E8     7.757663130760193E-1   2.249633818864822E-1   1.625780463218689E-1  -1.697122752666473E-1   1.619732081890106E-1  -1.701022088527679E-1   5.352517962455750E-1  -2.562624868005514E-3  
 7.441441441441442E8     7.799820303916931E-1   2.011749148368835E-1   1.545578837394714E-1  -1.825268566608429E-1   1.552169471979141E-1  -1.818248033523560E-1   5.097773075103760E-1  -2.579282224178314E-2  
 7.465465465465466E8     7.824825644493103E-1   1.819978654384613E-1   1.472194045782089E-1  -1.952383369207382E-1   1.481875926256180E-1  -1.945815980434418E-1   4.818180799484253E-1  -4.245961830019951E-2  
 7.489489489489490E8     7.844980955123901E-1   1.616771221160889E-1   1.384953707456589E-1  -2.086265683174133E-1   1.399103701114655E-1  -2.080189883708954E-1   4.535016715526581E-1  -5.357658118009567E-2  
 7.513513513513514E8     7.860304713249207E-1   1.392835378646851E-1   1.277410835027695E-1  -2.222406417131424E-1   1.293926090002060E-1  -2.217599004507065E-1   4.263876676559448E-1  -6.222912296652794E-2  
 7.537537537537538E8     7.874163389205933E-1   1.139522120356560E-1   1.146358326077461E-1  -2.351769953966141E-1   1.166445389389992E-1  -2.347309440374374E-1   4.000822901725769E-1  -7.005847245454788E-2  
 7.561561561561562E8     7.863329052925110E-1   8.745115995407105E-2   1.017514541745186E-1  -2.467474043369293E-1   1.026950106024742E-1  -2.459475100040436E-1   3.737048506736755E-1  -7.573273777961731E-2  
 7.585585585585586E8     7.822248935699463E-1   6.344497948884964E-2   8.840625733137131E-2  -2.585898041725159E-1   8.845243602991104E-2  -2.571682035923004E-1   3.487709164619446E-1  -7.624434679746628E-2  
 7.609609609609610E8     7.765671014785767E-1   4.029681533575058E-2   7.308643311262131E-2  -2.701037228107452E-1   7.305403053760529E-2  -2.679916322231293E-1   3.259749412536621E-1  -7.455811649560928E-2  
 7.633633633633634E8     7.706766128540039E-1   1.781399548053742E-2   5.604868009686470E-2  -2.806416749954224E-1   5.689636245369911E-2  -2.781243622303009E-1   3.039825856685638E-1  -7.421255111694336E-2  
 7.657657657657658E8     7.655410766601563E-1  -4.482501652091742E-3   3.786058723926544E-2  -2.902480661869049E-1   3.949775919318199E-2  -2.883689403533936E-1   2.808891236782074E-1  -7.335855811834335E-2  
 7.681681681681682E8     7.605392932891846E-1  -2.658452093601227E-2   1.845937967300415E-2  -2.982571125030518E-1   2.007541060447693E-2  -2.978895604610443E-1   2.585082054138184E-1  -7.139194011688232E-2  
 7.705705705705706E8     7.556639313697815E-1  -4.690016061067581E-2  -1.697882777079940E-3  -3.045297861099243E-1   3.070534730795771E-4  -3.049338161945343E-1   2.353544384241104E-1  -6.618147343397141E-2  
 7.729729729729730E8     7.472165226936340E-1  -7.141824066638947E-2  -2.244127914309502E-2  -3.080240786075592E-1  -2.010263688862324E-2  -3.103526532649994E-1   2.103712111711502E-1  -5.913410335779190E-2  
 7.753753753753754E8     7.348645329475403E-1  -9.612393379211426E-2  -4.251219704747200E-2  -3.117945194244385E-1  -4.073370620608330E-2  -3.146800398826599E-1   1.853746175765991E-1  -4.727685451507568E-2  
 7.777777777777778E8     7.198563218116760E-1  -1.181077733635902E-1  -6.425859779119492E-2  -3.156248927116394E-1  -6.347999721765518E-2  -3.175285160541534E-1   1.638810336589813E-1  -3.264477849006653E-2  
 7.801801801801802E8     7.040060758590698E-1  -1.382981985807419E-1  -8.752661943435669E-2  -3.174126148223877E-1  -8.663805574178696E-2  -3.172315061092377E-1   1.446482390165329E-1  -1.832151412963867E-2  
 7.825825825825826E8     6.859948635101318E-1  -1.570421904325485E-1  -1.110667735338211E-1  -3.167608678340912E-1  -1.110811531543732E-1  -3.164790272712708E-1   1.262912601232529E-1  -2.713704016059637E-3  
 7.849849849849850E8     6.677227616310120E-1  -1.751629412174225E-1  -1.358776241540909E-1  -3.147758543491364E-1  -1.346509158611298E-1  -3.142401278018951E-1   1.084528490900993E-1   1.571371965110302E-2  
 7.873873873873874E8     6.481557488441467E-1  -1.917999237775803E-1  -1.615258753299713E-1  -3.113584518432617E-1  -1.594673097133637E-1  -3.103102445602417E-1   9.140482544898987E-2   3.614746034145355E-2  
 7.897897897897898E8     6.268428564071655E-1  -2.070658057928085E-1  -1.878282725811005E-1  -3.052045106887817E-1  -1.862616986036301E-1  -3.042174875736237E-1   7.734841853380203E-2   5.965946987271309E-2  
 7.921921921921922E8     6.047237515449524E-1  -2.207821011543274E-1  -2.149812132120132E-1  -2.957045733928680E-1  -2.143139839172363E-1  -2.961938083171845E-1   6.709712743759155E-2   8.345457911491394E-2  
 7.945945945945946E8     5.834791064262390E-1  -2.301298826932907E-1  -2.430898845195770E-1  -2.833999991416931E-1  -2.412682175636292E-1  -2.846371531486511E-1   5.871457606554031E-2   1.069713309407234E-1  
 7.969969969969970E8     5.608793497085571E-1  -2.375088930130005E-1  -2.701321542263031E-1  -2.668612003326416E-1  -2.684560418128967E-1  -2.686758935451508E-1   5.044037476181984E-2   1.297299712896347E-1  
 7.993993993993994E8     5.373362302780151E-1  -2.416099905967712E-1  -2.951740026473999E-1  -2.471538931131363E-1  -2.941060364246368E-1  -2.489208877086639E-1   4.212847724556923E-2   1.549766808748245E-1  
 8.018018018018018E8     5.137831568717957E-1  -2.420680373907089E-1  -3.188587427139282E-1  -2.245194315910339E-1  -3.186800479888916E-1  -2.253635674715042E-1   3.720627352595329E-2   1.819007843732834E-1  
 8.042042042042042E8     4.943784773349762E-1  -2.391627728939056E-1  -3.416045010089874E-1  -1.974038481712341E-1  -3.410224318504334E-1  -1.980699300765991E-1   3.265673294663429E-2   2.093680948019028E-1  
 8.066066066066066E8     4.788722991943359E-1  -2.336746454238892E-1  -3.598124384880066E-1  -1.653296947479248E-1  -3.594753146171570E-1  -1.661256551742554E-1   3.065115213394165E-2   2.406063377857208E-1  
 8.090090090090090E8     4.675326943397522E-1  -2.290890514850617E-1  -3.717125058174133E-1  -1.307145953178406E-1  -3.716148138046265E-1  -1.314263790845871E-1   3.252630680799484E-2   2.740233242511749E-1  
 8.114114114114114E8     4.583443701267242E-1  -2.266403287649155E-1  -3.775812387466431E-1  -9.660934656858444E-2  -3.775159120559692E-1  -9.713236242532730E-2   3.950410336256027E-2   3.081566691398621E-1  
 8.138138138138138E8     4.499389827251434E-1  -2.251909375190735E-1  -3.789365589618683E-1  -6.378574669361115E-2  -3.788403868675232E-1  -6.420337408781052E-2   5.146575346589088E-2   3.419348895549774E-1  
 8.162162162162162E8     4.427318274974823E-1  -2.239578366279602E-1  -3.764087557792664E-1  -3.315827623009682E-2  -3.761700987815857E-1  -3.365724533796310E-2   6.956168264150620E-2   3.747071623802185E-1  
 8.186186186186186E8     4.370311200618744E-1  -2.223951667547226E-1  -3.717190325260162E-1  -4.877018742263317E-3  -3.710168004035950E-1  -5.570275243371725E-3   9.248202294111252E-2   4.035787284374237E-1  
 8.210210210210210E8     4.325025379657745E-1  -2.222198694944382E-1  -3.641659021377564E-1   2.207389473915100E-2  -3.637630939483643E-1   2.129067480564117E-2   1.182280108332634E-1   4.283953905105591E-1  
 8.234234234234234E8     4.280335307121277E-1  -2.252889275550842E-1  -3.536442220211029E-1   4.713848233222961E-2  -3.533186614513397E-1   4.628388211131096E-2   1.462080627679825E-1   4.495925605297089E-1  
