#  HZ   S   RI   R     50.00 
! Rohde & Schwarz ZVB8 2Ports - Version 2.81 - 1145.1010k08 SN: 100113
! Date: 2016-03-31 04:42:41
! Measurements: S11 S21 S12 S22 
! 
 6.000000000000000E8     4.433958977460861E-2   9.310925006866455E-1  -1.153973583132029E-2   9.136710315942764E-3  -1.160832494497299E-2   9.094380773603916E-3  -9.530214965343475E-2   9.473069310188294E-1  
 6.024024024024024E8     6.343354284763336E-2   9.293228983879089E-1  -1.167956925928593E-2   9.732863865792751E-3  -1.167602092027664E-2   9.700927883386612E-3  -7.656688243150711E-2   9.482815265655518E-1  
 6.048048048048048E8     8.322644233703613E-2   9.268580675125122E-1  -1.188973151147366E-2   1.052295323461294E-2  -1.178478728979826E-2   1.041567884385586E-2  -5.768704041838646E-2   9.487983584403992E-1  
 6.072072072072072E8     1.041739135980606E-1   9.235242009162903E-1  -1.200885325670242E-2   1.124300807714462E-2  -1.200767233967781E-2   1.129138376563788E-2  -3.927088528871536E-2   9.493824839591980E-1  
 6.096096096096096E8     1.259937286376953E-1   9.193161129951477E-1  -1.222043018788099E-2   1.213339995592833E-2  -1.219699438661337E-2   1.208565384149551E-2  -1.999741233885288E-2   9.494116306304932E-1  
 6.120120120120120E8     1.444713622331619E-1   9.151485562324524E-1  -1.241287402808666E-2   1.309983897954226E-2  -1.241126935929060E-2   1.296955998986960E-2  -2.977206604555249E-3   9.490118622779846E-1  
 6.144144144144144E8     1.632419824600220E-1   9.107426404953003E-1  -1.263593975454569E-2   1.404526550322771E-2  -1.273038797080517E-2   1.401470042765141E-2   1.501104421913624E-2   9.489745497703552E-1  
 6.168168168168168E8     1.823229640722275E-1   9.056571125984192E-1  -1.283325254917145E-2   1.525116525590420E-2  -1.288238540291786E-2   1.513218041509390E-2   3.395060449838638E-2   9.484546780586243E-1  
 6.192192192192192E8     2.017849534749985E-1   9.001356363296509E-1  -1.311426516622305E-2   1.642248220741749E-2  -1.319531630724669E-2   1.641830988228321E-2   5.356610566377640E-2   9.467625021934509E-1  
 6.216216216216216E8     2.220356613397598E-1   8.933789134025574E-1  -1.336366310715675E-2   1.796796359121800E-2  -1.339223701506853E-2   1.791473664343357E-2   7.392330467700958E-2   9.445382356643677E-1  
 6.240240240240240E8     2.420276850461960E-1   8.853385448455811E-1  -1.331406179815531E-2   1.978451944887638E-2  -1.331168971955776E-2   1.975064165890217E-2   9.411182999610901E-2   9.415297508239746E-1  
 6.264264264264264E8     2.613256573677063E-1   8.768939971923828E-1  -1.296216528862715E-2   2.161516994237900E-2  -1.305742934346199E-2   2.158725820481777E-2   1.144866347312927E-1   9.379606246948242E-1  
 6.288288288288288E8     2.794938683509827E-1   8.679796457290649E-1  -1.248329598456621E-2   2.348534204065800E-2  -1.253107376396656E-2   2.338133193552494E-2   1.338278353214264E-1   9.343851208686829E-1  
 6.312312312312312E8     2.970432043075562E-1   8.589423894882202E-1  -1.185969822108746E-2   2.528386935591698E-2  -1.189019717276096E-2   2.524591237306595E-2   1.530357301235199E-1   9.299762845039368E-1  
 6.336336336336336E8     3.142400681972504E-1   8.494756817817688E-1  -1.135992351919413E-2   2.744419127702713E-2  -1.104188710451126E-2   2.723352983593941E-2   1.714010834693909E-1   9.257734417915344E-1  
 6.360360360360360E8     3.310713469982147E-1   8.393576741218567E-1  -1.006492134183645E-2   2.931729890406132E-2  -1.002709567546845E-2   2.930981852114201E-2   1.897767335176468E-1   9.205381274223328E-1  
 6.384384384384384E8     3.470529913902283E-1   8.297187089920044E-1  -8.570258505642414E-3   3.127599880099297E-2  -8.582844398915768E-3   3.117644786834717E-2   2.088850289583206E-1   9.150515794754028E-1  
 6.408408408408408E8     3.633497357368469E-1   8.196188807487488E-1  -6.864137947559357E-3   3.297930210828781E-2  -6.986942142248154E-3   3.290951997041702E-2   2.281863093376160E-1   9.094195961952210E-1  
 6.432432432432432E8     3.792645633220673E-1   8.086398243904114E-1  -5.132248159497976E-3   3.452191874384880E-2  -5.205192137509584E-3   3.447288274765015E-2   2.472179383039475E-1   9.031768441200256E-1  
 6.456456456456456E8     3.952013850212097E-1   7.968822121620178E-1  -3.419444197788835E-3   3.595347702503204E-2  -3.486820496618748E-3   3.591306507587433E-2   2.662150859832764E-1   8.962106108665466E-1  
 6.480480480480480E8     4.107459485530853E-1   7.843649387359619E-1  -1.667716191150248E-3   3.756222873926163E-2  -1.657159649766982E-3   3.750899434089661E-2   2.850210964679718E-1   8.885175585746765E-1  
 6.504504504504504E8     4.254226982593536E-1   7.733013629913330E-1   4.159973177593201E-4   3.907981887459755E-2   4.778481670655310E-4   3.903840109705925E-2   3.049156665802002E-1   8.813216686248779E-1  
 6.528528528528528E8     4.392685294151306E-1   7.619979381561279E-1   2.652910305187106E-3   4.051822051405907E-2   2.637205878272653E-3   4.044851660728455E-2   3.235934376716614E-1   8.739904165267944E-1  
 6.552552552552552E8     4.521732330322266E-1   7.498851418495178E-1   5.120427347719669E-3   4.182995110750198E-2   5.165285430848599E-3   4.171900823712349E-2   3.411762714385986E-1   8.656756281852722E-1  
 6.576576576576576E8     4.644617140293121E-1   7.373579740524292E-1   7.914119400084019E-3   4.315894097089768E-2   7.856673561036587E-3   4.309894144535065E-2   3.581763803958893E-1   8.562633991241455E-1  
 6.600600600600600E8     4.774094820022583E-1   7.238431572914124E-1   1.117203943431377E-2   4.416441917419434E-2   1.113235577940941E-2   4.408623278141022E-2   3.756409883499146E-1   8.458156585693359E-1  
 6.624624624624624E8     4.892379343509674E-1   7.132484316825867E-1   1.452005654573441E-2   4.445670917630196E-2   1.437988970428705E-2   4.446946457028389E-2   3.930843770503998E-1   8.367972373962402E-1  
 6.648648648648648E8     5.009522438049316E-1   7.024776935577393E-1   1.769257150590420E-2   4.442477226257324E-2   1.743081957101822E-2   4.437485337257385E-2   4.102819263935089E-1   8.275421857833862E-1  
 6.672672672672672E8     5.132370591163635E-1   6.912895441055298E-1   2.047272212803364E-2   4.401801899075508E-2   2.026087976992130E-2   4.398443549871445E-2   4.267807304859161E-1   8.182650208473206E-1  
 6.696696696696696E8     5.258598327636719E-1   6.785067915916443E-1   2.288378961384296E-2   4.390127211809158E-2   2.269079163670540E-2   4.386281967163086E-2   4.431158900260925E-1   8.081657290458679E-1  
 6.720720720720720E8     5.383997559547424E-1   6.640411615371704E-1   2.557531744241715E-2   4.401610791683197E-2   2.542571723461151E-2   4.388090968132019E-2   4.588386416435242E-1   7.972344756126404E-1  
 6.744744744744744E8     5.489119887351990E-1   6.513415575027466E-1   2.850032225251198E-2   4.406260326504707E-2   2.837392129004002E-2   4.396173357963562E-2   4.750542342662811E-1   7.863908410072327E-1  
 6.768768768768768E8     5.590099692344666E-1   6.381427049636841E-1   3.174802660942078E-2   4.384275525808334E-2   3.160370513796806E-2   4.381668940186501E-2   4.904471337795258E-1   7.758734822273254E-1  
 6.792792792792792E8     5.686588883399963E-1   6.257113814353943E-1   3.547171503305435E-2   4.333273693919182E-2   3.523732349276543E-2   4.330298304557800E-2   5.056547522544861E-1   7.643842697143555E-1  
 6.816816816816816E8     5.783175230026245E-1   6.135227680206299E-1   3.894521668553352E-2   4.207009077072144E-2   3.881477564573288E-2   4.208396375179291E-2   5.208730101585388E-1   7.526518106460571E-1  
 6.840840840840840E8     5.877038836479187E-1   6.013883948326111E-1   4.267559200525284E-2   4.071131721138954E-2   4.249791428446770E-2   4.065741971135140E-2   5.356730818748474E-1   7.403759956359863E-1  
 6.864864864864864E8     5.969675183296204E-1   5.900717973709106E-1   4.600323364138603E-2   3.825616836547852E-2   4.572283104062080E-2   3.840639069676399E-2   5.487809181213379E-1   7.291362285614014E-1  
 6.888888888888888E8     6.073382496833801E-1   5.795580744743347E-1   4.889224097132683E-2   3.530702367424965E-2   4.847407341003418E-2   3.550657629966736E-2   5.621454119682312E-1   7.174265384674072E-1  
 6.912912912912912E8     6.195516586303711E-1   5.693690180778503E-1   5.027818679809570E-2   3.197975084185600E-2   4.995077475905418E-2   3.225059062242508E-2   5.765249729156494E-1   7.055142521858215E-1  
 6.936936936936936E8     6.339064240455627E-1   5.566300749778748E-1   5.053302645683289E-2   2.971924468874931E-2   5.024570226669312E-2   3.002016060054302E-2   5.912809967994690E-1   6.928036808967590E-1  
 6.960960960960960E8     6.480039358139038E-1   5.409146547317505E-1   5.083599686622620E-2   2.898711524903774E-2   5.070614442229271E-2   2.903884276747704E-2   6.063224077224731E-1   6.782314777374268E-1  
 6.984984984984984E8     6.597787737846375E-1   5.242728590965271E-1   5.193448811769486E-2   2.932928130030632E-2   5.216811969876289E-2   2.866035513579845E-2   6.226823329925537E-1   6.607646346092224E-1  
 7.009009009009008E8     6.689622402191162E-1   5.070261359214783E-1   5.446993187069893E-2   2.963956817984581E-2   5.498839542269707E-2   2.837194316089153E-2   6.370412111282349E-1   6.433182954788208E-1  
 7.033033033033032E8     6.772297024726868E-1   4.902165234088898E-1   5.767357349395752E-2   2.846266329288483E-2   5.806646496057510E-2   2.727555669844151E-2   6.486930847167969E-1   6.277109384536743E-1  
 7.057057057057056E8     6.857020854949951E-1   4.733420312404633E-1   6.046957895159721E-2   2.679723873734474E-2   6.062748655676842E-2   2.610145136713982E-2   6.577786207199097E-1   6.143490672111511E-1  
 7.081081081081080E8     6.948457956314087E-1   4.545051455497742E-1   6.321151554584503E-2   2.483888529241085E-2   6.300470978021622E-2   2.491813898086548E-2   6.676592826843262E-1   5.998858213424683E-1  
 7.105105105105104E8     7.036852240562439E-1   4.365373551845551E-1   6.586120277643204E-2   2.303541265428066E-2   6.541051715612412E-2   2.394674345850945E-2   6.769492030143738E-1   5.860010981559753E-1  
 7.129129129129129E8     7.109379768371582E-1   4.184275269508362E-1   6.892876327037811E-2   2.164666727185249E-2   6.850482523441315E-2   2.284867502748966E-2   6.868461966514587E-1   5.700772404670715E-1  
 7.153153153153153E8     7.161327004432678E-1   4.014713466167450E-1   7.251726090908051E-2   2.002430334687233E-2   7.220494002103806E-2   2.089539170265198E-2   6.973671317100525E-1   5.521742701530457E-1  
 7.177177177177178E8     7.219075560569763E-1   3.844881057739258E-1   7.618626207113266E-2   1.763262972235680E-2   7.603507488965988E-2   1.791385374963284E-2   7.083243131637573E-1   5.328611135482788E-1  
 7.201201201201202E8     7.286590337753296E-1   3.661756217479706E-1   7.950291037559509E-2   1.428808365017176E-2   7.939364761114121E-2   1.439961418509483E-2   7.191421389579773E-1   5.133427381515503E-1  
 7.225225225225226E8     7.342799305915833E-1   3.488616347312927E-1   8.244397491216660E-2   1.103966962546110E-2   8.229703456163406E-2   1.100276131182909E-2   7.294928431510925E-1   4.939821362495422E-1  
 7.249249249249250E8     7.398929595947266E-1   3.300484716892242E-1   8.544929325580597E-2   7.224804256111383E-3   8.510456234216690E-2   8.047192357480526E-3   7.374735474586487E-1   4.760108888149262E-1  
 7.273273273273274E8     7.443826198577881E-1   3.112551867961884E-1   8.842194825410843E-2   3.102065296843648E-3   8.818979561328888E-2   4.872033372521401E-3   7.451596260070801E-1   4.573427140712738E-1  
 7.297297297297298E8     7.483583688735962E-1   2.940710484981537E-1   9.116276353597641E-2  -9.380192495882511E-4   9.103941917419434E-2   6.320161628536880E-4   7.530727386474609E-1   4.375329017639160E-1  
 7.321321321321322E8     7.519856095314026E-1   2.780643403530121E-1   9.350667893886566E-2  -4.381457343697548E-3   9.338250011205673E-2  -4.128903616219759E-3   7.613114714622498E-1   4.163079857826233E-1  
 7.345345345345346E8     7.558404803276062E-1   2.620371282100678E-1   9.603518992662430E-2  -7.920346222817898E-3   9.586365520954132E-2  -8.174242451786995E-3   7.678943276405335E-1   3.962414264678955E-1  
 7.369369369369370E8     7.585288286209106E-1   2.442175596952438E-1   9.904876351356506E-2  -1.184028666466475E-2   9.879639744758606E-2  -1.255570445209742E-2   7.740188241004944E-1   3.751567900180817E-1  
 7.393393393393394E8     7.605505585670471E-1   2.266279608011246E-1   1.023784577846527E-1  -1.691485382616520E-2   1.021533086895943E-1  -1.764910109341145E-2   7.792223691940308E-1   3.538519442081451E-1  
 7.417417417417418E8     7.632037401199341E-1   2.087614536285400E-1   1.052454188466072E-1  -2.313324995338917E-2   1.049899160861969E-1  -2.354296483099461E-2   7.835889458656311E-1   3.326018750667572E-1  
 7.441441441441442E8     7.656857371330261E-1   1.909939050674439E-1   1.073746308684349E-1  -3.001150116324425E-2   1.073643267154694E-1  -2.964943088591099E-2   7.871649861335754E-1   3.121733963489533E-1  
 7.465465465465466E8     7.681922316551209E-1   1.765969842672348E-1   1.090380325913429E-1  -3.670849278569222E-2   1.091683134436607E-1  -3.630061075091362E-2   7.908272743225098E-1   2.933321595191956E-1  
 7.489489489489490E8     7.707148194313049E-1   1.604526042938232E-1   1.100674048066139E-1  -4.355533793568611E-2   1.103373989462853E-1  -4.306067153811455E-2   7.938567996025085E-1   2.745671868324280E-1  
 7.513513513513514E8     7.731884121894836E-1   1.424769610166550E-1   1.107031032443047E-1  -5.061746016144753E-2   1.110393702983856E-1  -5.017683282494545E-2   7.970048189163208E-1   2.547283768653870E-1  
 7.537537537537538E8     7.758999466896057E-1   1.217676401138306E-1   1.104940846562386E-1  -5.833095312118530E-2   1.108833849430084E-1  -5.773859471082687E-2   8.001275658607483E-1   2.318006753921509E-1  
 7.561561561561562E8     7.771466374397278E-1   9.905649721622467E-2   1.095943003892899E-1  -6.526419520378113E-2   1.094441786408424E-1  -6.496781110763550E-2   8.029055595397949E-1   2.085091024637222E-1  
 7.585585585585586E8     7.759768366813660E-1   7.769484817981720E-2   1.090110912919045E-1  -7.162547111511231E-2   1.083416044712067E-1  -7.129293680191040E-2   8.057658076286316E-1   1.868127733469009E-1  
 7.609609609609610E8     7.731693983078003E-1   5.720476806163788E-2   1.084447726607323E-1  -7.847993820905685E-2   1.075576245784760E-1  -7.779420167207718E-2   8.066458702087402E-1   1.644784808158875E-1  
 7.633633633633634E8     7.702928781509399E-1   3.768062591552734E-2   1.076548025012016E-1  -8.549842238426209E-2   1.068909689784050E-1  -8.459960669279099E-2   8.060362339019775E-1   1.414174735546112E-1  
 7.657657657657658E8     7.680010199546814E-1   1.772295497357845E-2   1.067741811275482E-1  -9.263893216848373E-2   1.064546257257462E-1  -9.158207476139069E-2   8.039669394493103E-1   1.180489361286163E-1  
 7.681681681681682E8     7.665426731109619E-1  -2.138503594323993E-3   1.062859147787094E-1  -9.998490661382675E-2   1.064182743430138E-1  -9.969863295555115E-2   8.015465736389160E-1   9.543783962726593E-2  
 7.705705705705706E8     7.638642191886902E-1  -1.958543062210083E-2   1.057063490152359E-1  -1.079912930727005E-1   1.061265841126442E-1  -1.078871339559555E-1   7.977566719055176E-1   7.704485207796097E-2  
 7.729729729729730E8     7.592631578445435E-1  -4.005657508969307E-2   1.042339727282524E-1  -1.171190962195396E-1   1.053394749760628E-1  -1.174671351909638E-1   7.948803305625916E-1   5.697086453437805E-2  
 7.753753753753754E8     7.528257369995117E-1  -6.004063040018082E-2   1.017896533012390E-1  -1.272755563259125E-1   1.031910181045532E-1  -1.278423219919205E-1   7.902939915657044E-1   3.462430089712143E-2  
 7.777777777777778E8     7.452362179756165E-1  -7.881458103656769E-2   9.828746318817139E-2  -1.378275007009506E-1   9.923943132162094E-2  -1.381691396236420E-1   7.826300263404846E-1   1.164309680461884E-2  
 7.801801801801802E8     7.379000782966614E-1  -9.581425786018372E-2   9.348335117101669E-2  -1.489179879426956E-1   9.377765655517578E-2  -1.484531760215759E-1   7.728905677795410E-1  -9.309411048889160E-3  
 7.825825825825826E8     7.304810285568237E-1  -1.128895357251167E-1   8.698491007089615E-2  -1.590905189514160E-1   8.691480755805969E-2  -1.587921082973480E-1   7.654016613960266E-1  -2.913947217166424E-2  
 7.849849849849850E8     7.250506877899170E-1  -1.312447339296341E-1   7.922249287366867E-2  -1.693684309720993E-1   7.963852584362030E-2  -1.686026901006699E-1   7.577400803565979E-1  -4.645336046814919E-2  
 7.873873873873874E8     7.190646529197693E-1  -1.521399021148682E-1   7.009374350309372E-2  -1.784786581993103E-1   7.049832493066788E-2  -1.770906597375870E-1   7.507238388061523E-1  -6.495328247547150E-2  
 7.897897897897898E8     7.100661993026733E-1  -1.750377714633942E-1   6.117947399616242E-2  -1.859184652566910E-1   6.135468184947968E-2  -1.847027987241745E-1   7.429682016372681E-1  -8.683142811059952E-2  
 7.921921921921922E8     6.982737779617310E-1  -1.984499096870422E-1   5.207955464720726E-2  -1.931452751159668E-1   5.239237099885941E-2  -1.928344368934631E-1   7.338088750839233E-1  -1.092027202248573E-1  
 7.945945945945946E8     6.862390637397766E-1  -2.179478555917740E-1   4.282817617058754E-2  -2.011260986328125E-1   4.386413469910622E-2  -2.005128860473633E-1   7.219858169555664E-1  -1.297334879636765E-1  
 7.969969969969970E8     6.727147102355957E-1  -2.360212355852127E-1   3.258688375353813E-2  -2.089828252792358E-1   3.381459414958954E-2  -2.087005376815796E-1   7.086128592491150E-1  -1.504749357700348E-1  
 7.993993993993994E8     6.584917306900024E-1  -2.540443837642670E-1   2.109336480498314E-2  -2.161011695861816E-1   2.225396037101746E-2  -2.160801589488983E-1   6.936848163604736E-1  -1.721045225858688E-1  
 8.018018018018018E8     6.425576806068420E-1  -2.722267806529999E-1   9.661203250288963E-3  -2.224679887294769E-1   1.001348067075014E-2  -2.225118875503540E-1   6.748793125152588E-1  -1.942922621965408E-1  
 8.042042042042042E8     6.258551478385925E-1  -2.898464798927307E-1  -2.659527119249106E-3  -2.293827533721924E-1  -2.338023856282234E-3  -2.293116003274918E-1   6.538219451904297E-1  -2.125969678163528E-1  
 8.066066066066066E8     6.084766983985901E-1  -3.056433200836182E-1  -1.731448993086815E-2  -2.358882278203964E-1  -1.689440943300724E-2  -2.358904927968979E-1   6.325352191925049E-1  -2.287706285715103E-1  
 8.090090090090090E8     5.909647941589356E-1  -3.214384615421295E-1  -3.320840373635292E-2  -2.401001751422882E-1  -3.283377736806870E-2  -2.401558905839920E-1   6.105397343635559E-1  -2.444653064012528E-1  
 8.114114114114114E8     5.714102387428284E-1  -3.374899327754974E-1  -4.873427376151085E-2  -2.421672493219376E-1  -4.840410500764847E-2  -2.421998232603073E-1   5.854412317276001E-1  -2.607367336750031E-1  
 8.138138138138138E8     5.500307679176331E-1  -3.512088656425476E-1  -6.282759457826614E-2  -2.442939281463623E-1  -6.248980015516281E-2  -2.443526238203049E-1   5.566303730010986E-1  -2.737894952297211E-1  
 8.162162162162162E8     5.295243263244629E-1  -3.619276583194733E-1  -7.804828882217407E-2  -2.478311657905579E-1  -7.771902531385422E-2  -2.477189302444458E-1   5.267454981803894E-1  -2.821094691753388E-1  
 8.186186186186186E8     5.102644562721252E-1  -3.712105453014374E-1  -9.572211652994156E-2  -2.508408129215241E-1  -9.518045932054520E-2  -2.507094144821167E-1   4.979125261306763E-1  -2.858174741268158E-1  
 8.210210210210210E8     4.900596141815186E-1  -3.807303309440613E-1  -1.155464947223663E-1  -2.514968812465668E-1  -1.149990335106850E-1  -2.514246404170990E-1   4.697628617286682E-1  -2.868109345436096E-1  
 8.234234234234234E8     4.698830842971802E-1  -3.894508779048920E-1  -1.361805051565170E-1  -2.492257952690125E-1  -1.356852948665619E-1  -2.492098659276962E-1   4.439402818679810E-1  -2.861773967742920E-1  
