#  HZ   S   RI   R     50.00 
! Rohde & Schwarz ZVB8 2Ports - Version 2.81 - 1145.1010k08 SN: 100113
! Date: 2016-03-31 04:34:29
! Measurements: S11 S21 S12 S22 
! 
 6.000000000000000E8     3.881824761629105E-2   9.279605150222778E-1  -8.258615620434284E-3   7.952379994094372E-3  -8.262955583631992E-3   7.960790768265724E-3  -1.033755168318749E-1   9.483326673507690E-1  
 6.024024024024024E8     5.738667771220207E-2   9.260885715484619E-1  -8.184573613107204E-3   8.284247480332851E-3  -8.257322944700718E-3   8.255981840193272E-3  -8.472961187362671E-2   9.491893053054810E-1  
 6.048048048048048E8     7.613818347454071E-2   9.239541888237000E-1  -8.311046287417412E-3   8.646645583212376E-3  -8.331092074513435E-3   8.631238713860512E-3  -6.610091775655747E-2   9.504829049110413E-1  
 6.072072072072072E8     9.619490057229996E-2   9.209774732589722E-1  -8.422465994954109E-3   9.038290008902550E-3  -8.373683318495750E-3   9.044576436281204E-3  -4.803060367703438E-2   9.510066509246826E-1  
 6.096096096096096E8     1.172018945217133E-1   9.173982739448547E-1  -8.591434918344021E-3   9.660369716584683E-3  -8.515696041285992E-3   9.555705823004246E-3  -2.904489450156689E-2   9.512261152267456E-1  
 6.120120120120120E8     1.355911195278168E-1   9.138276576995850E-1  -8.708233013749123E-3   1.025508344173431E-2  -8.716663345694542E-3   1.025190763175488E-2  -1.245940569788218E-2   9.515438079833984E-1  
 6.144144144144144E8     1.532988548278809E-1   9.098070263862610E-1  -8.763712830841541E-3   1.095870323479176E-2  -8.856244385242462E-3   1.089796610176563E-2   4.944547545164824E-3   9.514545202255249E-1  
 6.168168168168168E8     1.719024479389191E-1   9.058762192726135E-1  -8.730325847864151E-3   1.168835908174515E-2  -8.731577545404434E-3   1.164166722446680E-2   2.333782240748406E-2   9.508181810379028E-1  
 6.192192192192192E8     1.910043954849243E-1   9.010016322135925E-1  -8.712257258594036E-3   1.234041620045900E-2  -8.694196119904518E-3   1.224727835506201E-2   4.240712150931358E-2   9.503023624420166E-1  
 6.216216216216216E8     2.106471359729767E-1   8.955007195472717E-1  -8.754644542932510E-3   1.299147494137287E-2  -8.812083862721920E-3   1.297580357640982E-2   6.225287541747093E-2   9.486352205276489E-1  
 6.240240240240240E8     2.307333052158356E-1   8.894039988517761E-1  -8.814157918095589E-3   1.389767508953810E-2  -8.810508064925671E-3   1.387297641485930E-2   8.160487562417984E-2   9.465961456298828E-1  
 6.264264264264264E8     2.503285408020020E-1   8.826951980590820E-1  -8.758315816521645E-3   1.481771282851696E-2  -8.764334954321384E-3   1.477799098938704E-2   1.019139215350151E-1   9.439550042152405E-1  
 6.288288288288288E8     2.692394852638245E-1   8.751524090766907E-1  -8.676960133016110E-3   1.568852923810482E-2  -8.777855895459652E-3   1.568701677024365E-2   1.209305077791214E-1   9.409515261650085E-1  
 6.312312312312312E8     2.874446511268616E-1   8.673037290573120E-1  -8.553329855203629E-3   1.672858931124210E-2  -8.551634848117828E-3   1.678506098687649E-2   1.396419703960419E-1   9.373422861099243E-1  
 6.336336336336336E8     3.056096434593201E-1   8.594608306884766E-1  -8.332965895533562E-3   1.780364662408829E-2  -8.324799127876759E-3   1.775361783802509E-2   1.581062674522400E-1   9.335989952087402E-1  
 6.360360360360360E8     3.238395452499390E-1   8.512294888496399E-1  -8.175907656550407E-3   1.891173422336578E-2  -8.135027252137661E-3   1.889173313975334E-2   1.764326095581055E-1   9.293699264526367E-1  
 6.384384384384384E8     3.419169485569000E-1   8.431285023689270E-1  -7.748255040496588E-3   2.010637894272804E-2  -7.782417815178633E-3   2.007360942661762E-2   1.957294791936874E-1   9.251009821891785E-1  
 6.408408408408408E8     3.599812090396881E-1   8.339228034019470E-1  -7.370310369879007E-3   2.128776349127293E-2  -7.397825364023447E-3   2.121941372752190E-2   2.148466706275940E-1   9.201335906982422E-1  
 6.432432432432432E8     3.779540657997131E-1   8.236716389656067E-1  -6.859509274363518E-3   2.252375334501267E-2  -6.844844669103622E-3   2.248156256973743E-2   2.340231537818909E-1   9.144592881202698E-1  
 6.456456456456456E8     3.957418799400330E-1   8.123922348022461E-1  -6.283150985836983E-3   2.372495457530022E-2  -6.280973087996244E-3   2.370732836425304E-2   2.531457245349884E-1   9.081068038940430E-1  
 6.480480480480480E8     4.132553637027741E-1   8.000910878181458E-1  -5.665916018188000E-3   2.522297389805317E-2  -5.614628084003925E-3   2.518694102764130E-2   2.724791467189789E-1   9.012523293495178E-1  
 6.504504504504504E8     4.298049211502075E-1   7.892866134643555E-1  -4.897003527730703E-3   2.662716433405876E-2  -4.779615439474583E-3   2.662626653909683E-2   2.923136055469513E-1   8.947628736495972E-1  
 6.528528528528528E8     4.452790319919586E-1   7.778285145759583E-1  -3.824157174676657E-3   2.807273529469967E-2  -3.755947574973106E-3   2.799804694950581E-2   3.113772273063660E-1   8.879801034927368E-1  
 6.552552552552552E8     4.603606164455414E-1   7.656698226928711E-1  -2.749199746176601E-3   2.944393642246723E-2  -2.745492383837700E-3   2.937076613306999E-2   3.291624486446381E-1   8.804162144660950E-1  
 6.576576576576576E8     4.747385382652283E-1   7.526972293853760E-1  -1.690183999016881E-3   3.086506761610508E-2  -1.667768810875714E-3   3.078345209360123E-2   3.464924097061157E-1   8.719720840454102E-1  
 6.600600600600600E8     4.899353981018066E-1   7.378740906715393E-1  -2.606849011499435E-4   3.254876285791397E-2  -2.521586429793388E-4   3.246172890067101E-2   3.644067645072937E-1   8.620845675468445E-1  
 6.624624624624624E8     5.033618211746216E-1   7.257026433944702E-1   1.514482544735074E-3   3.405314683914185E-2   1.450474257580936E-3   3.403058275580406E-2   3.830893933773041E-1   8.531597256660461E-1  
 6.648648648648648E8     5.163437128067017E-1   7.129024863243103E-1   3.494273172691464E-3   3.546869009733200E-2   3.338091308251023E-3   3.533518314361572E-2   4.001657366752625E-1   8.438270092010498E-1  
 6.672672672672672E8     5.288268327713013E-1   6.993732452392578E-1   5.648496560752392E-3   3.661993891000748E-2   5.476318299770355E-3   3.658597543835640E-2   4.167500138282776E-1   8.344034552574158E-1  
 6.696696696696696E8     5.412901639938355E-1   6.850844025611877E-1   7.833356969058514E-3   3.753307461738586E-2   7.746645249426365E-3   3.743109852075577E-2   4.328075647354126E-1   8.245235085487366E-1  
 6.720720720720720E8     5.538176894187927E-1   6.698105335235596E-1   9.940472431480885E-3   3.830766305327416E-2   9.896144270896912E-3   3.823042288422585E-2   4.485580623149872E-1   8.144569396972656E-1  
 6.744744744744744E8     5.649100542068481E-1   6.556199193000794E-1   1.220796909183264E-2   3.914581611752510E-2   1.209423318505287E-2   3.918389230966568E-2   4.650270342826843E-1   8.044012784957886E-1  
 6.768768768768768E8     5.756524801254273E-1   6.411617398262024E-1   1.455005910247564E-2   3.999248519539833E-2   1.445341669023037E-2   3.998843207955360E-2   4.810382425785065E-1   7.941524982452393E-1  
 6.792792792792792E8     5.858079791069031E-1   6.268719434738159E-1   1.732921227812767E-2   4.079838097095490E-2   1.711995899677277E-2   4.079469665884972E-2   4.965272247791290E-1   7.830393910408020E-1  
 6.816816816816816E8     5.956589579582214E-1   6.126170754432678E-1   2.014977671205998E-2   4.110379144549370E-2   1.996097527444363E-2   4.111504927277565E-2   5.119795203208923E-1   7.718624472618103E-1  
 6.840840840840840E8     6.057751178741455E-1   5.977811217308044E-1   2.298795618116856E-2   4.133566841483116E-2   2.287401445209980E-2   4.128477349877358E-2   5.271161794662476E-1   7.597201466560364E-1  
 6.864864864864864E8     6.148496270179749E-1   5.826510190963745E-1   2.591260336339474E-2   4.135518893599510E-2   2.565554156899452E-2   4.134602844715118E-2   5.402979850769043E-1   7.481971383094788E-1  
 6.888888888888888E8     6.240752339363098E-1   5.677503943443298E-1   2.896189875900745E-2   4.113374650478363E-2   2.860473841428757E-2   4.124410822987557E-2   5.535336732864380E-1   7.363302111625671E-1  
 6.912912912912912E8     6.325425505638123E-1   5.533242225646973E-1   3.226584196090698E-2   4.050946235656738E-2   3.185983374714851E-2   4.068633541464806E-2   5.672755837440491E-1   7.242446541786194E-1  
 6.936936936936936E8     6.417489647865295E-1   5.395785570144653E-1   3.498009964823723E-2   3.928678482770920E-2   3.475215658545494E-2   3.950728848576546E-2   5.806141495704651E-1   7.124634385108948E-1  
 6.960960960960960E8     6.523890495300293E-1   5.244413614273071E-1   3.709443658590317E-2   3.839536756277084E-2   3.689369931817055E-2   3.834349289536476E-2   5.947150588035584E-1   6.995872259140015E-1  
 6.984984984984984E8     6.618824005126953E-1   5.089938044548035E-1   3.890046849846840E-2   3.814939036965370E-2   3.927915915846825E-2   3.770872205495834E-2   6.111294031143189E-1   6.842738389968872E-1  
 7.009009009009008E8     6.708644628524780E-1   4.923293888568878E-1   4.145453497767448E-2   3.810149431228638E-2   4.213814809918404E-2   3.713684901595116E-2   6.259601116180420E-1   6.687259078025818E-1  
 7.033033033033032E8     6.782023310661316E-1   4.750666618347168E-1   4.477922990918160E-2   3.750306367874146E-2   4.533667489886284E-2   3.656662628054619E-2   6.381678581237793E-1   6.542580127716065E-1  
 7.057057057057056E8     6.853168010711670E-1   4.581165909767151E-1   4.827302694320679E-2   3.591085970401764E-2   4.847012460231781E-2   3.531343862414360E-2   6.474975943565369E-1   6.426619291305542E-1  
 7.081081081081080E8     6.942500472068787E-1   4.397540986537933E-1   5.100464075803757E-2   3.367238119244576E-2   5.085880681872368E-2   3.379880264401436E-2   6.579807996749878E-1   6.303284168243408E-1  
 7.105105105105104E8     7.030454277992249E-1   4.213697016239166E-1   5.304825678467751E-2   3.195584565401077E-2   5.246069282293320E-2   3.273941203951836E-2   6.683382987976074E-1   6.180258393287659E-1  
 7.129129129129129E8     7.105480432510376E-1   4.024817645549774E-1   5.506617575883865E-2   3.124673292040825E-2   5.445501953363419E-2   3.217888623476028E-2   6.798903346061707E-1   6.036257147789002E-1  
 7.153153153153153E8     7.161998748779297E-1   3.834250867366791E-1   5.776577815413475E-2   3.118484467267990E-2   5.734856054186821E-2   3.186240047216415E-2   6.918854713439941E-1   5.864592194557190E-1  
 7.177177177177178E8     7.204737067222595E-1   3.639166057109833E-1   6.152212619781494E-2   3.070740960538387E-2   6.131043285131455E-2   3.094028122723103E-2   7.043082714080811E-1   5.675075650215149E-1  
 7.201201201201202E8     7.248246073722839E-1   3.438914120197296E-1   6.571365892887116E-2   2.926051057875156E-2   6.560591608285904E-2   2.924319542944431E-2   7.160677909851074E-1   5.486568808555603E-1  
 7.225225225225226E8     7.280328869819641E-1   3.256590366363525E-1   6.990524381399155E-2   2.697866223752499E-2   6.980248540639877E-2   2.687166072428227E-2   7.271286249160767E-1   5.307745933532715E-1  
 7.249249249249250E8     7.317148447036743E-1   3.068318963050842E-1   7.374268025159836E-2   2.369860373437405E-2   7.333586364984512E-2   2.447273209691048E-2   7.361544966697693E-1   5.142635107040405E-1  
 7.273273273273274E8     7.347372770309448E-1   2.872743308544159E-1   7.730063796043396E-2   2.061767503619194E-2   7.675893604755402E-2   2.210049144923687E-2   7.453140020370483E-1   4.967877864837647E-1  
 7.297297297297298E8     7.362786531448364E-1   2.688029706478119E-1   8.100571483373642E-2   1.764431223273277E-2   8.056529611349106E-2   1.895814016461372E-2   7.546870708465576E-1   4.780415892601013E-1  
 7.321321321321322E8     7.365592122077942E-1   2.521298825740814E-1   8.444589376449585E-2   1.465146522969008E-2   8.427134156227112E-2   1.484167762100697E-2   7.644842267036438E-1   4.584804773330689E-1  
 7.345345345345346E8     7.368564605712891E-1   2.371169477701187E-1   8.787230402231216E-2   1.123488415032625E-2   8.772078901529312E-2   1.102225854992867E-2   7.731134295463562E-1   4.399399757385254E-1  
 7.369369369369370E8     7.369164824485779E-1   2.205777913331986E-1   9.123829007148743E-2   7.552254479378462E-3   9.107908606529236E-2   6.846684496849775E-3   7.817175984382629E-1   4.200179278850555E-1  
 7.393393393393394E8     7.361388206481934E-1   2.041266113519669E-1   9.499078989028931E-2   3.242104547098279E-3   9.478820860385895E-2   2.489106031134725E-3   7.895431518554688E-1   3.989585936069489E-1  
 7.417417417417418E8     7.353733181953430E-1   1.884186118841171E-1   9.852124750614166E-2  -2.213226864114404E-3   9.837786853313446E-2  -2.599375788122416E-3   7.965140342712402E-1   3.783950209617615E-1  
 7.441441441441442E8     7.349520921707153E-1   1.724650114774704E-1   1.016505062580109E-1  -8.405230008065701E-3   1.016207262873650E-1  -8.043418638408184E-3   8.027265071868897E-1   3.575786054134369E-1  
 7.465465465465466E8     7.347443103790283E-1   1.611389964818955E-1   1.042478457093239E-1  -1.480341516435146E-2   1.042961031198502E-1  -1.450050249695778E-2   8.084321022033691E-1   3.386853337287903E-1  
 7.489489489489490E8     7.348762154579163E-1   1.489074826240540E-1   1.058054715394974E-1  -2.150904759764671E-2   1.060592606663704E-1  -2.098854817450047E-2   8.135730028152466E-1   3.198561668395996E-1  
 7.513513513513514E8     7.360619902610779E-1   1.351159065961838E-1   1.067955568432808E-1  -2.841930277645588E-2   1.070266440510750E-1  -2.796075120568276E-2   8.188337683677673E-1   2.992196083068848E-1  
 7.537537537537538E8     7.380551695823669E-1   1.180585473775864E-1   1.067379862070084E-1  -3.556498512625694E-2   1.070663332939148E-1  -3.503527864813805E-2   8.245155811309815E-1   2.761869430541992E-1  
 7.561561561561562E8     7.394267320632935E-1   9.967195242643356E-2   1.059503555297852E-1  -4.174285754561424E-2   1.058141365647316E-1  -4.154408350586891E-2   8.297325372695923E-1   2.521760165691376E-1  
 7.585585585585586E8     7.387536168098450E-1   8.158284425735474E-2   1.053690239787102E-1  -4.713895916938782E-2   1.047886610031128E-1  -4.695592075586319E-2   8.346179127693176E-1   2.292869389057159E-1  
 7.609609609609610E8     7.366278171539307E-1   6.382532417774200E-2   1.050929650664330E-1  -5.249642953276634E-2   1.042567044496536E-1  -5.207732319831848E-2   8.375209569931030E-1   2.058494091033936E-1  
 7.633633633633634E8     7.339197397232056E-1   4.635343328118324E-2   1.047905236482620E-1  -5.791126564145088E-2   1.041031479835510E-1  -5.734349414706230E-2   8.385574817657471E-1   1.817388236522675E-1  
 7.657657657657658E8     7.318495512008667E-1   2.851636148989201E-2   1.045286878943443E-1  -6.343057751655579E-2   1.041785329580307E-1  -6.267615407705307E-2   8.384657502174377E-1   1.572247296571732E-1  
 7.681681681681682E8     7.296566367149353E-1   1.042565982788801E-2   1.046113893389702E-1  -6.864213198423386E-2   1.047484502196312E-1  -6.832153350114822E-2   8.382332921028137E-1   1.335738003253937E-1  
 7.705705705705706E8     7.261824011802673E-1  -4.246293567121029E-3   1.059036329388619E-1  -7.424886524677277E-2   1.062669754028320E-1  -7.408294081687927E-2   8.364756107330322E-1   1.130186989903450E-1  
 7.729729729729730E8     7.206616997718811E-1  -2.054744400084019E-2   1.064353883266449E-1  -8.167824894189835E-2   1.074374169111252E-1  -8.183031529188156E-2   8.348147273063660E-1   9.086152911186218E-2  
 7.753753753753754E8     7.153048515319824E-1  -3.628863766789436E-2   1.059224531054497E-1  -9.008886665105820E-2   1.071784123778343E-1  -9.047070890665054E-2   8.310340642929077E-1   6.605391204357147E-2  
 7.777777777777778E8     7.105131745338440E-1  -5.162899568676949E-2   1.046128645539284E-1  -9.898786991834641E-2   1.054076626896858E-1  -9.916448593139648E-2   8.237444162368774E-1   4.081900417804718E-2  
 7.801801801801802E8     7.063357234001160E-1  -6.752056628465653E-2   1.020492911338806E-1  -1.078927516937256E-1   1.022120267152786E-1  -1.074853166937828E-1   8.139344453811646E-1   1.762050017714500E-2  
 7.825825825825826E8     7.006930708885193E-1  -8.532007038593292E-2   9.842889010906220E-2  -1.156941950321198E-1   9.830927848815918E-2  -1.155527755618095E-1   8.065316677093506E-1  -4.307949915528297E-3  
 7.849849849849850E8     6.946842670440674E-1  -1.044283136725426E-1   9.471138566732407E-2  -1.234859749674797E-1   9.487154334783554E-2  -1.227297335863113E-1   7.977871298789978E-1  -2.418183907866478E-2  
 7.873873873873874E8     6.869490146636963E-1  -1.251022517681122E-1   9.085223823785782E-2  -1.309252232313156E-1   9.090633690357208E-2  -1.297610849142075E-1   7.884094715118408E-1  -4.459435492753983E-2  
 7.897897897897898E8     6.751828193664551E-1  -1.458702236413956E-1   8.722705394029617E-2  -1.378988176584244E-1   8.712165057659149E-2  -1.368700265884399E-1   7.781937122344971E-1  -6.614619493484497E-2  
 7.921921921921922E8     6.605460047721863E-1  -1.652668714523315E-1   8.398511260747910E-2  -1.451848447322846E-1   8.416839689016342E-2  -1.448945850133896E-1   7.668812274932861E-1  -8.775642514228821E-2  
 7.945945945945946E8     6.468178629875183E-1  -1.785610765218735E-1   8.097010105848312E-2  -1.548032164573669E-1   8.165974915027618E-2  -1.541484147310257E-1   7.527271509170532E-1  -1.063516736030579E-1  
 7.969969969969970E8     6.342225074768066E-1  -1.898496299982071E-1   7.584882527589798E-2  -1.654991358518601E-1   7.686081528663635E-2  -1.649008393287659E-1   7.382661104202271E-1  -1.241287291049957E-1  
 7.993993993993994E8     6.223413348197937E-1  -2.011092752218247E-1   6.906146556138992E-2  -1.759822368621826E-1   6.979919970035553E-2  -1.756946444511414E-1   7.223503589630127E-1  -1.415234059095383E-1  
 8.018018018018018E8     6.101874113082886E-1  -2.128435671329498E-1   6.039280816912651E-2  -1.862874925136566E-1   6.073526665568352E-2  -1.863164156675339E-1   7.056109309196472E-1  -1.577823907136917E-1  
 8.042042042042042E8     6.000177860260010E-1  -2.244199216365814E-1   5.008415877819061E-2  -1.959563791751862E-1   5.027496442198753E-2  -1.956903636455536E-1   6.887708902359009E-1  -1.718676835298538E-1  
 8.066066066066066E8     5.901768803596497E-1  -2.361084073781967E-1   3.822263702750206E-2  -2.041983455419540E-1   3.852589428424835E-2  -2.040372192859650E-1   6.715890765190125E-1  -1.851973533630371E-1  
 8.090090090090090E8     5.801317095756531E-1  -2.498749047517777E-1   2.579894475638866E-2  -2.105317860841751E-1   2.609249576926231E-2  -2.105156481266022E-1   6.540551781654358E-1  -1.974547356367111E-1  
 8.114114114114114E8     5.677077770233154E-1  -2.644299864768982E-1   1.373406872153282E-2  -2.157773077487946E-1   1.402323134243488E-2  -2.157223969697952E-1   6.357175707817078E-1  -2.091131806373596E-1  
 8.138138138138138E8     5.537789463996887E-1  -2.769807875156403E-1   2.153356792405248E-3  -2.207507342100143E-1   2.459950512275100E-3  -2.206685096025467E-1   6.167123913764954E-1  -2.205876857042313E-1  
 8.162162162162162E8     5.415561795234680E-1  -2.872638106346130E-1  -1.005701441317797E-2  -2.264690101146698E-1  -9.752674028277397E-3  -2.263535559177399E-1   5.963138937950134E-1  -2.305281609296799E-1  
 8.186186186186186E8     5.311487317085266E-1  -2.977338135242462E-1  -2.378392592072487E-2  -2.319547981023789E-1  -2.348252572119236E-2  -2.317021489143372E-1   5.760679841041565E-1  -2.371764034032822E-1  
 8.210210210210210E8     5.192691683769226E-1  -3.101352751255035E-1  -3.919786587357521E-2  -2.357688546180725E-1  -3.877699002623558E-2  -2.356213480234146E-1   5.561584234237671E-1  -2.423274368047714E-1  
 8.234234234234234E8     5.058240294456482E-1  -3.239249885082245E-1  -5.525241792201996E-2  -2.372620999813080E-1  -5.486671999096870E-2  -2.370911538600922E-1   5.366933345794678E-1  -2.469243705272675E-1  
