#  HZ   S   DB   R     50.00 
! Rohde & Schwarz ZVB8 2Ports - Version 2.81 - 1145.1010k08 SN: 100113
! Date: 2014-04-03 01:51:14
! Measurements: S11 S21 S12 S22 
! 
 5.000000000000000E8    -2.803738036165940E-2   1.169536804053911E2  -7.229429976979787E1  -8.864470621614888E1  -7.894991673019823E1  -7.126031486362444E1  -2.494560375834305   1.698942176348155E2  
 5.010000000000000E8    -2.439014137933558E-2   1.171159598679718E2  -7.328336573555224E1  -8.538878967666499E1  -7.248288259027012E1  -8.044228173422212E1  -2.558340680868041   1.694485136971067E2  
 5.020000000000000E8    -3.057223323046045E-2   1.173634581744799E2  -7.456366057956181E1  -7.403813445602198E1  -7.564988523901798E1  -8.976985069015407E1  -2.600410672690285   1.689082856497329E2  
 5.030000000000000E8    -3.193231618952955E-2   1.175753343880599E2  -7.346880196064109E1  -7.615326400767833E1  -7.478275286467917E1  -1.024236534432765E2  -2.631861565744387   1.683420610023190E2  
 5.040000000000000E8    -2.739373282396007E-2   1.178426926205610E2  -7.389391107551873E1  -8.377085456465788E1  -7.298505006952476E1  -1.052444462797365E2  -2.662808924935280   1.676512944065323E2  
 5.050000000000000E8    -2.617554258570596E-2   1.180069505063459E2  -7.138832949778684E1  -9.490188978688192E1  -7.436586371887158E1  -1.007227655106471E2  -2.707606600333893   1.669470524618641E2  
 5.060000000000000E8    -2.957636164256141E-2   1.181191011654213E2  -7.159466283785751E1  -1.001213370532791E2  -7.487716296646480E1  -1.052067939928956E2  -2.769997100360516   1.662126013264286E2  
 5.070000000000000E8    -2.346171038413286E-2   1.183700513889709E2  -7.346530315417631E1  -9.989853750921803E1  -7.315067124120282E1  -1.155544386557415E2  -2.833123764519340   1.655118562815089E2  
 5.080000000000000E8    -3.187009148607414E-2   1.186622665272026E2  -7.569328512440859E1  -1.026285526023129E2  -7.383230026262355E1  -1.173265339237685E2  -2.882611653195983   1.648659361577312E2  
 5.090000000000000E8    -3.298816153499808E-2   1.188281454699731E2  -7.365791447466047E1  -1.377515538012051E2  -7.373906158269739E1  -1.225477225054862E2  -2.941706590849840   1.642975603165537E2  
 5.100000000000000E8    -3.632974198276113E-2   1.189857833151787E2  -7.665165148355318E1  -1.357645338864089E2  -7.267446667440316E1  -1.338763449778015E2  -2.997001736526697   1.636480347459158E2  
 5.110000000000000E8    -4.207423717781296E-2   1.192690397211045E2  -7.514784692936253E1  -1.518530781857026E2  -7.410417933625321E1  -1.337380815902789E2  -3.051293477101106   1.630787255722739E2  
 5.120000000000000E8    -3.982957485563837E-2   1.194241727630353E2  -7.333908526209476E1  -1.425712084775160E2  -7.800390032429932E1  -1.489849805534715E2  -3.112849888544057   1.624108938137318E2  
 5.130000000000000E8    -3.216268523274846E-2   1.197067509221605E2  -7.608829446020665E1  -1.536418002425497E2  -7.776538506015079E1  -1.235960007884008E2  -3.165152108814736   1.618402768552192E2  
 5.140000000000000E8    -3.836057562969372E-2   1.198160816788135E2  -7.471012561101975E1  -1.512153211214230E2  -8.044213976453894E1  -1.323553610462999E2  -3.215777543717418   1.612398512558977E2  
 5.150000000000000E8    -4.965794243312342E-2   1.200853077342566E2  -7.764937809753734E1  -1.589713761004034E2  -7.602569195778898E1  -1.450430230988844E2  -3.257149308367926   1.605850473096366E2  
 5.160000000000000E8    -4.754907061361358E-2   1.204070078202938E2  -7.869722672534749E1  -1.423687229788050E2  -7.906516875385462E1  -1.542753729901398E2  -3.321161767207939   1.598848038640406E2  
 5.170000000000000E8    -3.700582672945712E-2   1.204919891952811E2  -8.072674530905410E1  -1.748626174610658E2  -7.775716327715276E1  -1.619207654221970E2  -3.386643076459320   1.593034790103820E2  
 5.180000000000000E8    -4.434553352643544E-2   1.207975042096987E2  -7.894022451906233E1  -1.638538472770631E2  -7.997136588980636E1  -1.429246928377134E2  -3.445797148351354   1.587349138763831E2  
 5.190000000000000E8    -3.972884348895137E-2   1.209614190671995E2  -7.758081085865047E1  -1.491026392771760E2  -8.035303249616014E1  -1.564568605548203E2  -3.498803212894608   1.581660608319436E2  
 5.200000000000000E8    -4.117431883612850E-2   1.211651280966976E2  -7.948617603170798E1  -1.749415320644028E2  -7.964803181690837E1  -1.608129398413745E2  -3.549122846518285   1.575595099372850E2  
 5.210000000000000E8    -4.133234830983613E-2   1.213921674648934E2  -7.922305223775358E1   1.705366294073343E2  -8.128549013646685E1  -1.589745803078641E2  -3.595405644018565   1.569358709239579E2  
 5.220000000000000E8    -4.084877365942380E-2   1.215802375714679E2  -7.911379476344256E1  -1.730478764646423E2  -7.914814432120276E1  -1.751100559588275E2  -3.645588170956562   1.562961724713742E2  
 5.230000000000000E8    -5.037709638290110E-2   1.217689147450865E2  -8.160121326738322E1  -1.729412216359854E2  -8.079720999239480E1   1.581274415818379E2  -3.698153313050527   1.556819656863174E2  
 5.240000000000000E8    -4.726875185713080E-2   1.219469289760496E2  -7.970640665187585E1  -1.709367120512105E2  -7.836384308914818E1  -1.395190228523147E2  -3.746980129005397   1.550583021115854E2  
 5.250000000000000E8    -4.816774662024442E-2   1.222322121629548E2  -8.734092359663788E1  -1.604013775694113E2  -7.907361759882366E1  -1.768684405718038E2  -3.794647376891864   1.543696028390497E2  
 5.260000000000000E8    -4.624652103123410E-2   1.224364687423016E2  -8.069848623203110E1   1.764730713504628E2  -7.945309108688629E1  -1.787728456672506E2  -3.842919791913448   1.536646089136793E2  
 5.270000000000000E8    -4.155175725915743E-2   1.226825235249964E2  -8.262050078343478E1   1.583999455458771E2  -8.168204259193209E1  -1.503163080887097E2  -3.899226343468614   1.529010283621509E2  
 5.280000000000000E8    -4.845738416468947E-2   1.229307113927591E2  -8.358699792643584E1  -1.720272677987782E2  -8.041805431246912E1   1.734176150812900E2  -3.961465555093799   1.520918020952113E2  
 5.290000000000000E8    -5.152632802544429E-2   1.230587118057188E2  -8.212320762772475E1   1.763181494603821E2  -8.188194302521630E1   1.768186357748787E2  -4.031706716834834   1.512719944966109E2  
 5.300000000000000E8    -4.475345328425352E-2   1.232573361774138E2  -8.000429754577738E1   1.458667663598147E2  -8.772441233040379E1  -1.771251560115138E2  -4.119555972990459   1.505365595443051E2  
 5.310000000000000E8    -4.956859452412062E-2   1.234680329478037E2  -8.113182604920310E1   1.667397232521614E2  -8.390762590839201E1   1.504284225602115E2  -4.206678933364655   1.497845623648169E2  
 5.320000000000000E8    -4.193319771678574E-2   1.236463523426084E2  -9.283224949733670E1  -1.683235999816257E2  -7.938667622460581E1   1.586582602354656E2  -4.311063313585506   1.491203825038686E2  
 5.330000000000000E8    -4.656639028623194E-2   1.238925481361126E2  -8.034507277435392E1   1.700632348968964E2  -8.107678348785382E1   1.651188839582677E2  -4.413302615212809   1.484936909223268E2  
 5.340000000000000E8    -5.271521901395432E-2   1.241628719277489E2  -8.355407926355092E1   1.658620484158037E2  -8.214285017347794E1   1.585767885109856E2  -4.507430944761159   1.480224127622939E2  
 5.350000000000000E8    -4.085481882155046E-2   1.243871652233606E2  -8.095408942168230E1   1.791347103993717E2  -8.131916791737623E1   1.206122362206498E2  -4.595089836196994   1.476074131214116E2  
 5.360000000000000E8    -5.874802552408946E-2   1.246114169279546E2  -8.517101961572286E1   1.477306655413224E2  -8.045302987426462E1   1.393415962937555E2  -4.656703928229914   1.472361271903500E2  
 5.370000000000000E8    -4.973160750208984E-2   1.246822297053958E2  -8.895135175081995E1   1.553743234199134E2  -7.875889611416255E1   1.284029489274908E2  -4.712035249694001   1.466800716540457E2  
 5.380000000000000E8    -4.473237030724907E-2   1.249469582509690E2  -8.006420053411055E1   8.339280385100847E1  -8.670076626520219E1   9.748930423447301E1  -4.757584930104681   1.460987192589066E2  
 5.390000000000000E8    -4.085504072435306E-2   1.252009171465938E2  -7.935122483054764E1   1.607336199639686E2  -9.731195483339633E1   1.781103916726064E2  -4.805000924836702   1.453464499348615E2  
 5.400000000000000E8    -4.650439407492885E-2   1.254267011934795E2  -8.144208816343395E1   9.907723028078654E1  -8.075437134234845E1   1.417861399114943E2  -4.871651284898157   1.444723895113807E2  
 5.410000000000000E8    -5.280323771233661E-2   1.257230319147223E2  -8.858050219986107E1   1.226248380289786E2  -9.195049433728167E1   1.468713623958598E2  -4.966147185890586   1.436730598368317E2  
 5.420000000000000E8    -4.692477183546839E-2   1.258527923725379E2  -8.370364148246749E1   9.116570722537820E1  -8.200496773317846E1   1.155224245700093E2  -5.073046038753552   1.428728392908622E2  
 5.430000000000000E8    -4.221569499975903E-2   1.260303773413509E2  -8.200782363549368E1   1.352548935260116E2  -8.055853478930227E1   9.473514535879919E1  -5.191473387612315   1.421765429531287E2  
 5.440000000000000E8    -4.509616630813781E-2   1.263093742863665E2  -7.928163706119153E1   1.457147133236156E2  -8.745288913614321E1  -1.626645575867068E2  -5.300807285850570   1.416134567902557E2  
 5.450000000000000E8    -5.275057806570949E-2   1.265282682523174E2  -8.886134054175825E1   1.342466235222865E2  -8.207290083783578E1   9.609330126437591E1  -5.410492728880494   1.410824714147311E2  
 5.460000000000000E8    -4.106034192836505E-2   1.267182601035195E2  -8.469225611873546E1   1.243156922404212E2  -7.934795665068620E1   7.064091380754687E1  -5.508763338657624   1.405490478485629E2  
 5.470000000000000E8    -5.296927594332578E-2   1.269137254957781E2  -8.864866378012636E1   1.564036376948190E2  -8.252864961493533E1   1.420901573256624E2  -5.606149840124125   1.400464819054978E2  
 5.480000000000000E8    -4.319705446544112E-2   1.271603989764832E2  -7.752797549891898E1   9.266457826723401E1  -9.432373917163622E1   1.633053923646394E2  -5.710865547203165   1.395343479124310E2  
 5.490000000000000E8    -4.760630641815091E-2   1.274369796417824E2  -9.027168398803347E1   1.721804144688390E2  -8.749300241151724E1   1.058370113787207E2  -5.812061070788841   1.390761741647514E2  
 5.500000000000000E8    -4.698810441994056E-2   1.275935650404484E2  -8.327942699474122E1   9.111718827167536E1  -7.752758858202274E1   9.940465537831682E1  -5.904752554090972   1.386457088647447E2  
 5.510000000000000E8    -4.631660445427135E-2   1.278438834091281E2  -8.503952932738888E1   1.243295031921174E1  -8.482478011808816E1   2.487328122210482E1  -5.989995454750256   1.382274240769958E2  
 5.520000000000000E8    -4.283517166656611E-2   1.280629297041683E2  -7.769308845328624E1   2.092417315109507E1  -8.231777627967307E1   8.161823781636142E1  -6.072880633396645   1.378379430429365E2  
 5.530000000000000E8    -4.218326780066754E-2   1.282583660694057E2  -8.376921776754618E1   4.149863275422943E1  -8.547742901426753E1   6.504973998464494E1  -6.148113834664758   1.373543244492890E2  
 5.540000000000000E8    -3.786420937138493E-2   1.285294813719686E2  -8.466049587173652E1   5.923481466081677E1  -7.774794409335890E1   4.903144969872847E1  -6.211152139243014   1.368878743245847E2  
 5.550000000000000E8    -5.023070097546049E-2   1.287585136860169E2  -8.124268779257423E1   2.991100185006198E1  -7.723974445010998E1   5.794576983188737E1  -6.271715621636647   1.363499401951971E2  
 5.560000000000000E8    -4.570141341755040E-2   1.290037975199823E2  -8.466979303708295E1   3.397622521584468E1  -8.283358327428238E1   9.734674965478945E1  -6.324718021403410   1.357785950941292E2  
 5.570000000000000E8    -4.545017500151180E-2   1.292846970989437E2  -8.013934686427190E1   8.030385631863543E1  -8.656576656343681E1  -1.546873093960450E1  -6.382083279113760   1.350657442481163E2  
 5.580000000000000E8    -5.034870493441004E-2   1.295049748262783E2  -8.185701627122384E1   4.910100315386528  -8.391701365719925E1   4.441978763169789E1  -6.451181338288323   1.341721681296448E2  
 5.590000000000000E8    -4.368475010717356E-2   1.297194894855464E2  -7.945764253330501E1   4.642146175241133E1  -7.726394767118804E1   4.349728706764337E1  -6.546757696814547   1.333010654183669E2  
 5.600000000000000E8    -4.607579200062772E-2   1.299871747810568E2  -8.038835399955264E1   3.624962624458626E1  -8.266145275689804E1   1.396980161040733E1  -6.680566887557959   1.325064117603813E2  
 5.610000000000000E8    -3.840024423145753E-2   1.302355629447881E2  -7.844803508790781E1   7.487135227639485  -8.007770188480663E1   3.961779146560131E1  -6.820558381260679   1.319148167995650E2  
 5.620000000000000E8    -5.080434279676369E-2   1.305470812192654E2  -8.319680532662927E1   3.257516456723520E1  -8.796191504597617E1   3.603394171672517E1  -6.953491970780922   1.314881166032395E2  
 5.630000000000000E8    -3.792770917705887E-2   1.307540635203253E2  -8.144894580149034E1   5.079880496916870E1  -7.853578328811550E1   2.211047781284515E1  -7.076754641496772   1.311700613788313E2  
 5.640000000000000E8    -3.587678766879871E-2   1.309841765062149E2  -8.021347414500445E1   1.959933079603934E1  -7.653550727625253E1   2.988014648462972E1  -7.179961307073425   1.309442528753932E2  
 5.650000000000000E8    -4.960406985950192E-2   1.312587545028663E2  -8.597255139816747E1  -1.177442567941555E1  -9.158307034488369E1  -8.367445344537715E1  -7.255897234612918   1.307313424567339E2  
 5.660000000000000E8    -4.305576692084968E-2   1.314243496576139E2  -8.631694793255433E1  -1.851031930798630E1  -7.543672882805871E1  -2.391908575113678E1  -7.304462111729650   1.304945648040773E2  
 5.670000000000000E8    -5.261329889705446E-2   1.317461115656372E2  -7.903899750351064E1  -4.872612437264068E1  -7.945313992621912E1   2.388138706666318  -7.340290229113848   1.301455972958883E2  
 5.680000000000000E8    -4.151122790979904E-2   1.319761960714226E2  -7.891299237252764E1  -6.365021210762050E1  -8.971980791330518E1  -3.885373946121591E1  -7.370272570385895   1.296343720186908E2  
 5.690000000000000E8    -4.282856291972025E-2   1.321416877900728E2  -7.894898811388002E1  -4.552189548358544E1  -7.782335432097388E1  -9.735140960699141  -7.383126147092321   1.290664691139290E2  
 5.700000000000000E8    -3.941524148898824E-2   1.324723488995639E2  -8.050003030553532E1  -7.314698986547083E1  -7.839619780137649E1   7.017915656560085  -7.391579672818885   1.283036539717355E2  
 5.710000000000000E8    -3.989634974334935E-2   1.327135247444468E2  -8.593387279338481E1   1.441752317298663E1  -8.178090385226385E1  -2.468872240316239E1  -7.406027333404791   1.273490822197060E2  
 5.720000000000000E8    -3.612889802959111E-2   1.329746174577362E2  -8.367597038782466E1  -4.821466866677761E1  -8.022759788486569E1  -6.711675846723969E1  -7.454907960855435   1.261239355460174E2  
 5.730000000000000E8    -4.506554352104589E-2   1.331913042459835E2  -8.112116260549995E1  -5.864252725820254E1  -7.676751610907172E1  -5.884507676127459E1  -7.538442038118172   1.249087852373311E2  
 5.740000000000000E8    -3.315077647698791E-2   1.334788387419930E2  -9.646162111752884E1   8.439037342165109E1  -8.483888919263382E1  -1.014391154444799E2  -7.664635301834304   1.237545403880852E2  
 5.750000000000000E8    -3.865709360038861E-2   1.337685481132181E2  -8.502915002543013E1  -8.011286971464963E1  -8.410691135689709E1  -4.348746500539246E1  -7.816487992802559   1.227226429604825E2  
 5.760000000000000E8    -3.997751189947406E-2   1.339173613594692E2  -8.676416893143568E1  -3.650048049561758E1  -9.052665989735506E1  -1.018300575227494  -7.987210673553208   1.218816306671337E2  
 5.770000000000000E8    -3.513603260354589E-2   1.341897690387912E2  -8.262624626607264E1  -7.681519284761120E1  -8.073620295911341E1  -6.623738728344441E1  -8.163252167530841   1.212756932260345E2  
 5.780000000000000E8    -4.382327405136743E-2   1.344764252998745E2  -7.875714336447693E1  -7.806515588002526E1  -7.559185466394058E1  -6.144460309683622E1  -8.328205448780166   1.209657358760257E2  
 5.790000000000000E8    -4.345325622734774E-2   1.347114844423725E2  -7.958085527179678E1  -7.065829132531322E1  -7.937638389087883E1  -6.767137941465069E1  -8.472444240461229   1.207825340097974E2  
 5.800000000000000E8    -3.916437708874810E-2   1.349655891833799E2  -7.438517729409490E1  -7.829803213127707E1  -8.139155389948088E1  -6.269080300715562E1  -8.582486534840045   1.207367644538766E2  
 5.810000000000000E8    -4.030094596182637E-2   1.352360460744839E2  -8.111149741827646E1  -1.288227344424563E2  -7.978789938093853E1  -6.914343037020774E1  -8.671539214827664   1.206608050926309E2  
 5.820000000000000E8    -4.629025512835243E-2   1.354554229005425E2  -8.004014898465205E1  -1.068465531708789E2  -8.613033554097737E1   1.787769330947632E2  -8.743740394515886   1.205781139660136E2  
 5.830000000000000E8    -3.874189451331374E-2   1.357234888470953E2  -8.349269936239396E1  -2.625447839052597E1  -7.862568916898098E1  -7.302574553770606E1  -8.782233251623790   1.205481420468579E2  
 5.840000000000000E8    -4.306574157624638E-2   1.360009174798894E2  -8.270839475631928E1  -9.028181900788566E1  -8.188839299429317E1  -8.401524133196169E1  -8.797440096105882   1.204094175271039E2  
 5.850000000000000E8    -3.945038769563253E-2   1.362454036420738E2  -8.068057157275754E1  -1.455601009877425E2  -9.034169836551362E1  -1.135033178423689E2  -8.802246287287577   1.202284463194290E2  
 5.860000000000000E8    -4.131562760667287E-2   1.365679324507170E2  -8.939179311272486E1   1.159056829165369E2  -8.314200303528129E1  -4.514776501319800E1  -8.778843667547589   1.199823207520829E2  
 5.870000000000000E8    -4.647320985138050E-2   1.368328872526659E2  -7.570268602988688E1  -1.395001802728308E2  -8.582907417555468E1  -5.061514052715405E1  -8.731182152180168   1.194624589190934E2  
 5.880000000000000E8    -4.039120934461737E-2   1.370191067323290E2  -8.337262365505077E1  -1.297349196094646E2  -8.293868779862460E1  -7.074158821519238E1  -8.668610127593079   1.187749752875981E2  
 5.890000000000000E8    -4.360471154075878E-2   1.373366619804326E2  -7.508115324605963E1  -6.691287489569456E1  -8.593146391938284E1  -6.166491796946651E1  -8.618435992426205   1.177911051597803E2  
 5.900000000000000E8    -4.678402018959799E-2   1.375431771610756E2  -8.146133178754980E1  -9.039163431487732E1  -8.063659268140678E1  -7.533066562972986E1  -8.585490028330982   1.165364577168081E2  
 5.910000000000000E8    -4.232001246828707E-2   1.378651391328633E2  -8.515590289911391E1  -1.254227359959853E2  -8.865323840345401E1  -5.668426934527282E1  -8.587816962355113   1.152030348483900E2  
 5.920000000000000E8    -3.979609922891197E-2   1.380760397061353E2  -8.318383218003596E1  -8.191687621223183E1  -8.056507936143154E1  -8.849461914052398E1  -8.609443251676963   1.138137090615626E2  
 5.930000000000000E8    -4.347464725525301E-2   1.383326281053498E2  -8.516707950947566E1  -1.284664824861092E2  -8.200003445788397E1  -1.257773141851721E2  -8.647058829258393   1.123486378848591E2  
 5.940000000000000E8    -5.495125124595119E-2   1.385853667514116E2  -8.231508146689689E1  -1.039488920418112E2  -9.673007854660622E1   6.958889202485933E1  -8.696200705561759   1.108608215676263E2  
 5.950000000000000E8    -3.990492538749070E-2   1.388498979437429E2  -8.390530598419433E1  -9.424221603737249E1  -7.809449163093477E1  -1.125051730799685E2  -8.772766604501101   1.092904381542718E2  
 5.960000000000000E8    -4.257873439464952E-2   1.391020762266193E2  -7.711449912438603E1  -1.169049410119281E2  -8.803884644845803E1  -2.962324546879804E1  -8.883361030869253   1.076754432734358E2  
 5.970000000000000E8    -4.447271504551435E-2   1.394052094085570E2  -8.314785748779433E1  -1.197368495155423E2  -8.046044471325016E1  -1.111658269185250E2  -9.024342966921161   1.061333716055711E2  
