#  HZ   S   RI   R     50.00 
! Rohde & Schwarz ZVB8 2Ports - Version 2.81 - 1145.1010k08 SN: 100113
! Date: 2016-05-04 02:49:53
! Measurements: S11 S21 S12 S22 
! 
 6.000000000000000E8    -8.665191531181335E-1   3.698399066925049E-1   1.162476546596736E-4  -6.691028829663992E-4   7.605881546624005E-5  -6.608070689253509E-4  -8.451513648033142E-1  -4.738723635673523E-1  
 6.024024024024024E8    -8.595790863037109E-1   3.825950622558594E-1   1.170818213722669E-4  -6.740658427588642E-4   1.433784636901692E-4  -6.671067094430327E-4  -8.498871326446533E-1  -4.650768935680389E-1  
 6.048048048048048E8    -8.521276712417603E-1   3.961738646030426E-1   9.321498509962112E-5  -6.614640587940812E-4   1.148978917626664E-4  -6.629191339015961E-4  -8.543372750282288E-1  -4.559380412101746E-1  
 6.072072072072072E8    -8.442679047584534E-1   4.100614190101624E-1   1.903267257148400E-4  -6.939675076864660E-4   1.797682198230177E-4  -6.894256803207099E-4  -8.590351343154907E-1  -4.468162953853607E-1  
 6.096096096096096E8    -8.357410430908203E-1   4.242410659790039E-1   2.619970473460853E-4  -6.665543187409639E-4   2.465144498273730E-4  -6.647509289905429E-4  -8.636726737022400E-1  -4.371556639671326E-1  
 6.120120120120120E8    -8.289760947227478E-1   4.353702962398529E-1   2.840047818608582E-4  -6.104400963522494E-4   3.649717255029827E-4  -6.824788288213313E-4  -8.673194646835327E-1  -4.295352697372437E-1  
 6.144144144144144E8    -8.204460740089417E-1   4.480918645858765E-1   3.824672312475741E-4  -6.699437508359551E-4   4.326303896959871E-4  -6.637005717493594E-4  -8.708340525627136E-1  -4.213274121284485E-1  
 6.168168168168168E8    -8.114477992057800E-1   4.604765474796295E-1   5.649436498060823E-4  -6.720926030538976E-4   5.898321978747845E-4  -7.132458849810064E-4  -8.750605583190918E-1  -4.125374555587769E-1  
 6.192192192192192E8    -8.022465705871582E-1   4.722887575626373E-1   7.947954582050443E-4  -6.991217378526926E-4   7.781820022501051E-4  -7.145915878936648E-4  -8.790600895881653E-1  -4.035015106201172E-1  
 6.216216216216216E8    -7.925522327423096E-1   4.842249453067780E-1   1.007661339826882E-3  -8.672760450281203E-4   1.030441257171333E-3  -8.242488838732243E-4  -8.836565613746643E-1  -3.926507234573364E-1  
 6.240240240240240E8    -7.824177145957947E-1   4.958290457725525E-1   1.275409129448235E-3  -1.015948248095810E-3   1.246690517291427E-3  -9.692441672086716E-4  -8.883122205734253E-1  -3.822086453437805E-1  
 6.264264264264264E8    -7.729453444480896E-1   5.073454380035400E-1   1.557051087729633E-3  -1.345471246168017E-3   1.590423868037760E-3  -1.367100165225565E-3  -8.924909830093384E-1  -3.711194396018982E-1  
 6.288288288288288E8    -7.631414532661438E-1   5.188224315643311E-1   1.813333947211504E-3  -1.836640294641256E-3   1.812516245990992E-3  -1.792852533981204E-3  -8.957605957984924E-1  -3.616125285625458E-1  
 6.312312312312312E8    -7.545999288558960E-1   5.295040607452393E-1   1.854310976341367E-3  -2.363866427913308E-3   1.805261010304093E-3  -2.329462906345725E-3  -8.987865447998047E-1  -3.527344763278961E-1  
 6.336336336336336E8    -7.461913228034973E-1   5.402784347534180E-1   1.779856625944376E-3  -2.995124785229564E-3   1.788644236512482E-3  -2.989246742799878E-3  -9.019178152084351E-1  -3.445025980472565E-1  
 6.360360360360360E8    -7.376801967620850E-1   5.515431761741638E-1   1.609201193787158E-3  -3.535283962264657E-3   1.570106018334627E-3  -3.510697977617383E-3  -9.048237800598145E-1  -3.366602063179016E-1  
 6.384384384384384E8    -7.279474735260010E-1   5.642597079277039E-1   1.208203844726086E-3  -4.081617109477520E-3   1.227321103215218E-3  -4.041996784508228E-3  -9.078496098518372E-1  -3.277517259120941E-1  
 6.408408408408408E8    -7.174604535102844E-1   5.771315097808838E-1   7.625300786457956E-4  -4.430301487445831E-3   7.852768758311868E-4  -4.409119486808777E-3  -9.109857678413391E-1  -3.182923495769501E-1  
 6.432432432432432E8    -7.062292695045471E-1   5.896941423416138E-1   2.893291239161044E-4  -4.700439516454935E-3   3.410137433093041E-4  -4.717301577329636E-3  -9.142966270446777E-1  -3.093653023242950E-1  
 6.456456456456456E8    -6.944383382797241E-1   6.016267538070679E-1  -1.695377432042733E-4  -4.900479223579168E-3  -1.157013102783822E-4  -4.890035837888718E-3  -9.175760149955750E-1  -3.001975715160370E-1  
 6.480480480480480E8    -6.819708347320557E-1   6.130046248435974E-1  -5.965022719465196E-4  -4.959963727742434E-3  -5.959349218755961E-4  -5.004914011806250E-3  -9.208353161811829E-1  -2.911575734615326E-1  
 6.504504504504504E8    -6.681366562843323E-1   6.254472732543945E-1  -9.791243355721235E-4  -5.072841886430979E-3  -1.010627718642354E-3  -4.973159637302160E-3  -9.226911067962647E-1  -2.810422778129578E-1  
 6.528528528528528E8    -6.541225910186768E-1   6.372337341308594E-1  -1.364138210192323E-3  -4.973887465894222E-3  -1.307724858634174E-3  -5.015243776142597E-3  -9.251716732978821E-1  -2.712466716766357E-1  
 6.552552552552552E8    -6.399273276329041E-1   6.482185125350952E-1  -1.672065816819668E-3  -4.992108792066574E-3  -1.635093824006617E-3  -4.990147426724434E-3  -9.274718761444092E-1  -2.617175877094269E-1  
 6.576576576576576E8    -6.257191300392151E-1   6.581953167915344E-1  -1.911948900669813E-3  -4.935194272547960E-3  -1.841825549490750E-3  -4.911592230200768E-3  -9.301708936691284E-1  -2.529753148555756E-1  
 6.600600600600600E8    -6.097123026847839E-1   6.685522794723511E-1  -2.148459665477276E-3  -4.903214052319527E-3  -2.043206710368395E-3  -4.862037487328053E-3  -9.328719377517700E-1  -2.438814342021942E-1  
 6.624624624624624E8    -5.930994153022766E-1   6.797456145286560E-1  -2.382597653195262E-3  -4.970293026417494E-3  -2.292944118380547E-3  -4.881684202700853E-3  -9.350765347480774E-1  -2.331088781356812E-1  
 6.648648648648648E8    -5.769092440605164E-1   6.896589994430542E-1  -2.588700270280242E-3  -4.908600356429815E-3  -2.514909720048308E-3  -4.960208199918270E-3  -9.371650815010071E-1  -2.224612385034561E-1  
 6.672672672672672E8    -5.594818592071533E-1   6.989407539367676E-1  -2.676040166988969E-3  -4.852775484323502E-3  -2.645770320668817E-3  -4.862085916101933E-3  -9.393019676208496E-1  -2.119952142238617E-1  
 6.696696696696696E8    -5.418931245803833E-1   7.072443366050720E-1  -2.760705305263400E-3  -4.967817105352879E-3  -2.735012443736196E-3  -4.889292642474175E-3  -9.409688711166382E-1  -2.021552771329880E-1  
 6.720720720720720E8    -5.230601429939270E-1   7.148007154464722E-1  -2.791351871564984E-3  -5.064760800451040E-3  -2.769392682239413E-3  -5.006301682442427E-3  -9.423525929450989E-1  -1.924304366111755E-1  
 6.744744744744744E8    -5.037586688995361E-1   7.220267653465271E-1  -2.892244840040803E-3  -5.132209509611130E-3  -2.771162893623114E-3  -5.153282545506954E-3  -9.438380002975464E-1  -1.821499913930893E-1  
 6.768768768768768E8    -4.846240580081940E-1   7.284049987792969E-1  -2.833609702065587E-3  -5.216472782194614E-3  -2.760137198492885E-3  -5.204471759498119E-3  -9.453047513961792E-1  -1.716921031475067E-1  
 6.792792792792792E8    -4.662012159824371E-1   7.340153455734253E-1  -2.644719555974007E-3  -5.556130316108465E-3  -2.574902260676026E-3  -5.558227654546499E-3  -9.466092586517334E-1  -1.615392267704010E-1  
 6.816816816816816E8    -4.476389884948731E-1   7.389613389968872E-1  -2.412083791568875E-3  -6.013493053615093E-3  -2.338493708521128E-3  -5.976255517452955E-3  -9.478506445884705E-1  -1.506616175174713E-1  
 6.840840840840840E8    -4.290640056133270E-1   7.433444857597351E-1  -2.209170488640666E-3  -6.610917858779430E-3  -2.114988397806883E-3  -6.602569017559290E-3  -9.491774439811707E-1  -1.397112756967545E-1  
 6.864864864864864E8    -4.094083905220032E-1   7.470452189445496E-1  -1.983549911528826E-3  -7.718108128756285E-3  -1.883866731077433E-3  -7.709891069680452E-3  -9.491050839424133E-1  -1.295376271009445E-1  
 6.888888888888888E8    -3.903572261333466E-1   7.501550912857056E-1  -2.063761698082089E-3  -9.239596314728260E-3  -1.992059638723731E-3  -9.156817570328713E-3  -9.488303065299988E-1  -1.185004189610481E-1  
 6.912912912912912E8    -3.728658556938171E-1   7.533218860626221E-1  -2.682763384655118E-3  -1.108927745372057E-2  -2.535486128181219E-3  -1.100194733589888E-2  -9.490885734558106E-1  -1.075512841343880E-1  
 6.936936936936936E8    -3.559602200984955E-1   7.578566670417786E-1  -3.986754454672337E-3  -1.308276318013668E-2  -3.820796962827444E-3  -1.300101913511753E-2  -9.490391016006470E-1  -9.681185334920883E-2  
 6.960960960960960E8    -3.381064832210541E-1   7.636439204216003E-1  -6.088760215789080E-3  -1.481642015278339E-2  -6.023081019520760E-3  -1.473974157124758E-2  -9.493634700775147E-1  -8.606291562318802E-2  
 6.984984984984984E8    -3.187446296215057E-1   7.700273394584656E-1  -8.657274767756462E-3  -1.595653034746647E-2  -8.791957981884480E-3  -1.589050143957138E-2  -9.497523903846741E-1  -7.205143570899963E-2  
 7.009009009009008E8    -2.969918251037598E-1   7.761870622634888E-1  -1.141404267400503E-2  -1.642529852688313E-2  -1.169708184897900E-2  -1.623514480888844E-2  -9.498270153999329E-1  -5.915163084864616E-2  
 7.033033033033032E8    -2.719823420047760E-1   7.801955938339233E-1  -1.431193854659796E-2  -1.618747040629387E-2  -1.451032236218453E-2  -1.598956435918808E-2  -9.493469595909119E-1  -4.908288642764092E-2  
 7.057057057057056E8    -2.453952580690384E-1   7.817742228507996E-1  -1.696405746042728E-2  -1.564433053135872E-2  -1.695726811885834E-2  -1.549168676137924E-2  -9.485669732093811E-1  -4.211328923702240E-2  
 7.081081081081080E8    -2.163619399070740E-1   7.816503643989563E-1  -1.941275224089623E-2  -1.476320717483759E-2  -1.925257593393326E-2  -1.482440996915102E-2  -9.482418298721314E-1  -3.385615721344948E-2  
 7.105105105105104E8    -1.864912509918213E-1   7.798348069190979E-1  -2.177452668547630E-2  -1.360712759196758E-2  -2.151470445096493E-2  -1.398613303899765E-2  -9.475392103195190E-1  -2.448797971010208E-2  
 7.129129129129129E8    -1.578310877084732E-1   7.753499746322632E-1  -2.396028302609921E-2  -1.240925583988428E-2  -2.360457368195057E-2  -1.285102032124996E-2  -9.469140768051148E-1  -1.342748478055000E-2  
 7.153153153153153E8    -1.293476372957230E-1   7.683565020561218E-1  -2.606785297393799E-2  -1.123323291540146E-2  -2.580810524523258E-2  -1.152372360229492E-2  -9.460226893424988E-1  -5.583178135566413E-4  
 7.177177177177178E8    -1.002160608768463E-1   7.590828537940979E-1  -2.817799337208271E-2  -9.907281957566738E-3  -2.797585166990757E-2  -1.009895652532578E-2  -9.450976848602295E-1   1.325977779924870E-2  
 7.201201201201202E8    -6.941937655210495E-2   7.469590306282044E-1  -3.035759553313255E-2  -8.238392882049084E-3  -3.022363409399986E-2  -8.566492237150669E-3  -9.438326954841614E-1   2.653520926833153E-2  
 7.225225225225226E8    -4.048558324575424E-2   7.326110005378723E-1  -3.252680599689484E-2  -6.467336323112249E-3  -3.234925866127014E-2  -6.849017925560474E-3  -9.423062801361084E-1   4.004393890500069E-2  
 7.249249249249250E8    -1.342526543885469E-2   7.165898084640503E-1  -3.466343507170677E-2  -4.308062605559826E-3  -3.459451347589493E-2  -4.895266611129046E-3  -9.401624202728272E-1   5.077250301837921E-2  
 7.273273273273274E8     1.109875645488501E-2   6.993343234062195E-1  -3.663647547364235E-2  -1.956301275640726E-3  -3.668656945228577E-2  -2.755323890596628E-3  -9.380107522010803E-1   6.239825859665871E-2  
 7.297297297297298E8     3.476710245013237E-2   6.795259714126587E-1  -3.868493810296059E-2   5.367393605411053E-4  -3.870994970202446E-2  -1.268662890652195E-5  -9.356796145439148E-1   7.473208755254746E-2  
 7.321321321321322E8     5.738458782434464E-2   6.580905914306641E-1  -4.047344997525215E-2   2.956302836537361E-3  -4.052124172449112E-2   2.896156627684832E-3  -9.330509305000305E-1   8.779472857713699E-2  
 7.345345345345346E8     8.007459342479706E-2   6.354247331619263E-1  -4.225684329867363E-2   5.669899750500917E-3  -4.210138320922852E-2   5.692240782082081E-3  -9.300497770309448E-1   1.004038676619530E-1  
 7.369369369369370E8     1.038102805614471E-1   6.098647117614746E-1  -4.411918669939041E-2   8.515121415257454E-3  -4.390282183885574E-2   8.573913946747780E-3  -9.264196157455444E-1   1.136664971709251E-1  
 7.393393393393394E8     1.261527240276337E-1   5.802270770072937E-1  -4.629623517394066E-2   1.187543757259846E-2  -4.600660875439644E-2   1.193680241703987E-2  -9.230339527130127E-1   1.269673705101013E-1  
 7.417417417417418E8     1.458789110183716E-1   5.471996068954468E-1  -4.831233993172646E-2   1.602059789001942E-2  -4.820583760738373E-2   1.579930819571018E-2  -9.191170334815979E-1   1.394331008195877E-1  
 7.441441441441442E8     1.634265333414078E-1   5.108316540718079E-1  -5.010317265987396E-2   2.080955542623997E-2  -5.023981630802155E-2   2.020812593400478E-2  -9.150931239128113E-1   1.510992497205734E-1  
 7.465465465465466E8     1.767878830432892E-1   4.741994738578796E-1  -5.174186080694199E-2   2.599026076495647E-2  -5.194264277815819E-2   2.541248872876167E-2  -9.098830819129944E-1   1.639228910207748E-1  
 7.489489489489490E8     1.860215812921524E-1   4.348070025444031E-1  -5.267218500375748E-2   3.191988542675972E-2  -5.306521803140640E-2   3.144883736968041E-2  -9.051550626754761E-1   1.759854555130005E-1  
 7.513513513513514E8     1.906017214059830E-1   3.912408649921417E-1  -5.287693813443184E-2   3.857734054327011E-2  -5.345491319894791E-2   3.813576325774193E-2  -9.003629088401794E-1   1.885855048894882E-1  
 7.537537537537538E8     1.891403645277023E-1   3.481094241142273E-1  -5.191376060247421E-2   4.570712521672249E-2  -5.262877792119980E-2   4.548372328281403E-2  -8.945038914680481E-1   2.032664120197296E-1  
 7.561561561561562E8     1.815564334392548E-1   3.036465346813202E-1  -4.993594065308571E-2   5.281366035342217E-2  -5.033405497670174E-2   5.246335640549660E-2  -8.878247737884522E-1   2.160068005323410E-1  
 7.585585585585586E8     1.683662682771683E-1   2.621069252490997E-1  -4.723280295729637E-2   5.955014005303383E-2  -4.743412882089615E-2   5.905959755182266E-2  -8.802914023399353E-1   2.311482131481171E-1  
 7.609609609609610E8     1.502901017665863E-1   2.227788120508194E-1  -4.388105124235153E-2   6.649038195610046E-2  -4.425790533423424E-2   6.537640839815140E-2  -8.723747730255127E-1   2.459976822137833E-1  
 7.633633633633634E8     1.276567578315735E-1   1.863905191421509E-1  -3.946089744567871E-2   7.345471531152725E-2  -4.019371792674065E-2   7.216587662696838E-2  -8.645500540733337E-1   2.603104710578919E-1  
 7.657657657657658E8     1.009771376848221E-1   1.534516364336014E-1  -3.393702208995819E-2   7.986535876989365E-2  -3.502873331308365E-2   7.873259484767914E-2  -8.572671413421631E-1   2.728952765464783E-1  
 7.681681681681682E8     7.168342918157578E-2   1.246100589632988E-1  -2.795973233878613E-2   8.529178798198700E-2  -2.930641546845436E-2   8.487646281719208E-2  -8.507632613182068E-1   2.852550745010376E-1  
 7.705705705705706E8     4.080829024314880E-2   1.019803434610367E-1  -2.171575650572777E-2   9.049993753433228E-2  -2.316406182944775E-2   9.024411439895630E-2  -8.420352339744568E-1   2.974954545497894E-1  
 7.729729729729730E8     9.226815775036812E-3   8.353988081216812E-2  -1.481308043003082E-2   9.521644562482834E-2  -1.610272563993931E-2   9.569712728261948E-2  -8.338229060173035E-1   3.118103444576263E-1  
 7.753753753753754E8    -2.622744627296925E-2   6.737022846937180E-2  -6.989846471697092E-3   9.974944591522217E-2  -8.248718455433846E-3   1.004442721605301E-1  -8.233895301818848E-1   3.271980881690979E-1  
 7.777777777777778E8    -6.279483437538147E-2   5.550600215792656E-2   1.554750488139689E-3   1.036035194993019E-1   5.907343584112823E-4   1.039708554744721E-1  -8.094398379325867E-1   3.425781130790710E-1  
 7.801801801801802E8    -9.856542199850082E-2   4.861935973167419E-2   1.030979026108980E-2   1.069952026009560E-1   9.765681810677052E-3   1.065266132354736E-1  -7.920624613761902E-1   3.559518158435822E-1  
 7.825825825825826E8    -1.329270303249359E-1   4.847360774874687E-2   1.983445882797241E-2   1.093426942825317E-1   1.989547349512577E-2   1.089620068669319E-1  -7.759242057800293E-1   3.710886836051941E-1  
 7.849849849849850E8    -1.660500317811966E-1   5.315345525741577E-2   3.052861429750919E-2   1.110475435853005E-1   2.977287583053112E-2   1.104003861546516E-1  -7.605630159378052E-1   3.826231658458710E-1  
 7.873873873873874E8    -1.955862045288086E-1   5.927736684679985E-2   4.137916490435600E-2   1.113558411598206E-1   3.998488187789917E-2   1.106900945305824E-1  -7.448259592056274E-1   3.943390548229218E-1  
 7.897897897897898E8    -2.236767262220383E-1   6.654603779315949E-2   5.216045305132866E-2   1.108355820178986E-1   5.076008290052414E-2   1.105842292308807E-1  -7.286952137947083E-1   4.080033302307129E-1  
 7.921921921921922E8    -2.498219907283783E-1   7.680310308933258E-2   6.342282146215439E-2   1.094298362731934E-1   6.215316429734230E-2   1.101013198494911E-1  -7.117127776145935E-1   4.224327504634857E-1  
 7.945945945945946E8    -2.738535404205322E-1   8.908464759588242E-2   7.564111053943634E-2   1.067927628755570E-1   7.386177033185959E-2   1.077574938535690E-1  -6.901944875717163E-1   4.348542094230652E-1  
 7.969969969969970E8    -2.953597903251648E-1   9.992602467536926E-2   8.753565698862076E-2   1.021830588579178E-1   8.587881177663803E-2   1.034275665879250E-1  -6.664576530456543E-1   4.470974802970886E-1  
 7.993993993993994E8    -3.165357112884522E-1   1.093929335474968E-1   9.832959622144699E-2   9.673049300909042E-2   9.727133065462112E-2   9.756762534379959E-2  -6.400130987167358E-1   4.590049088001251E-1  
 8.018018018018018E8    -3.371465504169464E-1   1.222834363579750E-1   1.088104099035263E-1   9.080884605646133E-2   1.082007735967636E-1   9.088848531246185E-2  -6.110003590583801E-1   4.697550535202026E-1  
 8.042042042042042E8    -3.570228219032288E-1   1.394578218460083E-1   1.194436326622963E-1   8.382496237754822E-2   1.190601736307144E-1   8.370231837034226E-2  -5.803317427635193E-1   4.771630764007568E-1  
 8.066066066066066E8    -3.742022514343262E-1   1.590602695941925E-1   1.301297098398209E-1   7.519511878490448E-2   1.298194229602814E-1   7.558134943246841E-2  -5.464796423912048E-1   4.835690259933472E-1  
 8.090090090090090E8    -3.880275785923004E-1   1.786672025918961E-1   1.408770084381104E-1   6.531208008527756E-2   1.409125179052353E-1   6.583074480295181E-2  -5.094528198242188E-1   4.864925742149353E-1  
 8.114114114114114E8    -4.006550610065460E-1   1.964318603277206E-1   1.507770866155624E-1   5.354134738445282E-2   1.512176543474197E-1   5.416529998183250E-2  -4.711233675479889E-1   4.842872619628906E-1  
 8.138138138138138E8    -4.135693311691284E-1   2.150168567895889E-1   1.602194905281067E-1   4.032840579748154E-2   1.607845574617386E-1   4.086706042289734E-2  -4.315883219242096E-1   4.778635203838348E-1  
 8.162162162162162E8    -4.239939749240875E-1   2.350490689277649E-1   1.690971851348877E-1   2.498707920312882E-2   1.696265786886215E-1   2.535275742411614E-2  -3.907734453678131E-1   4.661650657653809E-1  
 8.186186186186186E8    -4.300605058670044E-1   2.552377879619598E-1   1.760575026273727E-1   7.203264627605677E-3   1.765006780624390E-1   7.175351027399302E-3  -3.493266105651856E-1   4.495228826999664E-1  
 8.210210210210210E8    -4.330163300037384E-1   2.720496058464050E-1   1.807816028594971E-1  -1.255255471915007E-2   1.802568435668945E-1  -1.163450162857771E-2  -3.102426230907440E-1   4.290037155151367E-1  
 8.234234234234234E8    -4.365276992321014E-1   2.887064516544342E-1   1.819307953119278E-1  -3.370497748255730E-2   1.818006038665772E-1  -3.209052607417107E-2  -2.696229219436646E-1   4.002933502197266E-1  
