#  HZ   S   RI   R     50.00 
! Rohde & Schwarz ZVB8 2Ports - Version 2.81 - 1145.1010k08 SN: 100113
! Date: 2016-05-04 02:48:38
! Measurements: S11 S21 S12 S22 
! 
 6.000000000000000E8    -8.952186703681946E-1   3.275169134140015E-1   1.338222355116159E-4  -3.126476076431572E-4   7.956029003253207E-5  -3.221071965526789E-4  -8.397061824798584E-1  -4.871257245540619E-1  
 6.024024024024024E8    -8.900784850120544E-1   3.393038213253021E-1   7.559049117844552E-5  -3.071296087000519E-4   1.957440254045650E-4  -2.714481961447746E-4  -8.443753123283386E-1  -4.788078963756561E-1  
 6.048048048048048E8    -8.847453594207764E-1   3.519587814807892E-1   9.473093814449385E-5  -3.711418539751321E-4   1.202111743623391E-4  -3.289181622676551E-4  -8.487729430198669E-1  -4.703204035758972E-1  
 6.072072072072072E8    -8.790288567543030E-1   3.649429976940155E-1   2.015779027715325E-4  -3.601195348892361E-4   1.623762946110219E-4  -3.509235393721610E-4  -8.533398509025574E-1  -4.619748890399933E-1  
 6.096096096096096E8    -8.724649548530579E-1   3.783641755580902E-1   1.883442309917882E-4  -3.220386861357838E-4   1.855291775427759E-4  -3.640464274212718E-4  -8.581804633140564E-1  -4.527355134487152E-1  
 6.120120120120120E8    -8.679085373878479E-1   3.886686861515045E-1   1.073478124453686E-4  -2.933430369012058E-4   1.707672927295789E-4  -2.912816999014467E-4  -8.617303371429443E-1  -4.454458355903626E-1  
 6.144144144144144E8    -8.618936538696289E-1   4.005070030689240E-1   2.727817045524716E-4  -3.109931130893529E-4   2.847593277692795E-4  -3.311628533992916E-4  -8.652354478836060E-1  -4.378088116645813E-1  
 6.168168168168168E8    -8.555152416229248E-1   4.122780859470367E-1   3.271559544373304E-4  -3.000677679665387E-4   4.377920413389802E-4  -2.578179410193116E-4  -8.694260120391846E-1  -4.295006394386292E-1  
 6.192192192192192E8    -8.489042520523071E-1   4.236939549446106E-1   4.219853144604713E-4  -3.325413854327053E-4   4.570482415147126E-4  -2.744067169260234E-4  -8.734490871429443E-1  -4.208755195140839E-1  
 6.216216216216216E8    -8.419721126556397E-1   4.353839159011841E-1   5.651320680044591E-4  -2.934627409558743E-4   6.381698767654598E-4  -2.147319173673168E-4  -8.783034086227417E-1  -4.112336039543152E-1  
 6.240240240240240E8    -8.348516225814819E-1   4.461897909641266E-1   6.878884742036462E-4  -3.480275336187333E-4   7.214273209683597E-4  -3.913652326446027E-4  -8.829023241996765E-1  -4.014176428318024E-1  
 6.264264264264264E8    -8.278704285621643E-1   4.583497345447540E-1   8.542087743990123E-4  -5.156055558472872E-4   8.583145681768656E-4  -5.056913942098618E-4  -8.873202800750732E-1  -3.904459476470947E-1  
 6.288288288288288E8    -8.205370903015137E-1   4.695157110691071E-1   9.865759639069438E-4  -7.469876436516643E-4   9.521306492388248E-4  -6.782095297239721E-4  -8.909066319465637E-1  -3.816443979740143E-1  
 6.312312312312312E8    -8.140624165534973E-1   4.801172912120819E-1   1.085613272152841E-3  -9.437876287847757E-4   1.112477737478912E-3  -9.484497131779790E-4  -8.942341804504395E-1  -3.734932839870453E-1  
 6.336336336336336E8    -8.079523444175720E-1   4.905510544776917E-1   1.043806900270283E-3  -1.222172868438065E-3   1.050261897034943E-3  -1.203610445372760E-3  -8.972010612487793E-1  -3.661864995956421E-1  
 6.360360360360360E8    -8.021091222763062E-1   5.005294084548950E-1   9.481604211032391E-4  -1.467728638090193E-3   1.011063577607274E-3  -1.527654821984470E-3  -9.001048207283020E-1  -3.586963713169098E-1  
 6.384384384384384E8    -7.949821949005127E-1   5.124503970146179E-1   8.651591488160193E-4  -1.723139663226903E-3   8.639156003482640E-4  -1.714893383905292E-3  -9.031624197959900E-1  -3.505800664424896E-1  
 6.408408408408408E8    -7.876590490341187E-1   5.243856310844421E-1   7.300252909772098E-4  -1.895843190141022E-3   6.759684183634818E-4  -1.884284662082791E-3  -9.066289663314819E-1  -3.420789837837219E-1  
 6.432432432432432E8    -7.797455191612244E-1   5.354067683219910E-1   5.084373988211155E-4  -2.035618294030428E-3   5.476163933053613E-4  -2.043975517153740E-3  -9.101156592369080E-1  -3.338115215301514E-1  
 6.456456456456456E8    -7.717924118041992E-1   5.462648868560791E-1   3.321633557789028E-4  -2.087424974888563E-3   3.098622546531260E-4  -2.071177586913109E-3  -9.134160280227661E-1  -3.253265917301178E-1  
 6.480480480480480E8    -7.635012865066528E-1   5.565878748893738E-1   9.352075721835718E-5  -2.124715130776167E-3   1.633297652006149E-4  -2.127973595634103E-3  -9.164999723434448E-1  -3.172436952590942E-1  
 6.504504504504504E8    -7.537305951118469E-1   5.682131052017212E-1  -4.687619730248116E-5  -2.181669464334846E-3  -6.695088086416945E-5  -2.223120769485831E-3  -9.187545180320740E-1  -3.079899251461029E-1  
 6.528528528528528E8    -7.449523210525513E-1   5.791962146759033E-1  -1.964492403203622E-4  -2.173783723264933E-3  -1.466602116124705E-4  -2.157744020223618E-3  -9.210614562034607E-1  -2.991029620170593E-1  
 6.552552552552552E8    -7.358681559562683E-1   5.892454385757446E-1  -2.755789610091597E-4  -2.140570431947708E-3  -2.475793880876154E-4  -2.149182604625821E-3  -9.236838817596436E-1  -2.907118797302246E-1  
 6.576576576576576E8    -7.274382710456848E-1   5.985861420631409E-1  -4.084973188582808E-4  -2.135494258254767E-3  -4.106095875613391E-4  -2.174686873331666E-3  -9.263315796852112E-1  -2.828683257102966E-1  
 6.600600600600600E8    -7.177241444587708E-1   6.086574196815491E-1  -4.707814368885011E-4  -2.104998566210270E-3  -4.276176332496107E-4  -2.124882536008954E-3  -9.294831156730652E-1  -2.749614417552948E-1  
 6.624624624624624E8    -7.071815133094788E-1   6.197608709335327E-1  -5.309574771672487E-4  -2.094365656375885E-3  -4.952616873197258E-4  -2.082139952108264E-3  -9.319260716438294E-1  -2.652526795864105E-1  
 6.648648648648648E8    -6.970703601837158E-1   6.302679181098938E-1  -5.382581148296595E-4  -2.005416667088866E-3  -5.562499864026904E-4  -2.019450068473816E-3  -9.344303607940674E-1  -2.559950053691864E-1  
 6.672672672672672E8    -6.866620182991028E-1   6.403319835662842E-1  -5.755921010859311E-4  -2.056492492556572E-3  -5.530054913833737E-4  -2.030575415119529E-3  -9.366744160652161E-1  -2.466093599796295E-1  
 6.696696696696696E8    -6.763967275619507E-1   6.500186324119568E-1  -6.028079660609365E-4  -1.942824223078787E-3  -5.420667584985495E-4  -2.013559220358729E-3  -9.387304186820984E-1  -2.380624115467072E-1  
 6.720720720720720E8    -6.654518246650696E-1   6.593217849731445E-1  -6.262444076128304E-4  -2.003877423703671E-3  -5.716058076359332E-4  -1.957404194399715E-3  -9.407487511634827E-1  -2.294867783784866E-1  
 6.744744744744744E8    -6.538273692131043E-1   6.687085032463074E-1  -5.829180008731782E-4  -2.011348959058523E-3  -5.788089474663138E-4  -2.015216508880258E-3  -9.426922202110291E-1  -2.204035818576813E-1  
 6.768768768768768E8    -6.423914432525635E-1   6.782847046852112E-1  -5.211435491219163E-4  -2.024369547143579E-3  -5.050849867984653E-4  -1.989308511838317E-3  -9.444374442100525E-1  -2.116426378488541E-1  
 6.792792792792792E8    -6.308718919754028E-1   6.868162155151367E-1  -4.201876872684807E-4  -1.990715507417917E-3  -3.509260131977499E-4  -1.991658937186003E-3  -9.465107917785645E-1  -2.029267400503159E-1  
 6.816816816816816E8    -6.198618412017822E-1   6.952029466629028E-1  -2.636584104038775E-4  -2.123930724337697E-3  -2.691420668270439E-4  -2.160138450562954E-3  -9.482707977294922E-1  -1.937745809555054E-1  
 6.840840840840840E8    -6.086697578430176E-1   7.034648656845093E-1  -4.426890154718421E-5  -2.271230099722743E-3  -8.104287553578615E-5  -2.190778264775872E-3  -9.502187371253967E-1  -1.844683438539505E-1  
 6.864864864864864E8    -5.965629220008850E-1   7.115163207054138E-1   1.302545133512467E-4  -2.546440809965134E-3   1.677636464592069E-4  -2.529321704059839E-3  -9.508997201919556E-1  -1.757884174585342E-1  
 6.888888888888888E8    -5.849170684814453E-1   7.198032140731812E-1   2.877687802538276E-4  -2.955303993076086E-3   3.407624026294798E-4  -2.938506659120321E-3  -9.520115852355957E-1  -1.662840992212296E-1  
 6.912912912912912E8    -5.740129947662354E-1   7.274885177612305E-1   2.700027253013104E-4  -3.575034206733108E-3   3.352327330503613E-4  -3.596552880480886E-3  -9.530373811721802E-1  -1.570204943418503E-1  
 6.936936936936936E8    -5.640103816986084E-1   7.351669073104858E-1   1.095135667128488E-4  -4.250225611031056E-3   2.470760082360357E-4  -4.189132712781429E-3  -9.542921185493469E-1  -1.479357481002808E-1  
 6.960960960960960E8    -5.537149906158447E-1   7.438265085220337E-1  -2.821032248903066E-4  -4.770091269165278E-3  -3.079089219681919E-4  -4.795713350176811E-3  -9.556936025619507E-1  -1.384421885013580E-1  
 6.984984984984984E8    -5.425616502761841E-1   7.527328133583069E-1  -7.933494634926319E-4  -5.283186677843332E-3  -8.180934237316251E-4  -5.291871726512909E-3  -9.571605324745178E-1  -1.260260641574860E-1  
 7.009009009009008E8    -5.312430262565613E-1   7.613242268562317E-1  -1.442884327843785E-3  -5.602278281003237E-3  -1.589327584952116E-3  -5.600177682936192E-3  -9.585518240928650E-1  -1.146804392337799E-1  
 7.033033033033032E8    -5.185967087745667E-1   7.695724368095398E-1  -2.088368637487292E-3  -5.670122802257538E-3  -2.150839893147349E-3  -5.608895327895880E-3  -9.591330289840698E-1  -1.061481833457947E-1  
 7.057057057057056E8    -5.057851076126099E-1   7.770240902900696E-1  -2.653065370395780E-3  -5.643808748573065E-3  -2.651534741744399E-3  -5.641369149088860E-3  -9.591474533081055E-1  -1.011438593268395E-1  
 7.081081081081080E8    -4.915964901447296E-1   7.847498655319214E-1  -3.279617289081216E-3  -5.601217038929462E-3  -3.235678188502789E-3  -5.621178541332483E-3  -9.596654772758484E-1  -9.465473145246506E-2  
 7.105105105105104E8    -4.766774773597717E-1   7.929806113243103E-1  -3.738094819709659E-3  -5.503302905708551E-3  -3.693192033097148E-3  -5.479029845446348E-3  -9.602799415588379E-1  -8.734138309955597E-2  
 7.129129129129129E8    -4.629007577896118E-1   7.996190190315247E-1  -4.135628230869770E-3  -5.325087346136570E-3  -4.015046637505293E-3  -5.370859056711197E-3  -9.607265591621399E-1  -7.844215631484985E-2  
 7.153153153153153E8    -4.502508640289307E-1   8.064017891883850E-1  -4.552378784865141E-3  -5.209460388869047E-3  -4.475318826735020E-3  -5.274015013128519E-3  -9.614895582199097E-1  -6.743725389242172E-2  
 7.177177177177178E8    -4.360949695110321E-1   8.130369782447815E-1  -4.866551607847214E-3  -5.138052161782980E-3  -4.717524163424969E-3  -5.131899379193783E-3  -9.621185660362244E-1  -5.597801133990288E-2  
 7.201201201201202E8    -4.202516973018646E-1   8.200753331184387E-1  -5.252145230770111E-3  -5.005330778658390E-3  -5.165916867554188E-3  -5.005015525966883E-3  -9.628701806068420E-1  -4.503858834505081E-2  
 7.225225225225226E8    -4.039600193500519E-1   8.268421888351440E-1  -5.620357114821672E-3  -4.950773436576128E-3  -5.557722412049770E-3  -4.931170959025621E-3  -9.632152318954468E-1  -3.435261920094490E-2  
 7.249249249249250E8    -3.875046670436859E-1   8.333503603935242E-1  -5.908782593905926E-3  -4.722677171230316E-3  -5.834043025970459E-3  -4.888220224529505E-3  -9.630543589591980E-1  -2.588230371475220E-2  
 7.273273273273274E8    -3.723800778388977E-1   8.389243483543396E-1  -6.284859497100115E-3  -4.683274310082197E-3  -6.167999003082514E-3  -4.764381796121597E-3  -9.627764821052551E-1  -1.706114225089550E-2  
 7.297297297297298E8    -3.587792813777924E-1   8.435052037239075E-1  -6.652832962572575E-3  -4.560860339552164E-3  -6.482385098934174E-3  -4.680040292441845E-3  -9.628626704216003E-1  -7.381025236099958E-3  
 7.321321321321322E8    -3.459761738777161E-1   8.477929830551148E-1  -6.855752784758806E-3  -4.520918242633343E-3  -6.831410340964794E-3  -4.474077373743057E-3  -9.625273942947388E-1   3.376097418367863E-3  
 7.345345345345346E8    -3.313530385494232E-1   8.520229458808899E-1  -7.120106369256973E-3  -4.424767103046179E-3  -7.166021503508091E-3  -4.386101383715868E-3  -9.619186520576477E-1   1.315122563391924E-2  
 7.369369369369370E8    -3.153661191463471E-1   8.563445210456848E-1  -7.471077144145966E-3  -4.470842890441418E-3  -7.464881986379623E-3  -4.377549048513174E-3  -9.616037607192993E-1   2.351142279803753E-2  
 7.393393393393394E8    -2.993862032890320E-1   8.601588606834412E-1  -7.870743982493877E-3  -4.401917103677988E-3  -7.904943078756332E-3  -4.433943424373865E-3  -9.607609510421753E-1   3.335450589656830E-2  
 7.417417417417418E8    -2.835051715373993E-1   8.634366989135742E-1  -8.383749052882195E-3  -4.346330650150776E-3  -8.330505341291428E-3  -4.378236364573240E-3  -9.602492451667786E-1   4.273961484432221E-2  
 7.441441441441442E8    -2.672952115535736E-1   8.665192723274231E-1  -8.862544782459736E-3  -4.259456880390644E-3  -8.884506300091744E-3  -4.310313612222672E-3  -9.597948193550110E-1   5.091640353202820E-2  
 7.465465465465466E8    -2.522220313549042E-1   8.699453473091126E-1  -9.445283561944962E-3  -4.109764471650124E-3  -9.348768740892410E-3  -4.255549050867558E-3  -9.587553739547730E-1   6.042825058102608E-2  
 7.489489489489490E8    -2.369586527347565E-1   8.728924393653870E-1  -9.914894588291645E-3  -3.909205086529255E-3  -9.961099363863468E-3  -3.999480046331883E-3  -9.582250714302063E-1   6.927570700645447E-2  
 7.513513513513514E8    -2.191125005483627E-1   8.754734992980957E-1  -1.060681510716677E-2  -3.724651644006372E-3  -1.057608332484961E-2  -3.844989696517587E-3  -9.575734138488770E-1   7.868421077728272E-2  
 7.537537537537538E8    -2.004403471946716E-1   8.773385286331177E-1  -1.119672507047653E-2  -3.344010794535279E-3  -1.118681859225035E-2  -3.571897977963090E-3  -9.568562507629395E-1   8.981145918369293E-2  
 7.561561561561562E8    -1.812836080789566E-1   8.777465224266052E-1  -1.183638349175453E-2  -2.949268091470003E-3  -1.177678816020489E-2  -3.106955438852310E-3  -9.549369215965271E-1   9.990861266851425E-2  
 7.585585585585586E8    -1.630449593067169E-1   8.773817420005798E-1  -1.233348064124584E-2  -2.525368705391884E-3  -1.230790466070175E-2  -2.580941421911120E-3  -9.522024393081665E-1   1.113698258996010E-1  
 7.609609609609610E8    -1.458556354045868E-1   8.767561912536621E-1  -1.287751831114292E-2  -2.155549591407180E-3  -1.273196283727884E-2  -2.176519948989153E-3  -9.498856067657471E-1   1.234206482768059E-1  
 7.633633633633634E8    -1.292017400264740E-1   8.769528865814209E-1  -1.340333931148052E-2  -1.720186206512153E-3  -1.326915249228478E-2  -1.833568327128887E-3  -9.482310414314270E-1   1.335039585828781E-1  
 7.657657657657658E8    -1.130476221442223E-1   8.771831989288330E-1  -1.396699249744415E-2  -1.183228450827301E-3  -1.379933767020702E-2  -1.391183235682547E-3  -9.475577473640442E-1   1.422564089298248E-1  
 7.681681681681682E8    -9.648144990205765E-2   8.775030970573425E-1  -1.441266480833292E-2  -6.991635309532285E-4  -1.441167946904898E-2  -9.544203057885170E-4  -9.476415514945984E-1   1.497098803520203E-1  
 7.705705705705706E8    -8.087996393442154E-2   8.776305317878723E-1  -1.490558963268995E-2  -2.403490070719272E-4  -1.497109793126583E-2  -4.433972062543035E-4  -9.460306763648987E-1   1.577670574188232E-1  
 7.729729729729730E8    -6.248997524380684E-2   8.758454322814941E-1  -1.546539925038815E-2   3.191361902281642E-4  -1.557859499007464E-2   1.280677097383887E-4  -9.457502365112305E-1   1.666945666074753E-1  
 7.753753753753754E8    -4.411800578236580E-2   8.723648190498352E-1  -1.598486863076687E-2   8.889322634786367E-4  -1.607342809438705E-2   6.836423999629915E-4  -9.445091485977173E-1   1.775212585926056E-1  
 7.777777777777778E8    -2.717992849647999E-2   8.668110370635986E-1  -1.654891483485699E-2   1.434836420230568E-3  -1.660567894577980E-2   1.249348861165345E-3  -9.403828978538513E-1   1.889419853687286E-1  
 7.801801801801802E8    -1.183476764708757E-2   8.606966137886047E-1  -1.711253076791763E-2   2.081049373373389E-3  -1.698965579271317E-2   1.881826785393059E-3  -9.332962632179260E-1   1.988122314214706E-1  
 7.825825825825826E8     5.188078619539738E-3   8.541092276573181E-1  -1.767700910568237E-2   2.717477036640048E-3  -1.757358014583588E-2   2.652507508173585E-3  -9.293255805969238E-1   2.094986736774445E-1  
 7.849849849849850E8     2.093173377215862E-2   8.497357368469238E-1  -1.835369318723679E-2   3.537488169968128E-3  -1.832473091781139E-2   3.351603401824832E-3  -9.254300594329834E-1   2.168311774730682E-1  
 7.873873873873874E8     3.637061640620232E-2   8.466863036155701E-1  -1.897429302334786E-2   4.465390928089619E-3  -1.877282746136189E-2   4.314716905355454E-3  -9.228323101997376E-1   2.238978743553162E-1  
 7.897897897897898E8     5.502003803849220E-2   8.430913090705872E-1  -1.948985457420349E-2   5.356449633836746E-3  -1.939031668007374E-2   5.174536723643541E-3  -9.217887520790100E-1   2.322203367948532E-1  
 7.921921921921922E8     7.587013393640518E-2   8.379390835762024E-1  -2.007060870528221E-2   6.372465752065182E-3  -2.012614160776138E-2   6.195268128067255E-3  -9.223268032073975E-1   2.418352663516998E-1  
 7.945945945945946E8     9.296959638595581E-2   8.329745531082153E-1  -2.067667618393898E-2   7.493054959923029E-3  -2.069493941962719E-2   7.310017477720976E-3  -9.182437658309937E-1   2.508808374404907E-1  
 7.969969969969970E8     1.099178567528725E-1   8.262599706649780E-1  -2.114615403115749E-2   8.740728721022606E-3  -2.112318389117718E-2   8.484018966555595E-3  -9.148297309875488E-1   2.608571350574493E-1  
 7.993993993993994E8     1.264335811138153E-1   8.173050880432129E-1  -2.157299779355526E-2   9.926442056894302E-3  -2.163866721093655E-2   9.720488451421261E-3  -9.112017154693604E-1   2.713352143764496E-1  
 8.018018018018018E8     1.426005512475967E-1   8.063957095146179E-1  -2.205920219421387E-2   1.119621191173792E-2  -2.207681350409985E-2   1.117907930165529E-2  -9.070584177970886E-1   2.823272049427033E-1  
 8.042042042042042E8     1.587016880512238E-1   7.959992289543152E-1  -2.244110032916069E-2   1.267880946397781E-2  -2.243612892925739E-2   1.263765711337328E-2  -9.030829071998596E-1   2.909111976623535E-1  
 8.066066066066066E8     1.743415147066116E-1   7.853181362152100E-1  -2.265286445617676E-2   1.424583606421948E-2  -2.264591865241528E-2   1.421850081533194E-2  -8.990334868431091E-1   3.015447258949280E-1  
 8.090090090090090E8     1.883974224328995E-1   7.745887637138367E-1  -2.274058200418949E-2   1.584025286138058E-2  -2.278043888509274E-2   1.573859341442585E-2  -8.950662612915039E-1   3.112384676933289E-1  
 8.114114114114114E8     2.029287666082382E-1   7.641389966011047E-1  -2.274264954030514E-2   1.734002493321896E-2  -2.281935326755047E-2   1.727880723774433E-2  -8.907204866409302E-1   3.207086324691773E-1  
 8.138138138138138E8     2.179319560527802E-1   7.527576684951782E-1  -2.300822362303734E-2   1.893750205636025E-2  -2.307460457086563E-2   1.884669810533524E-2  -8.865146636962891E-1   3.301156759262085E-1  
 8.162162162162162E8     2.319212108850479E-1   7.402336597442627E-1  -2.317019365727902E-2   2.087308838963509E-2  -2.328731119632721E-2   2.081006206572056E-2  -8.827463984489441E-1   3.388350903987885E-1  
 8.186186186186186E8     2.441095858812332E-1   7.273167371749878E-1  -2.305283211171627E-2   2.304286137223244E-2  -2.312780171632767E-2   2.287814579904079E-2  -8.777180314064026E-1   3.487613797187805E-1  
 8.210210210210210E8     2.552963495254517E-1   7.131386399269104E-1  -2.260928414762020E-2   2.508625760674477E-2  -2.267469651997089E-2   2.497180923819542E-2  -8.729620575904846E-1   3.581682145595551E-1  
 8.234234234234234E8     2.662932574748993E-1   6.989800930023193E-1  -2.199085801839829E-2   2.716216444969177E-2  -2.203753963112831E-2   2.699374780058861E-2  -8.676695227622986E-1   3.681897521018982E-1  
