#  HZ   S   RI   R     50.00 
! Rohde & Schwarz ZVB8 2Ports - Version 2.81 - 1145.1010k08 SN: 100113
! Date: 2016-05-04 02:49:39
! Measurements: S11 S21 S12 S22 
! 
 6.000000000000000E8    -8.666459918022156E-1   3.696292042732239E-1   9.496692655375227E-5  -6.219924543984234E-4   1.115753693738952E-4  -5.795216420665383E-4  -8.439292907714844E-1  -4.771613180637360E-1  
 6.024024024024024E8    -8.595477342605591E-1   3.821701705455780E-1   1.126719507738017E-4  -6.132351700216532E-4   1.224273000843823E-4  -6.050628144294024E-4  -8.481729626655579E-1  -4.686786234378815E-1  
 6.048048048048048E8    -8.522444367408752E-1   3.959656059741974E-1   1.176594014395960E-4  -6.771574262529612E-4   1.182152191177011E-4  -6.110770627856255E-4  -8.527791500091553E-1  -4.597336947917938E-1  
 6.072072072072072E8    -8.443794250488281E-1   4.098533987998962E-1   2.023712149821222E-4  -6.849142373539507E-4   2.123373997164890E-4  -5.484846769832075E-4  -8.576647639274597E-1  -4.509387910366058E-1  
 6.096096096096096E8    -8.356570005416870E-1   4.239780008792877E-1   2.129390340996906E-4  -5.829413421452045E-4   2.149731444660574E-4  -6.948155350983143E-4  -8.621884584426880E-1  -4.415037631988525E-1  
 6.120120120120120E8    -8.289804458618164E-1   4.352548718452454E-1   3.049710358027369E-4  -6.257692584767938E-4   2.495042281225324E-4  -6.321026012301445E-4  -8.658189773559570E-1  -4.335626959800720E-1  
 6.144144144144144E8    -8.206138014793396E-1   4.475746154785156E-1   3.813704242929816E-4  -6.062591564841569E-4   4.110199224669486E-4  -6.021343870088458E-4  -8.694270253181458E-1  -4.259388744831085E-1  
 6.168168168168168E8    -8.118962645530701E-1   4.603579342365265E-1   5.543559673242271E-4  -6.556289154104888E-4   4.865128430537880E-4  -6.534273270517588E-4  -8.733950853347778E-1  -4.169723689556122E-1  
 6.192192192192192E8    -8.023225665092468E-1   4.721232950687408E-1   7.058245828375220E-4  -6.264742114581168E-4   6.736863870173693E-4  -6.847881595604122E-4  -8.777077198028565E-1  -4.080301523208618E-1  
 6.216216216216216E8    -7.926563620567322E-1   4.841673076152802E-1   9.439680143259466E-4  -7.357242866419256E-4   9.821772109717131E-4  -7.568684522993863E-4  -8.825497031211853E-1  -3.976804018020630E-1  
 6.240240240240240E8    -7.829558849334717E-1   4.953800141811371E-1   1.228523324243724E-3  -9.593716240487993E-4   1.181561499834061E-3  -9.672217420302331E-4  -8.869827389717102E-1  -3.870761990547180E-1  
 6.264264264264264E8    -7.730408310890198E-1   5.074726939201355E-1   1.457046484574676E-3  -1.247526612132788E-3   1.494219643063843E-3  -1.199001562781632E-3  -8.912608623504639E-1  -3.760613203048706E-1  
 6.288288288288288E8    -7.636560201644898E-1   5.189445614814758E-1   1.659021829254925E-3  -1.617900212295353E-3   1.673680730164051E-3  -1.637435518205166E-3  -8.951416015625000E-1  -3.664446175098419E-1  
 6.312312312312312E8    -7.549260854721069E-1   5.295439958572388E-1   1.684259506873786E-3  -2.153443871065974E-3   1.743173575960100E-3  -2.160355448722839E-3  -8.980740308761597E-1  -3.578977584838867E-1  
 6.336336336336336E8    -7.463424801826477E-1   5.405945777893066E-1   1.670878496952355E-3  -2.683929167687893E-3   1.670634141191840E-3  -2.665984909981489E-3  -9.009646177291870E-1  -3.497744798660278E-1  
 6.360360360360360E8    -7.379594445228577E-1   5.516106486320496E-1   1.450086943805218E-3  -3.236999269574881E-3   1.487901899963617E-3  -3.268137108534575E-3  -9.038151502609253E-1  -3.423006534576416E-1  
 6.384384384384384E8    -7.280855178833008E-1   5.644271373748779E-1   1.154499943368137E-3  -3.660384798422456E-3   1.166081055998802E-3  -3.620859002694488E-3  -9.066488742828369E-1  -3.334115743637085E-1  
 6.408408408408408E8    -7.175221443176270E-1   5.775315761566162E-1   7.225278532132506E-4  -4.061102867126465E-3   7.584365084767342E-4  -3.977057058364153E-3  -9.100630879402161E-1  -3.245503902435303E-1  
 6.432432432432432E8    -7.064135074615479E-1   5.899677276611328E-1   2.684159844648093E-4  -4.256131127476692E-3   3.452266391832382E-4  -4.201720003038645E-3  -9.132600426673889E-1  -3.156098723411560E-1  
 6.456456456456456E8    -6.944215297698975E-1   6.017988920211792E-1  -1.574833440827206E-4  -4.411239176988602E-3  -9.958560258382931E-5  -4.420690238475800E-3  -9.167805910110474E-1  -3.066979944705963E-1  
 6.480480480480480E8    -6.819556355476379E-1   6.133702993392944E-1  -5.437752697616816E-4  -4.543903749436140E-3  -4.795237910002470E-4  -4.521752241998911E-3  -9.198411107063294E-1  -2.979840636253357E-1  
 6.504504504504504E8    -6.683335900306702E-1   6.259811520576477E-1  -9.068669751286507E-4  -4.517931025475264E-3  -8.079553954303265E-4  -4.552850965410471E-3  -9.218091368675232E-1  -2.882819473743439E-1  
 6.528528528528528E8    -6.540628075599670E-1   6.376736164093018E-1  -1.160147367045283E-3  -4.498771857470274E-3  -1.125567476265132E-3  -4.474614746868610E-3  -9.241057038307190E-1  -2.786151170730591E-1  
 6.552552552552552E8    -6.403095126152039E-1   6.484075188636780E-1  -1.490635448135436E-3  -4.486910067498684E-3  -1.434751553460956E-3  -4.492593463510275E-3  -9.267574548721314E-1  -2.694279253482819E-1  
 6.576576576576576E8    -6.259683370590210E-1   6.584590077400208E-1  -1.675163046456873E-3  -4.444442689418793E-3  -1.630465267226100E-3  -4.472096450626850E-3  -9.292409420013428E-1  -2.608788609504700E-1  
 6.600600600600600E8    -6.100900769233704E-1   6.688907146453857E-1  -1.904050819575787E-3  -4.385400563478470E-3  -1.865102560259402E-3  -4.383690655231476E-3  -9.322882890701294E-1  -2.522906064987183E-1  
 6.624624624624624E8    -5.934916138648987E-1   6.800177097320557E-1  -2.080295933410525E-3  -4.444926511496306E-3  -1.967359799891710E-3  -4.391882568597794E-3  -9.347078204154968E-1  -2.419776916503906E-1  
 6.648648648648648E8    -5.766118168830872E-1   6.903067827224731E-1  -2.215160289779306E-3  -4.401159938424826E-3  -2.107477746903896E-3  -4.412350244820118E-3  -9.369122982025147E-1  -2.317475676536560E-1  
 6.672672672672672E8    -5.595819354057312E-1   6.994024515151978E-1  -2.285098657011986E-3  -4.381730686873198E-3  -2.260320819914341E-3  -4.416296258568764E-3  -9.389534592628479E-1  -2.216880917549133E-1  
 6.696696696696696E8    -5.420066118240356E-1   7.078440785408020E-1  -2.353531308472157E-3  -4.488384351134300E-3  -2.332080854102969E-3  -4.439470358192921E-3  -9.407962560653687E-1  -2.119765132665634E-1  
 6.720720720720720E8    -5.232940316200256E-1   7.154506444931030E-1  -2.340330975130200E-3  -4.464628174901009E-3  -2.378495642915368E-3  -4.575497470796108E-3  -9.425265789031982E-1  -2.027912586927414E-1  
 6.744744744744744E8    -5.037446022033691E-1   7.226991653442383E-1  -2.442112658172846E-3  -4.615982063114643E-3  -2.431074157357216E-3  -4.640790633857250E-3  -9.440781474113464E-1  -1.928520202636719E-1  
 6.768768768768768E8    -4.848411679267883E-1   7.290275692939758E-1  -2.410121494904161E-3  -4.732978530228138E-3  -2.404477912932634E-3  -4.735158290714026E-3  -9.453963041305542E-1  -1.831143051385880E-1  
 6.792792792792792E8    -4.660353362560272E-1   7.348206043243408E-1  -2.272569574415684E-3  -4.911551252007484E-3  -2.252030652016401E-3  -4.941767081618309E-3  -9.470069408416748E-1  -1.733867973089218E-1  
 6.816816816816816E8    -4.468790590763092E-1   7.396906018257141E-1  -2.112589543685317E-3  -5.282041151076555E-3  -2.015425823628902E-3  -5.284788552671671E-3  -9.485092759132385E-1  -1.632609218358994E-1  
 6.840840840840840E8    -4.281562864780426E-1   7.440554499626160E-1  -1.856340677477419E-3  -5.921018309891224E-3  -1.751527306623757E-3  -5.959482863545418E-3  -9.501196146011353E-1  -1.527173519134522E-1  
 6.864864864864864E8    -4.089983701705933E-1   7.476445436477661E-1  -1.599097740836442E-3  -6.804391741752625E-3  -1.592859392985702E-3  -6.818366702646017E-3  -9.503193497657776E-1  -1.429591178894043E-1  
 6.888888888888888E8    -3.905726969242096E-1   7.509860992431641E-1  -1.803491031751037E-3  -8.148544467985630E-3  -1.625955337658525E-3  -8.162845857441425E-3  -9.507422447204590E-1  -1.324889808893204E-1  
 6.912912912912912E8    -3.734813630580902E-1   7.541197538375855E-1  -2.213924191892147E-3  -9.709273464977741E-3  -2.145334379747510E-3  -9.709781035780907E-3  -9.511709809303284E-1  -1.222926154732704E-1  
 6.936936936936936E8    -3.566367626190186E-1   7.587607502937317E-1  -3.342226147651672E-3  -1.139345392584801E-2  -3.263247199356556E-3  -1.138210948556662E-2  -9.518277049064636E-1  -1.118043735623360E-1  
 6.960960960960960E8    -3.381358385086060E-1   7.645750045776367E-1  -5.176251754164696E-3  -1.288407761603594E-2  -5.093005020171404E-3  -1.276746112853289E-2  -9.526615738868713E-1  -1.013877540826798E-1  
 6.984984984984984E8    -3.177979588508606E-1   7.708411812782288E-1  -7.251021452248097E-3  -1.376429945230484E-2  -7.417588494718075E-3  -1.370052061975002E-2  -9.533113241195679E-1  -8.778770267963409E-2  
 7.009009009009008E8    -2.952750325202942E-1   7.765624523162842E-1  -9.666332975029945E-3  -1.415636762976646E-2  -9.756999090313911E-3  -1.399460248649120E-2  -9.535947442054749E-1  -7.547323405742645E-2  
 7.033033033033032E8    -2.699850499629974E-1   7.803158760070801E-1  -1.192536670714617E-2  -1.408462412655354E-2  -1.201815996319056E-2  -1.381676364690065E-2  -9.536817073822022E-1  -6.595192104578018E-2  
 7.057057057057056E8    -2.434499710798264E-1   7.816666364669800E-1  -1.408980321139097E-2  -1.350267231464386E-2  -1.404297351837158E-2  -1.341188792139292E-2  -9.532642364501953E-1  -5.974745750427246E-2  
 7.081081081081080E8    -2.154846787452698E-1   7.814759612083435E-1  -1.604134961962700E-2  -1.279806718230248E-2  -1.599587872624397E-2  -1.299209427088499E-2  -9.531721472740173E-1  -5.201732739806175E-2  
 7.105105105105104E8    -1.861035823822022E-1   7.797173261642456E-1  -1.798854582011700E-2  -1.194795779883862E-2  -1.780743710696697E-2  -1.230423338711262E-2  -9.528363347053528E-1  -4.351861774921417E-2  
 7.129129129129129E8    -1.580099761486054E-1   7.747014760971069E-1  -1.977140456438065E-2  -1.108705997467041E-2  -1.952986046671867E-2  -1.141121797263622E-2  -9.528778791427612E-1  -3.313155844807625E-2  
 7.153153153153153E8    -1.301804333925247E-1   7.676656842231751E-1  -2.143741212785244E-2  -1.017526723444462E-2  -2.135049179196358E-2  -1.041660737246275E-2  -9.524971842765808E-1  -2.090479992330074E-2  
 7.177177177177178E8    -1.008366793394089E-1   7.586764097213745E-1  -2.317414246499538E-2  -9.138501249253750E-3  -2.310959063470364E-2  -9.290043264627457E-3  -9.521899223327637E-1  -7.857518270611763E-3  
 7.201201201201202E8    -7.048358768224716E-2   7.467271685600281E-1  -2.499086037278175E-2  -7.877937518060207E-3  -2.481609955430031E-2  -8.130279369652271E-3  -9.516254663467407E-1   4.489143844693899E-3  
 7.225225225225226E8    -4.160252213478088E-2   7.324639558792114E-1  -2.683410421013832E-2  -6.538527086377144E-3  -2.653719857335091E-2  -6.782939657568932E-3  -9.509986639022827E-1   1.691081561148167E-2  
 7.249249249249250E8    -1.363679766654968E-2   7.162309885025024E-1  -2.860811911523342E-2  -4.760063253343105E-3  -2.838163450360298E-2  -5.433322861790657E-3  -9.496943354606628E-1   2.677928470075131E-2  
 7.273273273273274E8     1.235464401543140E-2   6.978209018707275E-1  -3.029267862439156E-2  -2.881889231503010E-3  -3.015104494988918E-2  -3.658832516521215E-3  -9.485432505607605E-1   3.720601648092270E-2  
 7.297297297297298E8     3.492975980043411E-2   6.792061328887940E-1  -3.178277239203453E-2  -1.066198688931763E-3  -3.176474943757057E-2  -1.607492216862738E-3  -9.471052289009094E-1   4.878316819667816E-2  
 7.321321321321322E8     5.662110075354576E-2   6.598239541053772E-1  -3.317014127969742E-2   6.373522919602692E-4  -3.330729529261589E-2   6.509622326120734E-4  -9.455131888389587E-1   6.083005294203758E-2  
 7.345345345345346E8     7.945732772350311E-2   6.380831003189087E-1  -3.460397571325302E-2   2.588108414784074E-3  -3.466673940420151E-2   2.851415425539017E-3  -9.432622790336609E-1   7.263966649770737E-2  
 7.369369369369370E8     1.036519557237625E-1   6.122153401374817E-1  -3.621880710124970E-2   4.684972576797009E-3  -3.617357462644577E-2   4.966007545590401E-3  -9.411287307739258E-1   8.475179970264435E-2  
 7.393393393393394E8     1.259621977806091E-1   5.825348496437073E-1  -3.802022710442543E-2   7.171280216425657E-3  -3.784167766571045E-2   7.358795031905174E-3  -9.388684034347534E-1   9.693250060081482E-2  
 7.417417417417418E8     1.456848829984665E-1   5.496971607208252E-1  -3.981376439332962E-2   1.018956117331982E-2  -3.971120342612267E-2   1.015560422092676E-2  -9.366503357887268E-1   1.078715324401856E-1  
 7.441441441441442E8     1.635232418775559E-1   5.137956142425537E-1  -4.135444760322571E-2   1.388056203722954E-2  -4.149591550230980E-2   1.339653320610523E-2  -9.343129992485046E-1   1.180970221757889E-1  
 7.465465465465466E8     1.776243895292282E-1   4.767476022243500E-1  -4.288275539875031E-2   1.792204938828945E-2  -4.300495237112045E-2   1.728554069995880E-2  -9.312164187431335E-1   1.295927613973618E-1  
 7.489489489489490E8     1.882382780313492E-1   4.374397099018097E-1  -4.386595636606216E-2   2.231010794639587E-2  -4.408552125096321E-2   2.174961753189564E-2  -9.283981323242188E-1   1.405253261327744E-1  
 7.513513513513514E8     1.943646371364594E-1   3.938216567039490E-1  -4.428566992282867E-2   2.729417569935322E-2  -4.462087154388428E-2   2.671621181070805E-2  -9.254733920097351E-1   1.522855013608933E-1  
 7.537537537537538E8     1.944280415773392E-1   3.496685624122620E-1  -4.382748156785965E-2   3.265521675348282E-2  -4.446820542216301E-2   3.214738145470619E-2  -9.221255183219910E-1   1.651596873998642E-1  
 7.561561561561562E8     1.885509192943573E-1   3.060962855815888E-1  -4.290015250444412E-2   3.780625388026238E-2  -4.315560683608055E-2   3.754249215126038E-2  -9.178732037544251E-1   1.771314442157745E-1  
 7.585585585585586E8     1.763343811035156E-1   2.632594406604767E-1  -4.141122102737427E-2   4.297547787427902E-2  -4.143091663718224E-2   4.249019920825958E-2  -9.123950004577637E-1   1.910300999879837E-1  
 7.609609609609610E8     1.589784622192383E-1   2.225413769483566E-1  -3.939639776945114E-2   4.813189059495926E-2  -3.950113430619240E-2   4.741602391004562E-2  -9.073525071144104E-1   2.050999999046326E-1  
 7.633633633633634E8     1.374081224203110E-1   1.846200078725815E-1  -3.674478828907013E-2   5.342947319149971E-2  -3.707685321569443E-2   5.262509733438492E-2  -9.026929140090942E-1   2.176498025655747E-1  
 7.657657657657658E8     1.107136607170105E-1   1.489622741937637E-1  -3.313648700714111E-2   5.858670175075531E-2  -3.392792120575905E-2   5.780262872576714E-2  -8.985751867294312E-1   2.291465997695923E-1  
 7.681681681681682E8     8.029537647962570E-2   1.180202811956406E-1  -2.917847596108913E-2   6.310103833675385E-2  -3.025148063898087E-2   6.271157413721085E-2  -8.954145908355713E-1   2.393521964550018E-1  
 7.705705705705706E8     4.631887748837471E-2   9.295013546943665E-2  -2.470191754400730E-2   6.735523790121079E-2  -2.595194801688194E-2   6.704231351613998E-2  -8.905984163284302E-1   2.498183995485306E-1  
 7.729729729729730E8     1.082120928913355E-2   7.203155010938644E-2  -1.964403502643108E-2   7.114878296852112E-2  -2.107747457921505E-2   7.114318758249283E-2  -8.869699835777283E-1   2.618203461170197E-1  
 7.753753753753754E8    -2.523975074291229E-2   5.568788200616837E-2  -1.428460143506527E-2   7.465028762817383E-2  -1.571092382073402E-2   7.483559101819992E-2  -8.815568685531616E-1   2.755146920681000E-1  
 7.777777777777778E8    -6.365080177783966E-2   4.332689940929413E-2  -8.571475744247437E-3   7.768024504184723E-2  -9.788807481527329E-3   7.773952186107636E-2  -8.729392886161804E-1   2.893446385860443E-1  
 7.801801801801802E8    -1.002458706498146E-1   3.658673167228699E-2  -2.814223757013679E-3   8.027969300746918E-2  -3.445376409217715E-3   7.973218709230423E-2  -8.615741133689880E-1   3.016217947006226E-1  
 7.825825825825826E8    -1.348817199468613E-1   3.633871674537659E-2   3.161222906783223E-3   8.233951777219772E-2   2.988546621054411E-3   8.182820677757263E-2  -8.524184226989746E-1   3.155842125415802E-1  
 7.849849849849850E8    -1.685469597578049E-1   4.058893769979477E-2   9.910095483064652E-3   8.390758186578751E-2   9.480888955295086E-3   8.321438729763031E-2  -8.434994816780090E-1   3.264004588127136E-1  
 7.873873873873874E8    -2.001276463270187E-1   4.652041569352150E-2   1.677427254617214E-2   8.479257673025131E-2   1.587622053921223E-2   8.410381525754929E-2  -8.352794647216797E-1   3.371302187442780E-1  
 7.897897897897898E8    -2.302163392305374E-1   5.352660641074181E-2   2.339550293982029E-2   8.514437824487686E-2   2.240597456693649E-2   8.473605662584305E-2  -8.280982375144959E-1   3.497552871704102E-1  
 7.921921921921922E8    -2.586337924003601E-1   6.365285813808441E-2   3.021530434489250E-2   8.509544283151627E-2   2.946498431265354E-2   8.527281135320664E-2  -8.215001821517944E-1   3.638077080249786E-1  
 7.945945945945946E8    -2.847463786602020E-1   7.620853930711746E-2   3.744580596685410E-2   8.456753939390183E-2   3.652594238519669E-2   8.511675149202347E-2  -8.101564049720764E-1   3.767732381820679E-1  
 7.969969969969970E8    -3.085489571094513E-1   8.824229985475540E-2   4.469789937138557E-2   8.317419141530991E-2   4.380576685070992E-2   8.387222886085510E-2  -7.983738183975220E-1   3.904165625572205E-1  
 7.993993993993994E8    -3.343238234519959E-1   1.006839275360107E-1   5.160215124487877E-2   8.103563636541367E-2   5.074832960963249E-2   8.175974339246750E-2  -7.860797047615051E-1   4.045921862125397E-1  
 8.018018018018018E8    -3.597049713134766E-1   1.174893826246262E-1   5.793214589357376E-2   7.878217846155167E-2   5.737949535250664E-2   7.937733829021454E-2  -7.717900276184082E-1   4.189663827419281E-1  
 8.042042042042042E8    -3.818742334842682E-1   1.386358439922333E-1   6.450802087783814E-2   7.636141031980515E-2   6.403704732656479E-2   7.677005231380463E-2  -7.577480673789978E-1   4.315460622310638E-1  
 8.066066066066066E8    -3.977374136447907E-1   1.609335243701935E-1   7.126963883638382E-2   7.379600405693054E-2   7.091506570577622E-2   7.394504547119141E-2  -7.416911125183106E-1   4.458837509155273E-1  
 8.090090090090090E8    -4.100349247455597E-1   1.837196797132492E-1   7.835067063570023E-2   7.058679312467575E-2   7.808467000722885E-2   7.036910206079483E-2  -7.244728803634644E-1   4.587201178073883E-1  
 8.114114114114114E8    -4.216942787170410E-1   2.057756334543228E-1   8.539743721485138E-2   6.606676429510117E-2   8.511748164892197E-2   6.616923213005066E-2  -7.062594294548035E-1   4.709086716175079E-1  
 8.138138138138138E8    -4.331814944744110E-1   2.281465530395508E-1   9.224391728639603E-2   6.133534386754036E-2   9.189293533563614E-2   6.173858419060707E-2  -6.871446371078491E-1   4.823097884654999E-1  
 8.162162162162162E8    -4.417655169963837E-1   2.517488300800324E-1   9.914944320917130E-2   5.596784129738808E-2   9.874465316534042E-2   5.642261356115341E-2  -6.665857434272766E-1   4.930118024349213E-1  
 8.186186186186186E8    -4.460626244544983E-1   2.760201096534729E-1   1.057473048567772E-1   4.941888898611069E-2   1.056054383516312E-1   5.009347200393677E-2  -6.443208456039429E-1   5.036367177963257E-1  
 8.210210210210210E8    -4.458085596561432E-1   2.962962687015533E-1   1.117609962821007E-1   4.222075268626213E-2   1.115651354193687E-1   4.244955256581307E-2  -6.208055019378662E-1   5.132938027381897E-1  
 8.234234234234234E8    -4.451334774494171E-1   3.146908879280090E-1   1.173976808786392E-1   3.418642282485962E-2   1.169495359063149E-1   3.451513871550560E-2  -5.950769782066345E-1   5.220895409584045E-1  
