#  HZ   S   RI   R     50.00 
! Rohde & Schwarz ZVB8 2Ports - Version 2.81 - 1145.1010k08 SN: 100113
! Date: 2016-05-04 02:48:48
! Measurements: S11 S21 S12 S22 
! 
 6.000000000000000E8    -8.916251063346863E-1   3.327004909515381E-1   1.253689697477967E-4  -2.914239303208888E-4   8.754547161515802E-5  -3.004252794198692E-4  -8.403711318969727E-1  -4.860228300094605E-1  
 6.024024024024024E8    -8.866632580757141E-1   3.448773622512817E-1   1.045988901751116E-4  -3.559014003258199E-4   8.961810817709193E-5  -3.206904511898756E-4  -8.451429009437561E-1  -4.775480329990387E-1  
 6.048048048048048E8    -8.807812333106995E-1   3.575654625892639E-1   1.462836662540212E-4  -2.856037754099816E-4   1.144127090810798E-4  -3.258371434640139E-4  -8.494628667831421E-1  -4.691140651702881E-1  
 6.072072072072072E8    -8.746019601821899E-1   3.706612884998322E-1   1.400056498823687E-4  -3.250297449994832E-4   1.056216278811917E-4  -3.141025663353503E-4  -8.539975285530090E-1  -4.605598747730255E-1  
 6.096096096096096E8    -8.683057427406311E-1   3.844207227230072E-1   1.629374746698886E-4  -3.343359276186675E-4   1.724625326460227E-4  -2.941741840913892E-4  -8.586049675941467E-1  -4.514202773571014E-1  
 6.120120120120120E8    -8.635149002075195E-1   3.945770263671875E-1   2.582845045253635E-4  -3.496398567222059E-4   1.296427653869614E-4  -3.202065126970410E-4  -8.622576594352722E-1  -4.443360567092896E-1  
 6.144144144144144E8    -8.572410941123962E-1   4.064491093158722E-1   2.367703855270520E-4  -2.991883375216276E-4   2.797044289764017E-4  -2.850548189599067E-4  -8.660396337509155E-1  -4.364236891269684E-1  
 6.168168168168168E8    -8.506672978401184E-1   4.181900024414063E-1   3.668010176625103E-4  -2.988605119753629E-4   3.708707226905972E-4  -2.207682409789413E-4  -8.698611259460449E-1  -4.281541407108307E-1  
 6.192192192192192E8    -8.437701463699341E-1   4.299465119838715E-1   4.667528264690191E-4  -3.090233367402107E-4   4.821368493139744E-4  -1.769818336470053E-4  -8.742154836654663E-1  -4.193142056465149E-1  
 6.216216216216216E8    -8.364972472190857E-1   4.414296448230743E-1   7.110058795660734E-4  -3.100219182670116E-4   5.789448041468859E-4  -2.471306070219725E-4  -8.789204955101013E-1  -4.097480177879334E-1  
 6.240240240240240E8    -8.292300701141357E-1   4.525136649608612E-1   7.632461492903531E-4  -4.250760248396546E-4   7.008084212429822E-4  -3.861848381347954E-4  -8.834112286567688E-1  -3.995466530323029E-1  
 6.264264264264264E8    -8.220399618148804E-1   4.644100964069367E-1   9.215504978783429E-4  -5.290349363349378E-4   9.162061032839119E-4  -5.339034250937402E-4  -8.877691030502319E-1  -3.892446160316467E-1  
 6.288288288288288E8    -8.145812153816223E-1   4.757996499538422E-1   1.095702406018972E-3  -7.509156130254269E-4   1.130632357671857E-3  -7.621978875249624E-4  -8.912957906723023E-1  -3.803822994232178E-1  
 6.312312312312312E8    -8.078617453575134E-1   4.865041673183441E-1   1.119324122555554E-3  -1.039754715748131E-3   1.171784475445747E-3  -1.059202011674643E-3  -8.945478200912476E-1  -3.723692297935486E-1  
 6.336336336336336E8    -8.017662167549133E-1   4.968182444572449E-1   1.159253297373653E-3  -1.395859522745013E-3   1.181155908852816E-3  -1.299430499784648E-3  -8.974115848541260E-1  -3.644480705261231E-1  
 6.360360360360360E8    -7.956547141075134E-1   5.072417855262756E-1   1.084920833818615E-3  -1.583826611749828E-3   1.059255679138005E-3  -1.601654570549727E-3  -9.006187915802002E-1  -3.571358323097229E-1  
 6.384384384384384E8    -7.879921197891235E-1   5.192068815231323E-1   9.281205711886287E-4  -1.895919791422784E-3   1.017186790704727E-3  -1.920952112413943E-3  -9.035415053367615E-1  -3.486700057983398E-1  
 6.408408408408408E8    -7.802195549011231E-1   5.314929485321045E-1   7.702660514041781E-4  -2.033171942457557E-3   7.695626700296998E-4  -2.008176641538739E-3  -9.069330692291260E-1  -3.403632342815399E-1  
 6.432432432432432E8    -7.722577452659607E-1   5.428891181945801E-1   5.786684341728687E-4  -2.202834002673626E-3   6.127079250290990E-4  -2.208203542977572E-3  -9.102357625961304E-1  -3.319097459316254E-1  
 6.456456456456456E8    -7.639504671096802E-1   5.536808967590332E-1   3.579755430109799E-4  -2.292878692969680E-3   3.266611893195659E-4  -2.319002058357000E-3  -9.136348366737366E-1  -3.234956860542297E-1  
 6.480480480480480E8    -7.551296353340149E-1   5.640990734100342E-1   1.357230648864061E-4  -2.354963915422559E-3   1.423011126462370E-4  -2.364369342103601E-3  -9.171323776245117E-1  -3.153541982173920E-1  
 6.504504504504504E8    -7.452358007431030E-1   5.758322477340698E-1  -2.832745121850167E-5  -2.368594286963344E-3   4.609140160027891E-5  -2.309973351657391E-3  -9.191130399703980E-1  -3.059782683849335E-1  
 6.528528528528528E8    -7.357538938522339E-1   5.870126485824585E-1  -1.969214208656922E-4  -2.391258021816611E-3  -1.722093729767948E-4  -2.340867416933179E-3  -9.215164184570313E-1  -2.970103025436401E-1  
 6.552552552552552E8    -7.266458868980408E-1   5.971202850341797E-1  -2.774298482108861E-4  -2.364276209846139E-3  -2.550919307395816E-4  -2.311486983671784E-3  -9.242315292358398E-1  -2.886312007904053E-1  
 6.576576576576576E8    -7.173683643341065E-1   6.064417362213135E-1  -4.513267485890538E-4  -2.325245412066579E-3  -3.816480748355389E-4  -2.282631117850542E-3  -9.268570542335510E-1  -2.806366682052612E-1  
 6.600600600600600E8    -7.071645259857178E-1   6.166786551475525E-1  -4.940652870573103E-4  -2.304853638634086E-3  -4.449789994396269E-4  -2.223142655566335E-3  -9.299712181091309E-1  -2.725788056850433E-1  
 6.624624624624624E8    -6.963670849800110E-1   6.279435157775879E-1  -4.774588160216808E-4  -2.288106596097350E-3  -5.235971766524017E-4  -2.247456694021821E-3  -9.322969913482666E-1  -2.627144157886505E-1  
 6.648648648648648E8    -6.856181621551514E-1   6.388034224510193E-1  -5.965486052446067E-4  -2.300496213138104E-3  -5.988706252537668E-4  -2.262781839817762E-3  -9.347262978553772E-1  -2.531881928443909E-1  
 6.672672672672672E8    -6.747549772262573E-1   6.487318873405457E-1  -6.212592124938965E-4  -2.250096993520856E-3  -5.644569173455238E-4  -2.223832532763481E-3  -9.370819330215454E-1  -2.440716624259949E-1  
 6.696696696696696E8    -6.636874675750732E-1   6.582003235816956E-1  -6.075782002881169E-4  -2.248185453936458E-3  -6.086165667511523E-4  -2.239817520603538E-3  -9.393320083618164E-1  -2.351926863193512E-1  
 6.720720720720720E8    -6.522261500358582E-1   6.678409576416016E-1  -6.398460245691240E-4  -2.200521295890212E-3  -5.827505956403911E-4  -2.273576101288199E-3  -9.410246014595032E-1  -2.267628461122513E-1  
 6.744744744744744E8    -6.399081945419312E-1   6.775407791137695E-1  -6.237299530766904E-4  -2.258373657241464E-3  -6.049050716683269E-4  -2.242983086034656E-3  -9.428407549858093E-1  -2.177058011293411E-1  
 6.768768768768768E8    -6.274875402450562E-1   6.864995360374451E-1  -4.863705544266850E-4  -2.297275932505727E-3  -4.548314900603145E-4  -2.370186150074005E-3  -9.447937607765198E-1  -2.087554335594177E-1  
 6.792792792792792E8    -6.158802509307861E-1   6.954253911972046E-1  -4.125981649849564E-4  -2.350164577364922E-3  -4.184103163424879E-4  -2.350101247429848E-3  -9.464288353919983E-1  -1.999478787183762E-1  
 6.816816816816816E8    -6.037651300430298E-1   7.036502361297607E-1  -2.600530569907278E-4  -2.446312690153718E-3  -2.464851131662726E-4  -2.427825005725026E-3  -9.483712315559387E-1  -1.906093806028366E-1  
 6.840840840840840E8    -5.917517542839050E-1   7.117415666580200E-1  -6.293702608672902E-5  -2.664593746885657E-3  -4.795353743247688E-5  -2.630380215123296E-3  -9.504002928733826E-1  -1.811120361089706E-1  
 6.864864864864864E8    -5.789454579353333E-1   7.199029326438904E-1   1.670518977334723E-4  -2.960459794849157E-3   2.347573026781902E-4  -2.950149122625589E-3  -9.510210752487183E-1  -1.722575426101685E-1  
 6.888888888888888E8    -5.666224360466003E-1   7.276217341423035E-1   3.592768334783614E-4  -3.436116734519601E-3   3.526966029312462E-4  -3.476874670013785E-3  -9.518834352493286E-1  -1.631398200988770E-1  
 6.912912912912912E8    -5.552810430526733E-1   7.354241013526917E-1   3.270849410910159E-4  -4.089886322617531E-3   4.367617366369814E-4  -4.128883592784405E-3  -9.528938531875610E-1  -1.535480022430420E-1  
 6.936936936936936E8    -5.446102619171143E-1   7.429651618003845E-1   1.606098958291113E-4  -4.837499000132084E-3   2.409340086160228E-4  -4.818656016141176E-3  -9.543021321296692E-1  -1.442755907773972E-1  
 6.960960960960960E8    -5.335277318954468E-1   7.515432834625244E-1  -2.606965717859566E-4  -5.623369012027979E-3  -2.655105490703136E-4  -5.587181542068720E-3  -9.557127356529236E-1  -1.349107176065445E-1  
 6.984984984984984E8    -5.217233896255493E-1   7.600849866867065E-1  -9.515187120996416E-4  -6.115837953984737E-3  -9.952695108950138E-4  -6.164490710943937E-3  -9.572382569313049E-1  -1.222686544060707E-1  
 7.009009009009008E8    -5.095061063766480E-1   7.689933776855469E-1  -1.700296183116734E-3  -6.491105072200298E-3  -1.768952934071422E-3  -6.391912233084440E-3  -9.582533836364746E-1  -1.107949391007423E-1  
 7.033033033033032E8    -4.960878193378449E-1   7.771927714347839E-1  -2.460114425048232E-3  -6.611345335841179E-3  -2.493816427886486E-3  -6.549347657710314E-3  -9.588199257850647E-1  -1.022872179746628E-1  
 7.057057057057056E8    -4.821863472461700E-1   7.845223546028137E-1  -3.139770356938243E-3  -6.661549210548401E-3  -3.192225703969598E-3  -6.598712410777807E-3  -9.589754343032837E-1  -9.704878181219101E-2  
 7.081081081081080E8    -4.668474793434143E-1   7.920167446136475E-1  -3.804856212809682E-3  -6.608384661376476E-3  -3.784851636737585E-3  -6.601425819098949E-3  -9.591607451438904E-1  -9.064325690269470E-2  
 7.105105105105104E8    -4.507813155651093E-1   8.001217246055603E-1  -4.452037159353495E-3  -6.578466854989529E-3  -4.366345237940550E-3  -6.562222260981798E-3  -9.597203731536865E-1  -8.302007615566254E-2  
 7.129129129129129E8    -4.360690116882324E-1   8.067629933357239E-1  -4.923212341964245E-3  -6.409122142940760E-3  -4.830967634916306E-3  -6.407858338207007E-3  -9.603818655014038E-1  -7.400277256965637E-2  
 7.153153153153153E8    -4.220166504383087E-1   8.128534555435181E-1  -5.401551723480225E-3  -6.363373715430498E-3  -5.297130439430475E-3  -6.411309354007244E-3  -9.611015915870667E-1  -6.305604428052902E-2  
 7.177177177177178E8    -4.066169261932373E-1   8.189525008201599E-1  -5.818406585603952E-3  -6.257380358874798E-3  -5.888326559215784E-3  -6.260236725211144E-3  -9.614762067794800E-1  -5.109811574220657E-2  
 7.201201201201202E8    -3.892236053943634E-1   8.256214261054993E-1  -6.355614867061377E-3  -6.099529098719358E-3  -6.279099266976118E-3  -6.169332191348076E-3  -9.620130062103272E-1  -4.009503126144409E-2  
 7.225225225225226E8    -3.718279898166657E-1   8.314889073371887E-1  -6.841356866061688E-3  -6.015820894390345E-3  -6.763460580259562E-3  -6.098411511629820E-3  -9.626537561416626E-1  -2.947551943361759E-2  
 7.249249249249250E8    -3.544341921806335E-1   8.367546200752258E-1  -7.394304499030113E-3  -5.848063621670008E-3  -7.273757364600897E-3  -5.960488226264715E-3  -9.621822834014893E-1  -2.077326178550720E-2  
 7.273273273273274E8    -3.377799689769745E-1   8.414860367774963E-1  -7.921704091131687E-3  -5.716375075280666E-3  -7.821893319487572E-3  -5.852921865880489E-3  -9.619021415710449E-1  -1.196491066366434E-2  
 7.297297297297298E8    -3.231298625469208E-1   8.454638719558716E-1  -8.486419916152954E-3  -5.597996059805155E-3  -8.293540216982365E-3  -5.682269111275673E-3  -9.619278907775879E-1  -1.975389197468758E-3  
 7.321321321321322E8    -3.094020783901215E-1   8.488821387290955E-1  -8.849538862705231E-3  -5.480748601257801E-3  -8.805924095213413E-3  -5.441108252853155E-3  -9.613869786262512E-1   8.553934283554554E-3  
 7.345345345345346E8    -2.935891747474670E-1   8.520604968070984E-1  -9.247221983969212E-3  -5.156536586582661E-3  -9.219256229698658E-3  -5.156394559890032E-3  -9.607043862342835E-1   1.858606189489365E-2  
 7.369369369369370E8    -2.767982482910156E-1   8.554861545562744E-1  -9.627161547541618E-3  -5.134272389113903E-3  -9.656623937189579E-3  -5.072536878287792E-3  -9.601693749427795E-1   2.899853885173798E-2  
 7.393393393393394E8    -2.592284083366394E-1   8.585827350616455E-1  -1.022743806242943E-2  -5.094469990581274E-3  -1.025063544511795E-2  -5.053315777331591E-3  -9.594697952270508E-1   3.943626582622528E-2  
 7.417417417417418E8    -2.420403212308884E-1   8.609480261802673E-1  -1.084896549582481E-2  -4.991356283426285E-3  -1.082757581025362E-2  -4.963812883943319E-3  -9.588168263435364E-1   4.854056984186173E-2  
 7.441441441441442E8    -2.241224944591522E-1   8.630488514900208E-1  -1.155795995146036E-2  -4.743213299661875E-3  -1.148911751806736E-2  -4.890169482678175E-3  -9.583333134651184E-1   5.699183046817780E-2  
 7.465465465465466E8    -2.072177827358246E-1   8.650866746902466E-1  -1.229717303067446E-2  -4.507107194513083E-3  -1.223923265933991E-2  -4.659936297684908E-3  -9.571646451950073E-1   6.673756241798401E-2  
 7.489489489489490E8    -1.900264471769333E-1   8.666281700134277E-1  -1.303403452038765E-2  -4.214181564748287E-3  -1.301471516489983E-2  -4.313770215958357E-3  -9.564872980117798E-1   7.550580799579620E-2  
 7.513513513513514E8    -1.710218489170075E-1   8.672474026679993E-1  -1.384513545781374E-2  -3.810215974226594E-3  -1.385304797440767E-2  -3.919320181012154E-3  -9.556932449340820E-1   8.552430570125580E-2  
 7.537537537537538E8    -1.503522247076035E-1   8.670352697372437E-1  -1.465616654604673E-2  -3.209851682186127E-3  -1.463027857244015E-2  -3.433200996369124E-3  -9.546094536781311E-1   9.656532108783722E-2  
 7.561561561561562E8    -1.299291551113129E-1   8.651758432388306E-1  -1.542125828564167E-2  -2.603824250400066E-3  -1.538334880024195E-2  -2.711739856749773E-3  -9.525825381278992E-1   1.066389530897141E-1  
 7.585585585585586E8    -1.099970042705536E-1   8.628627657890320E-1  -1.604074798524380E-2  -2.018674276769161E-3  -1.596070080995560E-2  -2.112643094733357E-3  -9.498338699340820E-1   1.187037900090218E-1  
 7.609609609609610E8    -9.172905236482620E-2   8.596681356430054E-1  -1.675834320485592E-2  -1.316079753451049E-3  -1.656810194253922E-2  -1.483433297835290E-3  -9.472765922546387E-1   1.304093450307846E-1  
 7.633633633633634E8    -7.384549081325531E-2   8.569071888923645E-1  -1.741020381450653E-2  -6.910433294251561E-4  -1.725914329290390E-2  -7.983779651112855E-4  -9.454725980758667E-1   1.407656371593475E-1  
 7.657657657657658E8    -5.610447749495506E-2   8.547767400741577E-1  -1.809047535061836E-2   1.398494205204770E-4  -1.801631972193718E-2  -1.093079845304601E-4  -9.444528818130493E-1   1.495961695909500E-1  
 7.681681681681682E8    -3.886201232671738E-2   8.524537682533264E-1  -1.870987936854363E-2   8.874583872966468E-4  -1.869746483862400E-2   6.534362328238785E-4  -9.444649815559387E-1   1.573390513658524E-1  
 7.705705705705706E8    -2.192712016403675E-2   8.498004078865051E-1  -1.938783004879952E-2   1.627231598831713E-3  -1.944343931972981E-2   1.382101792842150E-3  -9.425581693649292E-1   1.654164195060730E-1  
 7.729729729729730E8    -2.433083951473236E-3   8.452752232551575E-1  -1.999483816325665E-2   2.530363388359547E-3  -2.013765648007393E-2   2.220764290541410E-3  -9.420740604400635E-1   1.749805659055710E-1  
 7.753753753753754E8     1.706874743103981E-2   8.386197090148926E-1  -2.068565413355827E-2   3.476010635495186E-3  -2.086185850203037E-2   3.160645021125674E-3  -9.402850866317749E-1   1.858962327241898E-1  
 7.777777777777778E8     3.479857370257378E-2   8.301007151603699E-1  -2.138754911720753E-2   4.550838377326727E-3  -2.148308977484703E-2   4.245189949870110E-3  -9.358382225036621E-1   1.976711302995682E-1  
 7.801801801801802E8     5.103990435600281E-2   8.204495906829834E-1  -2.205459959805012E-2   5.502195097506046E-3  -2.193416096270084E-2   5.249814130365849E-3  -9.287774562835693E-1   2.075440287590027E-1  
 7.825825825825826E8     6.850391626358032E-2   8.097474575042725E-1  -2.276303246617317E-2   6.672137882560492E-3  -2.262362465262413E-2   6.546286400407553E-3  -9.243240356445313E-1   2.186723351478577E-1  
 7.849849849849850E8     8.406937122344971E-2   8.014140129089356E-1  -2.342287078499794E-2   8.083344437181950E-3  -2.332977391779423E-2   7.919358089566231E-3  -9.202808141708374E-1   2.262401431798935E-1  
 7.873873873873874E8     1.002032160758972E-1   7.943102717399597E-1  -2.388455346226692E-2   9.610799141228199E-3  -2.377245947718620E-2   9.329937398433685E-3  -9.174244999885559E-1   2.333159446716309E-1  
 7.897897897897898E8     1.185837835073471E-1   7.865164279937744E-1  -2.434273995459080E-2   1.108743343502283E-2  -2.417994663119316E-2   1.087343879044056E-2  -9.160073399543762E-1   2.418668270111084E-1  
 7.921921921921922E8     1.385496109724045E-1   7.764418125152588E-1  -2.474103309214115E-2   1.267846301198006E-2  -2.475431375205517E-2   1.245147734880447E-2  -9.162720441818237E-1   2.516019642353058E-1  
 7.945945945945946E8     1.549578458070755E-1   7.671341300010681E-1  -2.507892809808254E-2   1.443758606910706E-2  -2.508874237537384E-2   1.413669530302286E-2  -9.121360778808594E-1   2.610519826412201E-1  
 7.969969969969970E8     1.710381507873535E-1   7.561752200126648E-1  -2.515571005642414E-2   1.613702252507210E-2  -2.529314160346985E-2   1.593974418938160E-2  -9.081586003303528E-1   2.709017992019653E-1  
 7.993993993993994E8     1.867606788873673E-1   7.432836294174194E-1  -2.521928586065769E-2   1.782613433897495E-2  -2.542900480329990E-2   1.760696060955524E-2  -9.042922258377075E-1   2.814323604106903E-1  
 8.018018018018018E8     2.023299336433411E-1   7.275252938270569E-1  -2.542984858155251E-2   1.946271769702435E-2  -2.562044188380241E-2   1.935162022709847E-2  -8.997186422348023E-1   2.931739687919617E-1  
 8.042042042042042E8     2.172946035861969E-1   7.120989561080933E-1  -2.556499093770981E-2   2.138985134661198E-2  -2.570308186113834E-2   2.137411572039127E-2  -8.958128690719605E-1   3.016454875469208E-1  
 8.066066066066066E8     2.309801876544952E-1   6.964037418365479E-1  -2.562108263373375E-2   2.347615361213684E-2  -2.571254968643189E-2   2.337633632123470E-2  -8.913874030113220E-1   3.122400343418121E-1  
 8.090090090090090E8     2.434034198522568E-1   6.802497506141663E-1  -2.543158270418644E-2   2.572454884648323E-2  -2.556008845567703E-2   2.573330327868462E-2  -8.864021301269531E-1   3.226435184478760E-1  
 8.114114114114114E8     2.556479573249817E-1   6.640658974647522E-1  -2.515665255486965E-2   2.801319770514965E-2  -2.528869919478893E-2   2.798205055296421E-2  -8.817595243453980E-1   3.320938944816589E-1  
 8.138138138138138E8     2.675738930702210E-1   6.462368369102478E-1  -2.493407577276230E-2   3.044053167104721E-2  -2.513221651315689E-2   3.035348653793335E-2  -8.772890567779541E-1   3.414144814014435E-1  
 8.162162162162162E8     2.777340710163117E-1   6.263331770896912E-1  -2.450650185346603E-2   3.339891135692596E-2  -2.454819902777672E-2   3.325423970818520E-2  -8.727641105651856E-1   3.509493172168732E-1  
 8.186186186186186E8     2.836633920669556E-1   6.070775985717773E-1  -2.342454530298710E-2   3.654949739575386E-2  -2.351685054600239E-2   3.637435659766197E-2  -8.675512671470642E-1   3.605082929134369E-1  
 8.210210210210210E8     2.877319753170013E-1   5.886060595512390E-1  -2.178038656711578E-2   3.934218361973763E-2  -2.186078019440174E-2   3.925919905304909E-2  -8.619153499603272E-1   3.704229295253754E-1  
 8.234234234234234E8     2.913321256637573E-1   5.707070827484131E-1  -1.981482468545437E-2   4.192863404750824E-2  -1.994074881076813E-2   4.179102182388306E-2  -8.565652966499329E-1   3.801966309547424E-1  
