#  HZ   S   RI   R     50.00 
! Rohde & Schwarz ZVB8 2Ports - Version 2.81 - 1145.1010k08 SN: 100113
! Date: 2016-05-04 02:49:29
! Measurements: S11 S21 S12 S22 
! 
 6.000000000000000E8    -8.734980821609497E-1   3.606196343898773E-1   1.427751558367163E-4  -4.966174019500613E-4   9.341623081127182E-5  -4.845199291594327E-4  -8.434141874313355E-1  -4.791666865348816E-1  
 6.024024024024024E8    -8.671323657035828E-1   3.731040954589844E-1   1.401505724061281E-4  -5.329972482286394E-4   1.366784272249788E-4  -4.883974324911833E-4  -8.479064106941223E-1  -4.704478979110718E-1  
 6.048048048048048E8    -8.601997494697571E-1   3.863208889961243E-1   1.823909260565415E-4  -5.707026575691998E-4   1.343448238912970E-4  -5.860462551936507E-4  -8.522365093231201E-1  -4.616410136222839E-1  
 6.072072072072072E8    -8.525360822677612E-1   4.002143144607544E-1   2.037430385826156E-4  -5.983907612971962E-4   1.908449485199526E-4  -6.143940263427794E-4  -8.567814230918884E-1  -4.528095126152039E-1  
 6.096096096096096E8    -8.447333574295044E-1   4.142040908336639E-1   2.354470489080995E-4  -5.730925477109850E-4   2.780659124255180E-4  -6.051984382793307E-4  -8.617422580718994E-1  -4.433986544609070E-1  
 6.120120120120120E8    -8.386206030845642E-1   4.252538084983826E-1   2.228666999144480E-4  -5.414470215328038E-4   2.748412371147424E-4  -5.397733766585589E-4  -8.652011156082153E-1  -4.356803894042969E-1  
 6.144144144144144E8    -8.307843804359436E-1   4.374954402446747E-1   4.098631907254458E-4  -4.478521004784852E-4   3.659357025753707E-4  -5.675729480572045E-4  -8.688980340957642E-1  -4.278633892536163E-1  
 6.168168168168168E8    -8.225157856941223E-1   4.499000906944275E-1   4.510955477599055E-4  -5.508132162503898E-4   5.056287627667189E-4  -5.172630771994591E-4  -8.728538751602173E-1  -4.194727838039398E-1  
 6.192192192192192E8    -8.138970732688904E-1   4.617478847503662E-1   6.966092041693628E-4  -5.659421440213919E-4   6.769137689843774E-4  -4.944135434925556E-4  -8.769833445549011E-1  -4.102028310298920E-1  
 6.216216216216216E8    -8.050424456596375E-1   4.733953773975372E-1   7.917712209746242E-4  -6.245156400837004E-4   8.769570849835873E-4  -6.456010160036385E-4  -8.817776441574097E-1  -4.003461003303528E-1  
 6.240240240240240E8    -7.962521910667419E-1   4.845424890518189E-1   1.136135892011225E-3  -7.755009573884308E-4   1.071398030035198E-3  -8.702221675775945E-4  -8.861975669860840E-1  -3.898808658123016E-1  
 6.264264264264264E8    -7.872024178504944E-1   4.968074858188629E-1   1.296486239880323E-3  -1.031657564453781E-3   1.366310054436326E-3  -9.612333378754556E-4  -8.906698822975159E-1  -3.793050646781921E-1  
 6.288288288288288E8    -7.783102989196777E-1   5.080795884132385E-1   1.553296926431358E-3  -1.435882411897183E-3   1.543525257147849E-3  -1.372620114125311E-3  -8.941730260848999E-1  -3.699961006641388E-1  
 6.312312312312312E8    -7.702010273933411E-1   5.188388824462891E-1   1.637302571907640E-3  -1.807346125133336E-3   1.564013888128102E-3  -1.823356957174838E-3  -8.972519636154175E-1  -3.615465462207794E-1  
 6.336336336336336E8    -7.622799873352051E-1   5.296905040740967E-1   1.577460789121687E-3  -2.304211957380176E-3   1.565830549225211E-3  -2.244068309664726E-3  -9.001145362854004E-1  -3.536281585693359E-1  
 6.360360360360360E8    -7.544228434562683E-1   5.406355857849121E-1   1.446559675969183E-3  -2.774965018033981E-3   1.395797124132514E-3  -2.732015447691083E-3  -9.030550122261047E-1  -3.462730050086975E-1  
 6.384384384384384E8    -7.455796599388123E-1   5.530229806900024E-1   1.125997165217996E-3  -3.196130041033030E-3   1.134815160185099E-3  -3.120482433587313E-3  -9.061107039451599E-1  -3.373348116874695E-1  
 6.408408408408408E8    -7.359535098075867E-1   5.656551718711853E-1   8.226927602663636E-4  -3.472791984677315E-3   7.686878670938313E-4  -3.457339247688651E-3  -9.093212485313416E-1  -3.282773494720459E-1  
 6.432432432432432E8    -7.256643176078796E-1   5.780716538429260E-1   4.071341536473483E-4  -3.692587139084935E-3   4.471402207855135E-4  -3.656482556834817E-3  -9.128434658050537E-1  -3.194603323936462E-1  
 6.456456456456456E8    -7.151670455932617E-1   5.898087024688721E-1   6.656662299064919E-5  -3.832048969343305E-3   1.117612846428528E-4  -3.794410033151507E-3  -9.161226749420166E-1  -3.108533024787903E-1  
 6.480480480480480E8    -7.039431929588318E-1   6.008584499359131E-1  -2.824753464665264E-4  -3.933011088520289E-3  -3.138740139547736E-4  -3.902262076735497E-3  -9.192947149276733E-1  -3.024892807006836E-1  
 6.504504504504504E8    -6.913983821868897E-1   6.132444739341736E-1  -5.877981311641634E-4  -3.947742283344269E-3  -5.289824912324548E-4  -3.896478563547134E-3  -9.214904904365540E-1  -2.924222350120544E-1  
 6.528528528528528E8    -6.788229942321777E-1   6.250442862510681E-1  -8.764601079747081E-4  -3.925572615116835E-3  -8.305118535645306E-4  -3.909698687493801E-3  -9.237718582153320E-1  -2.829305827617645E-1  
 6.552552552552552E8    -6.662976145744324E-1   6.358312964439392E-1  -1.049366896040738E-3  -3.867930499836803E-3  -1.035030116327107E-3  -3.823437960818410E-3  -9.260312318801880E-1  -2.740855515003204E-1  
 6.576576576576576E8    -6.538370251655579E-1   6.460736989974976E-1  -1.242002821527422E-3  -3.848600434139371E-3  -1.204215339384973E-3  -3.795707132667303E-3  -9.288739562034607E-1  -2.658444643020630E-1  
 6.600600600600600E8    -6.397132277488709E-1   6.563835740089417E-1  -1.328161451965570E-3  -3.867172636091709E-3  -1.381820533424616E-3  -3.797065233811736E-3  -9.319152235984802E-1  -2.572219371795654E-1  
 6.624624624624624E8    -6.252112984657288E-1   6.677477955818176E-1  -1.501851016655564E-3  -3.785582724958658E-3  -1.457513077184558E-3  -3.815144766122103E-3  -9.341831803321838E-1  -2.471498101949692E-1  
 6.648648648648648E8    -6.104731559753418E-1   6.782644391059876E-1  -1.573779620230198E-3  -3.789681941270828E-3  -1.610799808986485E-3  -3.805067855864763E-3  -9.365444183349609E-1  -2.369895428419113E-1  
 6.672672672672672E8    -5.954599380493164E-1   6.879343390464783E-1  -1.663410337641835E-3  -3.789922688156366E-3  -1.651486032642424E-3  -3.738738363608718E-3  -9.388605952262878E-1  -2.272994220256805E-1  
 6.696696696696696E8    -5.802019834518433E-1   6.970444321632385E-1  -1.661104150116444E-3  -3.812222275882959E-3  -1.709713833406568E-3  -3.795193973928690E-3  -9.404243826866150E-1  -2.178934663534164E-1  
 6.720720720720720E8    -5.639101266860962E-1   7.055917978286743E-1  -1.741248299367726E-3  -3.863334655761719E-3  -1.770370057784021E-3  -3.890262451022863E-3  -9.423457980155945E-1  -2.088555991649628E-1  
 6.744744744744744E8    -5.467647314071655E-1   7.138071656227112E-1  -1.757061341777444E-3  -3.927898593246937E-3  -1.668874523602426E-3  -3.869462059810758E-3  -9.440311789512634E-1  -1.991863399744034E-1  
 6.768768768768768E8    -5.299472212791443E-1   7.215345501899719E-1  -1.697247964330018E-3  -4.018407780677080E-3  -1.683735405094922E-3  -4.050954710692167E-3  -9.455108046531677E-1  -1.896284669637680E-1  
 6.792792792792792E8    -5.134695172309876E-1   7.286901473999023E-1  -1.581900054588914E-3  -4.147589672356844E-3  -1.522215898148716E-3  -4.239944741129875E-3  -9.471380114555359E-1  -1.800228357315064E-1  
 6.816816816816816E8    -4.966999590396881E-1   7.351956963539124E-1  -1.337679452262819E-3  -4.466867540031672E-3  -1.238465774804354E-3  -4.506318364292383E-3  -9.489219784736633E-1  -1.700383573770523E-1  
 6.840840840840840E8    -4.802409112453461E-1   7.409451603889465E-1  -1.103081624023616E-3  -4.940682090818882E-3  -1.038819551467896E-3  -4.886606708168984E-3  -9.506149888038635E-1  -1.598325222730637E-1  
 6.864864864864864E8    -4.633125960826874E-1   7.467012405395508E-1  -8.574620005674660E-4  -5.717804655432701E-3  -8.366359397768974E-4  -5.704805720597506E-3  -9.508878588676453E-1  -1.504133641719818E-1  
 6.888888888888888E8    -4.467044472694397E-1   7.516984939575195E-1  -7.119719521142542E-4  -6.779620889574289E-3  -6.680044461973012E-4  -6.727335508912802E-3  -9.513636231422424E-1  -1.403390169143677E-1  
 6.912912912912912E8    -4.313606321811676E-1   7.568001151084900E-1  -1.006541890092194E-3  -8.021966554224491E-3  -9.276114869862795E-4  -8.032701909542084E-3  -9.517176747322083E-1  -1.300065964460373E-1  
 6.936936936936936E8    -4.166356623172760E-1   7.629888057708740E-1  -1.815494964830577E-3  -9.504812769591808E-3  -1.664867624640465E-3  -9.454811923205853E-3  -9.526031017303467E-1  -1.201538294553757E-1  
 6.960960960960960E8    -4.010062515735626E-1   7.702402472496033E-1  -3.022775053977966E-3  -1.076482981443405E-2  -2.980400342494249E-3  -1.067911554127932E-2  -9.536741375923157E-1  -1.099433302879334E-1  
 6.984984984984984E8    -3.843060433864594E-1   7.780711650848389E-1  -4.618743434548378E-3  -1.167789939790964E-2  -4.710934124886990E-3  -1.163424365222454E-2  -9.546869993209839E-1  -9.660374373197556E-2  
 7.009009009009008E8    -3.653427064418793E-1   7.856578230857849E-1  -6.472450215369463E-3  -1.218260452151299E-2  -6.646587047725916E-3  -1.200160849839449E-2  -9.554443359375000E-1  -8.463935554027557E-2  
 7.033033033033032E8    -3.446950614452362E-1   7.920635938644409E-1  -8.217461407184601E-3  -1.223597116768360E-2  -8.358014747500420E-3  -1.206640340387821E-2  -9.552479386329651E-1  -7.550048083066940E-2  
 7.057057057057056E8    -3.227194249629974E-1   7.970072031021118E-1  -9.892681613564491E-3  -1.201055757701397E-2  -9.868367575109005E-3  -1.190447714179754E-2  -9.552980065345764E-1  -6.938614696264267E-2  
 7.081081081081080E8    -2.990077733993530E-1   8.012093901634216E-1  -1.146099064499140E-2  -1.160585042089224E-2  -1.133725047111511E-2  -1.168788690119982E-2  -9.552109837532044E-1  -6.218879669904709E-2  
 7.105105105105104E8    -2.744606137275696E-1   8.046742081642151E-1  -1.288379635661840E-2  -1.115234754979610E-2  -1.268075313419104E-2  -1.124795526266098E-2  -9.552061557769775E-1  -5.418076738715172E-2  
 7.129129129129129E8    -2.501142323017120E-1   8.058496713638306E-1  -1.423510815948248E-2  -1.062764879316092E-2  -1.402639970183373E-2  -1.082054153084755E-2  -9.554927349090576E-1  -4.383018240332604E-2  
 7.153153153153153E8    -2.264822125434876E-1   8.057470321655273E-1  -1.544967945665121E-2  -1.013678498566151E-2  -1.531316339969635E-2  -1.027964521199465E-2  -9.553917646408081E-1  -3.195514157414436E-2  
 7.177177177177178E8    -2.012358605861664E-1   8.045085072517395E-1  -1.675866916775703E-2  -9.632162749767304E-3  -1.665043830871582E-2  -9.744085371494293E-3  -9.554034471511841E-1  -1.914987526834011E-2  
 7.201201201201202E8    -1.740372329950333E-1   8.016338944435120E-1  -1.817625388503075E-2  -8.961927145719528E-3  -1.799209974706173E-2  -9.099149145185947E-3  -9.552184939384460E-1  -7.444113027304411E-3  
 7.225225225225226E8    -1.474983394145966E-1   7.972664833068848E-1  -1.960058696568012E-2  -8.244493976235390E-3  -1.945324242115021E-2  -8.444808423519135E-3  -9.548586010932922E-1   4.381075967103243E-3  
 7.249249249249250E8    -1.220261603593826E-1   7.917315959930420E-1  -2.098797820508480E-2  -7.323141209781170E-3  -2.080189995467663E-2  -7.690270897001028E-3  -9.539784193038940E-1   1.392060425132513E-2  
 7.273273273273274E8    -9.750858694314957E-2   7.848366498947144E-1  -2.231712825596333E-2  -6.241158582270145E-3  -2.216363884508610E-2  -6.775636691600084E-3  -9.531961083412170E-1   2.428801357746124E-2  
 7.297297297297298E8    -7.512988895177841E-2   7.773442268371582E-1  -2.356881275773048E-2  -5.292328074574471E-3  -2.357776276767254E-2  -5.650264676660299E-3  -9.520747661590576E-1   3.512037545442581E-2  
 7.321321321321322E8    -5.230428278446198E-2   7.683823108673096E-1  -2.481966465711594E-2  -4.376018885523081E-3  -2.487761527299881E-2  -4.354227799922228E-3  -9.508330821990967E-1   4.691431671380997E-2  
 7.345345345345346E8    -2.845770679414272E-2   7.582975029945374E-1  -2.599702775478363E-2  -3.408616874366999E-3  -2.610135823488236E-2  -3.324716351926327E-3  -9.494141936302185E-1   5.807372927665710E-2  
 7.369369369369370E8    -2.839116612449288E-3   7.468396425247192E-1  -2.741912379860878E-2  -2.416637260466814E-3  -2.744443714618683E-2  -2.220423659309745E-3  -9.477037191390991E-1   6.978008896112442E-2  
 7.393393393393394E8     2.335813827812672E-2   7.331518530845642E-1  -2.916607074439526E-2  -1.198601908981800E-3  -2.904271893203259E-2  -1.090655685402453E-3  -9.460306167602539E-1   8.124963194131851E-2  
 7.417417417417418E8     4.938632249832153E-2   7.163854837417603E-1  -3.093878366053104E-2   4.094495961908251E-4  -3.086074627935886E-2   4.312210076022893E-4  -9.441651701927185E-1   9.208188951015472E-2  
 7.441441441441442E8     7.454907149076462E-2   6.982280611991882E-1  -3.270387649536133E-2   2.364152809605002E-3  -3.274460136890411E-2   2.144337864592671E-3  -9.424454569816589E-1   1.016851961612701E-1  
 7.465465465465466E8     9.822071343660355E-2   6.787499785423279E-1  -3.454340249300003E-2   4.516624845564365E-3  -3.459550440311432E-2   4.200926981866360E-3  -9.400562644004822E-1   1.127259582281113E-1  
 7.489489489489490E8     1.215916946530342E-1   6.561549305915833E-1  -3.630563616752625E-2   7.114058360457420E-3  -3.636510670185089E-2   6.677739322185516E-3  -9.378621578216553E-1   1.227350160479546E-1  
 7.513513513513514E8     1.441150158643723E-1   6.292842626571655E-1  -3.791262581944466E-2   1.012810319662094E-2  -3.809770196676254E-2   9.777279570698738E-3  -9.356157183647156E-1   1.341634988784790E-1  
 7.537537537537538E8     1.648561805486679E-1   5.989142060279846E-1  -3.907873854041100E-2   1.366316340863705E-2  -3.935703635215759E-2   1.331676356494427E-2  -9.329805374145508E-1   1.465569585561752E-1  
 7.561561561561562E8     1.821258962154388E-1   5.656615495681763E-1  -3.997745737433434E-2   1.728246174752712E-2  -4.012594744563103E-2   1.695456914603710E-2  -9.294887185096741E-1   1.581186950206757E-1  
 7.585585585585586E8     1.953662931919098E-1   5.319785475730896E-1  -4.053607955574989E-2   2.100642584264278E-2  -4.061687365174294E-2   2.054282277822495E-2  -9.249259233474731E-1   1.713428199291229E-1  
 7.609609609609610E8     2.051495462656021E-1   4.970397949218750E-1  -4.098554700613022E-2   2.500329352915287E-2  -4.080339893698692E-2   2.438551373779774E-2  -9.205088615417481E-1   1.845858991146088E-1  
 7.633633633633634E8     2.118181288242340E-1   4.616401791572571E-1  -4.094484820961952E-2   2.933909930288792E-2  -4.098892584443092E-2   2.851559408009052E-2  -9.167699813842773E-1   1.964007169008255E-1  
 7.657657657657658E8     2.153135687112808E-1   4.255389273166657E-1  -4.035107418894768E-2   3.382136300206184E-2  -4.064023867249489E-2   3.303520381450653E-2  -9.138664603233337E-1   2.066930681467056E-1  
 7.681681681681682E8     2.158536165952683E-1   3.899966180324554E-1  -3.941491991281509E-2   3.801236674189568E-2  -3.987426683306694E-2   3.753209859132767E-2  -9.120472669601440E-1   2.161405384540558E-1  
 7.705705705705706E8     2.122286260128021E-1   3.567655682563782E-1  -3.828187286853790E-2   4.238783940672875E-2  -3.882469981908798E-2   4.195753112435341E-2  -9.080023169517517E-1   2.260497212409973E-1  
 7.729729729729730E8     2.055358141660690E-1   3.217432796955109E-1  -3.665552288293839E-2   4.675160720944405E-2  -3.739893436431885E-2   4.659356921911240E-2  -9.055309295654297E-1   2.372547090053558E-1  
 7.753753753753754E8     1.939403563737869E-1   2.851538062095642E-1  -3.446079045534134E-2   5.134170502424240E-2  -3.541136160492897E-2   5.127532035112381E-2  -9.014105796813965E-1   2.499033510684967E-1  
 7.777777777777778E8     1.775821149349213E-1   2.502644658088684E-1  -3.185718506574631E-2   5.607151612639427E-2  -3.252464160323143E-2   5.580153316259384E-2  -8.944745659828186E-1   2.628267407417297E-1  
 7.801801801801802E8     1.569442152976990E-1   2.183198481798172E-1  -2.874443866312504E-2   6.061113998293877E-2  -2.914456278085709E-2   5.986567959189415E-2  -8.845472931861877E-1   2.739756703376770E-1  
 7.825825825825826E8     1.337225139141083E-1   1.902577728033066E-1  -2.501668781042099E-2   6.480628997087479E-2  -2.535681426525116E-2   6.421703845262528E-2  -8.771237134933472E-1   2.869404554367065E-1  
 7.849849849849850E8     1.088074296712875E-1   1.673822253942490E-1  -2.050415240228176E-2   6.905695796012878E-2  -2.112595364451408E-2   6.823743134737015E-2  -8.703312277793884E-1   2.964296042919159E-1  
 7.873873873873874E8     8.568771928548813E-2   1.485265791416168E-1  -1.587255671620369E-2   7.252922654151917E-2  -1.655640080571175E-2   7.172891497612000E-2  -8.646852970123291E-1   3.057803213596344E-1  
 7.897897897897898E8     6.090521439909935E-2   1.296503990888596E-1  -1.097410265356302E-2   7.581972330808640E-2  -1.162902452051640E-2   7.516740262508392E-2  -8.601690530776978E-1   3.167608678340912E-1  
 7.921921921921922E8     3.489011153578758E-2   1.146272420883179E-1  -5.707821808755398E-3   7.891161739826202E-2  -6.097335834056139E-3   7.882358878850937E-2  -8.563619256019592E-1   3.295130431652069E-1  
 7.945945945945946E8     8.041035383939743E-3   1.039361581206322E-1   4.468910628929734E-4   8.168241381645203E-2  -8.653548866277561E-5   8.160579949617386E-2  -8.485943675041199E-1   3.411205708980560E-1  
 7.969969969969970E8    -1.897409558296204E-2   9.367068111896515E-2   7.118585053831339E-3   8.356213569641113E-2   6.389282178133726E-3   8.381035923957825E-2  -8.405460715293884E-1   3.535021245479584E-1  
 7.993993993993994E8    -4.772223904728890E-2   8.278007805347443E-2   1.359180826693773E-2   8.459178358316422E-2   1.289084553718567E-2   8.487159013748169E-2  -8.318871855735779E-1   3.665196895599365E-1  
 8.018018018018018E8    -8.035226166248322E-2   7.519211620092392E-2   1.983876898884773E-2   8.548469096422195E-2   1.945060491561890E-2   8.570671081542969E-2  -8.224087953567505E-1   3.802624046802521E-1  
 8.042042042042042E8    -1.138031184673309E-1   7.415793091058731E-2   2.643841877579689E-2   8.605568856000900E-2   2.590905874967575E-2   8.627884835004807E-2  -8.129480481147766E-1   3.919856250286102E-1  
 8.066066066066066E8    -1.455214023590088E-1   7.828018069267273E-2   3.328161686658859E-2   8.617663383483887E-2   3.267790749669075E-2   8.644410222768784E-2  -8.029910922050476E-1   4.052279591560364E-1  
 8.090090090090090E8    -1.750897914171219E-1   8.632166683673859E-2   4.048028588294983E-2   8.589036762714386E-2   3.993628546595573E-2   8.625718206167221E-2  -7.920291423797607E-1   4.178191721439362E-1  
 8.114114114114114E8    -2.020596414804459E-1   9.555944055318832E-2   4.792063683271408E-2   8.488155156373978E-2   4.739199206233025E-2   8.524621278047562E-2  -7.803170680999756E-1   4.302908480167389E-1  
 8.138138138138138E8    -2.269046157598496E-1   1.065161749720573E-1   5.516717210412026E-2   8.365817368030548E-2   5.476283654570580E-2   8.382491767406464E-2  -7.683710455894470E-1   4.424171745777130E-1  
 8.162162162162162E8    -2.518535256385803E-1   1.219981834292412E-1   6.298540532588959E-2   8.162190020084381E-2   6.248965859413147E-2   8.176436275243759E-2  -7.557654380798340E-1   4.543184638023377E-1  
 8.186186186186186E8    -2.713282108306885E-1   1.414892971515656E-1   7.076703011989594E-2   7.859283685684204E-2   7.031349837779999E-2   7.863901555538178E-2  -7.420889735221863E-1   4.665429890155792E-1  
 8.210210210210210E8    -2.856130003929138E-1   1.610868722200394E-1   7.793616503477097E-2   7.438108325004578E-2   7.761074602603912E-2   7.458733022212982E-2  -7.270632386207581E-1   4.788500070571899E-1  
 8.234234234234234E8    -2.973538339138031E-1   1.790441572666168E-1   8.476739376783371E-2   6.952349841594696E-2   8.448342978954315E-2   7.003501802682877E-2  -7.113168239593506E-1   4.913354218006134E-1  
