#  HZ   S   RI   R     50.00 
! Rohde & Schwarz ZVB8 2Ports - Version 2.81 - 1145.1010k08 SN: 100113
! Date: 2016-05-04 02:49:20
! Measurements: S11 S21 S12 S22 
! 
 6.000000000000000E8    -8.773779273033142E-1   3.550156354904175E-1   8.355065074283630E-5  -4.490184364840388E-4   1.107469070120715E-4  -4.112102324143052E-4  -8.425218462944031E-1  -4.804162979125977E-1  
 6.024024024024024E8    -8.713369369506836E-1   3.672421276569367E-1   1.296932750847191E-4  -4.806493234355003E-4   1.383169583277777E-4  -4.992598551325500E-4  -8.470410704612732E-1  -4.719603061676025E-1  
 6.048048048048048E8    -8.644426465034485E-1   3.806604146957398E-1   1.367258082609624E-4  -4.973778850398958E-4   1.475601166021079E-4  -5.378749920055270E-4  -8.515710234642029E-1  -4.634019136428833E-1  
 6.072072072072072E8    -8.575134277343750E-1   3.941699266433716E-1   2.042871637968347E-4  -4.809073288924992E-4   1.377757289446890E-4  -4.613705386873335E-4  -8.562074303627014E-1  -4.545507133007050E-1  
 6.096096096096096E8    -8.498556613922119E-1   4.083414375782013E-1   2.343528321944177E-4  -5.102195427753031E-4   1.895042660180479E-4  -4.976583295501769E-4  -8.608596920967102E-1  -4.454103410243988E-1  
 6.120120120120120E8    -8.440940380096436E-1   4.190537333488464E-1   2.352572191739455E-4  -5.026226863265038E-4   2.940481354016811E-4  -5.232492112554610E-4  -8.644557595252991E-1  -4.379679858684540E-1  
 6.144144144144144E8    -8.368314504623413E-1   4.309583306312561E-1   3.706339339260012E-4  -4.305507172830403E-4   3.469954244792461E-4  -4.905883106403053E-4  -8.681386113166809E-1  -4.299045503139496E-1  
 6.168168168168168E8    -8.289050459861755E-1   4.433560669422150E-1   4.580272652674466E-4  -4.504417302086949E-4   4.519670037552714E-4  -5.215565324760974E-4  -8.721322417259216E-1  -4.214648604393005E-1  
 6.192192192192192E8    -8.207907080650330E-1   4.550508260726929E-1   6.188006373122335E-4  -5.086789606139064E-4   6.026935297995806E-4  -5.475548096001148E-4  -8.763409852981567E-1  -4.124201834201813E-1  
 6.216216216216216E8    -8.121204376220703E-1   4.668285548686981E-1   8.366092224605382E-4  -5.499681574292481E-4   8.240599418058991E-4  -5.972454673610628E-4  -8.807464838027954E-1  -4.024196267127991E-1  
 6.240240240240240E8    -8.037213683128357E-1   4.779935181140900E-1   1.012766850180924E-3  -6.729413289576769E-4   9.996048174798489E-4  -6.813478539697826E-4  -8.856156468391419E-1  -3.919626176357269E-1  
 6.264264264264264E8    -7.948924303054810E-1   4.903874099254608E-1   1.279014279134572E-3  -8.977498509921134E-4   1.223969273269177E-3  -9.625253733247519E-4  -8.899264335632324E-1  -3.813193440437317E-1  
 6.288288288288288E8    -7.863005995750427E-1   5.017085075378418E-1   1.445114379748702E-3  -1.324694603681564E-3   1.413310877978802E-3  -1.257010502740741E-3  -8.935781121253967E-1  -3.718927800655365E-1  
 6.312312312312312E8    -7.784869670867920E-1   5.124668478965759E-1   1.492698094807565E-3  -1.680494169704616E-3   1.530054607428610E-3  -1.730638789013028E-3  -8.967214226722717E-1  -3.632481694221497E-1  
 6.336336336336336E8    -7.709925174713135E-1   5.230699777603149E-1   1.488218666054308E-3  -2.070114947855473E-3   1.478194608353078E-3  -2.012655138969421E-3  -8.998249769210815E-1  -3.555783927440643E-1  
 6.360360360360360E8    -7.636474370956421E-1   5.339340567588806E-1   1.309436629526317E-3  -2.511183265596628E-3   1.370300771668553E-3  -2.456912305206060E-3  -9.026318192481995E-1  -3.479385375976563E-1  
 6.384384384384384E8    -7.551245689392090E-1   5.462798476219177E-1   1.119801541790366E-3  -2.824785420671105E-3   1.135747646912932E-3  -2.848401432856917E-3  -9.055623412132263E-1  -3.395928740501404E-1  
 6.408408408408408E8    -7.460353970527649E-1   5.589136481285095E-1   7.930184365250170E-4  -3.087852383032441E-3   8.429236477240920E-4  -3.080544294789434E-3  -9.089395999908447E-1  -3.308285176753998E-1  
 6.432432432432432E8    -7.364920973777771E-1   5.709672570228577E-1   4.817916196770966E-4  -3.354980843141675E-3   4.549810546450317E-4  -3.311463631689549E-3  -9.122232198715210E-1  -3.220272958278656E-1  
 6.456456456456456E8    -7.260883450508118E-1   5.827426314353943E-1   1.794892596080899E-4  -3.462476423010230E-3   1.974378101294860E-4  -3.446530783548951E-3  -9.159004092216492E-1  -3.133137226104736E-1  
 6.480480480480480E8    -7.155364751815796E-1   5.937506556510925E-1  -1.388353557558730E-4  -3.596387337893248E-3  -1.696018734946847E-4  -3.603151068091393E-3  -9.189746379852295E-1  -3.047431111335754E-1  
 6.504504504504504E8    -7.034320235252380E-1   6.060037016868591E-1  -4.057456972077489E-4  -3.539158264175057E-3  -3.896918497048318E-4  -3.506389679387212E-3  -9.209281802177429E-1  -2.953697443008423E-1  
 6.528528528528528E8    -6.918722391128540E-1   6.176065802574158E-1  -6.709143053740263E-4  -3.544189734384418E-3  -6.066886126063764E-4  -3.498392179608345E-3  -9.234387874603272E-1  -2.859439849853516E-1  
 6.552552552552552E8    -6.800581216812134E-1   6.281265616416931E-1  -8.470838656648994E-4  -3.510611830279231E-3  -8.741939673200250E-4  -3.501597326248884E-3  -9.258797764778137E-1  -2.769070863723755E-1  
 6.576576576576576E8    -6.685653924942017E-1   6.378874778747559E-1  -9.862213628366590E-4  -3.506099572405219E-3  -9.291980531997979E-4  -3.507002955302596E-3  -9.284706115722656E-1  -2.690543234348297E-1  
 6.600600600600600E8    -6.553891301155090E-1   6.484039425849915E-1  -1.141705201007426E-3  -3.474776633083820E-3  -1.125984475947917E-3  -3.478501923382282E-3  -9.316816926002502E-1  -2.605449557304382E-1  
 6.624624624624624E8    -6.417532563209534E-1   6.598429679870606E-1  -1.237159944139421E-3  -3.458880353718996E-3  -1.201464212499559E-3  -3.482982981950045E-3  -9.338430762290955E-1  -2.502777874469757E-1  
 6.648648648648648E8    -6.279594898223877E-1   6.706498861312866E-1  -1.339009613730013E-3  -3.462772816419601E-3  -1.342914532870054E-3  -3.396490588784218E-3  -9.361461997032166E-1  -2.405158877372742E-1  
 6.672672672672672E8    -6.138927340507507E-1   6.802614927291870E-1  -1.391651458106935E-3  -3.435903461650014E-3  -1.361634815111756E-3  -3.368620062246919E-3  -9.383682608604431E-1  -2.307369112968445E-1  
 6.696696696696696E8    -5.995655059814453E-1   6.896560788154602E-1  -1.419659703969955E-3  -3.439233172684908E-3  -1.370781916193664E-3  -3.448446281254292E-3  -9.403553009033203E-1  -2.214298248291016E-1  
 6.720720720720720E8    -5.848084688186646E-1   6.984043717384338E-1  -1.437053899280727E-3  -3.487035399302840E-3  -1.382031128741801E-3  -3.487263573333621E-3  -9.420645236968994E-1  -2.125496864318848E-1  
 6.744744744744744E8    -5.689303874969482E-1   7.072117328643799E-1  -1.376107102259994E-3  -3.560432931408286E-3  -1.425900612957776E-3  -3.531134454533458E-3  -9.438589215278626E-1  -2.030665874481201E-1  
 6.768768768768768E8    -5.535219311714172E-1   7.152589559555054E-1  -1.325297867879272E-3  -3.666889155283570E-3  -1.349513069726527E-3  -3.596210386604071E-3  -9.455785155296326E-1  -1.937002837657929E-1  
 6.792792792792792E8    -5.380229949951172E-1   7.230243086814880E-1  -1.222901511937380E-3  -3.779636230319738E-3  -1.094874460250139E-3  -3.757418831810355E-3  -9.471388459205627E-1  -1.844118237495422E-1  
 6.816816816816816E8    -5.226019024848938E-1   7.300769686698914E-1  -9.654042078182101E-4  -4.060686100274324E-3  -1.006267615593970E-3  -3.972278442233801E-3  -9.490061402320862E-1  -1.744834482669830E-1  
 6.840840840840840E8    -5.071750879287720E-1   7.368474602699280E-1  -7.400607573799789E-4  -4.391499795019627E-3  -7.308123167604208E-4  -4.398123826831579E-3  -9.506546258926392E-1  -1.646748185157776E-1  
 6.864864864864864E8    -4.911597669124603E-1   7.430726289749146E-1  -5.611835513263941E-4  -5.048368591815233E-3  -5.438792868517339E-4  -4.974152427166700E-3  -9.510195851325989E-1  -1.552755534648895E-1  
 6.888888888888888E8    -4.755066335201263E-1   7.492766976356506E-1  -3.124907962046564E-4  -5.926520563662052E-3  -3.575373557396233E-4  -5.807769484817982E-3  -9.515665173530579E-1  -1.453463733196259E-1  
 6.912912912912912E8    -4.612368941307068E-1   7.551423907279968E-1  -4.712181398645043E-4  -7.004234474152327E-3  -4.251484351698309E-4  -7.135600782930851E-3  -9.522954821586609E-1  -1.352879405021668E-1  
 6.936936936936936E8    -4.474636018276215E-1   7.616155147552490E-1  -1.065427553839982E-3  -8.322708308696747E-3  -9.816001402214170E-4  -8.300376124680042E-3  -9.530752301216126E-1  -1.254611462354660E-1  
 6.960960960960960E8    -4.328868985176086E-1   7.691240310668945E-1  -2.101735444739461E-3  -9.561490267515183E-3  -1.957860775291920E-3  -9.547834284603596E-3  -9.542412757873535E-1  -1.154890954494476E-1  
 6.984984984984984E8    -4.181166887283325E-1   7.775264978408814E-1  -3.474871627986431E-3  -1.044811680912972E-2  -3.508181544020772E-3  -1.039701793342829E-2  -9.554508924484253E-1  -1.023575365543366E-1  
 7.009009009009008E8    -4.014153182506561E-1   7.856214046478272E-1  -4.999966826289892E-3  -1.098634488880634E-2  -5.099582951515913E-3  -1.078503578901291E-2  -9.560921192169190E-1  -9.046949446201325E-2  
 7.033033033033032E8    -3.827903866767883E-1   7.929506301879883E-1  -6.571872159838677E-3  -1.095845177769661E-2  -6.630286574363709E-3  -1.093781925737858E-2  -9.563072919845581E-1  -8.161173015832901E-2  
 7.057057057057056E8    -3.633063435554504E-1   7.987409830093384E-1  -7.976167835295200E-3  -1.089087594300509E-2  -7.984115742146969E-3  -1.085866242647171E-2  -9.562083482742310E-1  -7.578291743993759E-2  
 7.081081081081080E8    -3.416870832443237E-1   8.043782114982605E-1  -9.340971708297730E-3  -1.067977957427502E-2  -9.154824540019035E-3  -1.069493684917688E-2  -9.563776254653931E-1  -6.863905489444733E-2  
 7.105105105105104E8    -3.190231323242188E-1   8.094087839126587E-1  -1.053681690245867E-2  -1.025186106562614E-2  -1.031909417361021E-2  -1.043918076902628E-2  -9.563980102539063E-1  -6.047673523426056E-2  
 7.129129129129129E8    -2.971528470516205E-1   8.129466772079468E-1  -1.165152806788683E-2  -9.818100370466709E-3  -1.147820521146059E-2  -1.007884368300438E-2  -9.567483067512512E-1  -5.065691843628883E-2  
 7.153153153153153E8    -2.760449945926666E-1   8.153832554817200E-1  -1.269408967345953E-2  -9.417860768735409E-3  -1.254808064550161E-2  -9.636039845645428E-3  -9.569966197013855E-1  -3.890830278396606E-2  
 7.177177177177178E8    -2.533617913722992E-1   8.169131875038147E-1  -1.374260988086462E-2  -9.067309089004993E-3  -1.360306795686483E-2  -9.091998450458050E-3  -9.570605158805847E-1  -2.634908072650433E-2  
 7.201201201201202E8    -2.289471775293350E-1   8.177872896194458E-1  -1.479429937899113E-2  -8.628996089100838E-3  -1.468252111226320E-2  -8.683706633746624E-3  -9.571126699447632E-1  -1.467782817780972E-2  
 7.225225225225226E8    -2.047854363918304E-1   8.171852231025696E-1  -1.593058183789253E-2  -8.133080787956715E-3  -1.583912409842014E-2  -8.323444053530693E-3  -9.571975469589233E-1  -3.212391864508390E-3  
 7.249249249249250E8    -1.804886311292648E-1   8.156299591064453E-1  -1.710660755634308E-2  -7.569002453237772E-3  -1.684628985822201E-2  -7.792731747031212E-3  -9.562931060791016E-1   6.003372836858034E-3  
 7.273273273273274E8    -1.576733291149139E-1   8.126593232154846E-1  -1.823019236326218E-2  -6.785884033888578E-3  -1.807137578725815E-2  -7.220783270895481E-3  -9.556580185890198E-1   1.588665507733822E-2  
 7.297297297297298E8    -1.366202086210251E-1   8.092608451843262E-1  -1.935162208974361E-2  -6.124889943748713E-3  -1.922677084803581E-2  -6.442892830818892E-3  -9.546938538551331E-1   2.650548331439495E-2  
 7.321321321321322E8    -1.157015785574913E-1   8.048927783966065E-1  -2.032895013689995E-2  -5.472640506923199E-3  -2.032534405589104E-2  -5.478249862790108E-3  -9.538902640342712E-1   3.824448958039284E-2  
 7.345345345345346E8    -9.314706176519394E-2   8.002666831016541E-1  -2.124819159507752E-2  -4.830561112612486E-3  -2.120105922222138E-2  -4.769071470946074E-3  -9.525078535079956E-1   4.897122085094452E-2  
 7.369369369369370E8    -6.872638314962387E-2   7.942981719970703E-1  -2.240262366831303E-2  -4.208583850413561E-3  -2.235199883580208E-2  -4.039502702653408E-3  -9.512102603912354E-1   6.045694649219513E-2  
 7.393393393393394E8    -4.369675368070602E-2   7.864866256713867E-1  -2.375898882746697E-2  -3.488263813778758E-3  -2.367598004639149E-2  -3.335092449560762E-3  -9.496498107910156E-1   7.155370712280273E-2  
 7.417417417417418E8    -1.860325038433075E-2   7.768642306327820E-1  -2.525884658098221E-2  -2.444663783535361E-3  -2.520846389234066E-2  -2.491454826667905E-3  -9.482386708259583E-1   8.205490559339523E-2  
 7.441441441441442E8     6.772321648895741E-3   7.655355334281921E-1  -2.679903805255890E-2  -1.232073758728802E-3  -2.680136077105999E-2  -1.520137418992817E-3  -9.465578794479370E-1   9.126602858304977E-2  
 7.465465465465466E8     3.026656806468964E-2   7.539830803871155E-1  -2.853864617645741E-2   5.801345469080843E-5  -2.849303558468819E-2  -1.883797667687759E-4  -9.447961449623108E-1   1.022708192467690E-1  
 7.489489489489490E8     5.407086014747620E-2   7.397887110710144E-1  -3.018354251980782E-2   1.808820059522986E-3  -3.028456494212151E-2   1.444603083655238E-3  -9.430167078971863E-1   1.118784472346306E-1  
 7.513513513513514E8     7.827813178300858E-2   7.230116128921509E-1  -3.185231238603592E-2   3.803260857239366E-3  -3.195864334702492E-2   3.550229361280799E-3  -9.410443305969238E-1   1.228392496705055E-1  
 7.537537537537538E8     1.031325608491898E-1   7.022087574005127E-1  -3.323997557163239E-2   6.375112570822239E-3  -3.339531645178795E-2   5.957159213721752E-3  -9.388797283172607E-1   1.349464505910873E-1  
 7.561561561561562E8     1.258755475282669E-1   6.793066859245300E-1  -3.438861668109894E-2   8.973187766969204E-3  -3.445422276854515E-2   8.574904873967171E-3  -9.358842968940735E-1   1.461391448974609E-1  
 7.585585585585586E8     1.461830586194992E-1   6.551923751831055E-1  -3.527428582310677E-2   1.170448865741491E-2  -3.520857170224190E-2   1.125125214457512E-2  -9.319159388542175E-1   1.591519862413406E-1  
 7.609609609609610E8     1.643713414669037E-1   6.298987865447998E-1  -3.619236871600151E-2   1.442166697233915E-2  -3.607668355107307E-2   1.393212843686342E-2  -9.280757308006287E-1   1.716358065605164E-1  
 7.633633633633634E8     1.808066815137863E-1   6.033656001091003E-1  -3.709803521633148E-2   1.762526668608189E-2  -3.700000420212746E-2   1.685534045100212E-2  -9.248207211494446E-1   1.833394914865494E-1  
 7.657657657657658E8     1.948429197072983E-1   5.759024620056152E-1  -3.752030804753304E-2   2.092156745493412E-2  -3.756533935666084E-2   2.025632746517658E-2  -9.222841858863831E-1   1.936589479446411E-1  
 7.681681681681682E8     2.065958380699158E-1   5.485915541648865E-1  -3.769682347774506E-2   2.416075021028519E-2  -3.805286437273026E-2   2.373572811484337E-2  -9.208254814147949E-1   2.026137113571167E-1  
 7.705705705705706E8     2.155494838953018E-1   5.205096006393433E-1  -3.771566599607468E-2   2.768602594733238E-2  -3.822315484285355E-2   2.716680057346821E-2  -9.175100326538086E-1   2.117726057767868E-1  
 7.729729729729730E8     2.236289829015732E-1   4.901989996433258E-1  -3.756610676646233E-2   3.133919462561607E-2  -3.816282749176025E-2   3.098610043525696E-2  -9.155700802803040E-1   2.222523391246796E-1  
 7.753753753753754E8     2.286406755447388E-1   4.567431211471558E-1  -3.702490031719208E-2   3.525513410568237E-2  -3.771856799721718E-2   3.508623316884041E-2  -9.121666550636292E-1   2.345932275056839E-1  
 7.777777777777778E8     2.294202148914337E-1   4.228084385395050E-1  -3.612323850393295E-2   3.938527405261993E-2  -3.657887503504753E-2   3.917005658149719E-2  -9.058403372764587E-1   2.471147328615189E-1  
 7.801801801801802E8     2.265425473451614E-1   3.891383409500122E-1  -3.493805974721909E-2   4.349138587713242E-2  -3.510319814085960E-2   4.294575750827789E-2  -8.968717455863953E-1   2.580007910728455E-1  
 7.825825825825826E8     2.206357419490814E-1   3.555110692977905E-1  -3.332420438528061E-2   4.760448634624481E-2  -3.338853269815445E-2   4.711429402232170E-2  -8.904027938842773E-1   2.700600624084473E-1  
 7.849849849849850E8     2.108180075883865E-1   3.250424861907959E-1  -3.107105009257793E-2   5.202524736523628E-2  -3.143503516912460E-2   5.134515091776848E-2  -8.844733834266663E-1   2.789469957351685E-1  
 7.873873873873874E8     1.995529383420944E-1   2.973693013191223E-1  -2.831563167273998E-2   5.632895231246948E-2  -2.865465357899666E-2   5.549852922558785E-2  -8.795648813247681E-1   2.874734401702881E-1  
 7.897897897897898E8     1.885886639356613E-1   2.706263065338135E-1  -2.521942555904388E-2   6.023700162768364E-2  -2.556909248232842E-2   5.951406806707382E-2  -8.760905861854553E-1   2.978684604167938E-1  
 7.921921921921922E8     1.763009130954742E-1   2.447119206190109E-1  -2.182443253695965E-2   6.405600905418396E-2  -2.219608612358570E-2   6.376472860574722E-2  -8.736760020256043E-1   3.095052838325501E-1  
 7.945945945945946E8     1.606604158878326E-1   2.217811495065689E-1  -1.786269620060921E-2   6.788535416126251E-2  -1.840740069746971E-2   6.762178987264633E-2  -8.671048283576965E-1   3.204465806484222E-1  
 7.969969969969970E8     1.432587802410126E-1   1.982502490282059E-1  -1.321909017860889E-2   7.120766490697861E-2  -1.381119526922703E-2   7.110814005136490E-2  -8.605653047561646E-1   3.323367238044739E-1  
 7.993993993993994E8     1.229356005787849E-1   1.738602221012116E-1  -8.467907086014748E-3   7.414911687374115E-2  -8.980811573565006E-3   7.411411404609680E-2  -8.537161946296692E-1   3.441704809665680E-1  
 8.018018018018018E8     9.677310287952423E-2   1.510905325412750E-1  -3.487708512693644E-3   7.691707462072372E-2  -3.891681786626577E-3   7.686685025691986E-2  -8.459288477897644E-1   3.570969700813294E-1  
 8.042042042042042E8     6.861609965562820E-2   1.340583711862564E-1   2.113765804097056E-3   7.950255274772644E-2   1.530893146991730E-3   7.949434220790863E-2  -8.384198546409607E-1   3.681363463401794E-1  
 8.066066066066066E8     4.016529768705368E-2   1.212822124361992E-1   7.820828817784786E-3   8.142811805009842E-2   7.205974310636520E-3   8.149596303701401E-2  -8.303899168968201E-1   3.805934786796570E-1  
 8.090090090090090E8     1.107374951243401E-2   1.124753281474114E-1   1.390357408672571E-2   8.318388462066650E-2   1.335473451763392E-2   8.335050195455551E-2  -8.217048048973084E-1   3.930077552795410E-1  
 8.114114114114114E8    -1.745790243148804E-2   1.059373244643211E-1   2.032857201993465E-2   8.442185819149017E-2   1.989330537617207E-2   8.473771065473557E-2  -8.128073811531067E-1   4.046819508075714E-1  
 8.138138138138138E8    -4.651119187474251E-2   1.017072722315788E-1   2.698580361902714E-2   8.540488779544830E-2   2.663063444197178E-2   8.572033047676086E-2  -8.035947680473328E-1   4.161205887794495E-1  
 8.162162162162162E8    -7.713664323091507E-2   1.026889979839325E-1   3.428609669208527E-2   8.601956814527512E-2   3.402569890022278E-2   8.622915297746658E-2  -7.945352196693420E-1   4.276383519172669E-1  
 8.186186186186186E8    -1.049618646502495E-1   1.107126995921135E-1   4.200588539242744E-2   8.558227866888046E-2   4.180598258972168E-2   8.567269891500473E-2  -7.842592000961304E-1   4.394293129444122E-1  
 8.210210210210210E8    -1.291493177413940E-1   1.218984872102737E-1   4.975747317075729E-2   8.383391052484512E-2   4.908361658453941E-2   8.398102968931198E-2  -7.735869288444519E-1   4.508889913558960E-1  
 8.234234234234234E8    -1.484371274709702E-1   1.336833983659744E-1   5.709461122751236E-2   8.139546215534210E-2   5.641651898622513E-2   8.160555362701416E-2  -7.618897557258606E-1   4.631804823875427E-1  
