#  HZ   S   RI   R     50.00 
! Rohde & Schwarz ZVB8 2Ports - Version 2.81 - 1145.1010k08 SN: 100113
! Date: 2016-05-04 02:50:44
! Measurements: S11 S21 S12 S22 
! 
 6.000000000000000E8    -8.669244050979614E-1   3.699785768985748E-1   1.167088485090062E-4  -9.942745091393590E-4   8.486234582960606E-5  -1.010573003441095E-3  -8.522441387176514E-1  -4.528394639492035E-1  
 6.024024024024024E8    -8.599764108657837E-1   3.830916881561279E-1   1.213193318108097E-4  -1.073461025953293E-3   1.339597802143544E-4  -9.893387323245406E-4  -8.568088412284851E-1  -4.428710937500000E-1  
 6.048048048048048E8    -8.523998856544495E-1   3.962025046348572E-1   1.240481215063483E-4  -1.077169203199446E-3   1.528963184682652E-4  -1.106690848246217E-3  -8.613306283950806E-1  -4.328655600547791E-1  
 6.072072072072072E8    -8.446371555328369E-1   4.102950692176819E-1   1.632895146030933E-4  -1.114357961341739E-3   2.435178903397173E-4  -1.063919044099748E-3  -8.656752705574036E-1  -4.227207899093628E-1  
 6.096096096096096E8    -8.360270261764526E-1   4.246273636817932E-1   2.837227366399020E-4  -1.092010759748519E-3   2.963091537822038E-4  -1.032272004522383E-3  -8.704298734664917E-1  -4.119668006896973E-1  
 6.120120120120120E8    -8.288380503654480E-1   4.358520507812500E-1   3.268994041718543E-4  -1.101204776205123E-3   3.601047792471945E-4  -1.026587444357574E-3  -8.740469813346863E-1  -4.027903974056244E-1  
 6.144144144144144E8    -8.206329345703125E-1   4.479533731937408E-1   4.741474112961441E-4  -1.103718532249332E-3   5.067992024123669E-4  -1.110910787247121E-3  -8.775479793548584E-1  -3.931356966495514E-1  
 6.168168168168168E8    -8.114947080612183E-1   4.605137407779694E-1   7.730801007710397E-4  -1.180022954940796E-3   7.332178647629917E-4  -1.129525946453214E-3  -8.816850185394287E-1  -3.829712569713593E-1  
 6.192192192192192E8    -8.022533059120178E-1   4.728359878063202E-1   9.850115748122335E-4  -1.235421164892614E-3   1.104241935536265E-3  -1.254941918887198E-3  -8.854877352714539E-1  -3.719990253448486E-1  
 6.216216216216216E8    -7.924227714538574E-1   4.843327105045319E-1   1.433634897693992E-3  -1.431760611012578E-3   1.400990760885179E-3  -1.375586492940784E-3  -8.898851275444031E-1  -3.602540194988251E-1  
 6.240240240240240E8    -7.826446890830994E-1   4.957894980907440E-1   1.846766332164407E-3  -1.778389909304678E-3   1.928075100295246E-3  -1.860551885329187E-3  -8.940480351448059E-1  -3.477227687835693E-1  
 6.264264264264264E8    -7.727298736572266E-1   5.078618526458740E-1   2.257345244288445E-3  -2.382116159424186E-3   2.265207469463348E-3  -2.367301378399134E-3  -8.978563547134399E-1  -3.346533775329590E-1  
 6.288288288288288E8    -7.628545165061951E-1   5.190587639808655E-1   2.551462734118104E-3  -3.172866068780422E-3   2.562633017078042E-3  -3.076532157137990E-3  -9.005780816078186E-1  -3.234039843082428E-1  
 6.312312312312312E8    -7.539507746696472E-1   5.298498272895813E-1   2.618229016661644E-3  -4.066503141075373E-3   2.603870816528797E-3  -4.000767134130001E-3  -9.036628007888794E-1  -3.127901852130890E-1  
 6.336336336336336E8    -7.455599308013916E-1   5.406455397605896E-1   2.486136043444276E-3  -5.093020852655172E-3   2.424598904326558E-3  -5.026246886700392E-3  -9.059571623802185E-1  -3.027656972408295E-1  
 6.360360360360360E8    -7.369684576988220E-1   5.515854358673096E-1   1.982585759833455E-3  -6.070646457374096E-3   2.018329221755266E-3  -6.039909087121487E-3  -9.082736968994141E-1  -2.927793562412262E-1  
 6.384384384384384E8    -7.270622849464417E-1   5.643238425254822E-1   1.322946860454977E-3  -6.922321394085884E-3   1.351866871118546E-3  -6.882756482809782E-3  -9.106233716011047E-1  -2.815278172492981E-1  
 6.408408408408408E8    -7.167102694511414E-1   5.772162675857544E-1   5.215128185227513E-4  -7.566370069980621E-3   5.662658368237317E-4  -7.543508429080248E-3  -9.136343002319336E-1  -2.701195776462555E-1  
 6.432432432432432E8    -7.054234147071838E-1   5.895780324935913E-1  -3.238870704080910E-4  -7.978870533406735E-3  -2.313601144123823E-4  -8.032695390284061E-3  -9.164910316467285E-1  -2.584291994571686E-1  
 6.456456456456456E8    -6.937736868858337E-1   6.014528870582581E-1  -1.177828991785646E-3  -8.387065492570400E-3  -1.111695542931557E-3  -8.341085165739059E-3  -9.188891649246216E-1  -2.464960664510727E-1  
 6.480480480480480E8    -6.812306046485901E-1   6.129194498062134E-1  -1.992029370740056E-3  -8.581721223890781E-3  -1.902870368212462E-3  -8.581068366765976E-3  -9.214668869972229E-1  -2.348522245883942E-1  
 6.504504504504504E8    -6.670327782630920E-1   6.252963542938232E-1  -2.835967577993870E-3  -8.809188380837441E-3  -2.779963659122586E-3  -8.645005524158478E-3  -9.225068092346191E-1  -2.216165661811829E-1  
 6.528528528528528E8    -6.531575322151184E-1   6.371701955795288E-1  -3.619456198066473E-3  -8.801124058663845E-3  -3.555989591404796E-3  -8.754595182836056E-3  -9.238244295120239E-1  -2.086662650108337E-1  
 6.552552552552552E8    -6.390753984451294E-1   6.476293802261353E-1  -4.397415556013584E-3  -8.767124265432358E-3  -4.332062322646380E-3  -8.813567459583283E-3  -9.248295426368713E-1  -1.955808699131012E-1  
 6.576576576576576E8    -6.249602437019348E-1   6.574252843856812E-1  -4.995580762624741E-3  -8.735078386962414E-3  -4.975113552063704E-3  -8.729245513677597E-3  -9.261459112167358E-1  -1.831555962562561E-1  
 6.600600600600600E8    -6.095331311225891E-1   6.674959659576416E-1  -5.651213694363833E-3  -8.578754030168057E-3  -5.530006717890501E-3  -8.597959764301777E-3  -9.272318482398987E-1  -1.701401323080063E-1  
 6.624624624624624E8    -5.930383801460266E-1   6.784766912460327E-1  -6.197379902005196E-3  -8.553614839911461E-3  -6.088666617870331E-3  -8.591331541538239E-3  -9.276680350303650E-1  -1.550774276256561E-1  
 6.648648648648648E8    -5.757036805152893E-1   6.889740228652954E-1  -6.581098772585392E-3  -8.508577011525631E-3  -6.513065658509731E-3  -8.553401567041874E-3  -9.275683164596558E-1  -1.395195424556732E-1  
 6.672672672672672E8    -5.588200092315674E-1   6.980916857719421E-1  -7.068571168929339E-3  -8.495828136801720E-3  -6.987155880779028E-3  -8.507268503308296E-3  -9.270927309989929E-1  -1.241927742958069E-1  
 6.696696696696696E8    -5.409151911735535E-1   7.065107822418213E-1  -7.487295661121607E-3  -8.569049648940563E-3  -7.319069933146238E-3  -8.627476170659065E-3  -9.260636568069458E-1  -1.094487681984901E-1  
 6.720720720720720E8    -5.227780342102051E-1   7.138581275939941E-1  -7.810997311025858E-3  -8.790486492216587E-3  -7.678562309592962E-3  -8.783719502389431E-3  -9.242395162582398E-1  -9.395894408226013E-2  
 6.744744744744744E8    -5.038017630577087E-1   7.210463285446167E-1  -8.068916387856007E-3  -8.982081897556782E-3  -8.070138283073902E-3  -9.040832519531250E-3  -9.219180941581726E-1  -7.733798772096634E-2  
 6.768768768768768E8    -4.849353432655335E-1   7.272168993949890E-1  -8.327751420438290E-3  -9.387893602252007E-3  -8.212860673666000E-3  -9.338330477476120E-3  -9.186077713966370E-1  -6.035757809877396E-2  
 6.792792792792792E8    -4.663973152637482E-1   7.327974438667297E-1  -8.402457460761070E-3  -1.004594378173351E-2  -8.301754482090473E-3  -1.007606834173203E-2  -9.143957495689392E-1  -4.288587719202042E-2  
 6.816816816816816E8    -4.476798474788666E-1   7.379147410392761E-1  -8.389241993427277E-3  -1.120087876915932E-2  -8.317308500409126E-3  -1.120351720601320E-2  -9.091311693191528E-1  -2.478860132396221E-2  
 6.840840840840840E8    -4.285632669925690E-1   7.421472668647766E-1  -8.579552173614502E-3  -1.300386432558298E-2  -8.518524467945099E-3  -1.303800754249096E-2  -9.024597406387329E-1  -6.017755717039108E-3  
 6.864864864864864E8    -4.086909294128418E-1   7.460278272628784E-1  -9.246687404811382E-3  -1.559207681566477E-2  -9.095033630728722E-3  -1.573542505502701E-2  -8.932921290397644E-1   1.141581125557423E-2  
 6.888888888888888E8    -3.900118768215179E-1   7.493945360183716E-1  -1.101235020905733E-2  -1.926705799996853E-2  -1.078740321099758E-2  -1.934310980141163E-2  -8.823901414871216E-1   2.965577132999897E-2  
 6.912912912912912E8    -3.730010688304901E-1   7.530813813209534E-1  -1.458369381725788E-2  -2.332747727632523E-2  -1.431434601545334E-2  -2.343784458935261E-2  -8.709561228752136E-1   4.650339856743813E-2  
 6.936936936936936E8    -3.560647070407867E-1   7.578994631767273E-1  -2.025309018790722E-2  -2.692922018468380E-2  -1.993062719702721E-2  -2.706843242049217E-2  -8.589914441108704E-1   6.226946040987968E-2  
 6.960960960960960E8    -3.373345136642456E-1   7.636485695838928E-1  -2.780952677130699E-2  -2.911157347261906E-2  -2.763533405959606E-2  -2.913051284849644E-2  -8.468615412712097E-1   7.783737778663635E-2  
 6.984984984984984E8    -3.161258101463318E-1   7.693905234336853E-1  -3.651859238743782E-2  -2.922675013542175E-2  -3.662422671914101E-2  -2.880314737558365E-2  -8.334727883338928E-1   9.681499749422073E-2  
 7.009009009009008E8    -2.924545407295227E-1   7.740415930747986E-1  -4.550416767597199E-2  -2.684747800230980E-2  -4.554648697376251E-2  -2.610967494547367E-2  -8.187545537948608E-1   1.151553317904472E-1  
 7.033033033033032E8    -2.671771049499512E-1   7.762567996978760E-1  -5.397966876626015E-2  -2.226920984685421E-2  -5.385201796889305E-2  -2.159100025892258E-2  -8.022860288619995E-1   1.314379721879959E-1  
 7.057057057057056E8    -2.408020347356796E-1   7.758532166481018E-1  -6.147938221693039E-2  -1.614246517419815E-2  -6.116076558828354E-2  -1.614736765623093E-2  -7.836822867393494E-1   1.452854126691818E-1  
 7.081081081081080E8    -2.128878086805344E-1   7.736808657646179E-1  -6.864605844020844E-2  -8.975473232567310E-3  -6.810232996940613E-2  -9.635347872972488E-3  -7.616262435913086E-1   1.604295670986176E-1  
 7.105105105105104E8    -1.845669895410538E-1   7.702922224998474E-1  -7.485145330429077E-2  -3.897804708685726E-4  -7.469053566455841E-2  -1.685457536950707E-3  -7.361620068550110E-1   1.751722991466522E-1  
 7.129129129129129E8    -1.583949625492096E-1   7.641398906707764E-1  -8.005955070257187E-2   9.097858332097530E-3  -8.054547756910324E-2   7.997388020157814E-3  -7.066174149513245E-1   1.892046779394150E-1  
 7.153153153153153E8    -1.330197900533676E-1   7.565829157829285E-1  -8.460068702697754E-2   1.969075947999954E-2  -8.514513820409775E-2   1.928098313510418E-2  -6.731665134429932E-1   2.018563747406006E-1  
 7.177177177177178E8    -1.062279939651489E-1   7.464379072189331E-1  -8.808764815330505E-2   3.197561949491501E-2  -8.861923962831497E-2   3.220821171998978E-2  -6.356326937675476E-1   2.114690840244293E-1  
 7.201201201201202E8    -7.883896678686142E-2   7.337734103202820E-1  -9.023439139127731E-2   4.635877162218094E-2  -9.053146094083786E-2   4.611453413963318E-2  -5.963967442512512E-1   2.163501083850861E-1  
 7.225225225225226E8    -5.363290756940842E-2   7.190387845039368E-1  -9.006163477897644E-2   6.246093660593033E-2  -9.039034694433212E-2   6.135855987668037E-2  -5.527905225753784E-1   2.148889303207398E-1  
 7.249249249249250E8    -2.987970411777496E-2   7.033406496047974E-1  -8.628371357917786E-2   8.047053962945938E-2  -8.783419430255890E-2   7.781107723712921E-2  -5.058012008666992E-1   2.027284502983093E-1  
 7.273273273273274E8    -8.672925643622875E-3   6.872081160545349E-1  -7.865576446056366E-2   9.851521998643875E-2  -8.122387528419495E-2   9.561782330274582E-2  -4.584117233753204E-1   1.802531778812408E-1  
 7.297297297297298E8     1.072506699711084E-2   6.713190674781799E-1  -6.798480451107025E-2   1.147927418351173E-1  -7.001927495002747E-2   1.130489185452461E-1  -4.145876765251160E-1   1.480636596679688E-1  
 7.321321321321322E8     2.939033322036266E-2   6.558553576469421E-1  -5.443888530135155E-2   1.290391087532044E-1  -5.436516180634499E-2   1.289654970169067E-1  -3.760692179203033E-1   1.064748764038086E-1  
 7.345345345345346E8     5.006330087780953E-2   6.396760940551758E-1  -3.823370486497879E-2   1.408817768096924E-1  -3.649696335196495E-2   1.415052711963654E-1  -3.459819257259369E-1   5.711939558386803E-2  
 7.369369369369370E8     7.194791734218597E-2   6.203728318214417E-1  -1.890053041279316E-2   1.510972231626511E-1  -1.625138334929943E-2   1.514585316181183E-1  -3.263793587684631E-1   3.849166096188128E-4  
 7.393393393393394E8     9.321025013923645E-2   5.970720052719116E-1   4.080675542354584E-3   1.585485488176346E-1   6.981432903558016E-3   1.582172065973282E-1  -3.209345638751984E-1  -6.100884824991226E-2  
 7.417417417417418E8     1.133558824658394E-1   5.720568895339966E-1   3.019476495683193E-2   1.606383174657822E-1   3.138054907321930E-2   1.599823087453842E-1  -3.296117782592773E-1  -1.196329519152641E-1  
 7.441441441441442E8     1.335880160331726E-1   5.446819067001343E-1   5.663571879267693E-2   1.564890295267105E-1   5.477230250835419E-2   1.568713933229446E-1  -3.493195772171021E-1  -1.708579808473587E-1  
 7.465465465465466E8     1.523106694221497E-1   5.152294039726257E-1   8.052248507738113E-2   1.475904732942581E-1   7.817491143941879E-2   1.487719416618347E-1  -3.791363835334778E-1  -2.158008366823196E-1  
 7.489489489489490E8     1.694661080837250E-1   4.822627604007721E-1   1.019307598471642E-1   1.346305906772614E-1   9.967914968729019E-2   1.362870484590530E-1  -4.150759875774384E-1  -2.517449557781220E-1  
 7.513513513513514E8     1.837780028581619E-1   4.434881210327148E-1   1.208772435784340E-1   1.181014701724052E-1   1.187434047460556E-1   1.203124001622200E-1  -4.528596699237824E-1  -2.784579098224640E-1  
 7.537537537537538E8     1.939504146575928E-1   4.013839960098267E-1   1.360913664102554E-1   9.780967980623245E-2   1.343963742256165E-1   1.005434021353722E-1  -4.917291402816773E-1  -2.971490919589996E-1  
 7.561561561561562E8     1.993340849876404E-1   3.587191104888916E-1   1.458979696035385E-1   7.651969045400620E-2   1.448400318622589E-1   7.858333736658096E-2  -5.283591747283936E-1  -3.100083768367767E-1  
 7.585585585585586E8     1.989618092775345E-1   3.156887590885162E-1   1.512098312377930E-1   5.499121174216270E-2   1.502068787813187E-1   5.648016929626465E-2  -5.637612342834473E-1  -3.170731663703919E-1  
 7.609609609609610E8     1.928463578224182E-1   2.719714939594269E-1   1.531749963760376E-1   3.469496592879295E-2   1.519170403480530E-1   3.551627695560455E-2  -5.999933481216431E-1  -3.196159899234772E-1  
 7.633633633633634E8     1.816220581531525E-1   2.287594079971314E-1   1.526621431112289E-1   1.568243466317654E-2   1.510990262031555E-1   1.603361032903194E-2  -6.344684958457947E-1  -3.174597322940826E-1  
 7.657657657657658E8     1.634846180677414E-1   1.849834024906158E-1   1.490116417407990E-1  -3.019884927198291E-3   1.480604857206345E-1  -2.036396414041519E-3  -6.660184264183044E-1  -3.137710988521576E-1  
 7.681681681681682E8     1.390675604343414E-1   1.439785510301590E-1   1.428931504487991E-1  -1.964874193072319E-2   1.423580944538117E-1  -1.859416253864765E-2  -6.953555941581726E-1  -3.090635538101196E-1  
 7.705705705705706E8     1.089810356497765E-1   1.075920835137367E-1   1.348626613616943E-1  -3.447369113564491E-2   1.350755393505096E-1  -3.236573189496994E-2  -7.197691798210144E-1  -3.013293743133545E-1  
 7.729729729729730E8     7.448716461658478E-2   7.456335425376892E-2   1.252427399158478E-1  -4.731183871626854E-2   1.264450997114182E-1  -4.525980725884438E-2  -7.442483901977539E-1  -2.921057045459747E-1  
 7.753753753753754E8     3.796213120222092E-2   4.668433964252472E-2   1.151742041110992E-1  -5.767464265227318E-2   1.168045699596405E-1  -5.605587735772133E-2  -7.671641707420349E-1  -2.797560095787048E-1  
 7.777777777777778E8    -5.485019064508379E-4   2.414465881884098E-2   1.048606410622597E-1  -6.601017713546753E-2   1.060446128249168E-1  -6.497553735971451E-2  -7.865842580795288E-1  -2.649787366390228E-1  
 7.801801801801802E8    -4.024340212345123E-2   6.843178067356348E-3   9.484625607728958E-2  -7.221723347902298E-2   9.490852057933807E-2  -7.165411859750748E-2  -8.018102049827576E-1  -2.492223978042603E-1  
 7.825825825825826E8    -8.589112758636475E-2  -3.730870783329010E-3   8.451869338750839E-2  -7.774557173252106E-2   8.437923341989517E-2  -7.755061239004135E-2  -8.179165720939636E-1  -2.335119098424912E-1  
 7.849849849849850E8    -1.303567141294479E-1  -6.199094466865063E-3   7.382619380950928E-2  -8.240762352943420E-2   7.418155670166016E-2  -8.161067217588425E-2  -8.312374353408814E-1  -2.194917201995850E-1  
 7.873873873873874E8    -1.706960946321487E-1  -4.057595506310463E-3   6.353335827589035E-2  -8.542851358652115E-2   6.381270289421082E-2  -8.425848186016083E-2  -8.431589603424072E-1  -2.062336355447769E-1  
 7.897897897897898E8    -2.095878124237061E-1   9.980202885344625E-4   5.362439528107643E-2  -8.672411739826202E-2   5.399183556437492E-2  -8.553037047386169E-2  -8.557155728340149E-1  -1.927642673254013E-1  
 7.921921921921922E8    -2.467789500951767E-1   1.011752896010876E-2   4.439007863402367E-2  -8.697110414505005E-2   4.522418975830078E-2  -8.622497320175171E-2  -8.687299489974976E-1  -1.791882365942001E-1  
 7.945945945945946E8    -2.816743552684784E-1   2.287697792053223E-2   3.576581180095673E-2  -8.679718524217606E-2   3.673025965690613E-2  -8.599112927913666E-2  -8.773182034492493E-1  -1.640689671039581E-1  
 7.969969969969970E8    -3.148896396160126E-1   3.740970045328140E-2   2.746453322470188E-2  -8.555085957050324E-2   2.858440577983856E-2  -8.503679931163788E-2  -8.855738639831543E-1  -1.489626020193100E-1  
 7.993993993993994E8    -3.460437655448914E-1   5.376219749450684E-2   2.016017958521843E-2  -8.344242721796036E-2   2.097924798727036E-2  -8.309052139520645E-2  -8.931769728660584E-1  -1.335747689008713E-1  
 8.018018018018018E8    -3.731434345245361E-1   7.387650012969971E-2   1.385925430804491E-2  -8.092425763607025E-2   1.416350062936544E-2  -8.077567070722580E-2  -8.996924757957459E-1  -1.179014369845390E-1  
 8.042042042042042E8    -3.963526189327240E-1   9.709932655096054E-2   8.149135857820511E-3  -7.818918675184250E-2   8.246226236224175E-3  -7.817187905311585E-2  -9.049623012542725E-1  -1.046973541378975E-1  
 8.066066066066066E8    -4.176067709922791E-1   1.233975887298584E-1   2.897645346820355E-3  -7.518576830625534E-2   3.089505480602384E-3  -7.522777467966080E-2  -9.104787111282349E-1  -8.980250358581543E-2  
 8.090090090090090E8    -4.349345862865448E-1   1.495856046676636E-1  -1.800788682885468E-3  -7.231139391660690E-2  -1.441131229512394E-3  -7.252501696348190E-2  -9.150353670120239E-1  -7.568722963333130E-2  
 8.114114114114114E8    -4.499717354774475E-1   1.741368919610977E-1  -6.040304899215698E-3  -6.924887746572495E-2  -5.624708719551563E-3  -6.955529004335403E-2  -9.189102649688721E-1  -6.161867454648018E-2  
 8.138138138138138E8    -4.646442234516144E-1   1.991400867700577E-1  -9.673443622887135E-3  -6.641569733619690E-2  -9.261895902454853E-3  -6.664635986089706E-2  -9.225850105285645E-1  -4.854663833975792E-2  
 8.162162162162162E8    -4.767594933509827E-1   2.264177054166794E-1  -1.309669390320778E-2  -6.367465853691101E-2  -1.273677498102188E-2  -6.390029937028885E-2  -9.257863163948059E-1  -3.567568212747574E-2  
 8.186186186186186E8    -4.842122495174408E-1   2.554276883602142E-1  -1.659066602587700E-2  -6.083995476365089E-2  -1.621112786233425E-2  -6.083298474550247E-2  -9.282093644142151E-1  -2.248626202344894E-2  
 8.210210210210210E8    -4.858354926109314E-1   2.794356644153595E-1  -1.956885866820812E-2  -5.768911540508270E-2  -1.941846683621407E-2  -5.747371912002564E-2  -9.302778244018555E-1  -9.697657078504562E-3  
 8.234234234234234E8    -4.871928095817566E-1   3.043326735496521E-1  -2.218732982873917E-2  -5.411368981003761E-2  -2.191206999123097E-2  -5.406847223639488E-2  -9.318512082099915E-1   2.804802265018225E-3  
