#  HZ   S   RI   R     50.00 
! Rohde & Schwarz ZVB8 2Ports - Version 2.81 - 1145.1010k08 SN: 100113
! Date: 2016-05-04 02:49:43
! Measurements: S11 S21 S12 S22 
! 
 6.000000000000000E8    -8.665704131126404E-1   3.695400655269623E-1   9.643640805734322E-5  -5.679513560608029E-4   1.119592925533652E-4  -5.743142100982368E-4  -8.444598317146301E-1  -4.759393036365509E-1  
 6.024024024024024E8    -8.595389723777771E-1   3.825345039367676E-1   1.570493477629498E-4  -5.505448789335787E-4   8.979833364719525E-5  -5.719388136640191E-4  -8.489481806755066E-1  -4.671144187450409E-1  
 6.048048048048048E8    -8.521870970726013E-1   3.959367275238037E-1   1.584844285389409E-4  -6.587399984709919E-4   1.562947290949523E-4  -6.720180390402675E-4  -8.533704876899719E-1  -4.582329988479614E-1  
 6.072072072072072E8    -8.441597223281860E-1   4.099875390529633E-1   1.549982262076810E-4  -5.944863660261035E-4   2.613734686747193E-4  -6.041773594915867E-4  -8.581868410110474E-1  -4.491952657699585E-1  
 6.096096096096096E8    -8.357175588607788E-1   4.242179095745087E-1   2.674099814612418E-4  -6.458813440985978E-4   1.673244842095301E-4  -6.240534130483866E-4  -8.629574179649353E-1  -4.397059381008148E-1  
 6.120120120120120E8    -8.292354345321655E-1   4.353330135345459E-1   2.313161385245621E-4  -6.108462694101036E-4   2.993500966113061E-4  -6.381913553923369E-4  -8.663135170936585E-1  -4.321466088294983E-1  
 6.144144144144144E8    -8.207464814186096E-1   4.475959837436676E-1   4.101108061149716E-4  -6.299254018813372E-4   4.551094025373459E-4  -5.847392021678388E-4  -8.700054883956909E-1  -4.241471886634827E-1  
 6.168168168168168E8    -8.116295337677002E-1   4.602197110652924E-1   5.972704966552556E-4  -5.892033223062754E-4   5.788935231976211E-4  -6.613934529013932E-4  -8.739048242568970E-1  -4.154675900936127E-1  
 6.192192192192192E8    -8.023169636726379E-1   4.721428751945496E-1   7.507551927119494E-4  -6.717472570016980E-4   7.822056650184095E-4  -6.707429420202971E-4  -8.781719803810120E-1  -4.059088826179504E-1  
 6.216216216216216E8    -7.928597331047058E-1   4.840144515037537E-1   9.506584028713405E-4  -8.002857211977243E-4   9.714979096315801E-4  -8.469636086374521E-4  -8.830826282501221E-1  -3.959291279315949E-1  
 6.240240240240240E8    -7.829101681709290E-1   4.953155815601349E-1   1.167580252513290E-3  -9.949881350621581E-4   1.250590197741985E-3  -1.063020084984601E-3  -8.874149918556213E-1  -3.853912651538849E-1  
 6.264264264264264E8    -7.729013562202454E-1   5.076451301574707E-1   1.529169618152082E-3  -1.284424448385835E-3   1.560610719025135E-3  -1.236198586411774E-3  -8.918010592460632E-1  -3.741954863071442E-1  
 6.288288288288288E8    -7.630972266197205E-1   5.188844799995422E-1   1.646602409891784E-3  -1.696990686468780E-3   1.691255019977689E-3  -1.701121102087200E-3  -8.950536251068115E-1  -3.649690151214600E-1  
 6.312312312312312E8    -7.544695138931274E-1   5.295407176017761E-1   1.821417827159166E-3  -2.241246402263641E-3   1.807187101803720E-3  -2.203722717240453E-3  -8.980320692062378E-1  -3.564482629299164E-1  
 6.336336336336336E8    -7.462570667266846E-1   5.402908325195313E-1   1.720641972497106E-3  -2.735342131927609E-3   1.744986395351589E-3  -2.775742672383785E-3  -9.013047814369202E-1  -3.479676842689514E-1  
 6.360360360360360E8    -7.378010749816895E-1   5.512610077857971E-1   1.475449767895043E-3  -3.396115498617292E-3   1.591235050000250E-3  -3.350031329318881E-3  -9.041051268577576E-1  -3.405540585517883E-1  
 6.384384384384384E8    -7.280128598213196E-1   5.639585852622986E-1   1.212949980981648E-3  -3.814616473391652E-3   1.139033469371498E-3  -3.757659578695893E-3  -9.072285890579224E-1  -3.315547704696655E-1  
 6.408408408408408E8    -7.176816463470459E-1   5.770671367645264E-1   7.661673007532954E-4  -4.179267212748528E-3   7.672177162021399E-4  -4.138795193284750E-3  -9.105838537216187E-1  -3.225209116935730E-1  
 6.432432432432432E8    -7.064628005027771E-1   5.895265936851502E-1   3.522564074955881E-4  -4.462315235286951E-3   3.960598551202565E-4  -4.393117967993021E-3  -9.136700034141541E-1  -3.133823275566101E-1  
 6.456456456456456E8    -6.943777799606323E-1   6.018355488777161E-1  -1.202818311867304E-4  -4.596683662384749E-3  -9.235997276846319E-5  -4.579038824886084E-3  -9.171437025070190E-1  -3.041716814041138E-1  
 6.480480480480480E8    -6.818676590919495E-1   6.132598519325256E-1  -5.207298672758043E-4  -4.743318539112806E-3  -5.049023311585188E-4  -4.688797984272242E-3  -9.202103614807129E-1  -2.957105636596680E-1  
 6.504504504504504E8    -6.680042743682861E-1   6.256295442581177E-1  -9.318935335613787E-4  -4.739124793559313E-3  -8.950699120759964E-4  -4.659206606447697E-3  -9.222391247749329E-1  -2.854923307895660E-1  
 6.528528528528528E8    -6.539068222045898E-1   6.375164985656738E-1  -1.281041535548866E-3  -4.685723688453436E-3  -1.231921021826565E-3  -4.757328890264034E-3  -9.245312809944153E-1  -2.759508192539215E-1  
 6.552552552552552E8    -6.403390765190125E-1   6.482155919075012E-1  -1.485917600803077E-3  -4.687397740781307E-3  -1.513869501650333E-3  -4.709083121269941E-3  -9.270954728126526E-1  -2.666447460651398E-1  
 6.576576576576576E8    -6.260845065116882E-1   6.581662297248840E-1  -1.809475477784872E-3  -4.682890139520168E-3  -1.699047046713531E-3  -4.675556905567646E-3  -9.297077059745789E-1  -2.581245005130768E-1  
 6.600600600600600E8    -6.101741790771484E-1   6.684316992759705E-1  -1.940871705301106E-3  -4.660133738070726E-3  -1.933856168761849E-3  -4.657215904444456E-3  -9.325256943702698E-1  -2.491053491830826E-1  
 6.624624624624624E8    -5.936096906661987E-1   6.795759201049805E-1  -2.145932056009769E-3  -4.654820077121258E-3  -2.105374354869127E-3  -4.649892449378967E-3  -9.347258210182190E-1  -2.384750545024872E-1  
 6.648648648648648E8    -5.765550136566162E-1   6.899796724319458E-1  -2.293494995683432E-3  -4.545153584331274E-3  -2.276203595101833E-3  -4.665606655180454E-3  -9.369660615921021E-1  -2.281074225902557E-1  
 6.672672672672672E8    -5.593952536582947E-1   6.989474296569824E-1  -2.419501775875688E-3  -4.558637272566557E-3  -2.396890195086598E-3  -4.635169170796871E-3  -9.392408132553101E-1  -2.183346897363663E-1  
 6.696696696696696E8    -5.413708090782166E-1   7.074114680290222E-1  -2.492310479283333E-3  -4.623610060662031E-3  -2.430956112220883E-3  -4.651409573853016E-3  -9.411315917968750E-1  -2.082388997077942E-1  
 6.720720720720720E8    -5.229293704032898E-1   7.148423790931702E-1  -2.581309527158737E-3  -4.671230446547270E-3  -2.549641998484731E-3  -4.727395717054606E-3  -9.425012469291687E-1  -1.989891529083252E-1  
 6.744744744744744E8    -5.038798451423645E-1   7.221031785011292E-1  -2.609874587506056E-3  -4.785670898854733E-3  -2.511404221877456E-3  -4.820593632757664E-3  -9.438776969909668E-1  -1.889372617006302E-1  
 6.768768768768768E8    -4.853251874446869E-1   7.284566164016724E-1  -2.520639915019274E-3  -4.945523571223021E-3  -2.540627261623740E-3  -4.931783769279718E-3  -9.455429911613464E-1  -1.790473610162735E-1  
 6.792792792792792E8    -4.664932191371918E-1   7.340911030769348E-1  -2.383029554039240E-3  -5.133507307618856E-3  -2.320206025615335E-3  -5.194442346692085E-3  -9.469289779663086E-1  -1.688478142023087E-1  
 6.816816816816816E8    -4.477874636650085E-1   7.391247749328613E-1  -2.162264194339514E-3  -5.606489256024361E-3  -2.173575107008219E-3  -5.554715637117624E-3  -9.483460187911987E-1  -1.586787402629852E-1  
 6.840840840840840E8    -4.286773204803467E-1   7.434073090553284E-1  -1.954150386154652E-3  -6.181142292916775E-3  -1.889821724034846E-3  -6.207078229635954E-3  -9.498453140258789E-1  -1.479637026786804E-1  
 6.864864864864864E8    -4.089242517948151E-1   7.470287680625916E-1  -1.702521927654743E-3  -7.160133682191372E-3  -1.661416725255549E-3  -7.171788718551397E-3  -9.498007297515869E-1  -1.379653364419937E-1  
 6.888888888888888E8    -3.899597227573395E-1   7.499729394912720E-1  -1.788607798516750E-3  -8.547388017177582E-3  -1.677752938121557E-3  -8.470674045383930E-3  -9.499558210372925E-1  -1.273418217897415E-1  
 6.912912912912912E8    -3.728815317153931E-1   7.532471418380737E-1  -2.271383535116911E-3  -1.028521545231342E-2  -2.090837806463242E-3  -1.019607204943895E-2  -9.503660202026367E-1  -1.166242510080338E-1  
 6.936936936936936E8    -3.561733365058899E-1   7.575429677963257E-1  -3.410455537959933E-3  -1.205494906753302E-2  -3.254801500588656E-3  -1.200698968023062E-2  -9.508778452873230E-1  -1.062827035784721E-1  
 6.960960960960960E8    -3.380213975906372E-1   7.633870244026184E-1  -5.310694687068462E-3  -1.375710871070623E-2  -5.175366066396236E-3  -1.371436845511198E-2  -9.515243768692017E-1  -9.569264948368073E-2  
 6.984984984984984E8    -3.187863230705261E-1   7.699419856071472E-1  -7.572956848889589E-3  -1.482510380446911E-2  -7.702850271016359E-3  -1.471903268247843E-2  -9.520143270492554E-1  -8.215078711509705E-2  
 7.009009009009008E8    -2.971248328685761E-1   7.757102251052856E-1  -1.018376182764769E-2  -1.534047722816467E-2  -1.042128261178732E-2  -1.519136782735586E-2  -9.523363709449768E-1  -6.958656758069992E-2  
 7.033033033033032E8    -2.722566127777100E-1   7.799953222274780E-1  -1.281349547207356E-2  -1.516531687229872E-2  -1.291057933121920E-2  -1.496550440788269E-2  -9.522460103034973E-1  -5.989274010062218E-2  
 7.057057057057056E8    -2.457048147916794E-1   7.816587686538696E-1  -1.510666776448488E-2  -1.459647715091705E-2  -1.513934880495071E-2  -1.457877829670906E-2  -9.516094326972961E-1  -5.349801480770111E-2  
 7.081081081081080E8    -2.167363613843918E-1   7.816896438598633E-1  -1.739630475640297E-2  -1.386220194399357E-2  -1.718092337250710E-2  -1.393422950059176E-2  -9.512869119644165E-1  -4.560369625687599E-2  
 7.105105105105104E8    -1.869271695613861E-1   7.802556753158569E-1  -1.958407275378704E-2  -1.290638372302055E-2  -1.920283958315849E-2  -1.322397869080305E-2  -9.509038925170898E-1  -3.668598830699921E-2  
 7.129129129129129E8    -1.578706502914429E-1   7.753031849861145E-1  -2.149821259081364E-2  -1.186278462409973E-2  -2.115691080689430E-2  -1.222540345042944E-2  -9.507542848587036E-1  -2.593755349516869E-2  
 7.153153153153153E8    -1.295715719461441E-1   7.684373259544373E-1  -2.338876761496067E-2  -1.079584285616875E-2  -2.323514595627785E-2  -1.116378419101238E-2  -9.502247571945190E-1  -1.354432851076126E-2  
 7.177177177177178E8    -1.005639284849167E-1   7.597341537475586E-1  -2.532690390944481E-2  -9.663373231887817E-3  -2.514930441975594E-2  -9.868619032204151E-3  -9.497476220130920E-1  -5.904325735173188E-5  
 7.201201201201202E8    -7.055759429931641E-2   7.482072114944458E-1  -2.725580520927906E-2  -8.287156000733376E-3  -2.709902077913284E-2  -8.486903272569180E-3  -9.490048289299011E-1   1.243797969073057E-2  
 7.225225225225226E8    -4.247292876243591E-2   7.343447804450989E-1  -2.913731522858143E-2  -6.746778264641762E-3  -2.909721247851849E-2  -6.988407112658024E-3  -9.482665061950684E-1   2.490468695759773E-2  
 7.249249249249250E8    -1.457166578620672E-2   7.181804180145264E-1  -3.108402527868748E-2  -4.892521537840366E-3  -3.102205693721771E-2  -5.408307537436485E-3  -9.466089010238648E-1   3.535566106438637E-2  
 7.273273273273274E8     1.156789902597666E-2   6.996262669563294E-1  -3.297428041696549E-2  -2.712146146222949E-3  -3.280024975538254E-2  -3.514296608045697E-3  -9.449598789215088E-1   4.621150344610214E-2  
 7.297297297297298E8     3.558478876948357E-2   6.794546246528626E-1  -3.473055735230446E-2  -6.203010561875999E-4  -3.464906290173531E-2  -1.267332350835204E-3  -9.433235526084900E-1   5.810755491256714E-2  
 7.321321321321322E8     5.841042473912239E-2   6.581961512565613E-1  -3.636746481060982E-2   1.499746227636933E-3  -3.633547574281693E-2   1.364088966511190E-3  -9.411668777465820E-1   7.049661874771118E-2  
 7.345345345345346E8     8.083064854145050E-2   6.365025043487549E-1  -3.784522786736488E-2   3.713513491675258E-3  -3.779987990856171E-2   3.866655286401510E-3  -9.389218091964722E-1   8.236660063266754E-2  
 7.369369369369370E8     1.043537631630898E-1   6.118801832199097E-1  -3.952735662460327E-2   6.098340265452862E-3  -3.942046687006950E-2   6.349945906549692E-3  -9.364033341407776E-1   9.481280297040939E-2  
 7.393393393393394E8     1.265609115362167E-1   5.830344557762146E-1  -4.138503968715668E-2   8.905743248760700E-3  -4.126655682921410E-2   9.215461090207100E-3  -9.336077570915222E-1   1.073119416832924E-1  
 7.417417417417418E8     1.463336348533630E-1   5.509648323059082E-1  -4.324843361973763E-2   1.232085935771465E-2  -4.322987049818039E-2   1.241302024573088E-2  -9.310261011123657E-1   1.189040541648865E-1  
 7.441441441441442E8     1.642191410064697E-1   5.152966976165772E-1  -4.495305940508843E-2   1.633769087493420E-2  -4.505977034568787E-2   1.608008332550526E-2  -9.279925823211670E-1   1.295368522405624E-1  
 7.465465465465466E8     1.782695949077606E-1   4.779725968837738E-1  -4.648577421903610E-2   2.080343849956989E-2  -4.664136469364166E-2   2.043259888887405E-2  -9.242729544639587E-1   1.417841017246246E-1  
 7.489489489489490E8     1.886082291603088E-1   4.362667202949524E-1  -4.746697470545769E-2   2.594057843089104E-2  -4.785186424851418E-2   2.536498196423054E-2  -9.209439158439636E-1   1.530056148767471E-1  
 7.513513513513514E8     1.934422552585602E-1   3.912126421928406E-1  -4.789438843727112E-2   3.164720907807350E-2  -4.835033789277077E-2   3.094105422496796E-2  -9.173648953437805E-1   1.650654375553131E-1  
 7.537537537537538E8     1.921566426753998E-1   3.446580171585083E-1  -4.714383184909821E-2   3.786987438797951E-2  -4.781279340386391E-2   3.717273846268654E-2  -9.130454659461975E-1   1.783325374126434E-1  
 7.561561561561562E8     1.844913363456726E-1   2.988017797470093E-1  -4.566109180450440E-2   4.393902048468590E-2  -4.615651071071625E-2   4.321936890482903E-2  -9.079755544662476E-1   1.908089667558670E-1  
 7.585585585585586E8     1.715842038393021E-1   2.582524418830872E-1  -4.364262893795967E-2   4.955402761697769E-2  -4.394662380218506E-2   4.893005266785622E-2  -9.019111394882202E-1   2.052053064107895E-1  
 7.609609609609610E8     1.542938947677612E-1   2.208615839481354E-1  -4.115988686680794E-2   5.524411424994469E-2  -4.137503728270531E-2   5.465028434991837E-2  -8.960668444633484E-1   2.192539423704147E-1  
 7.633633633633634E8     1.330119818449020E-1   1.858182102441788E-1  -3.785720095038414E-2   6.104409694671631E-2  -3.803422302007675E-2   6.037476286292076E-2  -8.904999494552612E-1   2.323591113090515E-1  
 7.657657657657658E8     1.066463291645050E-1   1.521888822317123E-1  -3.346414491534233E-2   6.645847856998444E-2  -3.405562043190002E-2   6.580661982297897E-2  -8.858325481414795E-1   2.440149784088135E-1  
 7.681681681681682E8     7.725858688354492E-2   1.225414201617241E-1  -2.880934253334999E-2   7.111844420433044E-2  -2.961114607751370E-2   7.080996781587601E-2  -8.818250298500061E-1   2.549309432506561E-1  
 7.705705705705706E8     4.400710389018059E-2   9.721279144287109E-2  -2.368848398327828E-2   7.563462853431702E-2  -2.505729906260967E-2   7.520370930433273E-2  -8.757525086402893E-1   2.662540376186371E-1  
 7.729729729729730E8     9.139073081314564E-3   7.653220742940903E-2  -1.805102452635765E-2   7.971015572547913E-2  -1.966118626296520E-2   7.973306626081467E-2  -8.709644079208374E-1   2.791666388511658E-1  
 7.753753753753754E8    -2.742443978786469E-2   6.012853980064392E-2  -1.193019095808268E-2   8.358576893806458E-2  -1.344705838710070E-2   8.382907509803772E-2  -8.636574149131775E-1   2.935099601745606E-1  
 7.777777777777778E8    -6.400090456008911E-2   4.855974018573761E-2  -5.292834714055061E-3   8.687748759984970E-2  -6.606558803468943E-3   8.698128163814545E-2  -8.535996079444885E-1   3.080869615077972E-1  
 7.801801801801802E8    -1.026146188378334E-1   4.087768122553825E-2   1.606673933565617E-3   8.977272361516953E-2   5.186176858842373E-4   8.914330601692200E-2  -8.404453992843628E-1   3.211321830749512E-1  
 7.825825825825826E8    -1.384113729000092E-1   4.068609699606895E-2   8.785430341959000E-3   9.194492548704147E-2   8.094800636172295E-3   9.153597801923752E-2  -8.294027447700501E-1   3.356849849224091E-1  
 7.849849849849850E8    -1.707881242036820E-1   4.578773677349091E-2   1.663157716393471E-2   9.356299042701721E-2   1.580899581313133E-2   9.305524826049805E-2  -8.184565901756287E-1   3.468716442584992E-1  
 7.873873873873874E8    -1.999372690916061E-1   5.237590894103050E-2   2.462664060294628E-2   9.444294869899750E-2   2.377565763890743E-2   9.374561160802841E-2  -8.083404302597046E-1   3.582593500614166E-1  
 7.897897897897898E8    -2.281711995601654E-1   6.000135466456413E-2   3.248320892453194E-2   9.470158815383911E-2   3.184426575899124E-2   9.400162845849991E-2  -7.984279990196228E-1   3.714754879474640E-1  
 7.921921921921922E8    -2.556000053882599E-1   7.072752714157105E-2   4.070780426263809E-2   9.408126026391983E-2   4.041552916169167E-2   9.426295012235642E-2  -7.887187004089356E-1   3.864969611167908E-1  
 7.945945945945946E8    -2.811123728752136E-1   8.376260101795197E-2   4.959442093968391E-2   9.303078055381775E-2   4.855952039361000E-2   9.363871812820435E-2  -7.743967175483704E-1   3.995769917964935E-1  
 7.969969969969970E8    -3.037291765213013E-1   9.575461596250534E-2   5.836997926235199E-2   9.068973362445831E-2   5.743389949202538E-2   9.153501689434052E-2  -7.592195868492127E-1   4.135220050811768E-1  
 7.993993993993994E8    -3.274277746677399E-1   1.074353158473969E-1   6.638287007808685E-2   8.732334524393082E-2   6.568137556314468E-2   8.841148763895035E-2  -7.429672479629517E-1   4.277091622352600E-1  
 8.018018018018018E8    -3.505332767963409E-1   1.229497268795967E-1   7.401156425476074E-2   8.398512750864029E-2   7.365636527538300E-2   8.487222343683243E-2  -7.247994542121887E-1   4.419147670269013E-1  
 8.042042042042042E8    -3.707366287708283E-1   1.417550295591354E-1   8.175051957368851E-2   8.034810423851013E-2   8.159201592206955E-2   8.104191720485687E-2  -7.059391736984253E-1   4.545910954475403E-1  
 8.066066066066066E8    -3.876700401306152E-1   1.631487607955933E-1   8.973807096481323E-2   7.592397183179855E-2   8.927271515130997E-2   7.661154121160507E-2  -6.854928135871887E-1   4.675194919109345E-1  
 8.090090090090090E8    -4.006803035736084E-1   1.838448047637940E-1   9.783864766359329E-2   7.117696106433868E-2   9.747216850519180E-2   7.155569642782211E-2  -6.630567312240601E-1   4.796234965324402E-1  
 8.114114114114114E8    -4.111253321170807E-1   2.023256570100784E-1   1.058886796236038E-1   6.551244854927063E-2   1.054950654506683E-1   6.556590646505356E-2  -6.384295821189880E-1   4.901110529899597E-1  
 8.138138138138138E8    -4.225867092609406E-1   2.224230021238327E-1   1.140402480959892E-1   5.911938101053238E-2   1.135512515902519E-1   5.909715592861176E-2  -6.120359301567078E-1   4.991557002067566E-1  
 8.162162162162162E8    -4.318549036979675E-1   2.446473836898804E-1   1.223249435424805E-1   5.139052122831345E-2   1.216685101389885E-1   5.137611553072929E-2  -5.845683217048645E-1   5.066321492195129E-1  
 8.186186186186186E8    -4.372141957283020E-1   2.678289711475372E-1   1.299697607755661E-1   4.213550314307213E-2   1.295218616724014E-1   4.236567392945290E-2  -5.548621416091919E-1   5.124362707138062E-1  
 8.210210210210210E8    -4.396554231643677E-1   2.890655994415283E-1   1.362978965044022E-1   3.145331516861916E-2   1.365430504083633E-1   3.211800009012222E-2  -5.224388241767883E-1   5.165166854858398E-1  
 8.234234234234234E8    -4.402806162834168E-1   3.076840043067932E-1   1.421560049057007E-1   1.977603882551193E-2   1.421647369861603E-1   2.057844214141369E-2  -4.888112246990204E-1   5.180844068527222E-1  
