#  HZ   S   RI   R     50.00 
! Rohde & Schwarz ZVB8 2Ports - Version 2.81 - 1145.1010k08 SN: 100113
! Date: 2016-05-04 02:50:38
! Measurements: S11 S21 S12 S22 
! 
 6.000000000000000E8    -8.665116429328919E-1   3.700069785118103E-1   1.051302751875483E-4  -9.208954288624227E-4   1.358441077172756E-4  -9.082312462851405E-4  -8.520861268043518E-1  -4.538137018680573E-1  
 6.024024024024024E8    -8.597519397735596E-1   3.830608129501343E-1   1.610047038411722E-4  -9.542910265736282E-4   9.531088289804757E-5  -9.108101367019117E-4  -8.562804460525513E-1  -4.441266059875488E-1  
 6.048048048048048E8    -8.524183630943298E-1   3.964053094387054E-1   1.312946551479399E-4  -9.457258856855333E-4   1.673861988820136E-4  -9.744285489432514E-4  -8.610646724700928E-1  -4.339365959167481E-1  
 6.072072072072072E8    -8.442283868789673E-1   4.105564653873444E-1   2.472810447216034E-4  -9.885494364425540E-4   2.326221874682233E-4  -1.070027239620686E-3  -8.654618263244629E-1  -4.239120781421661E-1  
 6.096096096096096E8    -8.355399370193481E-1   4.247316420078278E-1   2.327168040210381E-4  -1.013170927762985E-3   3.131969424430281E-4  -1.049590064212680E-3  -8.701675534248352E-1  -4.132536649703980E-1  
 6.120120120120120E8    -8.288636207580566E-1   4.358189105987549E-1   3.413794620428234E-4  -9.616816532798111E-4   4.053472948726267E-4  -1.096924883313477E-3  -8.736667037010193E-1  -4.039882421493530E-1  
 6.144144144144144E8    -8.204140067100525E-1   4.482232630252838E-1   5.705800722353160E-4  -9.595458395779133E-4   5.466038128361106E-4  -1.077488646842539E-3  -8.772225975990295E-1  -3.947730064392090E-1  
 6.168168168168168E8    -8.114011883735657E-1   4.606791734695435E-1   8.296784944832325E-4  -1.061009010300040E-3   7.257299730554223E-4  -1.061406219378114E-3  -8.812993168830872E-1  -3.847671151161194E-1  
 6.192192192192192E8    -8.022518157958984E-1   4.726411998271942E-1   1.203365623950958E-3  -1.228208187967539E-3   1.128067378886044E-3  -1.177153899334371E-3  -8.852597475051880E-1  -3.739524185657501E-1  
 6.216216216216216E8    -7.926930785179138E-1   4.844512343406677E-1   1.444906578399241E-3  -1.356920227408409E-3   1.410365104675293E-3  -1.360110822133720E-3  -8.894502520561218E-1  -3.623065054416657E-1  
 6.240240240240240E8    -7.826699614524841E-1   4.957528710365295E-1   1.819242141209543E-3  -1.734199351631105E-3   1.893655862659216E-3  -1.714173471555114E-3  -8.937991857528687E-1  -3.497728705406189E-1  
 6.264264264264264E8    -7.727585434913635E-1   5.078490972518921E-1   2.276196843013167E-3  -2.347207861021161E-3   2.293690107762814E-3  -2.208063844591379E-3  -8.976055383682251E-1  -3.371573686599731E-1  
 6.288288288288288E8    -7.631250619888306E-1   5.192457437515259E-1   2.567618153989315E-3  -3.132016630843282E-3   2.559602959081531E-3  -3.050336381420493E-3  -9.006755352020264E-1  -3.259893059730530E-1  
 6.312312312312312E8    -7.539666295051575E-1   5.299156904220581E-1   2.640780294314027E-3  -3.982260823249817E-3   2.610997529700398E-3  -3.893560497090221E-3  -9.034067988395691E-1  -3.154087960720062E-1  
 6.336336336336336E8    -7.455821037292481E-1   5.409093499183655E-1   2.455948386341333E-3  -5.000051576644182E-3   2.491135848686099E-3  -4.849205724895001E-3  -9.059292078018189E-1  -3.053054511547089E-1  
 6.360360360360360E8    -7.372164726257324E-1   5.519717335700989E-1   2.056636847555637E-3  -5.838478449732065E-3   2.069248817861080E-3  -5.856276489794254E-3  -9.082627892494202E-1  -2.958354353904724E-1  
 6.384384384384384E8    -7.271498441696167E-1   5.643469095230103E-1   1.438482198864222E-3  -6.716606672853231E-3   1.486051827669144E-3  -6.685226224362850E-3  -9.106762409210205E-1  -2.848190367221832E-1  
 6.408408408408408E8    -7.167735099792481E-1   5.771316289901733E-1   6.592557183466852E-4  -7.363390643149614E-3   7.413359708152711E-4  -7.339489180594683E-3  -9.137591719627380E-1  -2.736530005931854E-1  
 6.432432432432432E8    -7.056088447570801E-1   5.895658731460571E-1  -1.865355588961393E-4  -7.845514453947544E-3  -1.002176431939006E-4  -7.813960313796997E-3  -9.164640307426453E-1  -2.622308135032654E-1  
 6.456456456456456E8    -6.933959722518921E-1   6.016404628753662E-1  -1.028941245749593E-3  -8.172472938895226E-3  -9.257218916900456E-4  -8.158008567988873E-3  -9.191777110099793E-1  -2.504407167434692E-1  
 6.480480480480480E8    -6.808897256851196E-1   6.129072308540344E-1  -1.791118062101305E-3  -8.359426632523537E-3  -1.752936397679150E-3  -8.393890224397183E-3  -9.218526482582092E-1  -2.388172447681427E-1  
 6.504504504504504E8    -6.671273112297058E-1   6.252229809761047E-1  -2.598877996206284E-3  -8.501208387315273E-3  -2.545359777286649E-3  -8.539402857422829E-3  -9.230222702026367E-1  -2.260504662990570E-1  
 6.528528528528528E8    -6.532111167907715E-1   6.369603276252747E-1  -3.308811923488975E-3  -8.588768541812897E-3  -3.301175078377128E-3  -8.575530722737312E-3  -9.244085550308228E-1  -2.130784243345261E-1  
 6.552552552552552E8    -6.392871737480164E-1   6.475188732147217E-1  -4.065772052854300E-3  -8.576722815632820E-3  -3.964364062994719E-3  -8.606647141277790E-3  -9.258154034614563E-1  -2.006088197231293E-1  
 6.576576576576576E8    -6.250318884849548E-1   6.573304533958435E-1  -4.658225458115339E-3  -8.526809513568878E-3  -4.603483248502016E-3  -8.532370440661907E-3  -9.272227883338928E-1  -1.883796155452728E-1  
 6.600600600600600E8    -6.094793677330017E-1   6.674779653549194E-1  -5.219267681241036E-3  -8.508029393851757E-3  -5.158771760761738E-3  -8.493928238749504E-3  -9.286451339721680E-1  -1.757320016622543E-1  
 6.624624624624624E8    -5.930156111717224E-1   6.787125468254089E-1  -5.743457935750485E-3  -8.454523049294949E-3  -5.644319579005241E-3  -8.541251532733440E-3  -9.292033910751343E-1  -1.606519371271133E-1  
 6.648648648648648E8    -5.759020447731018E-1   6.889364719390869E-1  -6.179361138492823E-3  -8.519839495420456E-3  -6.129287648946047E-3  -8.544101379811764E-3  -9.294554591178894E-1  -1.459499597549439E-1  
 6.672672672672672E8    -5.588279962539673E-1   6.981801390647888E-1  -6.662223953753710E-3  -8.551472797989845E-3  -6.547300610691309E-3  -8.637246675789356E-3  -9.291757941246033E-1  -1.307930797338486E-1  
 6.696696696696696E8    -5.412629842758179E-1   7.064943909645081E-1  -7.037719246000052E-3  -8.686686865985394E-3  -6.960103753954172E-3  -8.696242235600948E-3  -9.284298419952393E-1  -1.161235719919205E-1  
 6.720720720720720E8    -5.228610634803772E-1   7.140440344810486E-1  -7.420257665216923E-3  -8.908661082386971E-3  -7.340418174862862E-3  -8.964119479060173E-3  -9.271042346954346E-1  -1.013150140643120E-1  
 6.744744744744744E8    -5.035164356231690E-1   7.211437821388245E-1  -7.810943759977818E-3  -9.115835651755333E-3  -7.691298611462116E-3  -9.193615987896919E-3  -9.253280162811279E-1  -8.552862703800201E-2  
 6.768768768768768E8    -4.846938252449036E-1   7.272648215293884E-1  -8.090346120297909E-3  -9.475375525653362E-3  -7.965061813592911E-3  -9.512498043477535E-3  -9.227790832519531E-1  -6.906570494174957E-2  
 6.792792792792792E8    -4.659066498279572E-1   7.327329516410828E-1  -8.269854821264744E-3  -1.010452397167683E-2  -8.102549239993095E-3  -1.010905951261520E-2  -9.194229841232300E-1  -5.239875987172127E-2  
 6.816816816816816E8    -4.470705986022949E-1   7.379854917526245E-1  -8.346063084900379E-3  -1.117218658328056E-2  -8.221770636737347E-3  -1.117838453501463E-2  -9.150219559669495E-1  -3.482052683830261E-2  
 6.840840840840840E8    -4.282647371292114E-1   7.422792911529541E-1  -8.585025556385517E-3  -1.281224191188812E-2  -8.463253267109394E-3  -1.282331906259060E-2  -9.096730351448059E-1  -1.685734838247299E-2  
 6.864864864864864E8    -4.092344939708710E-1   7.463836669921875E-1  -9.175251238048077E-3  -1.524185575544834E-2  -9.036106057465076E-3  -1.523514557629824E-2  -9.016698002815247E-1   2.790027065202594E-4  
 6.888888888888888E8    -3.907104432582855E-1   7.500068545341492E-1  -1.080133859068155E-2  -1.843320950865746E-2  -1.059202291071415E-2  -1.849273405969143E-2  -8.925647139549255E-1   1.778516359627247E-2  
 6.912912912912912E8    -3.730472922325134E-1   7.534797787666321E-1  -1.401952560991049E-2  -2.206521295011044E-2  -1.378552149981260E-2  -2.220859378576279E-2  -8.825751543045044E-1   3.511707857251167E-2  
 6.936936936936936E8    -3.554666042327881E-1   7.581858634948731E-1  -1.895995438098908E-2  -2.544920891523361E-2  -1.885550655424595E-2  -2.555284462869167E-2  -8.719616532325745E-1   5.135595798492432E-2  
 6.960960960960960E8    -3.364440798759460E-1   7.638630867004395E-1  -2.580808475613594E-2  -2.762546576559544E-2  -2.567971497774124E-2  -2.761286310851574E-2  -8.611721396446228E-1   6.699892133474350E-2  
 6.984984984984984E8    -3.151562213897705E-1   7.693846821784973E-1  -3.368829190731049E-2  -2.791832014918327E-2  -3.385986760258675E-2  -2.763364650309086E-2  -8.495757579803467E-1   8.602479845285416E-2  
 7.009009009009008E8    -2.916349768638611E-1   7.739288806915283E-1  -4.196376726031303E-2  -2.615158446133137E-2  -4.224271699786186E-2  -2.536130137741566E-2  -8.368754386901856E-1   1.044101417064667E-1  
 7.033033033033032E8    -2.660810053348541E-1   7.763439416885376E-1  -4.990718886256218E-2  -2.224270626902580E-2  -4.985281825065613E-2  -2.164718881249428E-2  -8.230368494987488E-1   1.208367496728897E-1  
 7.057057057057056E8    -2.405703514814377E-1   7.760585546493530E-1  -5.681332573294640E-2  -1.708758249878883E-2  -5.664683505892754E-2  -1.699588447809219E-2  -8.075574040412903E-1   1.346969753503799E-1  
 7.081081081081080E8    -2.129377573728561E-1   7.742542624473572E-1  -6.334380805492401E-2  -1.104960590600967E-2  -6.309634447097778E-2  -1.161419600248337E-2  -7.891750931739807E-1   1.502129435539246E-1  
 7.105105105105104E8    -1.842644363641739E-1   7.705876231193543E-1  -6.952077895402908E-2  -3.678588196635246E-3  -6.937217712402344E-2  -4.763009492307901E-3  -7.675873041152954E-1   1.662097275257111E-1  
 7.129129129129129E8    -1.577977091073990E-1   7.646495103836060E-1  -7.488625496625900E-2   4.560044500976801E-3  -7.497873157262802E-2   3.450403455644846E-3  -7.423407435417175E-1   1.821667551994324E-1  
 7.153153153153153E8    -1.313552558422089E-1   7.561092972755432E-1  -7.953190058469772E-2   1.369451172649860E-2  -7.974453270435333E-2   1.285056397318840E-2  -7.134124636650085E-1   1.980741173028946E-1  
 7.177177177177178E8    -1.044888272881508E-1   7.455707192420960E-1  -8.377807587385178E-2   2.397272735834122E-2  -8.394949883222580E-2   2.359810657799244E-2  -6.807442307472229E-1   2.118389606475830E-1  
 7.201201201201202E8    -7.696034014225006E-2   7.329362034797669E-1  -8.696132898330689E-2   3.618277609348297E-2  -8.727405965328217E-2   3.585284575819969E-2  -6.441414356231690E-1   2.217606157064438E-1  
 7.225225225225226E8    -5.165423452854157E-2   7.182035446166992E-1  -8.883870393037796E-2   5.026097595691681E-2  -8.907733112573624E-2   4.970246553421021E-2  -6.036699414253235E-1   2.273723781108856E-1  
 7.249249249249250E8    -2.746601216495037E-2   7.017116546630859E-1  -8.805803954601288E-2   6.654520332813263E-2  -8.913592994213104E-2   6.493276357650757E-2  -5.601801276206970E-1   2.248358875513077E-1  
 7.273273273273274E8    -5.913309287279844E-3   6.845206618309021E-1  -8.421165496110916E-2   8.408751338720322E-2  -8.599194139242172E-2   8.169372379779816E-2  -5.163205265998840E-1   2.147498130798340E-1  
 7.297297297297298E8     1.166948396712542E-2   6.693065762519836E-1  -7.693250477313995E-2   1.007031053304672E-1  -7.874947041273117E-2   9.905049949884415E-2  -4.719448983669281E-1   1.969039887189865E-1  
 7.321321321321322E8     3.006340935826302E-2   6.523638367652893E-1  -6.678919494152069E-2   1.164734810590744E-1  -6.696759164333344E-2   1.162410750985146E-1  -4.278279244899750E-1   1.697684675455093E-1  
 7.345345345345346E8     4.989124834537506E-2   6.349654793739319E-1  -5.337866768240929E-2   1.307828426361084E-1  -5.279472842812538E-2   1.309229284524918E-1  -3.871260583400726E-1   1.337518244981766E-1  
 7.369369369369370E8     7.115405797958374E-2   6.141173839569092E-1  -3.742228448390961E-2   1.443390250205994E-1  -3.604385629296303E-2   1.447621732950211E-1  -3.523760735988617E-1   8.752050250768662E-2  
 7.393393393393394E8     9.057278931140900E-2   5.897253751754761E-1  -1.670451648533344E-2   1.566147506237030E-1  -1.543105579912663E-2   1.566200852394104E-1  -3.282087445259094E-1   3.212516754865646E-2  
 7.417417417417418E8     1.081391796469688E-1   5.648289322853088E-1   8.438643999397755E-3   1.645370274782181E-1   9.077710099518299E-3   1.641011387109757E-1  -3.178625702857971E-1  -2.875442430377007E-2  
 7.441441441441442E8     1.257501393556595E-1   5.386046767234802E-1   3.575984761118889E-2   1.663799136877060E-1   3.538470715284348E-2   1.658375710248947E-1  -3.223276138305664E-1  -8.998703956604004E-2  
 7.465465465465466E8     1.423459202051163E-1   5.116908550262451E-1   6.291006505489349E-2   1.620808839797974E-1   6.187178194522858E-2   1.617188006639481E-1  -3.389860093593597E-1  -1.441379338502884E-1  
 7.489489489489490E8     1.583258509635925E-1   4.804176092147827E-1   8.846216648817062E-2   1.522972881793976E-1   8.695039153099060E-2   1.524688750505447E-1  -3.647888898849487E-1  -1.902875006198883E-1  
 7.513513513513514E8     1.722692400217056E-1   4.451651275157929E-1   1.115685924887657E-1   1.377851665019989E-1   1.102095320820808E-1   1.380585432052612E-1  -3.969987034797669E-1  -2.293255180120468E-1  
 7.537537537537538E8     1.830958575010300E-1   4.085671901702881E-1   1.308236122131348E-1   1.182001754641533E-1   1.298381835222244E-1   1.191077455878258E-1  -4.322013556957245E-1  -2.594651579856873E-1  
 7.561561561561562E8     1.896954327821732E-1   3.685430884361267E-1   1.447616964578629E-1   9.633895009756088E-2   1.438933759927750E-1   9.735636413097382E-2  -4.666506946086884E-1  -2.821927368640900E-1  
 7.585585585585586E8     1.909712105989456E-1   3.268421292304993E-1   1.538061052560806E-1   7.350130379199982E-2   1.528192162513733E-1   7.440190762281418E-2  -5.023700594902039E-1  -2.986817657947540E-1  
 7.609609609609610E8     1.876134127378464E-1   2.855755090713501E-1   1.584492176771164E-1   5.103992298245430E-2   1.575019359588623E-1   5.192765966057777E-2  -5.402709245681763E-1  -3.098133206367493E-1  
 7.633633633633634E8     1.792195737361908E-1   2.418046742677689E-1   1.597853302955627E-1   2.934860624372959E-2   1.585520207881928E-1   3.095443546772003E-2  -5.787582397460938E-1  -3.152798414230347E-1  
 7.657657657657658E8     1.647711545228958E-1   1.975441724061966E-1   1.576819121837616E-1   8.437974378466606E-3   1.571054607629776E-1   1.099820248782635E-2  -6.153231263160706E-1  -3.168700933456421E-1  
 7.681681681681682E8     1.432657390832901E-1   1.546622514724731E-1   1.528362184762955E-1  -1.027344167232513E-2   1.530006080865860E-1  -7.773313671350479E-3  -6.487374305725098E-1  -3.162643015384674E-1  
 7.705705705705706E8     1.152991801500320E-1   1.161440983414650E-1   1.458179205656052E-1  -2.712413109838963E-2   1.460893750190735E-1  -2.472269721329212E-2  -6.786193847656250E-1  -3.114558160305023E-1  
 7.729729729729730E8     8.509773761034012E-2   8.292880654335022E-2   1.369399875402451E-1  -4.146049171686173E-2   1.377178728580475E-1  -3.966601938009262E-2  -7.076837420463562E-1  -3.041392266750336E-1  
 7.753753753753754E8     4.903459548950195E-2   5.216064304113388E-2   1.268117874860764E-1  -5.393410474061966E-2   1.277324855327606E-1  -5.257357656955719E-2  -7.347483634948731E-1  -2.932789623737335E-1  
 7.777777777777778E8     9.410979226231575E-3   2.690509147942066E-2   1.162252351641655E-1  -6.412971764802933E-2   1.164210885763168E-1  -6.336026638746262E-2  -7.578179836273193E-1  -2.794102132320404E-1  
 7.801801801801802E8    -3.222041949629784E-2   7.710413075983524E-3   1.055189892649651E-1  -7.208763808012009E-2   1.043419986963272E-1  -7.157793641090393E-2  -7.767130732536316E-1  -2.644441723823547E-1  
 7.825825825825826E8    -7.974376529455185E-2  -4.021111410111189E-3   9.413733333349228E-2  -7.888647913932800E-2   9.369012713432312E-2  -7.808849215507507E-2  -7.950522303581238E-1  -2.493475526571274E-1  
 7.849849849849850E8    -1.241629049181938E-1  -6.908633746206760E-3   8.251529932022095E-2  -8.444730192422867E-2   8.278875797986984E-2  -8.314147591590881E-2  -8.102552890777588E-1  -2.360077500343323E-1  
 7.873873873873874E8    -1.659434735774994E-1  -5.374388303607702E-3   7.095629721879959E-2  -8.814609795808792E-2   7.178895920515060E-2  -8.656671643257141E-2  -8.238854408264160E-1  -2.232728600502014E-1  
 7.897897897897898E8    -2.054844647645950E-1  -5.968055338598788E-4   6.006840243935585E-2  -8.988592028617859E-2   6.092572957277298E-2  -8.866360038518906E-2  -8.383206129074097E-1  -2.095703482627869E-1  
 7.921921921921922E8    -2.414045035839081E-1   8.322648704051971E-3   5.014961212873459E-2  -9.036968648433685E-2   5.118037015199661E-2  -8.984781801700592E-2  -8.533924818038940E-1  -1.959075778722763E-1  
 7.945945945945946E8    -2.739115655422211E-1   1.980987936258316E-2   4.092433676123619E-2  -9.031308442354202E-2   4.189161211252213E-2  -8.982121199369431E-2  -8.635613322257996E-1  -1.802878379821777E-1  
 7.969969969969970E8    -3.053178787231445E-1   3.220704942941666E-2   3.220264241099358E-2  -8.927347511053085E-2   3.297161310911179E-2  -8.899144828319550E-2  -8.732758164405823E-1  -1.647185385227203E-1  
 7.993993993993994E8    -3.380637764930725E-1   4.754096642136574E-2   2.438286505639553E-2  -8.739835023880005E-2   2.479797601699829E-2  -8.712629973888397E-2  -8.823882937431335E-1  -1.486252099275589E-1  
 8.018018018018018E8    -3.688490390777588E-1   6.808436661958695E-2   1.722214743494988E-2  -8.503421396017075E-2   1.774708926677704E-2  -8.482392877340317E-2  -8.900291323661804E-1  -1.324239671230316E-1  
 8.042042042042042E8    -3.957077264785767E-1   9.232588112354279E-2   1.083726529031992E-2  -8.230679482221603E-2   1.126416027545929E-2  -8.217151463031769E-2  -8.968971967697144E-1  -1.178380101919174E-1  
 8.066066066066066E8    -4.178709685802460E-1   1.186001226305962E-1   5.152747500687838E-3  -7.930400967597961E-2   5.718602333217859E-3  -7.936653494834900E-2  -9.030506610870361E-1  -1.029086485505104E-1  
 8.090090090090090E8    -4.350472688674927E-1   1.444634497165680E-1  -2.258777203678619E-5  -7.636086642742157E-2   3.757781814783812E-4  -7.654485106468201E-2  -9.081565737724304E-1  -8.833373337984085E-2  
 8.114114114114114E8    -4.492178261280060E-1   1.670329421758652E-1  -4.456207621842623E-3  -7.329931855201721E-2  -4.300185944885016E-3  -7.342447340488434E-2  -9.125623703002930E-1  -7.431460916996002E-2  
 8.138138138138138E8    -4.646001756191254E-1   1.919271498918533E-1  -8.393617346882820E-3  -7.027851790189743E-2  -8.301291614770889E-3  -7.026259601116180E-2  -9.167426228523254E-1  -6.065101176500320E-2  
 8.162162162162162E8    -4.775812327861786E-1   2.207199484109879E-1  -1.223182398825884E-2  -6.742160767316818E-2  -1.197555381804705E-2  -6.753058731555939E-2  -9.205493927001953E-1  -4.766300693154335E-2  
 8.186186186186186E8    -4.850391447544098E-1   2.501180768013001E-1  -1.602140814065933E-2  -6.437611579895020E-2  -1.569488644599915E-2  -6.445210427045822E-2  -9.235935211181641E-1  -3.399559855461121E-2  
 8.210210210210210E8    -4.885919690132141E-1   2.780255675315857E-1  -1.951837167143822E-2  -6.083994731307030E-2  -1.910057291388512E-2  -6.093864142894745E-2  -9.261257648468018E-1  -2.032058686017990E-2  
 8.234234234234234E8    -4.890626370906830E-1   3.021753132343292E-1  -2.244012430310249E-2  -5.714400112628937E-2  -2.203123830258846E-2  -5.708755180239677E-2  -9.280624389648438E-1  -6.928750313818455E-3  
