#  HZ   S   RI   R     50.00 
! Rohde & Schwarz ZVB8 2Ports - Version 2.81 - 1145.1010k08 SN: 100113
! Date: 2016-05-04 02:48:57
! Measurements: S11 S21 S12 S22 
! 
 6.000000000000000E8    -8.888537883758545E-1   3.376760184764862E-1   1.250258792424575E-4  -4.042648652102798E-4   1.174547141999938E-4  -3.683771938085556E-4  -8.411927223205566E-1  -4.840603172779083E-1  
 6.024024024024024E8    -8.833452463150024E-1   3.497660160064697E-1   1.369050587527454E-4  -3.793925279751420E-4   6.765924626961350E-5  -3.697005449794233E-4  -8.456526994705200E-1  -4.758095443248749E-1  
 6.048048048048048E8    -8.776434063911438E-1   3.628118634223938E-1   1.289719366468489E-4  -3.505492059048265E-4   7.264725718414411E-5  -3.680998052004725E-4  -8.501253724098206E-1  -4.673275351524353E-1  
 6.072072072072072E8    -8.712229728698731E-1   3.759821653366089E-1   1.577738585183397E-4  -3.173012228216976E-4   1.350604288745672E-4  -3.432202502153814E-4  -8.546639084815979E-1  -4.587166309356690E-1  
 6.096096096096096E8    -8.646767139434815E-1   3.896058499813080E-1   1.732584205456078E-4  -4.233619547449052E-4   1.775280252331868E-4  -3.303790290374309E-4  -8.595661520957947E-1  -4.496454894542694E-1  
 6.120120120120120E8    -8.596156835556030E-1   3.998788595199585E-1   2.460186951793730E-4  -3.559708129614592E-4   2.131945802830160E-4  -3.437327104620636E-4  -8.630543947219849E-1  -4.421734511852264E-1  
 6.144144144144144E8    -8.532187938690186E-1   4.115194082260132E-1   3.038811555597931E-4  -3.323162090964615E-4   2.994577807839960E-4  -3.236290358472616E-4  -8.666455149650574E-1  -4.345257580280304E-1  
 6.168168168168168E8    -8.461737036705017E-1   4.236227273941040E-1   3.644874086603522E-4  -2.942314895335585E-4   3.967647789977491E-4  -3.384673036634922E-4  -8.705933094024658E-1  -4.261306524276733E-1  
 6.192192192192192E8    -8.391304612159729E-1   4.352221190929413E-1   5.456401850096881E-4  -3.767671296373010E-4   5.134277162142098E-4  -3.681075759232044E-4  -8.747612237930298E-1  -4.173951148986816E-1  
 6.216216216216216E8    -8.317737579345703E-1   4.466757476329804E-1   6.872300873510540E-4  -3.029276267625392E-4   6.472176173701882E-4  -3.811342467088252E-4  -8.796916007995606E-1  -4.075694978237152E-1  
 6.240240240240240E8    -8.244480490684509E-1   4.577367305755615E-1   8.699037716723979E-4  -4.759046132676303E-4   8.463420672342181E-4  -4.859795735683292E-4  -8.842321634292603E-1  -3.973385393619537E-1  
 6.264264264264264E8    -8.167582154273987E-1   4.699402451515198E-1   1.039891736581922E-3  -6.273538456298411E-4   1.056620501913130E-3  -5.748778348788619E-4  -8.883312940597534E-1  -3.868680596351624E-1  
 6.288288288288288E8    -8.090909719467163E-1   4.812656342983246E-1   1.184842782095075E-3  -8.429857552982867E-4   1.150697353295982E-3  -8.498575189150870E-4  -8.917756676673889E-1  -3.782140016555786E-1  
 6.312312312312312E8    -8.022568225860596E-1   4.918851852416992E-1   1.264031161554158E-3  -1.156565616838634E-3   1.221378915943205E-3  -1.135862665250897E-3  -8.953480720520020E-1  -3.698848485946655E-1  
 6.336336336336336E8    -7.957458496093750E-1   5.023096799850464E-1   1.241146004758775E-3  -1.502879080362618E-3   1.217103446833789E-3  -1.406274386681616E-3  -8.981261849403381E-1  -3.620692491531372E-1  
 6.360360360360360E8    -7.891315817832947E-1   5.129661560058594E-1   1.117813168093562E-3  -1.792504801414907E-3   1.185327069833875E-3  -1.769657945260406E-3  -9.010046124458313E-1  -3.549804091453552E-1  
 6.384384384384384E8    -7.815321087837219E-1   5.248965620994568E-1   9.447943302802742E-4  -2.071727532893419E-3   9.929488878697157E-4  -2.020902466028929E-3  -9.040873646736145E-1  -3.465034961700440E-1  
 6.408408408408408E8    -7.736427187919617E-1   5.369704961776733E-1   7.856426527723670E-4  -2.322336426004767E-3   8.572700899094343E-4  -2.300719497725368E-3  -9.076436161994934E-1  -3.375023901462555E-1  
 6.432432432432432E8    -7.653114795684815E-1   5.487951040267944E-1   5.331352585926652E-4  -2.394791226834059E-3   4.867638053838164E-4  -2.438413212075830E-3  -9.111072421073914E-1  -3.291350603103638E-1  
 6.456456456456456E8    -7.566406130790710E-1   5.596656799316406E-1   3.192509757354856E-4  -2.530066762119532E-3   3.248541324865073E-4  -2.581798704341054E-3  -9.143225550651550E-1  -3.207317590713501E-1  
 6.480480480480480E8    -7.476188540458679E-1   5.702686905860901E-1   8.379064820474014E-5  -2.610159805044532E-3   1.184113425551914E-4  -2.614756813272834E-3  -9.176085591316223E-1  -3.127055764198303E-1  
 6.504504504504504E8    -7.373428344726563E-1   5.820794105529785E-1  -1.200338519993238E-4  -2.619842765852809E-3  -7.816910510882735E-5  -2.648406662046909E-3  -9.196417331695557E-1  -3.031830787658691E-1  
 6.528528528528528E8    -7.276260852813721E-1   5.933323502540588E-1  -2.287838433403522E-4  -2.637252677232027E-3  -2.242868067696691E-4  -2.579593332484365E-3  -9.221904873847961E-1  -2.938196063041687E-1  
 6.552552552552552E8    -7.177732586860657E-1   6.033855676651001E-1  -3.712568723130971E-4  -2.580712083727121E-3  -4.305970796849579E-4  -2.610536059364677E-3  -9.248242974281311E-1  -2.851476669311523E-1  
 6.576576576576576E8    -7.084524035453796E-1   6.129958033561707E-1  -5.017859512008727E-4  -2.588924253359437E-3  -3.842957376036793E-4  -2.579023595899344E-3  -9.273138046264648E-1  -2.774871885776520E-1  
 6.600600600600600E8    -6.975653171539307E-1   6.234303712844849E-1  -5.957931280136108E-4  -2.585994312539697E-3  -5.840380908921361E-4  -2.483038231730461E-3  -9.303752779960632E-1  -2.691102623939514E-1  
 6.624624624624624E8    -6.863146424293518E-1   6.345617771148682E-1  -7.013485301285982E-4  -2.518829889595509E-3  -6.725362618453801E-4  -2.465435769408941E-3  -9.327658414840698E-1  -2.592590749263763E-1  
 6.648648648648648E8    -6.750752329826355E-1   6.454530954360962E-1  -7.093599415384233E-4  -2.504733623936772E-3  -7.061462383717299E-4  -2.507913159206510E-3  -9.351876974105835E-1  -2.498390227556229E-1  
 6.672672672672672E8    -6.637153029441834E-1   6.553193926811218E-1  -6.957701407372952E-4  -2.520959125831723E-3  -7.685655727982521E-4  -2.546498551964760E-3  -9.376835823059082E-1  -2.404308766126633E-1  
 6.696696696696696E8    -6.520798206329346E-1   6.649866104125977E-1  -7.406796212308109E-4  -2.499660244211555E-3  -6.977032753638923E-4  -2.430577063933015E-3  -9.396989941596985E-1  -2.315681278705597E-1  
 6.720720720720720E8    -6.398553848266602E-1   6.741529703140259E-1  -7.218871614895761E-4  -2.513175364583731E-3  -7.472829311154783E-4  -2.510285237804055E-3  -9.413706064224243E-1  -2.228583395481110E-1  
 6.744744744744744E8    -6.269886493682861E-1   6.839389801025391E-1  -7.052992004901171E-4  -2.509069629013538E-3  -7.087395060807467E-4  -2.458868315443397E-3  -9.430054426193237E-1  -2.136635184288025E-1  
 6.768768768768768E8    -6.141476631164551E-1   6.931717991828919E-1  -7.072924054227769E-4  -2.591141499578953E-3  -6.314397323876619E-4  -2.599259139969945E-3  -9.450644850730896E-1  -2.046107500791550E-1  
 6.792792792792792E8    -6.017874479293823E-1   7.015420794487000E-1  -5.507700843736529E-4  -2.678843215107918E-3  -5.234834388829768E-4  -2.599201397970319E-3  -9.468078613281250E-1  -1.955086439847946E-1  
 6.816816816816816E8    -5.892945528030396E-1   7.098905444145203E-1  -3.756829246412963E-4  -2.812714781612158E-3  -3.628268314059824E-4  -2.733537228778005E-3  -9.486911892890930E-1  -1.861404329538345E-1  
 6.840840840840840E8    -5.766995549201965E-1   7.176626920700073E-1  -2.437971998006105E-4  -2.951185684651136E-3  -1.588341547176242E-4  -2.990609500557184E-3  -9.505757093429565E-1  -1.764332056045532E-1  
 6.864864864864864E8    -5.633314847946167E-1   7.256226539611816E-1   7.059380004648119E-5  -3.367883851751685E-3   9.151164704235271E-5  -3.350271843373776E-3  -9.511419534683228E-1  -1.677461266517639E-1  
 6.888888888888888E8    -5.504500269889832E-1   7.332798242568970E-1   2.132957306457683E-4  -3.961548209190369E-3   2.946629829239100E-4  -3.886062884703279E-3  -9.518657326698303E-1  -1.580251753330231E-1  
 6.912912912912912E8    -5.386402606964111E-1   7.404578328132629E-1   3.082063049077988E-4  -4.669782705605030E-3   2.738564799074084E-4  -4.627563990652561E-3  -9.527977705001831E-1  -1.484245806932449E-1  
 6.936936936936936E8    -5.270761847496033E-1   7.480548024177551E-1   7.629909305251204E-6  -5.608496256172657E-3   2.621470412123017E-5  -5.517560057342053E-3  -9.541135430335999E-1  -1.390867531299591E-1  
 6.960960960960960E8    -5.155984163284302E-1   7.565782070159912E-1  -5.947280442342162E-4  -6.368704605847597E-3  -5.372847081162036E-4  -6.406500004231930E-3  -9.553182721138001E-1  -1.293097585439682E-1  
 6.984984984984984E8    -5.036165714263916E-1   7.652862071990967E-1  -1.322719268500805E-3  -7.004674058407545E-3  -1.391011872328818E-3  -6.939296144992113E-3  -9.567903876304627E-1  -1.167614832520485E-1  
 7.009009009009008E8    -4.907135963439941E-1   7.740023732185364E-1  -2.273976104333997E-3  -7.369803264737129E-3  -2.342884428799152E-3  -7.364397868514061E-3  -9.578674435615540E-1  -1.051441207528114E-1  
 7.033033033033032E8    -4.764036238193512E-1   7.820850014686585E-1  -3.120673820376396E-3  -7.540535647422075E-3  -3.217160003259778E-3  -7.534764707088471E-3  -9.581663012504578E-1  -9.656542539596558E-2  
 7.057057057057056E8    -4.617181420326233E-1   7.891420722007752E-1  -3.895526053383946E-3  -7.630628533661366E-3  -3.943738527595997E-3  -7.498933468014002E-3  -9.583120346069336E-1  -9.118201583623886E-2  
 7.081081081081080E8    -4.453435242176056E-1   7.969270944595337E-1  -4.723048303276300E-3  -7.500790059566498E-3  -4.615903366357088E-3  -7.460684981197119E-3  -9.586107134819031E-1  -8.462587743997574E-2  
 7.105105105105104E8    -4.282580316066742E-1   8.044158220291138E-1  -5.381789524108172E-3  -7.351818960160017E-3  -5.256110802292824E-3  -7.438393775373697E-3  -9.591209292411804E-1  -7.693557441234589E-2  
 7.129129129129129E8    -4.124551713466644E-1   8.107770681381226E-1  -6.036452017724514E-3  -7.182993926107884E-3  -5.923943128436804E-3  -7.274339441210032E-3  -9.595272541046143E-1  -6.764143705368042E-2  
 7.153153153153153E8    -3.973054587841034E-1   8.166126608848572E-1  -6.587977986782789E-3  -7.100653368979693E-3  -6.502647884190083E-3  -7.178448140621185E-3  -9.600637555122376E-1  -5.645826086401939E-2  
 7.177177177177178E8    -3.806449472904205E-1   8.223723173141480E-1  -7.195373531430960E-3  -6.899264175444841E-3  -7.122911978513002E-3  -7.012071553617716E-3  -9.605251550674439E-1  -4.462205246090889E-2  
 7.201201201201202E8    -3.621054589748383E-1   8.281356096267700E-1  -7.745238952338696E-3  -6.822430994361639E-3  -7.692652288824320E-3  -6.866523530334234E-3  -9.613008499145508E-1  -3.350200876593590E-2  
 7.225225225225226E8    -3.434823751449585E-1   8.331713080406189E-1  -8.400611579418182E-3  -6.708126515150070E-3  -8.324984461069107E-3  -6.777820643037558E-3  -9.611320495605469E-1  -2.227601222693920E-2  
 7.249249249249250E8    -3.247967064380646E-1   8.379800319671631E-1  -9.041106328368187E-3  -6.486868020147085E-3  -8.917883038520813E-3  -6.626497022807598E-3  -9.607378840446472E-1  -1.355336140841246E-2  
 7.273273273273274E8    -3.074311912059784E-1   8.417115807533264E-1  -9.683859534561634E-3  -6.271445192396641E-3  -9.429833851754665E-3  -6.479402538388968E-3  -9.605302810668945E-1  -4.442115314304829E-3  
 7.297297297297298E8    -2.915607690811157E-1   8.450272679328919E-1  -1.027458067983389E-2  -6.034482736140490E-3  -1.015740539878607E-2  -6.200454663485289E-3  -9.600908756256104E-1   5.392185878008604E-3  
 7.321321321321322E8    -2.766730487346649E-1   8.474661707878113E-1  -1.079237740486860E-2  -5.845089443027973E-3  -1.068681012839079E-2  -5.825603846460581E-3  -9.596900939941406E-1   1.633721590042114E-2  
 7.345345345345346E8    -2.600207030773163E-1   8.500478863716126E-1  -1.133710332214832E-2  -5.651135463267565E-3  -1.131509710103273E-2  -5.577880423516035E-3  -9.590116739273071E-1   2.659354731440544E-2  
 7.369369369369370E8    -2.417429238557816E-1   8.526219129562378E-1  -1.182165741920471E-2  -5.455023143440485E-3  -1.182709075510502E-2  -5.388948135077953E-3  -9.580315947532654E-1   3.730227798223496E-2  
 7.393393393393394E8    -2.229456305503845E-1   8.545807600021362E-1  -1.245205290615559E-2  -5.357474088668823E-3  -1.251602172851563E-2  -5.294614005833864E-3  -9.571877717971802E-1   4.787392541766167E-2  
 7.417417417417418E8    -2.041304111480713E-1   8.556828498840332E-1  -1.331106573343277E-2  -5.237072706222534E-3  -1.324944663792849E-2  -5.141795612871647E-3  -9.566317200660706E-1   5.744066834449768E-2  
 7.441441441441442E8    -1.847338527441025E-1   8.562345504760742E-1  -1.419990696012974E-2  -4.825179930776358E-3  -1.410235185176134E-2  -4.983598366379738E-3  -9.556675553321838E-1   6.587397307157517E-2  
 7.465465465465466E8    -1.663083285093308E-1   8.570636510848999E-1  -1.508381403982639E-2  -4.527210723608732E-3  -1.502402499318123E-2  -4.611123818904162E-3  -9.544735550880432E-1   7.620558887720108E-2  
 7.489489489489490E8    -1.474060565233231E-1   8.569034337997437E-1  -1.605413854122162E-2  -4.077448975294828E-3  -1.604000478982925E-2  -4.170367028564215E-3  -9.535039067268372E-1   8.520226180553436E-2  
 7.513513513513514E8    -1.268817782402039E-1   8.557437658309937E-1  -1.705237664282322E-2  -3.511040471494198E-3  -1.694121956825256E-2  -3.651656210422516E-3  -9.523339271545410E-1   9.536167979240418E-2  
 7.537537537537538E8    -1.048658341169357E-1   8.533881902694702E-1  -1.804346777498722E-2  -2.700344426557422E-3  -1.803051866590977E-2  -2.932992065325379E-3  -9.511416554450989E-1   1.067758351564407E-1  
 7.561561561561562E8    -8.322059363126755E-2   8.492760658264160E-1  -1.889918558299542E-2  -1.865461817942560E-3  -1.884120516479015E-2  -2.037175465375185E-3  -9.487936496734619E-1   1.171102002263069E-1  
 7.585585585585586E8    -6.250213831663132E-2   8.444541096687317E-1  -1.965020224452019E-2  -9.886809857562184E-4  -1.961434632539749E-2  -1.143116503953934E-3  -9.457691907882690E-1   1.293802410364151E-1  
 7.609609609609610E8    -4.286826401948929E-2   8.389182090759277E-1  -2.054009214043617E-2  -8.654327393742278E-5  -2.030089311301708E-2  -2.004156704060733E-4  -9.429804086685181E-1   1.413555741310120E-1  
 7.633633633633634E8    -2.398579381406307E-2   8.334498405456543E-1  -2.137834951281548E-2   9.097891161218286E-4  -2.124120481312275E-2   7.057414622977376E-4  -9.409180879592896E-1   1.521630585193634E-1  
 7.657657657657658E8    -5.278490018099546E-3   8.281735777854919E-1  -2.218403108417988E-2   2.019196748733521E-3  -2.210923098027706E-2   1.692483783699572E-3  -9.394447207450867E-1   1.611125171184540E-1  
 7.681681681681682E8     1.372300647199154E-2   8.228078484535217E-1  -2.288897521793842E-2   3.067026380449534E-3  -2.295991778373718E-2   2.827355870977044E-3  -9.391546249389648E-1   1.691311001777649E-1  
 7.705705705705706E8     3.152337670326233E-2   8.169717192649841E-1  -2.361407317221165E-2   4.245209041982889E-3  -2.380683831870556E-2   3.929433878511190E-3  -9.370177984237671E-1   1.774378865957260E-1  
 7.729729729729730E8     5.155392363667488E-2   8.090117573738098E-1  -2.448404394090176E-2   5.459155421704054E-3  -2.462880872189999E-2   5.055628716945648E-3  -9.361082911491394E-1   1.875280737876892E-1  
 7.753753753753754E8     7.157196104526520E-2   7.985433936119080E-1  -2.525731362402439E-2   6.745973601937294E-3  -2.545742876827717E-2   6.416264455765486E-3  -9.341847300529480E-1   1.987506300210953E-1  
 7.777777777777778E8     8.945258706808090E-2   7.860721945762634E-1  -2.594016678631306E-2   8.254115469753742E-3  -2.614163421094418E-2   7.985268719494343E-3  -9.291942119598389E-1   2.107954770326614E-1  
 7.801801801801802E8     1.060158610343933E-1   7.727823257446289E-1  -2.677465416491032E-2   9.761021472513676E-3  -2.662543207406998E-2   9.480525739490986E-3  -9.215037226676941E-1   2.207875996828079E-1  
 7.825825825825826E8     1.229150593280792E-1   7.580389380455017E-1  -2.742511592805386E-2   1.136103179305792E-2  -2.731409855186939E-2   1.126218400895596E-2  -9.167725443840027E-1   2.321967333555222E-1  
 7.849849849849850E8     1.384156942367554E-1   7.454634308815002E-1  -2.809690684080124E-2   1.345863286405802E-2  -2.799913100898266E-2   1.316720526665449E-2  -9.121829867362976E-1   2.400501519441605E-1  
 7.873873873873874E8     1.535738706588745E-1   7.342684268951416E-1  -2.855446189641953E-2   1.555190607905388E-2  -2.842084318399429E-2   1.515926513820887E-2  -9.086783528327942E-1   2.474006414413452E-1  
 7.897897897897898E8     1.707573533058167E-1   7.216427326202393E-1  -2.882685512304306E-2   1.760445535182953E-2  -2.876026742160320E-2   1.737940683960915E-2  -9.069383740425110E-1   2.561816573143005E-1  
 7.921921921921922E8     1.892116218805313E-1   7.067849636077881E-1  -2.906130999326706E-2   1.985736563801765E-2  -2.915596775710583E-2   1.969395019114018E-2  -9.066413640975952E-1   2.667431533336639E-1  
 7.945945945945946E8     2.045287340879440E-1   6.925319433212280E-1  -2.917093969881535E-2   2.228577435016632E-2  -2.927218191325665E-2   2.198345400393009E-2  -9.018005132675171E-1   2.761971056461334E-1  
 7.969969969969970E8     2.186101675033569E-1   6.769320368766785E-1  -2.891327440738678E-2   2.471324056386948E-2  -2.916222065687180E-2   2.446890436112881E-2  -8.974681496620178E-1   2.867115437984467E-1  
 7.993993993993994E8     2.321978211402893E-1   6.589074730873108E-1  -2.866123802959919E-2   2.703612484037876E-2  -2.884678356349468E-2   2.680396288633347E-2  -8.927841186523438E-1   2.978144884109497E-1  
 8.018018018018018E8     2.452095597982407E-1   6.378537416458130E-1  -2.842666767537594E-2   2.936370857059956E-2  -2.852157689630985E-2   2.926532924175263E-2  -8.877117037773132E-1   3.091096580028534E-1  
 8.042042042042042E8     2.567328810691834E-1   6.168532967567444E-1  -2.820228226482868E-2   3.209154307842255E-2  -2.830791473388672E-2   3.196778520941734E-2  -8.828874230384827E-1   3.184394240379334E-1  
 8.066066066066066E8     2.665370404720306E-1   5.959399938583374E-1  -2.762243710458279E-2   3.489923477172852E-2  -2.781683392822743E-2   3.481973707675934E-2  -8.777251839637756E-1   3.298017382621765E-1  
 8.090090090090090E8     2.743379473686218E-1   5.747258663177490E-1  -2.684930153191090E-2   3.791576996445656E-2  -2.700131013989449E-2   3.790722414851189E-2  -8.722965121269226E-1   3.399969041347504E-1  
 8.114114114114114E8     2.819323539733887E-1   5.537159442901611E-1  -2.577231079339981E-2   4.091502726078033E-2  -2.590593323111534E-2   4.087943956255913E-2  -8.668049573898315E-1   3.501702845096588E-1  
 8.138138138138138E8     2.883805036544800E-1   5.307340025901794E-1  -2.473455667495728E-2   4.418428614735603E-2  -2.494047023355961E-2   4.406629875302315E-2  -8.612638115882874E-1   3.599615395069122E-1  
 8.162162162162162E8     2.913999557495117E-1   5.063733458518982E-1  -2.320272475481033E-2   4.800656065344811E-2  -2.337270230054855E-2   4.787789285182953E-2  -8.558306694030762E-1   3.694784343242645E-1  
 8.186186186186186E8     2.896066904067993E-1   4.841182529926300E-1  -2.077917195856571E-2   5.165124312043190E-2  -2.096497453749180E-2   5.157783627510071E-2  -8.500992059707642E-1   3.794604837894440E-1  
 8.210210210210210E8     2.860762178897858E-1   4.627919495105743E-1  -1.769479550421238E-2   5.492393299937248E-2  -1.794168911874294E-2   5.481073632836342E-2  -8.437818288803101E-1   3.898729085922241E-1  
 8.234234234234234E8     2.820870876312256E-1   4.438428580760956E-1  -1.427927426993847E-2   5.778578668832779E-2  -1.459428481757641E-2   5.763815715909004E-2  -8.370986580848694E-1   4.002261161804199E-1  
