#  HZ   S   RI   R     50.00 
! Rohde & Schwarz ZVB8 2Ports - Version 2.81 - 1145.1010k08 SN: 100113
! Date: 2016-05-04 02:48:42
! Measurements: S11 S21 S12 S22 
! 
 6.000000000000000E8    -8.933932781219482E-1   3.300767242908478E-1   6.637979822698981E-5  -3.420501016080380E-4   1.558491057949141E-4  -3.281193785369396E-4  -8.401792049407959E-1  -4.863826036453247E-1  
 6.024024024024024E8    -8.883635401725769E-1   3.422541022300720E-1   1.374075072817504E-4  -3.189963172189891E-4   1.114732731366530E-4  -3.246846317779273E-4  -8.448247313499451E-1  -4.778498411178589E-1  
 6.048048048048048E8    -8.827241063117981E-1   3.548220694065094E-1   9.832197974901646E-5  -3.680044610518962E-4   1.426430244464427E-4  -3.170519194100052E-4  -8.493717908859253E-1  -4.692555069923401E-1  
 6.072072072072072E8    -8.768700361251831E-1   3.681913614273071E-1   1.193218922708184E-4  -3.606248646974564E-4   1.756144338287413E-4  -3.766412555705756E-4  -8.538805842399597E-1  -4.606537818908691E-1  
 6.096096096096096E8    -8.706056475639343E-1   3.814482986927033E-1   2.209932717960328E-4  -3.382687282282859E-4   1.793607225408778E-4  -3.483605687506497E-4  -8.587245941162109E-1  -4.517094492912293E-1  
 6.120120120120120E8    -8.658825159072876E-1   3.918406367301941E-1   1.887601101770997E-4  -3.408037591725588E-4   2.372303279116750E-4  -3.308930317871273E-4  -8.624000549316406E-1  -4.441758394241333E-1  
 6.144144144144144E8    -8.597441315650940E-1   4.039341509342194E-1   2.637823927216232E-4  -2.632389951031655E-4   3.101401671301574E-4  -3.299787640571594E-4  -8.656686544418335E-1  -4.367778599262238E-1  
 6.168168168168168E8    -8.532170653343201E-1   4.155490100383759E-1   3.783765714615583E-4  -3.308067680336535E-4   3.195104945916683E-4  -2.514508960302919E-4  -8.697370290756226E-1  -4.285524189472199E-1  
 6.192192192192192E8    -8.463365435600281E-1   4.271336793899536E-1   4.399366152938455E-4  -3.163854999002069E-4   5.071110208518803E-4  -3.131490375380963E-4  -8.742197751998901E-1  -4.195609390735626E-1  
 6.216216216216216E8    -8.392598032951355E-1   4.386024773120880E-1   6.390621419996023E-4  -3.239402722101659E-4   5.546056199818850E-4  -2.786788681987673E-4  -8.786890506744385E-1  -4.097401499748230E-1  
 6.240240240240240E8    -8.321265578269959E-1   4.495592117309570E-1   7.395748980343342E-4  -3.206697874702513E-4   7.420492474921048E-4  -3.995959705207497E-4  -8.834708333015442E-1  -3.999879360198975E-1  
 6.264264264264264E8    -8.249278664588928E-1   4.614373147487640E-1   9.492808021605015E-4  -5.720680346712470E-4   8.859618683345616E-4  -5.510084447450936E-4  -8.876824378967285E-1  -3.898265659809113E-1  
 6.288288288288288E8    -8.174700140953064E-1   4.728439748287201E-1   1.020310563035309E-3  -7.814971613697708E-4   1.037418842315674E-3  -7.145285489968956E-4  -8.910765647888184E-1  -3.809557259082794E-1  
 6.312312312312312E8    -8.107814788818359E-1   4.835630953311920E-1   1.080220565199852E-3  -1.095378072932363E-3   1.033404725603759E-3  -9.731196332722902E-4  -8.944460153579712E-1  -3.729604482650757E-1  
 6.336336336336336E8    -8.049263954162598E-1   4.937217831611633E-1   1.112487516365945E-3  -1.292053144425154E-3   1.009786501526833E-3  -1.306490274146199E-3  -8.975047469139099E-1  -3.650932312011719E-1  
 6.360360360360360E8    -7.984747290611267E-1   5.041655302047730E-1   1.001297263428569E-3  -1.622795942239463E-3   1.076644635759294E-3  -1.542486366815865E-3  -9.004839062690735E-1  -3.580275774002075E-1  
 6.384384384384384E8    -7.914093732833862E-1   5.160004496574402E-1   8.987007895484567E-4  -1.835808856412768E-3   8.845459669828415E-4  -1.800204743631184E-3  -9.035193324089050E-1  -3.496983647346497E-1  
 6.408408408408408E8    -7.839698791503906E-1   5.277945399284363E-1   6.898142746649683E-4  -1.966545125469565E-3   6.719672237522900E-4  -2.042830223217607E-3  -9.069464206695557E-1  -3.409086763858795E-1  
 6.432432432432432E8    -7.758933901786804E-1   5.392011404037476E-1   4.627926391549408E-4  -2.107097767293453E-3   5.333680892363191E-4  -2.114378148689866E-3  -9.103619456291199E-1  -3.324099779129028E-1  
 6.456456456456456E8    -7.675586938858032E-1   5.499057173728943E-1   3.295149654150009E-4  -2.160717966035008E-3   2.974328817799687E-4  -2.235939493402839E-3  -9.136528968811035E-1  -3.242175579071045E-1  
 6.480480480480480E8    -7.594522237777710E-1   5.601497292518616E-1   1.233096554642543E-4  -2.216035732999444E-3   1.340522430837154E-4  -2.263537608087063E-3  -9.169822335243225E-1  -3.159250915050507E-1  
 6.504504504504504E8    -7.497271895408630E-1   5.719745755195618E-1  -7.738121348666027E-5  -2.342895604670048E-3  -5.238309313426726E-5  -2.283867448568344E-3  -9.190866351127625E-1  -3.068188726902008E-1  
 6.528528528528528E8    -7.403677701950073E-1   5.828847289085388E-1  -2.029374882113189E-4  -2.307077869772911E-3  -1.778716541593894E-4  -2.293595112860203E-3  -9.212771654129028E-1  -2.977544665336609E-1  
 6.552552552552552E8    -7.313467264175415E-1   5.931653976440430E-1  -3.048633807338774E-4  -2.261463087052107E-3  -3.830203786492348E-4  -2.285812282934785E-3  -9.240666031837463E-1  -2.890990674495697E-1  
 6.576576576576576E8    -7.225504517555237E-1   6.024421453475952E-1  -4.439196782186627E-4  -2.191992476582527E-3  -4.551054153125733E-4  -2.186552155762911E-3  -9.266833662986755E-1  -2.816190421581268E-1  
 6.600600600600600E8    -7.122385501861572E-1   6.125868558883667E-1  -5.324374069459736E-4  -2.190378960222006E-3  -5.182165768928826E-4  -2.198996255174279E-3  -9.298240542411804E-1  -2.734797000885010E-1  
 6.624624624624624E8    -7.016445994377136E-1   6.237280964851379E-1  -5.988987977616489E-4  -2.201187424361706E-3  -5.319872871041298E-4  -2.185699297115207E-3  -9.321554303169251E-1  -2.637063860893250E-1  
 6.648648648648648E8    -6.912719607353210E-1   6.343303322792053E-1  -6.265983101911843E-4  -2.123644808307290E-3  -6.501828320324421E-4  -2.152357250452042E-3  -9.349230527877808E-1  -2.542260587215424E-1  
 6.672672672672672E8    -6.808562278747559E-1   6.443136930465698E-1  -6.357843521982431E-4  -2.170683583244681E-3  -6.544739007949829E-4  -2.119597280398011E-3  -9.371170401573181E-1  -2.450329363346100E-1  
 6.696696696696696E8    -6.701654195785523E-1   6.538792848587036E-1  -6.973174749873579E-4  -2.151874592527747E-3  -6.197495968081057E-4  -2.127165440469980E-3  -9.392511248588562E-1  -2.361364513635635E-1  
 6.720720720720720E8    -6.588295698165894E-1   6.631896495819092E-1  -6.388691836036742E-4  -2.106645843014121E-3  -6.880621076561511E-4  -2.181011252105236E-3  -9.408061504364014E-1  -2.276958078145981E-1  
 6.744744744744744E8    -6.469294428825378E-1   6.728134751319885E-1  -6.359835388138890E-4  -2.117052441462874E-3  -6.498722941614687E-4  -2.145993756130338E-3  -9.428313374519348E-1  -2.186220437288284E-1  
 6.768768768768768E8    -6.348401904106140E-1   6.820957064628601E-1  -5.953439977020025E-4  -2.139178337529302E-3  -5.515691009350121E-4  -2.049797913059592E-3  -9.446458816528320E-1  -2.097294181585312E-1  
 6.792792792792792E8    -6.233144998550415E-1   6.907597184181213E-1  -4.975154879502952E-4  -2.151834079995751E-3  -4.065911343786866E-4  -2.171379514038563E-3  -9.463560581207275E-1  -2.008202821016312E-1  
 6.816816816816816E8    -6.117746233940125E-1   6.992052793502808E-1  -3.573873254936189E-4  -2.255915198475123E-3  -3.108240489382297E-4  -2.213765634223819E-3  -9.485307931900024E-1  -1.915950328111649E-1  
 6.840840840840840E8    -6.002079248428345E-1   7.072468996047974E-1  -5.088828038424254E-5  -2.455069916322827E-3  -1.334229746134952E-4  -2.421515062451363E-3  -9.503904581069946E-1  -1.823659837245941E-1  
 6.864864864864864E8    -5.880699157714844E-1   7.155336141586304E-1   8.242912008427084E-5  -2.701645949855447E-3   1.225616433657706E-4  -2.729679457843304E-3  -9.510137438774109E-1  -1.735700517892838E-1  
 6.888888888888888E8    -5.760828852653503E-1   7.233621478080750E-1   1.891072170110419E-4  -3.175526391714811E-3   3.038274298887700E-4  -3.103986149653792E-3  -9.519126415252686E-1  -1.639998257160187E-1  
 6.912912912912912E8    -5.651934146881104E-1   7.311116456985474E-1   2.801349328365177E-4  -3.835752140730619E-3   3.773307835217565E-4  -3.758642589673400E-3  -9.530264139175415E-1  -1.546881347894669E-1  
 6.936936936936936E8    -5.546040534973145E-1   7.388564944267273E-1   5.464218702400103E-5  -4.518979229032993E-3   1.012336870189756E-4  -4.444785881787539E-3  -9.542443752288818E-1  -1.454079449176788E-1  
 6.960960960960960E8    -5.438704490661621E-1   7.472749948501587E-1  -3.399638226255775E-4  -5.117526743561029E-3  -3.438607091084123E-4  -5.124775692820549E-3  -9.557101726531982E-1  -1.360908299684525E-1  
 6.984984984984984E8    -5.327657461166382E-1   7.559723854064941E-1  -9.636885370127857E-4  -5.647783633321524E-3  -1.023603836074472E-3  -5.606462247669697E-3  -9.572528004646301E-1  -1.235259920358658E-1  
 7.009009009009008E8    -5.206862092018127E-1   7.647720575332642E-1  -1.712810713797808E-3  -5.932459142059088E-3  -1.755920820869505E-3  -5.905648227781057E-3  -9.583580493927002E-1  -1.120387092232704E-1  
 7.033033033033032E8    -5.078878998756409E-1   7.730377316474915E-1  -2.368787070736289E-3  -6.044045090675354E-3  -2.482637530192733E-3  -6.019475869834423E-3  -9.588179588317871E-1  -1.037214696407318E-1  
 7.057057057057056E8    -4.945951104164124E-1   7.804750204086304E-1  -3.006273182108998E-3  -6.051189731806517E-3  -2.998590469360352E-3  -6.053603254258633E-3  -9.589684605598450E-1  -9.844768047332764E-2  
 7.081081081081080E8    -4.800792634487152E-1   7.880169153213501E-1  -3.568748245015740E-3  -5.934601649641991E-3  -3.518753917887807E-3  -5.943797994405031E-3  -9.592722058296204E-1  -9.212953597307205E-2  
 7.105105105105104E8    -4.643886983394623E-1   7.961422204971314E-1  -4.078606143593788E-3  -5.847621709108353E-3  -4.017691127955914E-3  -5.908083170652390E-3  -9.598027467727661E-1  -8.461030572652817E-2  
 7.129129129129129E8    -4.506423771381378E-1   8.028833270072937E-1  -4.559535998851061E-3  -5.723471753299236E-3  -4.455258138477802E-3  -5.791301373392344E-3  -9.604734778404236E-1  -7.549396157264710E-2  
 7.153153153153153E8    -4.371082782745361E-1   8.092865943908691E-1  -4.950074478983879E-3  -5.645764525979757E-3  -4.937229678034782E-3  -5.647761281579733E-3  -9.609537720680237E-1  -6.448075175285339E-2  
 7.177177177177178E8    -4.226413965225220E-1   8.154624104499817E-1  -5.372583400458098E-3  -5.447337869554758E-3  -5.385876167565584E-3  -5.485557485371828E-3  -9.617606997489929E-1  -5.274369195103645E-2  
 7.201201201201202E8    -4.061032533645630E-1   8.225437998771668E-1  -5.818516016006470E-3  -5.335747264325619E-3  -5.727987736463547E-3  -5.410837475210428E-3  -9.623348712921143E-1  -4.199213907122612E-2  
 7.225225225225226E8    -3.893750905990601E-1   8.290020227432251E-1  -6.165090482681990E-3  -5.217424128204584E-3  -6.117159035056830E-3  -5.229713395237923E-3  -9.626502394676209E-1  -3.111881762742996E-2  
 7.249249249249250E8    -3.726314306259155E-1   8.349012732505798E-1  -6.558646447956562E-3  -5.121145863085985E-3  -6.480652838945389E-3  -5.191334057599306E-3  -9.623449444770813E-1  -2.254407294094563E-2  
 7.273273273273274E8    -3.566859066486359E-1   8.404141068458557E-1  -6.986799184232950E-3  -4.914588760584593E-3  -6.831468082964420E-3  -5.055263638496399E-3  -9.623697996139526E-1  -1.359103806316853E-2  
 7.297297297297298E8    -3.427572548389435E-1   8.446714282035828E-1  -7.379620335996151E-3  -4.791172686964274E-3  -7.238840218633413E-3  -4.915978293865919E-3  -9.622268080711365E-1  -3.768275957554579E-3  
 7.321321321321322E8    -3.295217752456665E-1   8.486918210983276E-1  -7.679861970245838E-3  -4.716501571238041E-3  -7.605953142046928E-3  -4.783423151820898E-3  -9.620223641395569E-1   6.993449758738279E-3  
 7.345345345345346E8    -3.144262731075287E-1   8.525246381759644E-1  -7.931675761938095E-3  -4.730553831905127E-3  -7.929243147373200E-3  -4.704682156443596E-3  -9.612820148468018E-1   1.677821017801762E-2  
 7.369369369369370E8    -2.977859377861023E-1   8.565668463706970E-1  -8.314951322972775E-3  -4.680640995502472E-3  -8.331144228577614E-3  -4.630231764167547E-3  -9.606547355651856E-1   2.734045125544071E-2  
 7.393393393393394E8    -2.814617455005646E-1   8.599606752395630E-1  -8.800286799669266E-3  -4.731992259621620E-3  -8.787041530013084E-3  -4.570757504552603E-3  -9.598696827888489E-1   3.732311725616455E-2  
 7.417417417417418E8    -2.650717198848724E-1   8.627076745033264E-1  -9.352190420031548E-3  -4.564280621707439E-3  -9.392808191478252E-3  -4.514752887189388E-3  -9.595128297805786E-1   4.646002873778343E-2  
 7.441441441441442E8    -2.477434724569321E-1   8.652593493461609E-1  -9.987589903175831E-3  -4.418799187988043E-3  -9.896541945636272E-3  -4.518341738730669E-3  -9.589376449584961E-1   5.467576906085014E-2  
 7.465465465465466E8    -2.322304099798203E-1   8.682188391685486E-1  -1.058866456151009E-2  -4.226234741508961E-3  -1.052406243979931E-2  -4.322175867855549E-3  -9.577137827873230E-1   6.431987881660461E-2  
 7.489489489489490E8    -2.159313261508942E-1   8.705313801765442E-1  -1.123787462711334E-2  -4.064936190843582E-3  -1.114354934543371E-2  -4.101111087948084E-3  -9.570191502571106E-1   7.328648865222931E-2  
 7.513513513513514E8    -1.978761404752731E-1   8.724972009658814E-1  -1.187737099826336E-2  -3.724060021340847E-3  -1.184296607971191E-2  -3.839462529867888E-3  -9.564162492752075E-1   8.306294679641724E-2  
 7.537537537537538E8    -1.780664473772049E-1   8.736157417297363E-1  -1.258280966430903E-2  -3.395954379811883E-3  -1.255511119961739E-2  -3.516544122248888E-3  -9.554999470710754E-1   9.405197948217392E-2  
 7.561561561561562E8    -1.583976000547409E-1   8.731919527053833E-1  -1.326030772179365E-2  -2.901127561926842E-3  -1.314913202077150E-2  -2.977494848892093E-3  -9.536097049713135E-1   1.042236238718033E-1  
 7.585585585585586E8    -1.392439305782318E-1   8.722639679908752E-1  -1.384481228888035E-2  -2.404473954811692E-3  -1.375610847026110E-2  -2.466817619279027E-3  -9.508658647537231E-1   1.162147149443626E-1  
 7.609609609609610E8    -1.212640628218651E-1   8.708443641662598E-1  -1.443936862051487E-2  -1.919220434501767E-3  -1.432563923299313E-2  -2.028336515650153E-3  -9.483139514923096E-1   1.278758496046066E-1  
 7.633633633633634E8    -1.039868593215942E-1   8.697611689567566E-1  -1.504420675337315E-2  -1.402129302732647E-3  -1.485083624720573E-2  -1.451821764931083E-3  -9.464305639266968E-1   1.382252126932144E-1  
 7.657657657657658E8    -8.684863150119782E-2   8.692106008529663E-1  -1.561820600181818E-2  -7.869370165280998E-4  -1.555341295897961E-2  -1.006291015073657E-3  -9.455507397651672E-1   1.471984535455704E-1  
 7.681681681681682E8    -6.981167197227478E-2   8.684049248695374E-1  -1.620032079517841E-2  -2.232660481240600E-4  -1.627751998603344E-2  -4.349581140559167E-4  -9.457038640975952E-1   1.544785201549530E-1  
 7.705705705705706E8    -5.339096859097481E-2   8.671433925628662E-1  -1.679317839443684E-2   3.428710333537310E-4  -1.682217232882977E-2   1.971862220671028E-4  -9.438863396644592E-1   1.628746688365936E-1  
 7.729729729729730E8    -3.421177342534065E-2   8.643332719802856E-1  -1.738360710442066E-2   1.010152278468013E-3  -1.744846440851688E-2   7.906927494332194E-4  -9.436317086219788E-1   1.724194437265396E-1  
 7.753753753753754E8    -1.521473750472069E-2   8.593662977218628E-1  -1.800180971622467E-2   1.689492259174585E-3  -1.806506514549255E-2   1.464330824092031E-3  -9.419957995414734E-1   1.835112422704697E-1  
 7.777777777777778E8     2.190311904996634E-3   8.524383306503296E-1  -1.867930032312870E-2   2.423433354124427E-3  -1.868184842169285E-2   2.256917301565409E-3  -9.376314282417297E-1   1.949097365140915E-1  
 7.801801801801802E8     1.793677546083927E-2   8.451882600784302E-1  -1.925953663885593E-2   3.232205519452691E-3  -1.914430968463421E-2   3.042240627110004E-3  -9.304381012916565E-1   2.048176974058151E-1  
 7.825825825825826E8     3.542201966047287E-2   8.368554711341858E-1  -1.992919296026230E-2   4.081670194864273E-3  -1.975345425307751E-2   3.943422343581915E-3  -9.262975454330444E-1   2.158055603504181E-1  
 7.849849849849850E8     5.136369168758392E-2   8.307871818542481E-1  -2.062561176717281E-2   5.043761339038611E-3  -2.055087313055992E-2   4.870645236223936E-3  -9.222943782806397E-1   2.235036790370941E-1  
 7.873873873873874E8     6.775952130556107E-2   8.261205554008484E-1  -2.128171361982822E-2   6.125627551227808E-3  -2.110379748046398E-2   5.952929612249136E-3  -9.193269014358521E-1   2.306109368801117E-1  
 7.897897897897898E8     8.671983331441879E-2   8.208390474319458E-1  -2.186081744730473E-2   7.258223369717598E-3  -2.172227017581463E-2   7.002723868936300E-3  -9.181313514709473E-1   2.389966249465942E-1  
 7.921921921921922E8     1.079953536391258E-1   8.132369518280029E-1  -2.258534915745258E-2   8.474045433104038E-3  -2.251838147640228E-2   8.350021205842495E-3  -9.183263778686523E-1   2.489432096481323E-1  
 7.945945945945946E8     1.250400096178055E-1   8.064855933189392E-1  -2.308096550405026E-2   9.908101521432400E-3  -2.314164303243160E-2   9.668722748756409E-3  -9.142462015151978E-1   2.580757141113281E-1  
 7.969969969969970E8     1.420751363039017E-1   7.973623871803284E-1  -2.359556406736374E-2   1.136357616633177E-2  -2.365450933575630E-2   1.108333934098482E-2  -9.107602834701538E-1   2.681192755699158E-1  
 7.993993993993994E8     1.585850417613983E-1   7.861317396163940E-1  -2.404055744409561E-2   1.280477084219456E-2  -2.417723648250103E-2   1.262124814093113E-2  -9.065521955490112E-1   2.789461314678192E-1  
 8.018018018018018E8     1.745421886444092E-1   7.725836038589478E-1  -2.451995387673378E-2   1.445998437702656E-2  -2.455799467861652E-2   1.440431363880634E-2  -9.020174145698547E-1   2.898117899894714E-1  
 8.042042042042042E8     1.901727914810181E-1   7.599783539772034E-1  -2.473996579647064E-2   1.632392778992653E-2  -2.474828623235226E-2   1.629692129790783E-2  -8.982204794883728E-1   2.986749708652496E-1  
 8.066066066066066E8     2.049354165792465E-1   7.467857003211975E-1  -2.486630901694298E-2   1.814963109791279E-2  -2.486539818346500E-2   1.812541671097279E-2  -8.937039375305176E-1   3.094750642776489E-1  
 8.090090090090090E8     2.182399183511734E-1   7.337206006050110E-1  -2.478502318263054E-2   2.008384279906750E-2  -2.487998269498348E-2   2.009780332446098E-2  -8.892375230789185E-1   3.191490173339844E-1  
 8.114114114114114E8     2.317802906036377E-1   7.210436463356018E-1  -2.466871216893196E-2   2.191420458257198E-2  -2.476813085377216E-2   2.190465293824673E-2  -8.847730159759522E-1   3.288226723670960E-1  
 8.138138138138138E8     2.459589093923569E-1   7.070130705833435E-1  -2.476128749549389E-2   2.385787479579449E-2  -2.488219924271107E-2   2.378395944833756E-2  -8.803390264511108E-1   3.384601771831513E-1  
 8.162162162162162E8     2.591881155967712E-1   6.914765238761902E-1  -2.480027638375759E-2   2.622733265161514E-2  -2.494856156408787E-2   2.618216723203659E-2  -8.758898377418518E-1   3.477177917957306E-1  
 8.186186186186186E8     2.695423662662506E-1   6.757820844650269E-1  -2.434327825903893E-2   2.876912243664265E-2  -2.447387762367725E-2   2.870480343699455E-2  -8.708412051200867E-1   3.572283983230591E-1  
 8.210210210210210E8     2.790308892726898E-1   6.593261361122131E-1  -2.358870767056942E-2   3.118840977549553E-2  -2.370657771825790E-2   3.110083565115929E-2  -8.653811812400818E-1   3.667110800743103E-1  
 8.234234234234234E8     2.878074347972870E-1   6.428337693214417E-1  -2.261288650333881E-2   3.365677595138550E-2  -2.271874621510506E-2   3.352585434913635E-2  -8.600346446037293E-1   3.766047358512878E-1  
