#  HZ   S   RI   R     50.00 
! Rohde & Schwarz ZVB8 2Ports - Version 2.81 - 1145.1010k08 SN: 100113
! Date: 2016-05-04 02:49:07
! Measurements: S11 S21 S12 S22 
! 
 6.000000000000000E8    -8.847876191139221E-1   3.437029719352722E-1   5.591838271357119E-5  -3.634144377429038E-4   8.166577026713640E-5  -3.540476609487087E-4  -8.412886261940002E-1  -4.835430681705475E-1  
 6.024024024024024E8    -8.790183067321777E-1   3.560419082641602E-1   1.232466602232307E-4  -3.384581359568983E-4   8.274435822386295E-5  -4.638817335944623E-4  -8.460130095481873E-1  -4.748572111129761E-1  
 6.048048048048048E8    -8.731113672256470E-1   3.687601983547211E-1   1.869808475021273E-4  -4.082422819919884E-4   1.930560392793268E-4  -3.800298727583140E-4  -8.503430485725403E-1  -4.661560356616974E-1  
 6.072072072072072E8    -8.665004372596741E-1   3.824630081653595E-1   1.788118970580399E-4  -3.769211180042476E-4   2.088123437715694E-4  -4.875914019066840E-4  -8.549624681472778E-1  -4.577532112598419E-1  
 6.096096096096096E8    -8.596641421318054E-1   3.959845304489136E-1   2.357420889893547E-4  -4.495680041145533E-4   1.642852002987638E-4  -3.824885061476380E-4  -8.597804903984070E-1  -4.485200643539429E-1  
 6.120120120120120E8    -8.542736768722534E-1   4.065797030925751E-1   2.470955660101026E-4  -4.087632987648249E-4   2.944398729596287E-4  -3.880881122313440E-4  -8.632197976112366E-1  -4.409413039684296E-1  
 6.144144144144144E8    -8.474620580673218E-1   4.183000028133392E-1   3.546912630554289E-4  -3.938315494451672E-4   3.500907623674721E-4  -3.912346437573433E-4  -8.669714331626892E-1  -4.331603348255158E-1  
 6.168168168168168E8    -8.402293920516968E-1   4.304875135421753E-1   4.181773110758513E-4  -3.795115917455405E-4   4.533524333965033E-4  -4.436832678038627E-4  -8.708632588386536E-1  -4.247026145458221E-1  
 6.192192192192192E8    -8.328436613082886E-1   4.422772526741028E-1   4.994797054678202E-4  -3.866279439534992E-4   5.347680998966098E-4  -4.056181642226875E-4  -8.753280043601990E-1  -4.161860942840576E-1  
 6.216216216216216E8    -8.250435590744019E-1   4.539394974708557E-1   7.423038478009403E-4  -4.461333155632019E-4   7.407185039483011E-4  -4.778703441843391E-4  -8.797467947006226E-1  -4.062859714031220E-1  
 6.240240240240240E8    -8.171665668487549E-1   4.650401175022125E-1   8.235971909016371E-4  -5.900820833630860E-4   8.505153818987310E-4  -4.987290012650192E-4  -8.843854665756226E-1  -3.958604633808136E-1  
 6.264264264264264E8    -8.092138767242432E-1   4.773572087287903E-1   1.066133612766862E-3  -7.125135161913931E-4   1.050380058586597E-3  -7.090693106874824E-4  -8.889203071594238E-1  -3.851705789566040E-1  
 6.288288288288288E8    -8.013164997100830E-1   4.885607063770294E-1   1.213361392728984E-3  -9.848419576883316E-4   1.257288618944585E-3  -9.715692722238600E-4  -8.924207091331482E-1  -3.761088252067566E-1  
 6.312312312312312E8    -7.941554784774780E-1   4.991902410984039E-1   1.326531637459993E-3  -1.335049513727427E-3   1.327317324467003E-3  -1.288659404963255E-3  -8.954248428344727E-1  -3.679476380348206E-1  
 6.336336336336336E8    -7.873567342758179E-1   5.096516013145447E-1   1.279532676562667E-3  -1.680897083133459E-3   1.350008882582188E-3  -1.672339392825961E-3  -8.988006114959717E-1  -3.602037131786346E-1  
 6.360360360360360E8    -7.804672122001648E-1   5.203198790550232E-1   1.258957316167653E-3  -2.040008082985878E-3   1.281493809074163E-3  -2.030427334830165E-3  -9.015609622001648E-1  -3.526790440082550E-1  
 6.384384384384384E8    -7.726410031318665E-1   5.325469970703125E-1   1.033352920785546E-3  -2.326707821339369E-3   9.963958291336894E-4  -2.323839347809553E-3  -9.047888517379761E-1  -3.445030450820923E-1  
 6.408408408408408E8    -7.643728256225586E-1   5.445504188537598E-1   7.247515604831278E-4  -2.556609921157360E-3   8.086189627647400E-4  -2.508832374587655E-3  -9.080783724784851E-1  -3.356015980243683E-1  
 6.432432432432432E8    -7.555648684501648E-1   5.566185712814331E-1   4.769972292706370E-4  -2.742821350693703E-3   5.143910530023277E-4  -2.703424775972962E-3  -9.115013480186462E-1  -3.269970118999481E-1  
 6.456456456456456E8    -7.464597225189209E-1   5.677086114883423E-1   2.438239607727155E-4  -2.868277020752430E-3   3.649526624940336E-4  -2.768726786598563E-3  -9.147006273269653E-1  -3.186042606830597E-1  
 6.480480480480480E8    -7.367706894874573E-1   5.785183906555176E-1   2.820918962243013E-5  -2.869517076760531E-3   2.163272438338026E-5  -2.825236646458507E-3  -9.178123474121094E-1  -3.103489875793457E-1  
 6.504504504504504E8    -7.259716987609863E-1   5.904463529586792E-1  -2.350623690290377E-4  -2.937919227406383E-3  -1.495551696280018E-4  -2.866031136363745E-3  -9.200377464294434E-1  -3.008198440074921E-1  
 6.528528528528528E8    -7.155961990356445E-1   6.016567945480347E-1  -3.851120127364993E-4  -2.878058003261685E-3  -3.281361132394522E-4  -2.911947900429368E-3  -9.222871065139771E-1  -2.916787862777710E-1  
 6.552552552552552E8    -7.053949236869812E-1   6.122348904609680E-1  -5.378209170885384E-4  -2.921722130849958E-3  -5.145161412656307E-4  -2.850810531526804E-3  -9.250417947769165E-1  -2.832096815109253E-1  
 6.576576576576576E8    -6.952020525932312E-1   6.219305396080017E-1  -6.797896930947900E-4  -2.877049380913377E-3  -6.210503634065390E-4  -2.832115627825260E-3  -9.278489947319031E-1  -2.750736773014069E-1  
 6.600600600600600E8    -6.837225556373596E-1   6.322431564331055E-1  -7.796069257892668E-4  -2.831125166267157E-3  -7.523003150708973E-4  -2.844447037205100E-3  -9.307018518447876E-1  -2.668579518795013E-1  
 6.624624624624624E8    -6.715894937515259E-1   6.436540484428406E-1  -8.673651027493179E-4  -2.892308169975877E-3  -8.217258146032691E-4  -2.827669959515333E-3  -9.330238699913025E-1  -2.568626701831818E-1  
 6.648648648648648E8    -6.594146490097046E-1   6.545177102088928E-1  -9.471842786297202E-4  -2.796434564515948E-3  -9.303780971094966E-4  -2.835610415786505E-3  -9.354895353317261E-1  -2.471786588430405E-1  
 6.672672672672672E8    -6.472407579421997E-1   6.644412279129028E-1  -9.768509771674871E-4  -2.749896142631769E-3  -9.470196673646569E-4  -2.798219444230199E-3  -9.377169609069824E-1  -2.377166748046875E-1  
 6.696696696696696E8    -6.348755955696106E-1   6.740152239799500E-1  -9.167555836029351E-4  -2.794511616230011E-3  -9.326745639555156E-4  -2.784731332212687E-3  -9.399138689041138E-1  -2.288762181997299E-1  
 6.720720720720720E8    -6.219343543052673E-1   6.831780672073364E-1  -9.420291753485799E-4  -2.799323061481118E-3  -8.586232434026897E-4  -2.863581525161862E-3  -9.415586590766907E-1  -2.202469110488892E-1  
 6.744744744744744E8    -6.081079244613648E-1   6.925860643386841E-1  -9.217171464115381E-4  -2.862008754163981E-3  -8.576305117458105E-4  -2.806515665724874E-3  -9.433307647705078E-1  -2.107439041137695E-1  
 6.768768768768768E8    -5.943685770034790E-1   7.014493346214294E-1  -8.016639621928334E-4  -2.927919616922736E-3  -8.440066594630480E-4  -2.887735376134515E-3  -9.449448585510254E-1  -2.017088681459427E-1  
 6.792792792792792E8    -5.812267065048218E-1   7.095378637313843E-1  -7.515123579651117E-4  -2.999593969434500E-3  -6.521012401208282E-4  -2.970072207972407E-3  -9.468392729759216E-1  -1.925153732299805E-1  
 6.816816816816816E8    -5.678262114524841E-1   7.176114320755005E-1  -6.166880484670401E-4  -3.151311073452234E-3  -5.227494984865189E-4  -3.137480700388551E-3  -9.486994147300720E-1  -1.831176877021790E-1  
 6.840840840840840E8    -5.540931224822998E-1   7.250780463218689E-1  -3.172845754306763E-4  -3.421111963689327E-3  -3.108323144260794E-4  -3.412690479308367E-3  -9.504759907722473E-1  -1.732612699270248E-1  
 6.864864864864864E8    -5.400025248527527E-1   7.326636314392090E-1  -1.144617708632723E-4  -3.891771193593741E-3  -8.526432793587446E-5  -3.810736816376448E-3  -9.511594772338867E-1  -1.643474251031876E-1  
 6.888888888888888E8    -5.264086127281189E-1   7.398146986961365E-1   4.976085983798839E-5  -4.482806194573641E-3   7.832445407984778E-5  -4.474749788641930E-3  -9.517698884010315E-1  -1.546014249324799E-1  
 6.912912912912912E8    -5.140246152877808E-1   7.465811371803284E-1   9.813888937060256E-6  -5.440718960016966E-3   1.891362480819225E-4  -5.306280218064785E-3  -9.526902437210083E-1  -1.451323777437210E-1  
 6.936936936936936E8    -5.020979642868042E-1   7.541685104370117E-1  -3.078370064031333E-4  -6.358461454510689E-3  -2.328478294657543E-4  -6.365227047353983E-3  -9.539548158645630E-1  -1.354591548442841E-1  
 6.960960960960960E8    -4.896784424781799E-1   7.622984647750855E-1  -1.022712793201208E-3  -7.306662853807211E-3  -9.295671479776502E-4  -7.214072160422802E-3  -9.551276564598084E-1  -1.256555169820786E-1  
 6.984984984984984E8    -4.765357971191406E-1   7.711612582206726E-1  -1.902190619148314E-3  -7.922451011836529E-3  -1.974630868062377E-3  -7.904266938567162E-3  -9.564738273620606E-1  -1.127462759613991E-1  
 7.009009009009008E8    -4.620968997478485E-1   7.799695730209351E-1  -2.994893118739128E-3  -8.452241308987141E-3  -3.042981028556824E-3  -8.253620006144047E-3  -9.574647545814514E-1  -1.012651473283768E-1  
 7.033033033033032E8    -4.465893805027008E-1   7.877753973007202E-1  -4.009357187896967E-3  -8.519060909748077E-3  -4.142681602388620E-3  -8.401755243539810E-3  -9.579039216041565E-1  -9.237260371446610E-2  
 7.057057057057056E8    -4.306573867797852E-1   7.946929931640625E-1  -5.023660138249397E-3  -8.515805937349796E-3  -5.081011448055506E-3  -8.481888100504875E-3  -9.578054547309876E-1  -8.697736263275147E-2  
 7.081081081081080E8    -4.124216437339783E-1   8.016755580902100E-1  -5.917963106185198E-3  -8.345117792487145E-3  -5.837561562657356E-3  -8.387257345020771E-3  -9.580721855163574E-1  -8.020278811454773E-2  
 7.105105105105104E8    -3.937983214855194E-1   8.088738918304443E-1  -6.760534830391407E-3  -8.150777779519558E-3  -6.635857746005058E-3  -8.354553952813149E-3  -9.583749175071716E-1  -7.263429462909699E-2  
 7.129129129129129E8    -3.764953911304474E-1   8.144826889038086E-1  -7.500795647501946E-3  -7.963755168020725E-3  -7.342525292187929E-3  -8.102329447865486E-3  -9.588077664375305E-1  -6.315410137176514E-2  
 7.153153153153153E8    -3.594199717044830E-1   8.196033835411072E-1  -8.118267171084881E-3  -7.793072611093521E-3  -8.118519559502602E-3  -7.942418567836285E-3  -9.595871567726135E-1  -5.188675224781036E-2  
 7.177177177177178E8    -3.410376012325287E-1   8.243765234947205E-1  -8.852603845298290E-3  -7.652663625776768E-3  -8.748197928071022E-3  -7.696235086768866E-3  -9.595130085945129E-1  -3.986037150025368E-2  
 7.201201201201202E8    -3.205007612705231E-1   8.290377855300903E-1  -9.534369222819805E-3  -7.466257549822331E-3  -9.435017593204975E-3  -7.454047910869122E-3  -9.602484703063965E-1  -2.870494686067104E-2  
 7.225225225225226E8    -3.003360927104950E-1   8.329949378967285E-1  -1.022525224834681E-2  -7.300926372408867E-3  -1.019376236945391E-2  -7.354544941335917E-3  -9.601783156394959E-1  -1.747470349073410E-2  
 7.249249249249250E8    -2.798337042331696E-1   8.361717462539673E-1  -1.110354531556368E-2  -6.917676422744989E-3  -1.089619658887386E-2  -7.116257678717375E-3  -9.598846435546875E-1  -8.403416723012924E-3  
 7.273273273273274E8    -2.603932023048401E-1   8.384543061256409E-1  -1.182657852768898E-2  -6.637040525674820E-3  -1.166561897844076E-2  -6.918975617736578E-3  -9.593876004219055E-1   8.403292740695179E-4  
 7.297297297297298E8    -2.426799684762955E-1   8.399336934089661E-1  -1.253189239650965E-2  -6.257002241909504E-3  -1.242440566420555E-2  -6.529957987368107E-3  -9.590554833412170E-1   1.130353845655918E-2  
 7.321321321321322E8    -2.256361246109009E-1   8.410559892654419E-1  -1.317263394594193E-2  -6.117835175246000E-3  -1.316374912858009E-2  -6.106535438448191E-3  -9.584352374076843E-1   2.236723154783249E-2  
 7.345345345345346E8    -2.067290544509888E-1   8.417696952819824E-1  -1.382310874760151E-2  -5.853900685906410E-3  -1.385003980249167E-2  -5.827214568853378E-3  -9.575158357620239E-1   3.250126168131828E-2  
 7.369369369369370E8    -1.864837557077408E-1   8.421481251716614E-1  -1.459940895438194E-2  -5.665310658514500E-3  -1.458247844129801E-2  -5.463785491883755E-3  -9.562312960624695E-1   4.343801364302635E-2  
 7.393393393393394E8    -1.659850031137466E-1   8.418277502059937E-1  -1.546817831695080E-2  -5.375585984438658E-3  -1.551102939993143E-2  -5.224545486271381E-3  -9.555680751800537E-1   5.406994372606278E-2  
 7.417417417417418E8    -1.448858082294464E-1   8.404513001441956E-1  -1.652288064360619E-2  -5.022840574383736E-3  -1.646126434206963E-2  -5.013650748878717E-3  -9.547529220581055E-1   6.376620382070541E-2  
 7.441441441441442E8    -1.235017329454422E-1   8.385474085807800E-1  -1.759991422295570E-2  -4.490177612751722E-3  -1.751244813203812E-2  -4.629705101251602E-3  -9.537668228149414E-1   7.262605428695679E-2  
 7.465465465465466E8    -1.030986830592156E-1   8.367233872413635E-1  -1.870217546820641E-2  -3.933522384613752E-3  -1.864683069288731E-2  -4.098757170140743E-3  -9.521816372871399E-1   8.278062939643860E-2  
 7.489489489489490E8    -8.170781284570694E-2   8.335287570953369E-1  -1.993538066744804E-2  -3.211257280781865E-3  -1.986818574368954E-2  -3.459791187196970E-3  -9.508290290832520E-1   9.233922511339188E-2  
 7.513513513513514E8    -5.910361930727959E-2   8.283189535140991E-1  -2.116550691425800E-2  -2.298172563314438E-3  -2.116702497005463E-2  -2.637266879901290E-3  -9.498062133789063E-1   1.023855656385422E-1  
 7.537537537537538E8    -3.536355867981911E-2   8.215568661689758E-1  -2.225426398217678E-2  -1.169698196463287E-3  -2.235063724219799E-2  -1.419033855199814E-3  -9.482264518737793E-1   1.143325716257095E-1  
 7.561561561561562E8    -1.175642572343350E-2   8.126535415649414E-1  -2.334543131291866E-2   1.085742842406035E-4  -2.331101708114147E-2  -1.220231206389144E-4  -9.459057450294495E-1   1.245392262935638E-1  
 7.585585585585586E8     1.008413452655077E-2   8.029957413673401E-1  -2.427303045988083E-2   1.354126608930528E-3  -2.417445927858353E-2   1.151560572907329E-3  -9.424001574516296E-1   1.372442543506622E-1  
 7.609609609609610E8     3.127372264862061E-2   7.926441431045532E-1  -2.519556879997253E-2   2.637530677020550E-3  -2.498276531696320E-2   2.460850635543466E-3  -9.394136667251587E-1   1.493702828884125E-1  
 7.633633633633634E8     5.108043551445007E-2   7.819225788116455E-1  -2.612968534231186E-2   4.115118179470301E-3  -2.598567306995392E-2   3.741614753380418E-3  -9.368399381637573E-1   1.602936983108521E-1  
 7.657657657657658E8     7.101173698902130E-2   7.710901498794556E-1  -2.698529884219170E-2   5.625670310109854E-3  -2.696198411285877E-2   5.199924577027559E-3  -9.354617595672607E-1   1.697674542665482E-1  
 7.681681681681682E8     9.095674008131027E-2   7.597115039825440E-1  -2.789893932640553E-2   7.152809761464596E-3  -2.802194282412529E-2   6.753242108970881E-3  -9.348999857902527E-1   1.782328188419342E-1  
 7.705705705705706E8     1.089137718081474E-1   7.476924657821655E-1  -2.878927066922188E-2   8.814015425741673E-3  -2.895483747124672E-2   8.451860398054123E-3  -9.323630928993225E-1   1.866795867681503E-1  
 7.729729729729730E8     1.286453604698181E-1   7.327691316604614E-1  -2.960559353232384E-2   1.065148785710335E-2  -2.986882999539375E-2   1.025078631937504E-2  -9.314304590225220E-1   1.968008875846863E-1  
 7.753753753753754E8     1.473276913166046E-1   7.151387929916382E-1  -3.039224445819855E-2   1.275655440986157E-2  -3.080833144485951E-2   1.246998272836208E-2  -9.290416240692139E-1   2.082258015871048E-1  
 7.777777777777778E8     1.637863665819168E-1   6.956194043159485E-1  -3.106428496539593E-2   1.498693507164717E-2  -3.136512264609337E-2   1.468631252646446E-2  -9.237511157989502E-1   2.199405282735825E-1  
 7.801801801801802E8     1.781590133905411E-1   6.754050254821777E-1  -3.170100599527359E-2   1.728986389935017E-2  -3.162986785173416E-2   1.703423447906971E-2  -9.156262874603272E-1   2.304350882768631E-1  
 7.825825825825826E8     1.918562203645706E-1   6.534193158149719E-1  -3.216256201267242E-2   1.984500139951706E-2  -3.205047175288200E-2   1.962622441351414E-2  -9.105216264724731E-1   2.417652904987335E-1  
 7.849849849849850E8     2.039773017168045E-1   6.332586407661438E-1  -3.229356557130814E-2   2.277384698390961E-2  -3.226632997393608E-2   2.233877405524254E-2  -9.056472778320313E-1   2.498737871646881E-1  
 7.873873873873874E8     2.157225906848908E-1   6.142358183860779E-1  -3.227796405553818E-2   2.560923621058464E-2  -3.212744742631912E-2   2.505436912178993E-2  -9.019761681556702E-1   2.578953206539154E-1  
 7.897897897897898E8     2.287265658378601E-1   5.936477780342102E-1  -3.207612782716751E-2   2.846467122435570E-2  -3.206527978181839E-2   2.805325016379356E-2  -8.997902870178223E-1   2.668877542018890E-1  
 7.921921921921922E8     2.420601993799210E-1   5.699263811111450E-1  -3.174866363406181E-2   3.157888725399971E-2  -3.188570961356163E-2   3.117986209690571E-2  -8.990102410316467E-1   2.773502767086029E-1  
 7.945945945945946E8     2.509793043136597E-1   5.479368567466736E-1  -3.111057728528976E-2   3.493096679449081E-2  -3.147009760141373E-2   3.447439149022102E-2  -8.937368392944336E-1   2.874172627925873E-1  
 7.969969969969970E8     2.583358287811279E-1   5.244155526161194E-1  -3.012540005147457E-2   3.823183476924896E-2  -3.047122620046139E-2   3.784231469035149E-2  -8.889595270156860E-1   2.979496717453003E-1  
 7.993993993993994E8     2.641496658325195E-1   4.999252855777741E-1  -2.886001020669937E-2   4.132224619388580E-2  -2.924197539687157E-2   4.127413034439087E-2  -8.839664459228516E-1   3.092947304248810E-1  
 8.018018018018018E8     2.671464085578919E-1   4.717710614204407E-1  -2.752934023737907E-2   4.448463022708893E-2  -2.774056792259216E-2   4.460746794939041E-2  -8.781565427780151E-1   3.209580183029175E-1  
 8.042042042042042E8     2.677506804466248E-1   4.445117712020874E-1  -2.582915872335434E-2   4.806195199489594E-2  -2.607963792979717E-2   4.806488379836083E-2  -8.727837204933167E-1   3.305268883705139E-1  
 8.066066066066066E8     2.654979228973389E-1   4.185267686843872E-1  -2.381777577102184E-2   5.159643664956093E-2  -2.406421862542629E-2   5.151653289794922E-2  -8.669883012771606E-1   3.418066799640656E-1  
 8.090090090090090E8     2.612114250659943E-1   3.940572142601013E-1  -2.126003243029118E-2   5.518425628542900E-2  -2.160264924168587E-2   5.506286025047302E-2  -8.611618876457214E-1   3.525685667991638E-1  
 8.114114114114114E8     2.573062479496002E-1   3.702503442764282E-1  -1.839618012309074E-2   5.838081613183022E-2  -1.867465302348137E-2   5.828176811337471E-2  -8.549888134002686E-1   3.629536628723145E-1  
 8.138138138138138E8     2.511903345584869E-1   3.440709114074707E-1  -1.550073456019163E-2   6.166879832744598E-2  -1.580738835036755E-2   6.153996288776398E-2  -8.491170406341553E-1   3.729038834571838E-1  
 8.162162162162162E8     2.402101159095764E-1   3.183420300483704E-1  -1.216330565512180E-2   6.533668935298920E-2  -1.247746311128140E-2   6.524723023176193E-2  -8.430036902427673E-1   3.831599354743958E-1  
 8.186186186186186E8     2.240644097328186E-1   2.969909310340881E-1  -7.776481099426746E-3   6.893520057201386E-2  -8.073372766375542E-3   6.879615783691406E-2  -8.363380432128906E-1   3.936161398887634E-1  
 8.210210210210210E8     2.069932669401169E-1   2.806076705455780E-1  -2.678251825273037E-3   7.152782380580902E-2  -2.867142437025905E-3   7.157138735055924E-2  -8.290706276893616E-1   4.044781625270844E-1  
 8.234234234234234E8     1.911298483610153E-1   2.668153941631317E-1   2.764749107882381E-3   7.358336448669434E-2   2.492399886250496E-3   7.350393384695053E-2  -8.218558430671692E-1   4.153963625431061E-1  
