#  HZ   S   RI   R     50.00 
! Rohde & Schwarz ZVB8 2Ports - Version 2.81 - 1145.1010k08 SN: 100113
! Date: 2016-05-04 02:50:02
! Measurements: S11 S21 S12 S22 
! 
 6.000000000000000E8    -8.667586445808411E-1   3.700465857982636E-1   6.570729601662606E-5  -7.104054093360901E-4   5.954556399956346E-5  -6.312699406407774E-4  -8.463423848152161E-1  -4.710345864295960E-1  
 6.024024024024024E8    -8.594368696212769E-1   3.831680119037628E-1   1.619740505702794E-4  -6.742080440744758E-4   1.401384652126581E-4  -6.224837852641940E-4  -8.509268164634705E-1  -4.617972671985626E-1  
 6.048048048048048E8    -8.525840044021606E-1   3.962620496749878E-1   1.731503725750372E-4  -6.876848055981100E-4   2.100412384606898E-4  -7.664603763259947E-4  -8.555732965469360E-1  -4.527909755706787E-1  
 6.072072072072072E8    -8.443502783775330E-1   4.104756712913513E-1   1.786086941137910E-4  -6.917855935171247E-4   2.331579162273556E-4  -6.700646481476724E-4  -8.598659038543701E-1  -4.437112212181091E-1  
 6.096096096096096E8    -8.355174064636231E-1   4.246274232864380E-1   2.390011941315606E-4  -7.188192103058100E-4   2.283972426084802E-4  -7.168048177845776E-4  -8.646643757820129E-1  -4.336751997470856E-1  
 6.120120120120120E8    -8.288288116455078E-1   4.357013106346130E-1   3.591971762944013E-4  -6.841424037702382E-4   3.599737246986479E-4  -7.169229793362320E-4  -8.684168457984924E-1  -4.257795512676239E-1  
 6.144144144144144E8    -8.203787803649902E-1   4.481360316276550E-1   4.874906444456428E-4  -6.866832263767719E-4   4.818295128643513E-4  -7.776487036608160E-4  -8.718823790550232E-1  -4.174790978431702E-1  
 6.168168168168168E8    -8.114008903503418E-1   4.607736468315125E-1   6.543898489326239E-4  -7.445215596817434E-4   5.833678878843784E-4  -6.956460420042276E-4  -8.759668469429016E-1  -4.086968302726746E-1  
 6.192192192192192E8    -8.020364046096802E-1   4.727172851562500E-1   8.462541154585779E-4  -8.519876864738762E-4   8.109456975944340E-4  -7.985184201970696E-4  -8.802364468574524E-1  -3.993881940841675E-1  
 6.216216216216216E8    -7.922155857086182E-1   4.846470057964325E-1   1.154861180111766E-3  -8.950631017796695E-4   1.084959367290139E-3  -9.311558678746223E-4  -8.848699331283569E-1  -3.885567784309387E-1  
 6.240240240240240E8    -7.823024392127991E-1   4.956384301185608E-1   1.416370621882379E-3  -1.201403210870922E-3   1.431906595826149E-3  -1.113256905227900E-3  -8.892036676406860E-1  -3.777729272842407E-1  
 6.264264264264264E8    -7.726224064826965E-1   5.076187252998352E-1   1.754429424181581E-3  -1.560769509524107E-3   1.717951963655651E-3  -1.508509623818100E-3  -8.934094905853272E-1  -3.663596808910370E-1  
 6.288288288288288E8    -7.629459500312805E-1   5.190829634666443E-1   2.030951436609030E-3  -2.004202688112855E-3   1.999485772103071E-3  -1.969686709344387E-3  -8.967059254646301E-1  -3.566386997699738E-1  
 6.312312312312312E8    -7.541160583496094E-1   5.296759009361267E-1   2.033107215538621E-3  -2.644920721650124E-3   2.050633076578379E-3  -2.638117875903845E-3  -8.997079133987427E-1  -3.477241694927216E-1  
 6.336336336336336E8    -7.454897761344910E-1   5.404130220413208E-1   1.998686231672764E-3  -3.266854910179973E-3   2.010332420468330E-3  -3.279727650806308E-3  -9.027339816093445E-1  -3.392775356769562E-1  
 6.360360360360360E8    -7.370687723159790E-1   5.515382885932922E-1   1.735022058710456E-3  -3.960286732763052E-3   1.777086639776826E-3  -3.947630524635315E-3  -9.056116938591003E-1  -3.313427567481995E-1  
 6.384384384384384E8    -7.270872592926025E-1   5.639702677726746E-1   1.310836756601930E-3  -4.494824446737766E-3   1.353883650153875E-3  -4.448614083230496E-3  -9.084862470626831E-1  -3.220537602901459E-1  
 6.408408408408408E8    -7.167729139328003E-1   5.768172144889832E-1   8.875760831870139E-4  -4.932769574224949E-3   8.825210970826447E-4  -4.931447096168995E-3  -9.118537902832031E-1  -3.124131560325623E-1  
 6.432432432432432E8    -7.055760025978088E-1   5.895084738731384E-1   2.948661858681589E-4  -5.282146390527487E-3   3.638753551058471E-4  -5.290456116199493E-3  -9.150611758232117E-1  -3.029799461364746E-1  
 6.456456456456456E8    -6.941569447517395E-1   6.013566255569458E-1  -2.327035326743498E-4  -5.462356843054295E-3  -2.103057195199654E-4  -5.439944565296173E-3  -9.182549715042114E-1  -2.937164902687073E-1  
 6.480480480480480E8    -6.815060377120972E-1   6.126121878623962E-1  -7.353790570050478E-4  -5.613681394606829E-3  -6.338988896459341E-4  -5.540972575545311E-3  -9.212388396263123E-1  -2.845614552497864E-1  
 6.504504504504504E8    -6.674006581306458E-1   6.252313256263733E-1  -1.250201137736440E-3  -5.604750942438841E-3  -1.057605026289821E-3  -5.672420375049114E-3  -9.234072566032410E-1  -2.740772664546967E-1  
 6.528528528528528E8    -6.534907221794128E-1   6.368888020515442E-1  -1.617579953745008E-3  -5.708388052880764E-3  -1.576734706759453E-3  -5.634788889437914E-3  -9.257205724716187E-1  -2.637266516685486E-1  
 6.552552552552552E8    -6.395164132118225E-1   6.476305723190308E-1  -2.020991640165448E-3  -5.682124290615320E-3  -1.972035737708211E-3  -5.691873375326395E-3  -9.278915524482727E-1  -2.540096044540405E-1  
 6.576576576576576E8    -6.252463459968567E-1   6.574620008468628E-1  -2.361226594075561E-3  -5.607414525002241E-3  -2.347915899008513E-3  -5.626924335956574E-3  -9.304300546646118E-1  -2.450920939445496E-1  
 6.600600600600600E8    -6.094986796379089E-1   6.677365303039551E-1  -2.622338477522135E-3  -5.568896420300007E-3  -2.568037481978536E-3  -5.546296946704388E-3  -9.330551028251648E-1  -2.355743795633316E-1  
 6.624624624624624E8    -5.932999253273010E-1   6.788051128387451E-1  -2.904508262872696E-3  -5.488063674420118E-3  -2.791886450722814E-3  -5.487828515470028E-3  -9.353367686271668E-1  -2.243438363075256E-1  
 6.648648648648648E8    -5.763304233551025E-1   6.890240907669067E-1  -3.103689290583134E-3  -5.468848627060652E-3  -3.054288215935230E-3  -5.516417324542999E-3  -9.372143149375916E-1  -2.134375274181366E-1  
 6.672672672672672E8    -5.590717196464539E-1   6.983851194381714E-1  -3.247153945267201E-3  -5.477979779243469E-3  -3.202627878636122E-3  -5.536140874028206E-3  -9.391270279884338E-1  -2.025794237852097E-1  
 6.696696696696696E8    -5.413215756416321E-1   7.065973877906799E-1  -3.378083463758230E-3  -5.546908359974623E-3  -3.337346483021975E-3  -5.615919828414917E-3  -9.407219886779785E-1  -1.921644806861877E-1  
 6.720720720720720E8    -5.225677490234375E-1   7.140494585037231E-1  -3.456111531704664E-3  -5.670009646564722E-3  -3.461730433627963E-3  -5.656808149069548E-3  -9.420932531356812E-1  -1.819007098674774E-1  
 6.744744744744744E8    -5.038525462150574E-1   7.212777137756348E-1  -3.600289346650243E-3  -5.745206028223038E-3  -3.552756970748305E-3  -5.718034692108631E-3  -9.434632062911987E-1  -1.710565090179443E-1  
 6.768768768768768E8    -4.849711358547211E-1   7.272294759750366E-1  -3.521690610796213E-3  -5.879155360162258E-3  -3.533630399033427E-3  -5.925226025283337E-3  -9.444040656089783E-1  -1.602020114660263E-1  
 6.792792792792792E8    -4.666382968425751E-1   7.327410578727722E-1  -3.428447991609573E-3  -6.190590560436249E-3  -3.341005183756352E-3  -6.178528536111116E-3  -9.456916451454163E-1  -1.492352038621903E-1  
 6.816816816816816E8    -4.482285976409912E-1   7.378376722335815E-1  -3.270752960816026E-3  -6.692049093544483E-3  -3.182082902640104E-3  -6.704451050609350E-3  -9.465390443801880E-1  -1.380036473274231E-1  
 6.840840840840840E8    -4.294895529747009E-1   7.423287630081177E-1  -3.050226951017976E-3  -7.426781114190817E-3  -2.991979941725731E-3  -7.489779964089394E-3  -9.474833607673645E-1  -1.265005171298981E-1  
 6.864864864864864E8    -4.102218449115753E-1   7.464783787727356E-1  -2.963300794363022E-3  -8.595004677772522E-3  -2.860324224457145E-3  -8.628335781395435E-3  -9.471529722213745E-1  -1.155170053243637E-1  
 6.888888888888888E8    -3.912907242774963E-1   7.498229146003723E-1  -3.165491390973330E-3  -1.022209133952856E-2  -2.951463684439659E-3  -1.028476562350988E-2  -9.465047121047974E-1  -1.042040809988976E-1  
 6.912912912912912E8    -3.742332458496094E-1   7.532283663749695E-1  -4.011765122413635E-3  -1.226944755762816E-2  -3.830416826531291E-3  -1.226817909628153E-2  -9.461891055107117E-1  -9.259952604770660E-2  
 6.936936936936936E8    -3.569301366806030E-1   7.577928900718689E-1  -5.570025183260441E-3  -1.449632458388805E-2  -5.382579751312733E-3  -1.434229966253042E-2  -9.459464550018311E-1  -8.109770715236664E-2  
 6.960960960960960E8    -3.384301066398621E-1   7.637565732002258E-1  -8.020351640880108E-3  -1.623485796153545E-2  -7.893931120634079E-3  -1.614653691649437E-2  -9.455224275588989E-1  -6.960967183113098E-2  
 6.984984984984984E8    -3.182424008846283E-1   7.699228525161743E-1  -1.102196797728539E-2  -1.733210682868958E-2  -1.113719493150711E-2  -1.722201518714428E-2  -9.452839493751526E-1  -5.503934621810913E-2  
 7.009009009009008E8    -2.957327663898468E-1   7.757772803306580E-1  -1.434313785284758E-2  -1.772813312709332E-2  -1.457762904465199E-2  -1.739130169153214E-2  -9.446495175361633E-1  -4.181459173560143E-2  
 7.033033033033032E8    -2.712312638759613E-1   7.796518206596375E-1  -1.764135807752609E-2  -1.722788996994495E-2  -1.783783920109272E-2  -1.694719307124615E-2  -9.436085224151611E-1  -3.084976412355900E-2  
 7.057057057057056E8    -2.456765323877335E-1   7.809972167015076E-1  -2.046944573521614E-2  -1.626704446971417E-2  -2.047925442457199E-2  -1.614746265113354E-2  -9.425168633460999E-1  -2.325164526700974E-2  
 7.081081081081080E8    -2.166740149259567E-1   7.809118032455444E-1  -2.314284630119801E-2  -1.508092042058706E-2  -2.315217815339565E-2  -1.524978131055832E-2  -9.415648579597473E-1  -1.409470848739147E-2  
 7.105105105105104E8    -1.867714226245880E-1   7.784817218780518E-1  -2.587100677192211E-2  -1.364793814718723E-2  -2.559506148099899E-2  -1.405287161469460E-2  -9.403107762336731E-1  -4.055848345160484E-3  
 7.129129129129129E8    -1.585168987512589E-1   7.736648917198181E-1  -2.826937101781368E-2  -1.213521137833595E-2  -2.796800993382931E-2  -1.259034220129252E-2  -9.388582706451416E-1   8.082076907157898E-3  
 7.153153153153153E8    -1.303125768899918E-1   7.665660381317139E-1  -3.051741607487202E-2  -1.062482409179211E-2  -3.032801672816277E-2  -1.099922042340040E-2  -9.371517300605774E-1   2.210777066648006E-2  
 7.177177177177178E8    -1.014785021543503E-1   7.573703527450562E-1  -3.289856016635895E-2  -8.931173942983151E-3  -3.270724415779114E-2  -9.130508638918400E-3  -9.351209402084351E-1   3.693471848964691E-2  
 7.201201201201202E8    -7.108859717845917E-2   7.450356483459473E-1  -3.531648218631744E-2  -6.961117498576641E-3  -3.514530137181282E-2  -7.315480150282383E-3  -9.329990148544312E-1   5.120548605918884E-2  
 7.225225225225226E8    -4.256767779588699E-2   7.309855818748474E-1  -3.776697441935539E-2  -4.738273099064827E-3  -3.760704770684242E-2  -5.064447876065970E-3  -9.303050041198731E-1   6.536459922790527E-2  
 7.249249249249250E8    -1.584168151021004E-2   7.154104113578796E-1  -4.017097130417824E-2  -2.018939936533570E-3  -4.009766504168510E-2  -2.790539525449276E-3  -9.272204041481018E-1   7.734318077564240E-2  
 7.273273273273274E8     9.027814492583275E-3   6.986941099166870E-1  -4.249511659145355E-2   9.072383400052786E-4  -4.247668758034706E-2  -1.314025394094642E-5  -9.236973524093628E-1   9.015242755413055E-2  
 7.297297297297298E8     3.260149061679840E-2   6.794252395629883E-1  -4.470520094037056E-2   4.051115363836289E-3  -4.477650299668312E-2   3.328572958707809E-3  -9.198421239852905E-1   1.034181639552116E-1  
 7.321321321321322E8     5.517069250345230E-2   6.583005189895630E-1  -4.658560827374458E-2   7.065620739012957E-3  -4.659419506788254E-2   6.963229738175869E-3  -9.152403473854065E-1   1.181195676326752E-1  
 7.345345345345346E8     7.854384928941727E-2   6.355367302894592E-1  -4.854186996817589E-2   1.017804443836212E-2  -4.832018539309502E-2   1.031783875077963E-2  -9.103437662124634E-1   1.318189054727554E-1  
 7.369369369369370E8     1.028570681810379E-1   6.087539792060852E-1  -5.076581984758377E-2   1.356756407767534E-2  -5.053584277629852E-2   1.374136842787266E-2  -9.050959348678589E-1   1.467609107494354E-1  
 7.393393393393394E8     1.247534006834030E-1   5.771038532257080E-1  -5.353020504117012E-2   1.800433173775673E-2  -5.333586409687996E-2   1.805328018963337E-2  -8.993324041366577E-1   1.613403856754303E-1  
 7.417417417417418E8     1.427193880081177E-1   5.435033440589905E-1  -5.596227198839188E-2   2.342402748763561E-2  -5.582967400550842E-2   2.325697988271713E-2  -8.929946422576904E-1   1.753465086221695E-1  
 7.441441441441442E8     1.578279584646225E-1   5.076705813407898E-1  -5.784992501139641E-2   2.991315536201000E-2  -5.802033469080925E-2   2.939604409039021E-2  -8.864595293998718E-1   1.884495615959168E-1  
 7.465465465465466E8     1.688340306282044E-1   4.722156226634979E-1  -5.914305523037911E-2   3.682380914688110E-2  -5.955401808023453E-2   3.624715283513069E-2  -8.783570528030396E-1   2.026670128107071E-1  
 7.489489489489490E8     1.760995090007782E-1   4.340765476226807E-1  -5.961900949478149E-2   4.448073357343674E-2  -6.013356149196625E-2   4.409983754158020E-2  -8.702189922332764E-1   2.161265462636948E-1  
 7.513513513513514E8     1.791518777608872E-1   3.930756151676178E-1  -5.902281031012535E-2   5.299585685133934E-2  -5.966176837682724E-2   5.256938561797142E-2  -8.618556261062622E-1   2.300801277160645E-1  
 7.537537537537538E8     1.765369027853012E-1   3.515434265136719E-1  -5.673653632402420E-2   6.192276999354363E-2  -5.762508884072304E-2   6.172905862331390E-2  -8.520212769508362E-1   2.458966076374054E-1  
 7.561561561561562E8     1.685055494308472E-1   3.105856180191040E-1  -5.325492471456528E-2   7.071399688720703E-2  -5.389898642897606E-2   7.008523494005203E-2  -8.415462374687195E-1   2.598797380924225E-1  
 7.585585585585586E8     1.567963361740112E-1   2.736505270004273E-1  -4.887256398797035E-2   7.870780676603317E-2  -4.951223358511925E-2   7.787625491619110E-2  -8.293228149414063E-1   2.766090035438538E-1  
 7.609609609609610E8     1.421104371547699E-1   2.383767962455750E-1  -4.413007199764252E-2   8.694427460432053E-2  -4.464855045080185E-2   8.568723499774933E-2  -8.164798021316528E-1   2.930040955543518E-1  
 7.633633633633634E8     1.241964325308800E-1   2.042115628719330E-1  -3.809854760766029E-2   9.542200714349747E-2  -3.918865323066711E-2   9.386216104030609E-2  -8.030838370323181E-1   3.083370029926300E-1  
 7.657657657657658E8     1.021943911910057E-1   1.715635955333710E-1  -3.062783367931843E-2   1.035880073904991E-1  -3.212978690862656E-2   1.023182347416878E-1  -7.895872592926025E-1   3.223170638084412E-1  
 7.681681681681682E8     7.659225910902023E-2   1.419274061918259E-1  -2.212520316243172E-2   1.110223159193993E-1  -2.388961799442768E-2   1.105521321296692E-1  -7.756162285804749E-1   3.352793455123901E-1  
 7.705705705705706E8     4.778979346156120E-2   1.176615878939629E-1  -1.251884456723929E-2   1.179950535297394E-1  -1.439522486180067E-2   1.177417859435082E-1  -7.588711977005005E-1   3.485102057456970E-1  
 7.729729729729730E8     1.715720817446709E-2   9.680762887001038E-2  -1.702297013252974E-3   1.238497868180275E-1  -3.453036304563284E-3   1.244905665516853E-1  -7.417637109756470E-1   3.630427718162537E-1  
 7.753753753753754E8    -1.358372531831265E-2   8.048170059919357E-2   9.900244884192944E-3   1.292234510183334E-1   8.868800476193428E-3   1.301272809505463E-1  -7.213007211685181E-1   3.782373368740082E-1  
 7.777777777777778E8    -4.807457327842712E-2   6.647215038537979E-2   2.296008728444576E-2   1.336935460567474E-1   2.232745848596096E-2   1.340884566307068E-1  -6.964676976203919E-1   3.921110928058624E-1  
 7.801801801801802E8    -8.483853191137314E-2   5.620138347148895E-2   3.690549731254578E-2   1.371310055255890E-1   3.598935902118683E-2   1.366227269172669E-1  -6.673336625099182E-1   4.031721651554108E-1  
 7.825825825825826E8    -1.220220103859901E-1   5.392997711896896E-2   5.260006338357925E-2   1.392552703619003E-1   5.152318999171257E-2   1.388505250215530E-1  -6.373382806777954E-1   4.144165813922882E-1  
 7.849849849849850E8    -1.553485691547394E-1   5.878092721104622E-2   6.984440237283707E-2   1.392723619937897E-1   6.816861778497696E-2   1.394854485988617E-1  -6.065804958343506E-1   4.212901294231415E-1  
 7.873873873873874E8    -1.841975599527359E-1   6.558875739574432E-2   8.828729391098023E-2   1.368296891450882E-1   8.605752885341644E-2   1.370710730552673E-1  -5.745608210563660E-1   4.265202879905701E-1  
 7.897897897897898E8    -2.090438455343247E-1   7.259791344404221E-2   1.065975278615952E-1   1.317090392112732E-1   1.041500270366669E-1   1.321749836206436E-1  -5.418995022773743E-1   4.306550920009613E-1  
 7.921921921921922E8    -2.319884151220322E-1   8.102962374687195E-2   1.250219047069550E-1   1.241168677806854E-1   1.233449205756187E-1   1.253366172313690E-1  -5.054190754890442E-1   4.325616061687470E-1  
 7.945945945945946E8    -2.512079775333405E-1   8.949422836303711E-2   1.436623930931091E-1   1.137859746813774E-1   1.418311893939972E-1   1.151123270392418E-1  -4.640216827392578E-1   4.280510544776917E-1  
 7.969969969969970E8    -2.703994512557983E-1   9.585136920213699E-2   1.612712442874908E-1   9.991034865379334E-2   1.599303036928177E-1   1.012864187359810E-1  -4.204919040203095E-1   4.185135066509247E-1  
 7.993993993993994E8    -2.915512025356293E-1   1.022817939519882E-1   1.769238710403442E-1   8.310203254222870E-2   1.757483780384064E-1   8.401369303464890E-2  -3.764368295669556E-1   4.027400314807892E-1  
 8.018018018018018E8    -3.136444091796875E-1   1.124482378363609E-1   1.908562630414963E-1   6.318159401416779E-2   1.899711191654205E-1   6.414515525102615E-2  -3.313311338424683E-1   3.794571161270142E-1  
 8.042042042042042E8    -3.340830802917481E-1   1.248691976070404E-1   2.023692578077316E-1   4.011084511876106E-2   2.017973214387894E-1   4.175326973199844E-2  -2.877975404262543E-1   3.465934097766876E-1  
 8.066066066066066E8    -3.527582585811615E-1   1.387795954942703E-1   2.102353721857071E-1   1.436775270849466E-2   2.100974321365356E-1   1.629913039505482E-2  -2.472994625568390E-1   3.052227199077606E-1  
 8.090090090090090E8    -3.697435557842255E-1   1.520550698041916E-1   2.141211032867432E-1  -1.330106891691685E-2   2.144081592559815E-1  -1.162427570670843E-2  -2.138549387454987E-1   2.547804117202759E-1  
 8.114114114114114E8    -3.874984085559845E-1   1.636916249990463E-1   2.126247137784958E-1  -4.121921211481094E-2   2.129289656877518E-1  -4.055804014205933E-2  -1.897450238466263E-1   1.962721496820450E-1  
 8.138138138138138E8    -4.064124822616577E-1   1.783195286989212E-1   2.070257514715195E-1  -6.865966320037842E-2   2.068474292755127E-1  -6.848035007715225E-2  -1.769142150878906E-1   1.334694921970367E-1  
 8.162162162162162E8    -4.233290553092957E-1   1.961611360311508E-1   1.969190686941147E-1  -9.577005356550217E-2   1.963776051998138E-1  -9.579432010650635E-2  -1.763411313295364E-1   6.927649676799774E-2  
 8.186186186186186E8    -4.378319084644318E-1   2.167318910360336E-1   1.809770613908768E-1  -1.212698742747307E-1   1.797328144311905E-1  -1.213497668504715E-1  -1.873755455017090E-1   6.661782972514629E-3  
 8.210210210210210E8    -4.509047269821167E-1   2.384900301694870E-1   1.589466631412506E-1  -1.426154375076294E-1   1.591494828462601E-1  -1.420632600784302E-1  -2.084868103265762E-1  -5.057939887046814E-2  
 8.234234234234234E8    -4.615821540355682E-1   2.596111595630646E-1   1.345329880714417E-1  -1.581224501132965E-1   1.353098601102829E-1  -1.573034077882767E-1  -2.389709651470184E-1  -1.026640012860298E-1  
