#  HZ   S   RI   R     50.00 
! Rohde & Schwarz ZVB8 2Ports - Version 2.81 - 1145.1010k08 SN: 100113
! Date: 2016-05-04 02:49:57
! Measurements: S11 S21 S12 S22 
! 
 6.000000000000000E8    -8.663875460624695E-1   3.700558543205261E-1   1.594653731444851E-4  -7.259579142555594E-4   1.198162499349564E-4  -6.680443184450269E-4  -8.458371758460999E-1  -4.726493358612061E-1  
 6.024024024024024E8    -8.595435619354248E-1   3.830545246601105E-1   1.360524038318545E-4  -6.651985459029675E-4   1.669493358349428E-4  -6.844711024314165E-4  -8.503272533416748E-1  -4.636482596397400E-1  
 6.048048048048048E8    -8.520202636718750E-1   3.964191377162933E-1   1.850871776696295E-4  -7.404068601317704E-4   1.673520600888878E-4  -6.586941890418530E-4  -8.547403812408447E-1  -4.548008739948273E-1  
 6.072072072072072E8    -8.441926240921021E-1   4.106023311614990E-1   1.516200863989070E-4  -7.099244976416230E-4   1.624822616577148E-4  -6.893458194099367E-4  -8.595585227012634E-1  -4.452047049999237E-1  
 6.096096096096096E8    -8.356937766075134E-1   4.246807396411896E-1   3.053761611226946E-4  -7.724712486378849E-4   2.531198842916638E-4  -7.511168951168656E-4  -8.642678260803223E-1  -4.357880055904388E-1  
 6.120120120120120E8    -8.288071751594544E-1   4.357493221759796E-1   3.231144219171256E-4  -6.684343097731471E-4   2.812298189383000E-4  -6.271478487178683E-4  -8.677194118499756E-1  -4.277434647083283E-1  
 6.144144144144144E8    -8.204716444015503E-1   4.481459856033325E-1   4.820766625925899E-4  -7.040455238893628E-4   4.633653443306685E-4  -6.728535518050194E-4  -8.713176846504211E-1  -4.197446703910828E-1  
 6.168168168168168E8    -8.114137649536133E-1   4.605101346969605E-1   6.257381173782051E-4  -7.505478570237756E-4   5.685297073796392E-4  -6.786955054849386E-4  -8.753436803817749E-1  -4.108709394931793E-1  
 6.192192192192192E8    -8.021131157875061E-1   4.727536439895630E-1   8.590946090407670E-4  -7.022342178970575E-4   8.691361290402710E-4  -7.466954411938787E-4  -8.797873854637146E-1  -4.012432396411896E-1  
 6.216216216216216E8    -7.923366427421570E-1   4.845107793807983E-1   1.114657847210765E-3  -8.692519040778279E-4   1.087143202312291E-3  -8.986417087726295E-4  -8.842448592185974E-1  -3.909980654716492E-1  
 6.240240240240240E8    -7.824628949165344E-1   4.959005713462830E-1   1.430383767001331E-3  -1.154513680376113E-3   1.343937707133591E-3  -1.031700056046248E-3  -8.885119557380676E-1  -3.802627325057983E-1  
 6.264264264264264E8    -7.725573182106018E-1   5.078763365745544E-1   1.627935562282801E-3  -1.454990706406534E-3   1.614982844330370E-3  -1.452910713851452E-3  -8.927773237228394E-1  -3.690033853054047E-1  
 6.288288288288288E8    -7.629951238632202E-1   5.193301439285278E-1   1.803327002562583E-3  -1.991717144846916E-3   1.868242979981005E-3  -1.929477788507938E-3  -8.965244889259338E-1  -3.598234951496124E-1  
 6.312312312312312E8    -7.542277574539185E-1   5.300204157829285E-1   1.884201425127685E-3  -2.481535077095032E-3   1.867908285930753E-3  -2.477827249094844E-3  -8.993957042694092E-1  -3.507140874862671E-1  
 6.336336336336336E8    -7.457538247108460E-1   5.407475829124451E-1   1.898259506560862E-3  -3.081710543483496E-3   1.821005251258612E-3  -3.118089400231838E-3  -9.022880792617798E-1  -3.423071503639221E-1  
 6.360360360360360E8    -7.371960878372192E-1   5.518633723258972E-1   1.625535544008017E-3  -3.737075952813029E-3   1.637754612602294E-3  -3.779783379286528E-3  -9.050793647766113E-1  -3.343600928783417E-1  
 6.384384384384384E8    -7.272270321846008E-1   5.643641948699951E-1   1.272768480703235E-3  -4.330554977059364E-3   1.334424829110503E-3  -4.256530664861202E-3  -9.082182645797730E-1  -3.250907361507416E-1  
 6.408408408408408E8    -7.166367769241333E-1   5.772054195404053E-1   8.417809149250388E-4  -4.735993221402168E-3   8.459503878839314E-4  -4.718206822872162E-3  -9.114298224449158E-1  -3.158282041549683E-1  
 6.432432432432432E8    -7.055638432502747E-1   5.897862911224365E-1   2.668412053026259E-4  -5.009969230741262E-3   3.536773729138076E-4  -5.003543104976416E-3  -9.147185683250427E-1  -3.066540062427521E-1  
 6.456456456456456E8    -6.936498284339905E-1   6.017188429832459E-1  -2.546375617384911E-4  -5.214364267885685E-3  -1.049397760652937E-4  -5.177611485123634E-3  -9.177738428115845E-1  -2.974173426628113E-1  
 6.480480480480480E8    -6.813630461692810E-1   6.131924986839294E-1  -6.657289923168719E-4  -5.308312363922596E-3  -5.938565009273589E-4  -5.297529976814985E-3  -9.209554195404053E-1  -2.884242236614227E-1  
 6.504504504504504E8    -6.671934723854065E-1   6.254718899726868E-1  -1.087413518689573E-3  -5.373680032789707E-3  -1.052595907822251E-3  -5.310671869665384E-3  -9.231091141700745E-1  -2.781234085559845E-1  
 6.528528528528528E8    -6.532189846038818E-1   6.371268033981323E-1  -1.491198898293078E-3  -5.350894760340452E-3  -1.492198323830962E-3  -5.417712032794952E-3  -9.254383444786072E-1  -2.681013047695160E-1  
 6.552552552552552E8    -6.389536857604981E-1   6.479675769805908E-1  -1.835039118304849E-3  -5.407548509538174E-3  -1.810039975680411E-3  -5.316897761076689E-3  -9.276488423347473E-1  -2.583956420421600E-1  
 6.576576576576576E8    -6.250643134117127E-1   6.576893925666809E-1  -2.195192268118262E-3  -5.286524537950754E-3  -2.205247292295098E-3  -5.283579695969820E-3  -9.303159117698669E-1  -2.497140467166901E-1  
 6.600600600600600E8    -6.091733574867249E-1   6.678190827369690E-1  -2.439916599541903E-3  -5.259535275399685E-3  -2.372175222262740E-3  -5.239793099462986E-3  -9.330641627311707E-1  -2.404602617025375E-1  
 6.624624624624624E8    -5.924604535102844E-1   6.790193319320679E-1  -2.669533016160131E-3  -5.182622466236353E-3  -2.543151611462236E-3  -5.192988086491823E-3  -9.351449608802795E-1  -2.293840199708939E-1  
 6.648648648648648E8    -5.763248801231384E-1   6.891599893569946E-1  -2.849186537787318E-3  -5.175097845494747E-3  -2.743078162893653E-3  -5.205181892961264E-3  -9.372162222862244E-1  -2.187058776617050E-1  
 6.672672672672672E8    -5.588676929473877E-1   6.980726122856140E-1  -2.966119907796383E-3  -5.226507317274809E-3  -2.960468642413616E-3  -5.184696521610022E-3  -9.394845962524414E-1  -2.083890587091446E-1  
 6.696696696696696E8    -5.413450002670288E-1   7.063581347465515E-1  -3.054793458431959E-3  -5.217778962105513E-3  -3.077903995290399E-3  -5.271764472126961E-3  -9.410791993141174E-1  -1.981178522109985E-1  
 6.720720720720720E8    -5.229667425155640E-1   7.140080332756043E-1  -3.171359188854694E-3  -5.343046970665455E-3  -3.155684564262629E-3  -5.302185658365488E-3  -9.423198699951172E-1  -1.882761716842651E-1  
 6.744744744744744E8    -5.036192536354065E-1   7.211790084838867E-1  -3.211784409359098E-3  -5.420146044343710E-3  -3.261685371398926E-3  -5.463439505547285E-3  -9.437162280082703E-1  -1.775833219289780E-1  
 6.768768768768768E8    -4.847567379474640E-1   7.273662090301514E-1  -3.140268614515662E-3  -5.662037059664726E-3  -3.125598421320319E-3  -5.559028126299381E-3  -9.450362324714661E-1  -1.672080755233765E-1  
 6.792792792792792E8    -4.659579396247864E-1   7.329810857772827E-1  -3.041745629161596E-3  -5.878220777958632E-3  -3.042183816432953E-3  -5.826539825648069E-3  -9.460676312446594E-1  -1.564990133047104E-1  
 6.816816816816816E8    -4.471707344055176E-1   7.377977967262268E-1  -2.906359732151032E-3  -6.286118645220995E-3  -2.828287892043591E-3  -6.346413400024176E-3  -9.475060105323792E-1  -1.456714719533920E-1  
 6.840840840840840E8    -4.284717142581940E-1   7.421429753303528E-1  -2.707751234993339E-3  -7.104672025889158E-3  -2.623412990942597E-3  -7.100042421370745E-3  -9.486722350120544E-1  -1.344179809093475E-1  
 6.864864864864864E8    -4.096176326274872E-1   7.461918592453003E-1  -2.587611787021160E-3  -8.160829544067383E-3  -2.546883886680007E-3  -8.179338648915291E-3  -9.483551979064941E-1  -1.239240542054176E-1  
 6.888888888888888E8    -3.913813531398773E-1   7.493508458137512E-1  -2.720324555411935E-3  -9.683490730822086E-3  -2.735417801886797E-3  -9.732606820762157E-3  -9.481712579727173E-1  -1.125978007912636E-1  
 6.912912912912912E8    -3.740157186985016E-1   7.525563836097717E-1  -3.486356465145946E-3  -1.159101724624634E-2  -3.323511220514774E-3  -1.156002376228571E-2  -9.480355381965637E-1  -1.013637781143189E-1  
 6.936936936936936E8    -3.570483624935150E-1   7.570135593414307E-1  -4.989657551050186E-3  -1.359687279909849E-2  -4.875472281128168E-3  -1.360950618982315E-2  -9.479919075965881E-1  -9.038702398538590E-2  
 6.960960960960960E8    -3.388028144836426E-1   7.629637718200684E-1  -7.250009104609489E-3  -1.528793387115002E-2  -7.155401166528463E-3  -1.528494525700808E-2  -9.482301473617554E-1  -7.926405221223831E-2  
 6.984984984984984E8    -3.188256919384003E-1   7.693124413490295E-1  -1.001374050974846E-2  -1.642768457531929E-2  -1.015203353017569E-2  -1.620857603847981E-2  -9.481459259986877E-1  -6.520080566406250E-2  
 7.009009009009008E8    -2.961306571960449E-1   7.750726342201233E-1  -1.305528823286295E-2  -1.666579209268093E-2  -1.323762815445662E-2  -1.644051447510719E-2  -9.479860067367554E-1  -5.211224034428597E-2  
 7.033033033033032E8    -2.719234824180603E-1   7.791453599929810E-1  -1.598373614251614E-2  -1.622482389211655E-2  -1.609621569514275E-2  -1.601413823664188E-2  -9.473037123680115E-1  -4.170995578169823E-2  
 7.057057057057056E8    -2.463172227144241E-1   7.810819745063782E-1  -1.861209422349930E-2  -1.541738957166672E-2  -1.868604496121407E-2  -1.538638491183519E-2  -9.463753104209900E-1  -3.444286435842514E-2  
 7.081081081081080E8    -2.172437608242035E-1   7.806820869445801E-1  -2.115518972277641E-2  -1.440960168838501E-2  -2.103338763117790E-2  -1.451955921947956E-2  -9.457930326461792E-1  -2.568059042096138E-2  
 7.105105105105104E8    -1.874760389328003E-1   7.785536050796509E-1  -2.355006709694862E-2  -1.317875739187002E-2  -2.322030626237392E-2  -1.355258934199810E-2  -9.450407028198242E-1  -1.627555675804615E-2  
 7.129129129129129E8    -1.589413136243820E-1   7.738800644874573E-1  -2.569974400103092E-2  -1.182926632463932E-2  -2.546449378132820E-2  -1.219525095075369E-2  -9.440962672233582E-1  -4.769995342940092E-3  
 7.153153153153153E8    -1.311796456575394E-1   7.666538357734680E-1  -2.787136286497116E-2  -1.045823656022549E-2  -2.767755463719368E-2  -1.079708151519299E-2  -9.428417086601257E-1   8.715185336768627E-3  
 7.177177177177178E8    -1.020630374550819E-1   7.572429776191711E-1  -3.004015237092972E-2  -9.012403897941113E-3  -2.983650006353855E-2  -9.191718883812428E-3  -9.412574768066406E-1   2.308829687535763E-2  
 7.201201201201202E8    -7.140419632196426E-2   7.449654936790466E-1  -3.231830894947052E-2  -7.204304449260235E-3  -3.216445818543434E-2  -7.519210688769817E-3  -9.399294257164002E-1   3.638923540711403E-2  
 7.225225225225226E8    -4.441117122769356E-2   7.320523262023926E-1  -3.447436168789864E-2  -5.276982206851244E-3  -3.443045914173126E-2  -5.536411888897419E-3  -9.378929138183594E-1   5.026553571224213E-2  
 7.249249249249250E8    -1.760442554950714E-2   7.171019911766052E-1  -3.666750341653824E-2  -2.815665677189827E-3  -3.660107776522636E-2  -3.512496827170253E-3  -9.354112148284912E-1   6.165136769413948E-2  
 7.273273273273274E8     8.206248283386231E-3   6.995520591735840E-1  -3.881650418043137E-2  -2.469969622325152E-4  -3.869121149182320E-2  -1.054000225849450E-3  -9.328590035438538E-1   7.348355650901794E-2  
 7.297297297297298E8     3.201597183942795E-2   6.801470518112183E-1  -4.069248214364052E-2   2.508884062990546E-3  -4.073795676231384E-2   1.839422620832920E-3  -9.299874305725098E-1   8.635661005973816E-2  
 7.321321321321322E8     5.486200749874115E-2   6.590316891670227E-1  -4.252611473202705E-2   5.191329866647720E-3  -4.238763079047203E-2   5.114842206239700E-3  -9.264907836914063E-1   1.001794412732124E-1  
 7.345345345345346E8     7.818502187728882E-2   6.366415023803711E-1  -4.414020106196404E-2   8.022833615541458E-3  -4.397169873118401E-2   8.075487799942493E-3  -9.228073358535767E-1   1.133260726928711E-1  
 7.369369369369370E8     1.025095134973526E-1   6.102668642997742E-1  -4.610683768987656E-2   1.096990425139666E-2  -4.582624137401581E-2   1.109728123992682E-2  -9.186860918998718E-1   1.271040290594101E-1  
 7.393393393393394E8     1.245668232440949E-1   5.794265866279602E-1  -4.841112345457077E-2   1.471499260514975E-2  -4.817727208137512E-2   1.469337940216065E-2  -9.140208363533020E-1   1.409423500299454E-1  
 7.417417417417418E8     1.432596743106842E-1   5.461062788963318E-1  -5.051926895976067E-2   1.922605559229851E-2  -5.040305852890015E-2   1.903568953275681E-2  -9.094244241714478E-1   1.539884209632874E-1  
 7.441441441441442E8     1.587367951869965E-1   5.128632187843323E-1  -5.226072296500206E-2   2.442044764757156E-2  -5.245312303304672E-2   2.411634661257267E-2  -9.044185876846314E-1   1.662267446517944E-1  
 7.465465465465466E8     1.707706302404404E-1   4.774545431137085E-1  -5.354142561554909E-2   3.011772595345974E-2  -5.390452593564987E-2   2.999706566333771E-2  -8.982765674591065E-1   1.795218586921692E-1  
 7.489489489489490E8     1.796050816774368E-1   4.369706809520721E-1  -5.423654988408089E-2   3.679133951663971E-2  -5.477156117558479E-2   3.635628521442413E-2  -8.922619819641113E-1   1.921396553516388E-1  
 7.513513513513514E8     1.832928657531738E-1   3.939908146858215E-1  -5.403197556734085E-2   4.403556510806084E-2  -5.461547151207924E-2   4.332008585333824E-2  -8.862783312797546E-1   2.054177820682526E-1  
 7.537537537537538E8     1.811312437057495E-1   3.506066799163818E-1  -5.234427005052567E-2   5.174498260021210E-2  -5.322688072919846E-2   5.082529038190842E-2  -8.795309662818909E-1   2.198312729597092E-1  
 7.561561561561562E8     1.737492084503174E-1   3.089309632778168E-1  -4.977235198020935E-2   5.904386192560196E-2  -5.052054673433304E-2   5.810388922691345E-2  -8.716850280761719E-1   2.333427071571350E-1  
 7.585585585585586E8     1.617013216018677E-1   2.698531448841095E-1  -4.658536240458489E-2   6.585058569908142E-2  -4.712821915745735E-2   6.489647924900055E-2  -8.624044656753540E-1   2.493559867143631E-1  
 7.609609609609610E8     1.471421718597412E-1   2.354198098182678E-1  -4.311494901776314E-2   7.270201295614243E-2  -4.346020519733429E-2   7.151320576667786E-2  -8.527588248252869E-1   2.651446163654327E-1  
 7.633633633633634E8     1.294477880001068E-1   2.021311670541763E-1  -3.874336555600166E-2   7.983226329088211E-2  -3.919792175292969E-2   7.883378118276596E-2  -8.430674076080322E-1   2.801094055175781E-1  
 7.657657657657658E8     1.081128269433975E-1   1.701339632272720E-1  -3.322216495871544E-2   8.669435232877731E-2  -3.393934667110443E-2   8.600900322198868E-2  -8.333981037139893E-1   2.937940955162048E-1  
 7.681681681681682E8     8.238966763019562E-2   1.399324387311935E-1  -2.680991590023041E-2   9.304235875606537E-2  -2.761605568230152E-2   9.303073585033417E-2  -8.242582082748413E-1   3.064256012439728E-1  
 7.705705705705706E8     5.272361263632774E-2   1.141782179474831E-1  -1.951696909964085E-2   9.914585947990418E-2  -2.063987217843533E-2   9.911122918128967E-2  -8.128821849822998E-1   3.195103704929352E-1  
 7.729729729729730E8     2.057179249823093E-2   9.148322045803070E-2  -1.116197183728218E-2   1.045628488063812E-1  -1.277427002787590E-2   1.049374938011169E-1  -8.014656305313110E-1   3.340618610382080E-1  
 7.753753753753754E8    -1.303094811737537E-2   7.286198437213898E-2  -2.311909338459373E-3   1.094401180744171E-1  -3.581092227250338E-3   1.102651804685593E-1  -7.875015735626221E-1   3.499585390090942E-1  
 7.777777777777778E8    -4.886419326066971E-2   5.812741070985794E-2   7.528878748416901E-3   1.136312559247017E-1   6.310917902737856E-3   1.142662242054939E-1  -7.698129415512085E-1   3.652572333812714E-1  
 7.801801801801802E8    -8.704976737499237E-2   4.753304645419121E-2   1.813377626240253E-2   1.173150837421417E-1   1.676895841956139E-2   1.170272454619408E-1  -7.486611008644104E-1   3.786131739616394E-1  
 7.825825825825826E8    -1.253447234630585E-1   4.483668878674507E-2   2.963377721607685E-2   1.199782118201256E-1   2.836965955793858E-2   1.195984184741974E-1  -7.286443114280701E-1   3.931227922439575E-1  
 7.849849849849850E8    -1.581851243972778E-1   4.897507280111313E-2   4.218678548932076E-2   1.216500997543335E-1   4.060068354010582E-2   1.210242137312889E-1  -7.079604864120483E-1   4.040772914886475E-1  
 7.873873873873874E8    -1.865799427032471E-1   5.499974638223648E-2   5.509348586201668E-2   1.219598576426506E-1   5.335666611790657E-2   1.210840344429016E-1  -6.866824626922607E-1   4.150023758411408E-1  
 7.897897897897898E8    -2.145970165729523E-1   6.226936727762222E-2   6.835202872753143E-2   1.207088306546211E-1   6.672870367765427E-2   1.200766935944557E-1  -6.643867492675781E-1   4.270752072334290E-1  
 7.921921921921922E8    -2.397982329130173E-1   7.185516506433487E-2   8.216049522161484E-2   1.182946860790253E-1   8.119688183069229E-2   1.181274428963661E-1  -6.398267745971680E-1   4.395294189453125E-1  
 7.945945945945946E8    -2.635523676872253E-1   8.278198540210724E-2   9.688302129507065E-2   1.138460636138916E-1   9.537833184003830E-2   1.142085716128349E-1  -6.099534630775452E-1   4.486098289489746E-1  
 7.969969969969970E8    -2.859659194946289E-1   9.215472638607025E-2   1.111794263124466E-1   1.071986928582192E-1   1.096264943480492E-1   1.079438552260399E-1  -5.782368779182434E-1   4.559547901153565E-1  
 7.993993993993994E8    -3.105649650096893E-1   1.026259586215019E-1   1.247020214796066E-1   9.874285012483597E-2   1.234600171446800E-1   9.995753318071365E-2  -5.435110926628113E-1   4.611761569976807E-1  
 8.018018018018018E8    -3.334225714206696E-1   1.172242909669876E-1   1.379884034395218E-1   8.890645205974579E-2   1.370783299207687E-1   9.021753072738648E-2  -5.051682591438294E-1   4.631366431713104E-1  
 8.042042042042042E8    -3.534761369228363E-1   1.342944055795670E-1   1.507855802774429E-1   7.718621194362640E-2   1.502858698368073E-1   7.826394587755203E-2  -4.651639461517334E-1   4.602217376232147E-1  
 8.066066066066066E8    -3.695564866065979E-1   1.523190438747406E-1   1.628373116254807E-1   6.370418518781662E-2   1.626566946506500E-1   6.453315168619156E-2  -4.226274490356445E-1   4.530206918716431E-1  
 8.090090090090090E8    -3.812641501426697E-1   1.688209176063538E-1   1.743179857730866E-1   4.802322760224342E-2   1.743273138999939E-1   4.818435013294220E-2  -3.789658546447754E-1   4.390996098518372E-1  
 8.114114114114114E8    -3.940230607986450E-1   1.838658303022385E-1   1.836888790130615E-1   2.960516139864922E-2   1.836937963962555E-1   2.915349975228310E-2  -3.347557485103607E-1   4.175868332386017E-1  
 8.138138138138138E8    -4.081155359745026E-1   2.005468010902405E-1   1.909213662147522E-1   9.817701764404774E-3   1.909992545843124E-1   8.749119937419891E-3  -2.926391363143921E-1   3.886457085609436E-1  
 8.162162162162162E8    -4.204048812389374E-1   2.198013663291931E-1   1.962069123983383E-1  -1.291874237358570E-2   1.962436288595200E-1  -1.361030712723732E-2  -2.537862658500671E-1   3.519842624664307E-1  
 8.186186186186186E8    -4.295783936977387E-1   2.396578788757324E-1   1.976294964551926E-1  -3.834011033177376E-2   1.979398578405380E-1  -3.841220960021019E-2  -2.197701334953308E-1   3.086959421634674E-1  
 8.210210210210210E8    -4.367534518241882E-1   2.569562196731567E-1   1.933670043945313E-1  -6.503557413816452E-2   1.934593170881271E-1  -6.368423998355866E-2  -1.925206035375595E-1   2.620024979114533E-1  
 8.234234234234234E8    -4.432347118854523E-1   2.726825177669525E-1   1.842304766178131E-1  -8.989743888378143E-2   1.842998415231705E-1  -8.832683414220810E-2  -1.714988052845001E-1   2.066717147827148E-1  
