#  HZ   S   RI   R     50.00 
! Rohde & Schwarz ZVB8 2Ports - Version 2.81 - 1145.1010k08 SN: 100113
! Date: 2016-05-04 02:50:34
! Measurements: S11 S21 S12 S22 
! 
 6.000000000000000E8    -8.666657805442810E-1   3.699213266372681E-1   7.874498260207474E-5  -9.204869857057929E-4   1.527211716165766E-4  -8.846024284139276E-4  -8.507457375526428E-1  -4.574090838432312E-1  
 6.024024024024024E8    -8.597650527954102E-1   3.828017115592957E-1   1.068035271600820E-4  -9.083923068828881E-4   1.335971755906940E-4  -8.871640893630683E-4  -8.550794720649719E-1  -4.478255212306976E-1  
 6.048048048048048E8    -8.524097204208374E-1   3.961405754089356E-1   2.122031291946769E-4  -9.417535038664937E-4   1.065601827576757E-4  -8.793353918008506E-4  -8.599105477333069E-1  -4.378013610839844E-1  
 6.072072072072072E8    -8.441333770751953E-1   4.103962779045105E-1   2.469322644174099E-4  -9.246838162653148E-4   2.195744164055213E-4  -9.528615628369153E-4  -8.642504811286926E-1  -4.280970096588135E-1  
 6.096096096096096E8    -8.357396125793457E-1   4.247873425483704E-1   2.842273679561913E-4  -9.451318765059114E-4   3.185773093719035E-4  -9.600628400221467E-4  -8.691309094429016E-1  -4.176042675971985E-1  
 6.120120120120120E8    -8.289356827735901E-1   4.357461631298065E-1   3.783532301895320E-4  -9.032203815877438E-4   3.906137426383793E-4  -9.745815768837929E-4  -8.728462457656860E-1  -4.086444973945618E-1  
 6.144144144144144E8    -8.205683827400208E-1   4.479118883609772E-1   6.280278321355581E-4  -9.679715149104595E-4   5.680282483808696E-4  -9.333703783340752E-4  -8.761761784553528E-1  -3.996753990650177E-1  
 6.168168168168168E8    -8.114585876464844E-1   4.606682658195496E-1   7.752851233817637E-4  -1.014193403534591E-3   8.038614178076387E-4  -9.827520698308945E-4  -8.805037140846252E-1  -3.894802331924439E-1  
 6.192192192192192E8    -8.022105097770691E-1   4.724600017070770E-1   1.059123664163053E-3  -1.108779804781079E-3   1.078166067600250E-3  -1.106606912799180E-3  -8.841962814331055E-1  -3.792800605297089E-1  
 6.216216216216216E8    -7.924156188964844E-1   4.844324588775635E-1   1.397135667502880E-3  -1.221600221469998E-3   1.391876256093383E-3  -1.271664630621672E-3  -8.887730836868286E-1  -3.673228323459625E-1  
 6.240240240240240E8    -7.827895283699036E-1   4.958795011043549E-1   1.772314775735140E-3  -1.587860402651131E-3   1.761943101882935E-3  -1.637148554436863E-3  -8.930004835128784E-1  -3.553254902362824E-1  
 6.264264264264264E8    -7.728340625762940E-1   5.080012679100037E-1   2.169566461816430E-3  -2.139895688742399E-3   2.264519687741995E-3  -2.088658977299929E-3  -8.969636559486389E-1  -3.429610729217529E-1  
 6.288288288288288E8    -7.627573013305664E-1   5.191701054573059E-1   2.391999121755362E-3  -2.856497187167406E-3   2.497733803465962E-3  -2.812421182170510E-3  -9.002451896667481E-1  -3.318742811679840E-1  
 6.312312312312312E8    -7.539023160934448E-1   5.300380587577820E-1   2.478678012266755E-3  -3.645283868536353E-3   2.523700240999460E-3  -3.656888846307993E-3  -9.030290842056274E-1  -3.217629492282867E-1  
 6.336336336336336E8    -7.454252839088440E-1   5.408341288566589E-1   2.369886729866266E-3  -4.674236290156841E-3   2.423990750685334E-3  -4.555943422019482E-3  -9.056205153465271E-1  -3.121159672737122E-1  
 6.360360360360360E8    -7.368953227996826E-1   5.516462326049805E-1   2.009772928431630E-3  -5.494228098541498E-3   2.020723884925246E-3  -5.381300579756498E-3  -9.081132411956787E-1  -3.029781579971314E-1  
 6.384384384384384E8    -7.270888090133667E-1   5.645464062690735E-1   1.395907835103571E-3  -6.203482393175364E-3   1.473379321396351E-3  -6.238522939383984E-3  -9.107150435447693E-1  -2.925159931182861E-1  
 6.408408408408408E8    -7.167467474937439E-1   5.770399570465088E-1   7.125134579837322E-4  -6.815596949309111E-3   7.751469383947551E-4  -6.833603139966726E-3  -9.135775566101074E-1  -2.815949618816376E-1  
 6.432432432432432E8    -7.055310010910034E-1   5.896418094635010E-1  -6.811423372710124E-5  -7.307070307433605E-3  -1.919489841384348E-5  -7.339863572269678E-3  -9.166843891143799E-1  -2.709789872169495E-1  
 6.456456456456456E8    -6.935834884643555E-1   6.017901301383972E-1  -8.137907716445625E-4  -7.625086233019829E-3  -7.727803313173354E-4  -7.576730567961931E-3  -9.196491837501526E-1  -2.598571479320526E-1  
 6.480480480480480E8    -6.809884905815125E-1   6.130069494247437E-1  -1.495651667937636E-3  -7.816846482455730E-3  -1.449289731681347E-3  -7.763068191707134E-3  -9.222832322120667E-1  -2.487835288047791E-1  
 6.504504504504504E8    -6.668450832366943E-1   6.251713037490845E-1  -2.235472202301025E-3  -7.899411953985691E-3  -2.172575565055013E-3  -7.924778386950493E-3  -9.239020943641663E-1  -2.364724427461624E-1  
 6.528528528528528E8    -6.528453230857849E-1   6.370861530303955E-1  -2.954961033537984E-3  -8.020541630685329E-3  -2.861781511455774E-3  -7.956411689519882E-3  -9.254578351974487E-1  -2.242129147052765E-1  
 6.552552552552552E8    -6.391637921333313E-1   6.477166414260864E-1  -3.482550149783492E-3  -7.976747117936611E-3  -3.486226545646787E-3  -7.939551025629044E-3  -9.270510673522949E-1  -2.123572826385498E-1  
 6.576576576576576E8    -6.251878142356873E-1   6.574070453643799E-1  -4.071894101798534E-3  -7.962193340063095E-3  -4.055651836097240E-3  -7.902218960225582E-3  -9.289335608482361E-1  -2.008820474147797E-1  
 6.600600600600600E8    -6.094046831130981E-1   6.676839590072632E-1  -4.586240742355585E-3  -7.907212711870670E-3  -4.425267688930035E-3  -7.838836871087551E-3  -9.306190013885498E-1  -1.891200989484787E-1  
 6.624624624624624E8    -5.930368900299072E-1   6.788562536239624E-1  -5.039718467742205E-3  -7.835374213755131E-3  -4.947516601532698E-3  -7.925820536911488E-3  -9.318937063217163E-1  -1.752461940050125E-1  
 6.648648648648648E8    -5.759656429290772E-1   6.890682578086853E-1  -5.383019801229239E-3  -7.902719080448151E-3  -5.275830626487732E-3  -7.918410934507847E-3  -9.327250719070435E-1  -1.615360826253891E-1  
 6.672672672672672E8    -5.586385726928711E-1   6.981152892112732E-1  -5.740290042012930E-3  -7.937572896480560E-3  -5.735122598707676E-3  -7.909376174211502E-3  -9.332926869392395E-1  -1.477597355842590E-1  
 6.696696696696696E8    -5.408552885055542E-1   7.066503763198853E-1  -6.119452416896820E-3  -8.063203655183315E-3  -5.998245906084776E-3  -8.032446727156639E-3  -9.331869482994080E-1  -1.340669393539429E-1  
 6.720720720720720E8    -5.226656794548035E-1   7.140582799911499E-1  -6.399688776582480E-3  -8.226210251450539E-3  -6.355151534080505E-3  -8.237812668085098E-3  -9.327653050422669E-1  -1.204947680234909E-1  
 6.744744744744744E8    -5.038352012634277E-1   7.212499380111694E-1  -6.692650262266398E-3  -8.419143967330456E-3  -6.656178273260593E-3  -8.461017161607742E-3  -9.318942427635193E-1  -1.056176498532295E-1  
 6.768768768768768E8    -4.848835468292236E-1   7.273755669593811E-1  -6.881773471832275E-3  -8.773630484938622E-3  -6.810118909925222E-3  -8.736634626984596E-3  -9.307298660278320E-1  -9.090993553400040E-2  
 6.792792792792792E8    -4.662017822265625E-1   7.327544689178467E-1  -6.902694702148438E-3  -9.282980114221573E-3  -6.837700959295034E-3  -9.278336539864540E-3  -9.289720058441162E-1  -7.597288489341736E-2  
 6.816816816816816E8    -4.473929405212402E-1   7.379388213157654E-1  -6.953576114028692E-3  -1.014223322272301E-2  -6.855204701423645E-3  -1.024176646023989E-2  -9.267866015434265E-1  -6.030424311757088E-2  
 6.840840840840840E8    -4.286295473575592E-1   7.421374320983887E-1  -7.024254184216261E-3  -1.161708217114210E-2  -6.906993221491575E-3  -1.156022958457470E-2  -9.235645532608032E-1  -4.425166919827461E-2  
 6.864864864864864E8    -4.092691540718079E-1   7.461256980895996E-1  -7.409765850752592E-3  -1.370475720614195E-2  -7.258601486682892E-3  -1.375870313495398E-2  -9.184256196022034E-1  -2.853492088615894E-2  
 6.888888888888888E8    -3.902892768383026E-1   7.497821450233460E-1  -8.490648120641708E-3  -1.664371043443680E-2  -8.250808343291283E-3  -1.659239083528519E-2  -9.125427603721619E-1  -1.235193200409412E-2  
 6.912912912912912E8    -3.729418814182282E-1   7.534522414207459E-1  -1.094572525471449E-2  -1.991377584636211E-2  -1.054781582206488E-2  -1.995537616312504E-2  -9.061056375503540E-1   3.444587578997016E-3  
 6.936936936936936E8    -3.559668362140656E-1   7.581338286399841E-1  -1.487465482205153E-2  -2.302195131778717E-2  -1.459841616451740E-2  -2.313410118222237E-2  -8.992969989776611E-1   1.869419403374195E-2  
 6.960960960960960E8    -3.373984396457672E-1   7.636931538581848E-1  -2.029668167233467E-2  -2.539709955453873E-2  -2.023129165172577E-2  -2.537193894386292E-2  -8.924283981323242E-1   3.431052714586258E-2  
 6.984984984984984E8    -3.167960345745087E-1   7.696728706359863E-1  -2.676453627645969E-2  -2.627858147025108E-2  -2.702874876558781E-2  -2.599928155541420E-2  -8.853148818016052E-1   5.268280208110809E-2  
 7.009009009009008E8    -2.934616506099701E-1   7.746825218200684E-1  -3.361633047461510E-2  -2.544511854648590E-2  -3.398566320538521E-2  -2.487895824015141E-2  -8.770416975021362E-1   7.042272388935089E-2  
 7.033033033033032E8    -2.681080102920532E-1   7.773966193199158E-1  -4.007646068930626E-2  -2.296057157218456E-2  -4.037285223603249E-2  -2.239772677421570E-2  -8.678585886955261E-1   8.638621121644974E-2  
 7.057057057057056E8    -2.415257841348648E-1   7.775412201881409E-1  -4.604541137814522E-2  -1.948219723999500E-2  -4.601724445819855E-2  -1.939350180327892E-2  -8.584134578704834E-1   9.947739541530609E-2  
 7.081081081081080E8    -2.128183245658875E-1   7.759035825729370E-1  -5.180684477090836E-2  -1.533780526369810E-2  -5.149111524224281E-2  -1.577264443039894E-2  -8.475224375724793E-1   1.143744364380837E-1  
 7.105105105105104E8    -1.836958825588226E-1   7.726148962974548E-1  -5.726806074380875E-2  -1.038105227053165E-2  -5.679044499993324E-2  -1.144832745194435E-2  -8.347238302230835E-1   1.303697526454926E-1  
 7.129129129129129E8    -1.564706414937973E-1   7.665715217590332E-1  -6.230235844850540E-2  -4.878548905253410E-3  -6.196163594722748E-2  -6.014009006321430E-3  -8.195073008537293E-1   1.481779813766480E-1  
 7.153153153153153E8    -1.298952102661133E-1   7.588563561439514E-1  -6.704915314912796E-2   1.140478765591979E-3  -6.684330850839615E-2   2.297836181242019E-4  -8.017355799674988E-1   1.673778891563416E-1  
 7.177177177177178E8    -1.031344607472420E-1   7.492451071739197E-1  -7.161860913038254E-2   7.953116670250893E-3  -7.169318199157715E-2   7.459059823304415E-3  -7.812315821647644E-1   1.868697851896286E-1  
 7.201201201201202E8    -7.450894266366959E-2   7.365136146545410E-1  -7.606458663940430E-2   1.619707420468330E-2  -7.618477940559387E-2   1.557629834860563E-2  -7.581060528755188E-1   2.047400176525116E-1  
 7.225225225225226E8    -4.768685251474381E-2   7.215033769607544E-1  -8.010987192392349E-2   2.561385557055473E-2  -8.024732023477554E-2   2.494657225906849E-2  -7.314594388008118E-1   2.218161672353745E-1  
 7.249249249249250E8    -2.217502519488335E-2   7.047861218452454E-1  -8.302755653858185E-2   3.694464266300201E-2  -8.367212116718292E-2   3.538886457681656E-2  -7.014076709747315E-1   2.348489910364151E-1  
 7.273273273273274E8     9.945674100890756E-4   6.865108609199524E-1  -8.472447842359543E-2   4.987221211194992E-2  -8.591096848249435E-2   4.780078306794167E-2  -6.682265996932983E-1   2.446717470884323E-1  
 7.297297297297298E8     2.144676260650158E-2   6.673451662063599E-1  -8.461799472570419E-2   6.352272629737854E-2  -8.574181795120239E-2   6.186562031507492E-2  -6.331086158752441E-1   2.519064247608185E-1  
 7.321321321321322E8     3.991078212857246E-2   6.490089893341065E-1  -8.291941136121750E-2   7.716488838195801E-2  -8.301991224288940E-2   7.695110142230988E-2  -5.946707725524902E-1   2.552686929702759E-1  
 7.345345345345346E8     5.960128828883171E-2   6.292510628700256E-1  -7.937212288379669E-2   9.133815765380859E-2  -7.899004220962524E-2   9.144041687250137E-2  -5.532580018043518E-1   2.535645067691803E-1  
 7.369369369369370E8     8.015547692775726E-2   6.054225564002991E-1  -7.429868727922440E-2   1.072577387094498E-1  -7.334158569574356E-2   1.078629270195961E-1  -5.077396631240845E-1   2.453110814094544E-1  
 7.393393393393394E8     9.754997491836548E-2   5.776334404945374E-1  -6.527722626924515E-2   1.257775574922562E-1  -6.460778415203095E-2   1.258735954761505E-1  -4.614788293838501E-1   2.276879549026489E-1  
 7.417417417417418E8     1.116812005639076E-1   5.497244596481323E-1  -5.048600211739540E-2   1.445656716823578E-1  -5.071506649255753E-2   1.440731585025787E-1  -4.174914658069611E-1   1.994752287864685E-1  
 7.441441441441442E8     1.245700567960739E-1   5.215865969657898E-1  -2.969278395175934E-2   1.608973890542984E-1  -3.152273222804070E-2   1.601780802011490E-1  -3.783139884471893E-1   1.600130051374435E-1  
 7.465465465465466E8     1.357888579368591E-1   4.941436946392059E-1  -4.799200687557459E-3   1.732852160930634E-1  -7.057297974824905E-3   1.728122383356094E-1  -3.471465408802033E-1   1.128101348876953E-1  
 7.489489489489490E8     1.460926979780197E-1   4.644905030727387E-1   2.319265343248844E-2   1.804071366786957E-1   2.117441967129707E-2   1.802871674299240E-1  -3.272891640663147E-1   6.093827262520790E-2  
 7.513513513513514E8     1.549943685531616E-1   4.339566826820374E-1   5.374858528375626E-2   1.811515688896179E-1   5.214833095669746E-2   1.815687865018845E-1  -3.173873126506805E-1   7.868692278862000E-3  
 7.537537537537538E8     1.625948250293732E-1   4.025787115097046E-1   8.502619713544846E-2   1.742127686738968E-1   8.391887694597244E-2   1.748535037040710E-1  -3.173002600669861E-1  -4.547553136944771E-2  
 7.561561561561562E8     1.683621257543564E-1   3.693315088748932E-1   1.133938431739807E-1   1.604174673557282E-1   1.130245104432106E-1   1.602984517812729E-1  -3.256982862949371E-1  -9.683347493410111E-2  
 7.585585585585586E8     1.709312498569489E-1   3.334139287471771E-1   1.377469748258591E-1   1.411303281784058E-1   1.371255218982697E-1   1.403453499078751E-1  -3.414173424243927E-1  -1.447910368442535E-1  
 7.609609609609610E8     1.703412979841232E-1   2.966810464859009E-1   1.576277166604996E-1   1.179848387837410E-1   1.561877876520157E-1   1.174585148692131E-1  -3.654997646808624E-1  -1.876834332942963E-1  
 7.633633633633634E8     1.659145206212997E-1   2.563138306140900E-1   1.723825335502625E-1   9.166491031646729E-2   1.698657125234604E-1   9.298329055309296E-2  -3.983565568923950E-1  -2.249057292938232E-1  
 7.657657657657658E8     1.559943705797195E-1   2.138480246067047E-1   1.812861412763596E-1   6.388749182224274E-2   1.791877746582031E-1   6.696075946092606E-2  -4.349999129772186E-1  -2.547738254070282E-1  
 7.681681681681682E8     1.397661119699478E-1   1.720843911170960E-1   1.844314485788345E-1   3.667869046330452E-2   1.837275475263596E-1   4.010219871997833E-2  -4.743079543113709E-1  -2.794415354728699E-1  
 7.705705705705706E8     1.169240474700928E-1   1.338474601507187E-1   1.827105432748795E-1   1.110476814210415E-2   1.826113611459732E-1   1.446813624352217E-2  -5.129521489143372E-1  -2.960985004901886E-1  
 7.729729729729730E8     8.841894567012787E-2   9.696955978870392E-2   1.765724122524262E-1  -1.308778487145901E-2   1.775118708610535E-1  -9.613155387341976E-3  -5.529139637947083E-1  -3.070999383926392E-1  
 7.753753753753754E8     5.615105852484703E-2   6.483989208936691E-2   1.671292632818222E-1  -3.375676274299622E-2   1.686779409646988E-1  -3.123371489346027E-2  -5.924392342567444E-1  -3.111976981163025E-1  
 7.777777777777778E8     2.000475674867630E-2   3.782652691006661E-2   1.561855524778366E-1  -5.099666491150856E-2   1.568566411733627E-1  -4.973452538251877E-2  -6.281259655952454E-1  -3.089589178562164E-1  
 7.801801801801802E8    -2.151421643793583E-2   1.529280189424753E-2   1.437921971082687E-1  -6.536111980676651E-2   1.431617587804794E-1  -6.469478458166122E-2  -6.600312590599060E-1  -3.025166392326355E-1  
 7.825825825825826E8    -6.802269816398621E-2   9.915264090523124E-4   1.302068829536438E-1  -7.766934484243393E-2   1.297260522842407E-1  -7.703125476837158E-2  -6.906934976577759E-1  -2.932870686054230E-1  
 7.849849849849850E8    -1.126886308193207E-1  -4.592745564877987E-3   1.159726977348328E-1  -8.794240653514862E-2   1.157657206058502E-1  -8.640491217374802E-2  -7.175139188766480E-1  -2.833455502986908E-1  
 7.873873873873874E8    -1.553853899240494E-1  -5.429791752249003E-3   1.013890802860260E-1  -9.520037472248077E-2   1.013458743691444E-1  -9.312563389539719E-2  -7.417835593223572E-1  -2.721605002880096E-1  
 7.897897897897898E8    -1.949334889650345E-1  -2.382879145443440E-3   8.732736110687256E-2  -9.976366162300110E-2   8.745110780000687E-2  -9.789510071277618E-2  -7.651151418685913E-1  -2.598410844802856E-1  
 7.921921921921922E8    -2.342982739210129E-1   5.257429089397192E-3   7.379759848117828E-2  -1.023818626999855E-1   7.445596158504486E-2  -1.012506484985352E-1  -7.878916859626770E-1  -2.465051859617233E-1  
 7.945945945945946E8    -2.688350975513458E-1   1.610935665667057E-2   6.133192032575607E-2  -1.037794351577759E-1   6.231009587645531E-2  -1.026479005813599E-1  -8.051671385765076E-1  -2.311901003122330E-1  
 7.969969969969970E8    -3.019764125347138E-1   2.808237075805664E-2   4.966171085834503E-2  -1.035585850477219E-1   5.065384507179260E-2  -1.027834936976433E-1  -8.211185336112976E-1  -2.149187624454498E-1  
 7.993993993993994E8    -3.360913991928101E-1   4.331614449620247E-2   3.901458159089088E-2  -1.019949913024902E-1   3.999259322881699E-2  -1.016676947474480E-1  -8.351575136184692E-1  -1.984866708517075E-1  
 8.018018018018018E8    -3.663130402565002E-1   6.343537569046021E-2   2.946852333843708E-2  -9.962691366672516E-2   3.012807294726372E-2  -9.968078881502152E-2  -8.478644490242004E-1  -1.814507395029068E-1  
 8.042042042042042E8    -3.911432325839996E-1   8.635149151086807E-2   2.115239389240742E-2  -9.671243280172348E-2   2.120161987841129E-2  -9.676191210746765E-2  -8.591241240501404E-1  -1.660111397504807E-1  
 8.066066066066066E8    -4.142793416976929E-1   1.126510947942734E-1   1.352692674845457E-2  -9.343966841697693E-2   1.376317255198956E-2  -9.350787848234177E-2  -8.695569038391113E-1  -1.494077295064926E-1  
 8.090090090090090E8    -4.330643117427826E-1   1.389580965042114E-1   6.584071554243565E-3  -9.013394266366959E-2   7.180330809205771E-3  -9.034126996994019E-2  -8.787181973457336E-1  -1.324042528867722E-1  
 8.114114114114114E8    -4.500426054000855E-1   1.636062711477280E-1   5.635710549540818E-4  -8.650481700897217E-2   1.069066231139004E-3  -8.666073530912399E-2  -8.862544298171997E-1  -1.170669719576836E-1  
 8.138138138138138E8    -4.661163687705994E-1   1.891162842512131E-1  -4.558037500828505E-3  -8.294586092233658E-2  -4.200060851871967E-3  -8.309036493301392E-2  -8.932566642761231E-1  -1.019536256790161E-1  
 8.162162162162162E8    -4.793004989624023E-1   2.179201394319534E-1  -9.403756819665432E-3  -7.968734949827194E-2  -8.995277807116509E-3  -7.972862571477890E-2  -8.994485735893250E-1  -8.755023032426834E-2  
 8.186186186186186E8    -4.871902465820313E-1   2.484147101640701E-1  -1.425941754132509E-2  -7.607313990592957E-2  -1.385325100272894E-2  -7.608418911695480E-2  -9.048301577568054E-1  -7.238396257162094E-2  
 8.210210210210210E8    -4.900432229042053E-1   2.754082381725311E-1  -1.861171238124371E-2  -7.187107950448990E-2  -1.821945048868656E-2  -7.200472056865692E-2  -9.088640213012695E-1  -5.765480920672417E-2  
 8.234234234234234E8    -4.901001453399658E-1   2.992735803127289E-1  -2.210979163646698E-2  -6.752823293209076E-2  -2.179180644452572E-2  -6.763748824596405E-2  -9.126283526420593E-1  -4.337817057967186E-2  
