#  HZ   S   RI   R     50.00 
! Rohde & Schwarz ZVB8 2Ports - Version 2.81 - 1145.1010k08 SN: 100113
! Date: 2016-05-03 01:38:13
! Measurements: S11 S21 S12 S22 
! 
 6.000000000000000E8     5.011027455329895E-1   2.379801124334335E-1  -1.054448075592518E-2   1.884394790977240E-3  -1.049276906996965E-2   1.874265377409756E-3  -9.665728807449341E-1  -6.167786568403244E-2  
 6.024024024024024E8     4.946359097957611E-1   2.048651576042175E-1  -1.050394400954247E-2   2.126317238435149E-3  -1.043258141726255E-2   2.078838879242539E-3  -9.667603969573975E-1  -4.840494692325592E-2  
 6.048048048048048E8     4.859535098075867E-1   1.719185262918472E-1  -1.044157333672047E-2   2.164203906431794E-3  -1.041627489030361E-2   2.166731050238013E-3  -9.666071534156799E-1  -3.568353876471520E-2  
 6.072072072072072E8     4.746632874011993E-1   1.399875730276108E-1  -1.043473649770021E-2   2.117349533364177E-3  -1.042311172932386E-2   2.092268317937851E-3  -9.660837650299072E-1  -2.278037182986736E-2  
 6.096096096096096E8     4.608046114444733E-1   1.096611469984055E-1  -1.048310566693544E-2   1.956932479515672E-3  -1.052146404981613E-2   2.008486306294799E-3  -9.655557870864868E-1  -9.230440482497215E-3  
 6.120120120120120E8     4.449554979801178E-1   8.510907739400864E-2  -1.063321065157652E-2   1.633417326956987E-3  -1.063507981598377E-2   1.669578370638192E-3  -9.646862745285034E-1   1.610100269317627E-3  
 6.144144144144144E8     4.282513260841370E-1   6.402517855167389E-2  -1.094099693000317E-2   1.178306061774492E-3  -1.091811340302229E-2   1.139588654041290E-3  -9.641420245170593E-1   1.407576631754637E-2  
 6.168168168168168E8     4.096623957157135E-1   4.436676204204559E-2  -1.146582048386335E-2   4.160871612839401E-4  -1.143907010555267E-2   3.814979572780430E-4  -9.634295105934143E-1   2.703322097659111E-2  
 6.192192192192192E8     3.918415009975433E-1   2.917484194040299E-2  -1.241109799593687E-2  -5.181619781069458E-4  -1.237332634627819E-2  -5.862633697688580E-4  -9.618934392929077E-1   4.070420935750008E-2  
 6.216216216216216E8     3.766316175460815E-1   1.695255748927593E-2  -1.399889960885048E-2  -1.485066837631166E-3  -1.400022674351931E-2  -1.601852360181510E-3  -9.599016308784485E-1   5.482377856969833E-2  
 6.240240240240240E8     3.655141294002533E-1   7.104661781340838E-3  -1.635174825787544E-2  -2.263959031552076E-3  -1.628278382122517E-2  -2.386845881119371E-3  -9.571700096130371E-1   6.862771511077881E-2  
 6.264264264264264E8     3.601455986499786E-1  -1.759252627380192E-3  -1.947570592164993E-2  -2.425007987767458E-3  -1.940757036209106E-2  -2.554405946284533E-3  -9.554963111877441E-1   8.299247175455093E-2  
 6.288288288288288E8     3.597387373447418E-1  -1.427728682756424E-2  -2.307336777448654E-2  -1.631872262805700E-3  -2.296404354274273E-2  -1.826841500587761E-3  -9.532656073570252E-1   9.610926359891892E-2  
 6.312312312312312E8     3.635350763797760E-1  -3.216020390391350E-2  -2.680868282914162E-2   1.987633586395532E-4  -2.667077630758286E-2   5.589336433331482E-5  -9.505696296691895E-1   1.084372773766518E-1  
 6.336336336336336E8     3.676705658435822E-1  -5.769069120287895E-2  -3.018057532608509E-2   3.269664244726300E-3  -3.007264621555805E-2   3.159679239615798E-3  -9.475342631340027E-1   1.200679466128349E-1  
 6.360360360360360E8     3.679316043853760E-1  -9.065385162830353E-2  -3.275930136442184E-2   7.175758946686983E-3  -3.270649537444115E-2   7.045746315270662E-3  -9.447482228279114E-1   1.307488828897476E-1  
 6.384384384384384E8     3.608094453811646E-1  -1.282274425029755E-1  -3.446488827466965E-2   1.175763085484505E-2  -3.440633416175842E-2   1.157032884657383E-2  -9.416361451148987E-1   1.435659676790237E-1  
 6.408408408408408E8     3.461230099201202E-1  -1.681502461433411E-1  -3.522166982293129E-2   1.649793051183224E-2  -3.514781594276428E-2   1.625151559710503E-2  -9.384008049964905E-1   1.565786004066467E-1  
 6.432432432432432E8     3.223808407783508E-1  -2.081154435873032E-1  -3.499035164713860E-2   2.117463946342468E-2  -3.492982313036919E-2   2.096503227949143E-2  -9.347355365753174E-1   1.691016405820847E-1  
 6.456456456456456E8     2.899731099605560E-1  -2.461370676755905E-1  -3.411550819873810E-2   2.561765536665916E-2  -3.423589840531349E-2   2.532109618186951E-2  -9.312313795089722E-1   1.816100180149078E-1  
 6.480480480480480E8     2.539297342300415E-1  -2.780800461769104E-1  -3.274463862180710E-2   2.982381545007229E-2  -3.281053900718689E-2   2.945183217525482E-2  -9.272668957710266E-1   1.933158636093140E-1  
 6.504504504504504E8     2.146290540695190E-1  -3.028201460838318E-1  -3.083831444382668E-2   3.368692845106125E-2  -3.091146610677242E-2   3.339839354157448E-2  -9.203435182571411E-1   2.064376324415207E-1  
 6.528528528528528E8     1.730621904134750E-1  -3.229463100433350E-1  -2.855021879076958E-2   3.718151152133942E-2  -2.852353081107140E-2   3.691571205854416E-2  -9.139922857284546E-1   2.211990356445313E-1  
 6.552552552552552E8     1.300022304058075E-1  -3.385123014450073E-1  -2.582816593348980E-2   4.009437933564186E-2  -2.589676156640053E-2   3.984583541750908E-2  -9.092481732368469E-1   2.364696860313416E-1  
 6.576576576576576E8     8.480928838253021E-2  -3.493962585926056E-1  -2.310507185757160E-2   4.267799854278565E-2  -2.319809794425964E-2   4.240825399756432E-2  -9.064245223999023E-1   2.499670833349228E-1  
 6.600600600600600E8     4.029816016554833E-2  -3.548274338245392E-1  -2.016516774892807E-2   4.479161649942398E-2  -2.016852237284184E-2   4.452662542462349E-2  -9.032676815986633E-1   2.613101899623871E-1  
 6.624624624624624E8    -4.905288573354483E-3  -3.541437685489655E-1  -1.706226728856564E-2   4.645523801445961E-2  -1.720131002366543E-2   4.629694670438767E-2  -8.968662619590759E-1   2.759989202022553E-1  
 6.648648648648648E8    -5.024940147995949E-2  -3.491677343845367E-1  -1.411971822381020E-2   4.765474423766136E-2  -1.449074223637581E-2   4.751076921820641E-2  -8.898205161094666E-1   2.905211150646210E-1  
 6.672672672672672E8    -9.119691699743271E-2  -3.394369482994080E-1  -1.149198785424233E-2   4.862922057509422E-2  -1.175827253609896E-2   4.854838922619820E-2  -8.825026750564575E-1   3.048306107521057E-1  
 6.696696696696696E8    -1.275508403778076E-1  -3.258497714996338E-1  -8.864136412739754E-3   4.923427104949951E-2  -9.048271924257278E-3   4.912608861923218E-2  -8.741538524627686E-1   3.188633322715759E-1  
 6.720720720720720E8    -1.595314741134644E-1  -3.102248907089233E-1  -6.653869990259409E-3   4.933702945709229E-2  -6.666033994406462E-3   4.930945858359337E-2  -8.653171062469482E-1   3.327848613262177E-1  
 6.744744744744744E8    -1.894192546606064E-1  -2.915687263011932E-1  -4.864277318120003E-3   4.903171956539154E-2  -4.781719297170639E-3   4.899536818265915E-2  -8.553954362869263E-1   3.475338220596314E-1  
 6.768768768768768E8    -2.159232646226883E-1  -2.714830636978149E-1  -3.784289583563805E-3   4.842417314648628E-2  -3.869155654683709E-3   4.832728207111359E-2  -8.445526361465454E-1   3.624914288520813E-1  
 6.792792792792792E8    -2.383827120065689E-1  -2.509820759296417E-1  -3.971362020820379E-3   4.794539511203766E-2  -4.164821002632380E-3   4.778211191296578E-2  -8.325453400611877E-1   3.772455155849457E-1  
 6.816816816816816E8    -2.565446794033051E-1  -2.315601557493210E-1  -5.755160469561815E-3   4.814546182751656E-2  -5.991917569190264E-3   4.795605316758156E-2  -8.193097710609436E-1   3.915106356143951E-1  
 6.840840840840840E8    -2.720851302146912E-1  -2.138551324605942E-1  -8.823196403682232E-3   4.992767795920372E-2  -9.151590056717396E-3   4.981618747115135E-2  -8.048442006111145E-1   4.055134057998657E-1  
 6.864864864864864E8    -2.844254970550537E-1  -1.981166303157806E-1  -1.249514799565077E-2   5.465151369571686E-2  -1.287510618567467E-2   5.450115352869034E-2  -7.885375618934631E-1   4.173513054847717E-1  
 6.888888888888888E8    -2.955068349838257E-1  -1.879256814718247E-1  -1.507369428873062E-2   6.268522143363953E-2  -1.571522466838360E-2   6.246269866824150E-2  -7.715237736701965E-1   4.282901585102081E-1  
 6.912912912912912E8    -3.090648651123047E-1  -1.819372624158859E-1  -1.499760709702969E-2   7.369576394557953E-2  -1.575002260506153E-2   7.351546734571457E-2  -7.548810243606567E-1   4.381008446216583E-1  
 6.936936936936936E8    -3.276568651199341E-1  -1.789867132902145E-1  -1.066892500966787E-2   8.611563593149185E-2  -1.105630490928888E-2   8.595282584428787E-2  -7.392523884773254E-1   4.465763270854950E-1  
 6.960960960960960E8    -3.532630503177643E-1  -1.733221113681793E-1  -2.071714261546731E-3   9.741551429033279E-2  -1.925769494846463E-3   9.730223566293716E-2  -7.248830795288086E-1   4.549878239631653E-1  
 6.984984984984984E8    -3.838225901126862E-1  -1.603462398052216E-1   9.918208234012127E-3   1.062620654702187E-1   1.110093295574188E-2   1.059508472681046E-1  -7.087418437004089E-1   4.670194089412689E-1  
 7.009009009009008E8    -4.142744541168213E-1  -1.401385664939880E-1   2.362302690744400E-2   1.117253527045250E-1   2.568593807518482E-2   1.108809038996697E-1  -6.928993463516235E-1   4.787984192371368E-1  
 7.033033033033032E8    -4.412643909454346E-1  -1.133717447519302E-1   3.800658881664276E-2   1.138196811079979E-1   3.950697183609009E-2   1.130326464772224E-1  -6.773258447647095E-1   4.894335567951202E-1  
 7.057057057057056E8    -4.634648263454437E-1  -8.338321000337601E-2   5.200786516070366E-2   1.135788112878799E-1   5.241693556308746E-2   1.130710765719414E-1  -6.622271537780762E-1   4.978250563144684E-1  
 7.081081081081080E8    -4.809310436248779E-1  -5.049466341733933E-2   6.557610630989075E-2   1.112724542617798E-1   6.459088623523712E-2   1.116906255483627E-1  -6.447426676750183E-1   5.074656605720520E-1  
 7.105105105105104E8    -4.918209910392761E-1  -1.975304074585438E-2   7.816115766763687E-2   1.082186028361321E-1   7.618273049592972E-2   1.091985628008843E-1  -6.249296665191650E-1   5.177577733993530E-1  
 7.129129129129129E8    -5.007255077362061E-1   1.090529095381498E-2   8.975569903850555E-2   1.043328568339348E-1   8.783651143312454E-2   1.057659834623337E-1  -6.018908023834229E-1   5.284939408302307E-1  
 7.153153153153153E8    -5.078524947166443E-1   4.093950986862183E-2   1.010942086577416E-1   1.002070009708405E-1   9.986099600791931E-2   1.011826917529106E-1  -5.752899050712585E-1   5.390607714653015E-1  
 7.177177177177178E8    -5.130800008773804E-1   7.096637040376663E-2   1.124043315649033E-1   9.535529464483261E-2   1.120576933026314E-1   9.579218178987503E-2  -5.459833145141602E-1   5.480837821960449E-1  
 7.201201201201202E8    -5.152225494384766E-1   1.022381186485291E-1   1.248026937246323E-1   8.890547603368759E-2   1.245952546596527E-1   8.933378756046295E-2  -5.150720477104187E-1   5.545689463615418E-1  
 7.225225225225226E8    -5.148851275444031E-1   1.325705647468567E-1   1.369807720184326E-1   8.051067590713501E-2   1.371482461690903E-1   8.082982897758484E-2  -4.819501936435700E-1   5.588188171386719E-1  
 7.249249249249250E8    -5.119262933731079E-1   1.615041196346283E-1   1.491527855396271E-1   6.939023733139038E-2   1.479357779026032E-1   7.140517234802246E-2  -4.499931335449219E-1   5.583961009979248E-1  
 7.273273273273274E8    -5.074371695518494E-1   1.877688616514206E-1   1.597914099693298E-1   5.697149410843849E-2   1.583244055509567E-1   6.032702326774597E-2  -4.164631068706513E-1   5.551361441612244E-1  
 7.297297297297298E8    -5.023757815361023E-1   2.104052454233170E-1   1.690630465745926E-1   4.433762282133102E-2   1.678347140550613E-1   4.709253460168839E-2  -3.820765912532806E-1   5.491088628768921E-1  
 7.321321321321322E8    -4.970620870590210E-1   2.292750328779221E-1   1.768140792846680E-1   3.165152296423912E-2   1.762257814407349E-1   3.157082572579384E-2  -3.458690047264099E-1   5.397362112998962E-1  
 7.345345345345346E8    -4.912490248680115E-1   2.509219050407410E-1   1.832338571548462E-1   1.690070889890194E-2   1.825792789459229E-1   1.612999103963375E-2  -3.087263405323029E-1   5.270287394523621E-1  
 7.369369369369370E8    -4.841852188110352E-1   2.726866602897644E-1   1.885965913534164E-1   1.271515851840377E-3   1.879703551530838E-1  -1.551867899252102E-4  -2.705619335174561E-1   5.093334913253784E-1  
 7.393393393393394E8    -4.758656322956085E-1   2.926778197288513E-1   1.928532123565674E-1  -1.600503176450729E-2   1.922134160995483E-1  -1.693109609186649E-2  -2.329184263944626E-1   4.856129288673401E-1  
 7.417417417417418E8    -4.673769474029541E-1   3.111158609390259E-1   1.953871846199036E-1  -3.463767841458321E-2   1.948151737451553E-1  -3.458378836512566E-2  -1.966668963432312E-1   4.556229710578919E-1  
 7.441441441441442E8    -4.585704505443573E-1   3.270911574363709E-1   1.960456818342209E-1  -5.376568064093590E-2   1.960028856992722E-1  -5.276823043823242E-2  -1.626975685358048E-1   4.181046485900879E-1  
 7.465465465465466E8    -4.513560235500336E-1   3.408726155757904E-1   1.949903815984726E-1  -7.304088026285172E-2   1.950967609882355E-1  -7.241454720497131E-2  -1.321860402822495E-1   3.753533363342285E-1  
 7.489489489489490E8    -4.448772370815277E-1   3.541757166385651E-1   1.916517913341522E-1  -9.314353018999100E-2   1.916473507881165E-1  -9.273313730955124E-2  -1.097174510359764E-1   3.264666199684143E-1  
 7.513513513513514E8    -4.380673766136169E-1   3.681670725345612E-1   1.847503930330277E-1  -1.139198392629623E-1   1.852008104324341E-1  -1.134369224309921E-1  -9.486509859561920E-2   2.733250260353088E-1  
 7.537537537537538E8    -4.313381910324097E-1   3.826011419296265E-1   1.745891273021698E-1  -1.347584873437882E-1   1.756851226091385E-1  -1.337205916643143E-1  -8.762253820896149E-2   2.172697335481644E-1  
 7.561561561561562E8    -4.245577752590179E-1   3.963597714900971E-1   1.616065502166748E-1  -1.538377702236176E-1   1.621859818696976E-1  -1.525693982839584E-1  -8.901050686836243E-2   1.590772718191147E-1  
 7.585585585585586E8    -4.181802570819855E-1   4.118094742298126E-1   1.458280980587006E-1  -1.706145554780960E-1   1.463179290294647E-1  -1.689214110374451E-1  -9.823877364397049E-2   1.035578101873398E-1  
 7.609609609609610E8    -4.115016460418701E-1   4.267697334289551E-1   1.279378831386566E-1  -1.853031963109970E-1   1.284148544073105E-1  -1.831321269273758E-1  -1.183877810835838E-1   4.834894090890884E-2  
 7.633633633633634E8    -4.056226611137390E-1   4.413926601409912E-1   1.082995161414146E-1  -1.975012570619583E-1   1.093136668205261E-1  -1.951298713684082E-1  -1.485689282417297E-1  -2.244788687676191E-3  
 7.657657657657658E8    -4.003264009952545E-1   4.545834064483643E-1   8.798392117023468E-2  -2.069141715764999E-1   8.922574669122696E-2  -2.051278799772263E-1  -1.864988803863525E-1  -4.660387709736824E-2  
 7.681681681681682E8    -3.944176435470581E-1   4.686596393585205E-1   6.657326966524124E-2  -2.136134058237076E-1   6.774601340293884E-2  -2.128423005342484E-1  -2.301498204469681E-1  -8.394220471382141E-2  
 7.705705705705706E8    -3.878952562808991E-1   4.846305251121521E-1   4.458889737725258E-2  -2.171276956796646E-1   4.572494328022003E-2  -2.167819142341614E-1  -2.749420106410980E-1  -1.116759181022644E-1  
 7.729729729729730E8    -3.797798156738281E-1   5.002120733261108E-1   2.158985659480095E-2  -2.169687896966934E-1   2.305735088884831E-2  -2.176509201526642E-1  -3.205482065677643E-1  -1.316806823015213E-1  
 7.753753753753754E8    -3.710847198963165E-1   5.152295827865601E-1  -7.491326541639864E-4  -2.130270302295685E-1   8.580556605011225E-4  -2.142200171947479E-1  -3.658313155174255E-1  -1.447148025035858E-1  
 7.777777777777778E8    -3.615708351135254E-1   5.296813845634460E-1  -2.070956863462925E-2  -2.062127292156220E-1  -1.949637942016125E-2  -2.068403065204620E-1  -4.096607863903046E-1  -1.515182256698608E-1  
 7.801801801801802E8    -3.520573079586029E-1   5.431906580924988E-1  -3.803428262472153E-2  -1.971665024757385E-1  -3.700713813304901E-2  -1.968780308961868E-1  -4.507228136062622E-1  -1.528235971927643E-1  
 7.825825825825826E8    -3.403557837009430E-1   5.575495362281799E-1  -5.275497213006020E-2  -1.862112134695053E-1  -5.192670598626137E-2  -1.865773051977158E-1  -4.899282157421112E-1  -1.496995240449905E-1  
 7.849849849849850E8    -3.294874429702759E-1   5.720418691635132E-1  -6.526292115449905E-2  -1.754069328308106E-1  -6.401570141315460E-2  -1.755626201629639E-1  -5.270851254463196E-1  -1.439280807971954E-1  
 7.873873873873874E8    -3.190678656101227E-1   5.858057141304016E-1  -7.582598924636841E-2  -1.649556159973145E-1  -7.442261278629303E-2  -1.644550263881683E-1  -5.618396997451782E-1  -1.355111002922058E-1  
 7.897897897897898E8    -3.059827089309692E-1   6.013715863227844E-1  -8.504901081323624E-2  -1.538401246070862E-1  -8.377592265605927E-2  -1.533699333667755E-1  -5.952301025390625E-1  -1.245112642645836E-1  
 7.921921921921922E8    -2.895240485668182E-1   6.173974871635437E-1  -9.280760586261749E-2  -1.421563178300858E-1  -9.165085852146149E-2  -1.424658149480820E-1  -6.277731657028198E-1  -1.105849519371986E-1  
 7.945945945945946E8    -2.739056348800659E-1   6.318669915199280E-1  -9.900501370429993E-2  -1.309662908315659E-1  -9.758149087429047E-2  -1.318056434392929E-1  -6.550537943840027E-1  -9.336090832948685E-2  
 7.969969969969970E8    -2.574835419654846E-1   6.440018415451050E-1  -1.039285734295845E-1  -1.201471835374832E-1  -1.025868654251099E-1  -1.212332695722580E-1  -6.793010234832764E-1  -7.440759986639023E-2  
 7.993993993993994E8    -2.407782524824143E-1   6.540824174880981E-1  -1.077440902590752E-1  -1.095789968967438E-1  -1.068484038114548E-1  -1.107356175780296E-1  -7.014889121055603E-1  -5.391176789999008E-2  
 8.018018018018018E8    -2.233095467090607E-1   6.622351408004761E-1  -1.106155440211296E-1  -9.963970631361008E-2  -1.102401763200760E-1  -1.001275554299355E-1  -7.204967737197876E-1  -3.264665603637695E-2  
 8.042042042042042E8    -2.053710222244263E-1   6.707695722579956E-1  -1.129559576511383E-1  -8.990220725536346E-2  -1.126737669110298E-1  -9.002729505300522E-2  -7.375867962837219E-1  -1.282195560634136E-2  
 8.066066066066066E8    -1.874552071094513E-1   6.782637238502502E-1  -1.145813912153244E-1  -8.027083426713944E-2  -1.142520830035210E-1  -8.017526566982269E-2  -7.528406381607056E-1   9.104039520025253E-3  
 8.090090090090090E8    -1.704360693693161E-1   6.838963627815247E-1  -1.153840050101280E-1  -7.110329717397690E-2  -1.150626838207245E-1  -7.092737406492233E-2  -7.652027606964111E-1   3.029297478497028E-2  
 8.114114114114114E8    -1.530602723360062E-1   6.887037158012390E-1  -1.154395490884781E-1  -6.224222108721733E-2  -1.151449680328369E-1  -6.217527762055397E-2  -7.758210897445679E-1   5.091650784015656E-2  
 8.138138138138138E8    -1.362612098455429E-1   6.930505037307739E-1  -1.149532571434975E-1  -5.394282191991806E-2  -1.145283505320549E-1  -5.395274981856346E-2  -7.849402427673340E-1   7.088997960090637E-2  
 8.162162162162162E8    -1.198346912860870E-1   6.967260241508484E-1  -1.141257956624031E-1  -4.618356749415398E-2  -1.135971173644066E-1  -4.617450758814812E-2  -7.930184006690979E-1   9.057842195034027E-2  
 8.186186186186186E8    -1.050814315676689E-1   6.996758580207825E-1  -1.126358360052109E-1  -3.874752670526505E-2  -1.122421920299530E-1  -3.902697935700417E-2  -7.994294762611389E-1   1.098666787147522E-1  
 8.210210210210210E8    -8.993282169103622E-2   7.022378444671631E-1  -1.106443181633949E-1  -3.169326484203339E-2  -1.104849576950073E-1  -3.221873939037323E-2  -8.046151995658875E-1   1.293338537216187E-1  
 8.234234234234234E8    -7.580172270536423E-2   7.039645314216614E-1  -1.084579378366470E-1  -2.521235123276711E-2  -1.083583831787109E-1  -2.566657960414887E-2  -8.091120719909668E-1   1.483341157436371E-1  
