#  HZ   S   RI   R     50.00 
! Rohde & Schwarz ZVB8 2Ports - Version 2.81 - 1145.1010k08 SN: 100113
! Date: 2016-05-03 01:38:28
! Measurements: S11 S21 S12 S22 
! 
 6.000000000000000E8     5.027844309806824E-1   2.358327656984329E-1  -1.192824169993401E-2   2.078088466078043E-3  -1.196776423603296E-2   2.082064980641007E-3  -9.639034271240234E-1  -4.332401230931282E-2  
 6.024024024024024E8     4.958270490169525E-1   2.033758610486984E-1  -1.197738666087389E-2   2.335927449166775E-3  -1.200437080115080E-2   2.353995107114315E-3  -9.636260271072388E-1  -2.925502322614193E-2  
 6.048048048048048E8     4.865730106830597E-1   1.700362563133240E-1  -1.204095873981714E-2   2.460358664393425E-3  -1.203600224107504E-2   2.432954497635365E-3  -9.628632068634033E-1  -1.542599312961102E-2  
 6.072072072072072E8     4.745915532112122E-1   1.378154903650284E-1  -1.224025804549456E-2   2.358057070523500E-3  -1.216161996126175E-2   2.341045765206218E-3  -9.619599580764771E-1  -1.477990066632628E-3  
 6.096096096096096E8     4.595837593078613E-1   1.072872206568718E-1  -1.240790169686079E-2   2.324694069102407E-3  -1.246260665357113E-2   2.269711112603545E-3  -9.607971906661987E-1   1.281731575727463E-2  
 6.120120120120120E8     4.421935677528381E-1   8.152642101049423E-2  -1.276422012597323E-2   2.083641244098544E-3  -1.273640245199204E-2   1.966647803783417E-3  -9.591628909111023E-1   2.464908733963966E-2  
 6.144144144144144E8     4.237256944179535E-1   6.035845354199410E-2  -1.326449494808912E-2   1.559787895530462E-3  -1.323500648140907E-2   1.561744022183120E-3  -9.580357074737549E-1   3.819274157285690E-2  
 6.168168168168168E8     4.055589437484741E-1   4.334342852234840E-2  -1.406147610396147E-2   8.609505021013320E-4  -1.400440838187933E-2   8.419113000854850E-4  -9.564012289047241E-1   5.243330076336861E-2  
 6.192192192192192E8     3.882570862770081E-1   2.949829585850239E-2  -1.525091473013163E-2  -4.214918953948654E-5  -1.529007777571678E-2  -1.302300515817478E-4  -9.540287256240845E-1   6.731102615594864E-2  
 6.216216216216216E8     3.740734457969666E-1   1.853135228157044E-2  -1.720640249550343E-2  -9.056655107997358E-4  -1.716632768511772E-2  -1.036440022289753E-3  -9.507619738578796E-1   8.292551338672638E-2  
 6.240240240240240E8     3.641011416912079E-1   9.748484008014202E-3  -2.003304660320282E-2  -1.630870159715414E-3  -2.003409713506699E-2  -1.710194977931678E-3  -9.472652673721314E-1   9.793397039175034E-2  
 6.264264264264264E8     3.595970571041107E-1   1.578040537424386E-3  -2.380465529859066E-2  -1.645707758143544E-3  -2.377281337976456E-2  -1.672865008004010E-3  -9.440157413482666E-1   1.133875101804733E-1  
 6.288288288288288E8     3.602483868598938E-1  -1.048002298921347E-2  -2.825962938368321E-2  -3.110366524197161E-4  -2.818290516734123E-2  -4.531932354439050E-4  -9.400681257247925E-1   1.279806643724442E-1  
 6.312312312312312E8     3.644270896911621E-1  -2.944917790591717E-2  -3.269823640584946E-2   2.390460576862097E-3  -3.257405757904053E-2   2.279177773743868E-3  -9.358292818069458E-1   1.414718627929688E-1  
 6.336336336336336E8     3.678953647613525E-1  -5.702321976423264E-2  -3.655865043401718E-2   6.662994157522917E-3  -3.649175912141800E-2   6.429969333112240E-3  -9.314690232276917E-1   1.541803330183029E-1  
 6.360360360360360E8     3.671143949031830E-1  -9.151396155357361E-2  -3.942582011222839E-2   1.181961782276630E-2  -3.931019082665443E-2   1.157784089446068E-2  -9.269635677337647E-1   1.663356572389603E-1  
 6.384384384384384E8     3.594004511833191E-1  -1.291945129632950E-1  -4.113592579960823E-2   1.767461188137531E-2  -4.101512953639031E-2   1.737079769372940E-2  -9.217984080314636E-1   1.805883049964905E-1  
 6.408408408408408E8     3.444725871086121E-1  -1.687246114015579E-1  -4.162822663784027E-2   2.363265119493008E-2  -4.156775027513504E-2   2.335837483406067E-2  -9.167964458465576E-1   1.948776990175247E-1  
 6.432432432432432E8     3.217848241329193E-1  -2.074061334133148E-1  -4.095851629972458E-2   2.949462458491325E-2  -4.104365780949593E-2   2.925711497664452E-2  -9.111992716789246E-1   2.092109173536301E-1  
 6.456456456456456E8     2.893168628215790E-1  -2.446396499872208E-1  -3.951919078826904E-2   3.517491742968559E-2  -3.959717229008675E-2   3.476915508508682E-2  -9.054454565048218E-1   2.229645550251007E-1  
 6.480480480480480E8     2.524813711643219E-1  -2.763451933860779E-1  -3.730680048465729E-2   4.053165391087532E-2  -3.746133670210838E-2   4.012249782681465E-2  -8.993878364562988E-1   2.368428111076355E-1  
 6.504504504504504E8     2.122487276792526E-1  -3.008575141429901E-1  -3.450619429349899E-2   4.549153521656990E-2  -3.463938832283020E-2   4.507478326559067E-2  -8.895345926284790E-1   2.515885531902313E-1  
 6.528528528528528E8     1.707773506641388E-1  -3.204213380813599E-1  -3.106488473713398E-2   4.978388547897339E-2  -3.115915320813656E-2   4.943872988224030E-2  -8.800206184387207E-1   2.686215043067932E-1  
 6.552552552552552E8     1.287447661161423E-1  -3.355733454227448E-1  -2.732911147177219E-2   5.340192094445229E-2  -2.746162749826908E-2   5.309860408306122E-2  -8.719104528427124E-1   2.857564389705658E-1  
 6.576576576576576E8     8.574029058218002E-2  -3.460843563079834E-1  -2.351336926221848E-2   5.650467053055763E-2  -2.368909865617752E-2   5.621170625090599E-2  -8.652638792991638E-1   3.013674914836884E-1  
 6.600600600600600E8     4.175368323922157E-2  -3.516818583011627E-1  -1.946680247783661E-2   5.904338508844376E-2  -1.965337246656418E-2   5.889542773365974E-2  -8.578177094459534E-1   3.150809109210968E-1  
 6.624624624624624E8    -1.795141026377678E-3  -3.516060113906860E-1  -1.531933713704348E-2   6.117427721619606E-2  -1.554390601813793E-2   6.096509471535683E-2  -8.467039465904236E-1   3.320150673389435E-1  
 6.648648648648648E8    -4.638988897204399E-2  -3.482511937618256E-1  -1.132403966039419E-2   6.266873329877853E-2  -1.179192587733269E-2   6.255719065666199E-2  -8.341927528381348E-1   3.488839566707611E-1  
 6.672672672672672E8    -8.819299191236496E-2  -3.400276303291321E-1  -7.700442336499691E-3   6.404296308755875E-2  -8.151684887707233E-3   6.398922950029373E-2  -8.207731246948242E-1   3.655281662940979E-1  
 6.696696696696696E8    -1.265505701303482E-1  -3.275148272514343E-1  -4.094837233424187E-3   6.509628146886826E-2  -4.427206236869097E-3   6.497064977884293E-2  -8.056312203407288E-1   3.817995488643646E-1  
 6.720720720720720E8    -1.594136506319046E-1  -3.126265704631805E-1  -8.285059593617916E-4   6.553332507610321E-2  -1.044373377226293E-3   6.538670510053635E-2  -7.892048954963684E-1   3.975373804569244E-1  
 6.744744744744744E8    -1.899673789739609E-1  -2.943829596042633E-1   1.906938967294991E-3   6.559483706951141E-2   1.839091652072966E-3   6.548766791820526E-2  -7.702481150627136E-1   4.144725203514099E-1  
 6.768768768768768E8    -2.182251960039139E-1  -2.737193405628204E-1   3.770600305870175E-3   6.532699614763260E-2   3.548869863152504E-3   6.520417332649231E-2  -7.490816116333008E-1   4.304024279117584E-1  
 6.792792792792792E8    -2.417224347591400E-1  -2.522819042205811E-1   3.929520025849342E-3   6.536456942558289E-2   3.824683371931315E-3   6.515685468912125E-2  -7.256214618682861E-1   4.453353285789490E-1  
 6.816816816816816E8    -2.610188424587250E-1  -2.313406169414520E-1   2.475709188729525E-3   6.683044135570526E-2   2.262958558276296E-3   6.662992388010025E-2  -6.993640065193176E-1   4.586349427700043E-1  
 6.840840840840840E8    -2.767584323883057E-1  -2.120568901300430E-1  -3.291243629064411E-4   7.090980559587479E-2  -6.092177354730666E-4   7.080054283142090E-2  -6.704840660095215E-1   4.694396555423737E-1  
 6.864864864864864E8    -2.892487645149231E-1  -1.946222782135010E-1  -2.792864572256804E-3   7.898254692554474E-2  -3.341096919029951E-3   7.895413041114807E-2  -6.395854353904724E-1   4.757500290870667E-1  
 6.888888888888888E8    -3.020982742309570E-1  -1.816129535436630E-1  -2.480432391166687E-3   9.141816943883896E-2  -3.393406514078379E-3   9.138715267181397E-2  -6.084471344947815E-1   4.782586395740509E-1  
 6.912912912912912E8    -3.154386579990387E-1  -1.725204139947891E-1   3.107581520453095E-3   1.070468649268150E-1   2.093426417559385E-3   1.070633828639984E-1  -5.785699486732483E-1   4.777379035949707E-1  
 6.936936936936936E8    -3.317346274852753E-1  -1.661625504493713E-1   1.496552862226963E-2   1.228093504905701E-1   1.426372118294239E-2   1.226704642176628E-1  -5.525190234184265E-1   4.751413464546204E-1  
 6.960960960960960E8    -3.538021147251129E-1  -1.574503183364868E-1   3.309695422649384E-2   1.356404572725296E-1   3.296554833650589E-2   1.352148205041885E-1  -5.274378061294556E-1   4.724260270595551E-1  
 6.984984984984984E8    -3.795726299285889E-1  -1.426743119955063E-1   5.546705797314644E-2   1.431877166032791E-1   5.682789534330368E-2   1.420682668685913E-1  -5.008687376976013E-1   4.725893437862396E-1  
 7.009009009009008E8    -4.048728346824646E-1  -1.221279352903366E-1   7.946658879518509E-2   1.446308195590973E-1   8.178715407848358E-2   1.427246928215027E-1  -4.736515283584595E-1   4.728336632251740E-1  
 7.033033033033032E8    -4.265164434909821E-1  -9.693491458892822E-2   1.033275797963142E-1   1.404341012239456E-1   1.049381047487259E-1   1.387316733598709E-1  -4.445351362228394E-1   4.711149334907532E-1  
 7.057057057057056E8    -4.444808363914490E-1  -7.025495171546936E-2   1.260522603988648E-1   1.323630064725876E-1   1.264129877090454E-1   1.316197067499161E-1  -4.132189452648163E-1   4.658165574073792E-1  
 7.081081081081080E8    -4.583362340927124E-1  -4.113929718732834E-2   1.473509520292282E-1   1.203886121511459E-1   1.466756016016007E-1   1.213380023837090E-1  -3.785879909992218E-1   4.574916958808899E-1  
 7.105105105105104E8    -4.674734473228455E-1  -1.231734082102776E-2   1.669795662164688E-1   1.054401993751526E-1   1.653882265090942E-1   1.080899685621262E-1  -3.408480882644653E-1   4.445720911026001E-1  
 7.129129129129129E8    -4.735909998416901E-1   1.365860644727945E-2   1.843006312847138E-1   8.870127052068710E-2   1.831560283899307E-1   9.159988909959793E-2  -3.006158471107483E-1   4.257026612758637E-1  
 7.153153153153153E8    -4.779953956604004E-1   3.808624297380447E-2   1.996195465326309E-1   6.974919140338898E-2   1.995204240083695E-1   7.147657871246338E-2  -2.597626149654388E-1   3.989462256431580E-1  
 7.177177177177178E8    -4.814571142196655E-1   6.098977848887444E-2   2.132542729377747E-1   4.788450896739960E-2   2.132096290588379E-1   4.837901517748833E-2  -2.225185036659241E-1   3.653859198093414E-1  
 7.201201201201202E8    -4.837203025817871E-1   8.384017646312714E-2   2.241638004779816E-1   2.236807160079479E-2   2.237599641084671E-1   2.267101407051086E-2  -1.903047114610672E-1   3.245090246200562E-1  
 7.225225225225226E8    -4.862548112869263E-1   1.065046042203903E-1   2.305846214294434E-1  -6.152325775474310E-3   2.302599400281906E-1  -5.343295168131590E-3  -1.640538573265076E-1   2.775444090366364E-1  
 7.249249249249250E8    -4.885974526405335E-1   1.285723000764847E-1   2.317004650831223E-1  -3.733669221401215E-2   2.317009866237640E-1  -3.350368887186050E-2  -1.462693214416504E-1   2.247563004493713E-1  
 7.273273273273274E8    -4.906766712665558E-1   1.494526118040085E-1   2.270725220441818E-1  -6.804458796977997E-2   2.281607538461685E-1  -6.248403340578079E-2  -1.369644850492477E-1   1.671335846185684E-1  
 7.297297297297298E8    -4.935342669487000E-1   1.690207272768021E-1   2.172002345323563E-1  -9.618010371923447E-2   2.186623960733414E-1  -9.170500934123993E-2  -1.376820504665375E-1   1.080217882990837E-1  
 7.321321321321322E8    -4.967261254787445E-1   1.867711097002029E-1   2.033709287643433E-1  -1.198910549283028E-1   2.034054249525070E-1  -1.191863045096397E-1  -1.483976840972900E-1   4.969155043363571E-2  
 7.345345345345346E8    -4.995347559452057E-1   2.076950669288635E-1   1.855764836072922E-1  -1.407095491886139E-1   1.842807680368424E-1  -1.415319144725800E-1  -1.677032411098480E-1  -6.046330556273460E-3  
 7.369369369369370E8    -5.007770657539368E-1   2.301858514547348E-1   1.657723337411881E-1  -1.575289666652679E-1   1.629952341318131E-1  -1.591694056987763E-1  -1.967048645019531E-1  -5.723351985216141E-2  
 7.393393393393394E8    -5.004265308380127E-1   2.536533772945404E-1   1.440098583698273E-1  -1.710720658302307E-1   1.409433931112289E-1  -1.724497675895691E-1  -2.332127839326859E-1  -1.021815091371536E-1  
 7.417417417417418E8    -4.990218281745911E-1   2.767195701599121E-1   1.211753413081169E-1  -1.809485852718353E-1   1.194825023412705E-1  -1.812558770179749E-1  -2.746986746788025E-1  -1.399783641099930E-1  
 7.441441441441442E8    -4.959680140018463E-1   2.996860146522522E-1   9.850612282752991E-2  -1.870140582323074E-1   9.835013747215271E-2  -1.864264607429504E-1  -3.216986954212189E-1  -1.712425947189331E-1  
 7.465465465465466E8    -4.930772483348846E-1   3.223828971385956E-1   7.774112373590469E-2  -1.894521862268448E-1   7.828323543071747E-2  -1.888442635536194E-1  -3.705782294273377E-1  -1.917045861482620E-1  
 7.489489489489490E8    -4.889149367809296E-1   3.450215756893158E-1   5.834972485899925E-2  -1.896160095930100E-1   5.966402217745781E-2  -1.890839636325836E-1  -4.203726947307587E-1  -2.038411349058151E-1  
 7.513513513513514E8    -4.826969504356384E-1   3.674476742744446E-1   4.009975865483284E-2  -1.879608035087585E-1   4.192287102341652E-2  -1.876067370176315E-1  -4.692395031452179E-1  -2.081031948328018E-1  
 7.537537537537538E8    -4.743896722793579E-1   3.901280462741852E-1   2.269936725497246E-2  -1.848213225603104E-1   2.519320137798786E-2  -1.848846822977066E-1  -5.156239271163940E-1  -2.061808258295059E-1  
 7.561561561561562E8    -4.643712639808655E-1   4.108433425426483E-1   7.250301074236631E-3  -1.802578866481781E-1   8.987452834844589E-3  -1.799785792827606E-1  -5.587967634201050E-1  -1.998230665922165E-1  
 7.585585585585586E8    -4.539958536624908E-1   4.310440421104431E-1  -6.536361295729876E-3  -1.743385046720505E-1  -5.546182394027710E-3  -1.735955774784088E-1  -5.974919199943543E-1  -1.869190484285355E-1  
 7.609609609609610E8    -4.431404769420624E-1   4.493171572685242E-1  -1.860240288078785E-2  -1.678479164838791E-1  -1.786472275853157E-2  -1.666774302721024E-1  -6.328304409980774E-1  -1.703508645296097E-1  
 7.633633633633634E8    -4.320316910743713E-1   4.673017561435700E-1  -2.979436144232750E-2  -1.612546443939209E-1  -2.870564348995686E-2  -1.599515676498413E-1  -6.643097400665283E-1  -1.523286849260330E-1  
 7.657657657657658E8    -4.207347929477692E-1   4.849492907524109E-1  -3.977518901228905E-2  -1.540437340736389E-1  -3.841438144445419E-2  -1.533777713775635E-1  -6.926790475845337E-1  -1.342919319868088E-1  
 7.681681681681682E8    -4.088312685489655E-1   5.019744038581848E-1  -4.859204590320587E-2  -1.466560661792755E-1  -4.756721854209900E-2  -1.468718051910400E-1  -7.186290025711060E-1  -1.166922301054001E-1  
 7.705705705705706E8    -3.968868553638458E-1   5.180929899215698E-1  -5.673260614275932E-2  -1.391747146844864E-1  -5.563662946224213E-2  -1.394677609205246E-1  -7.399290204048157E-1  -9.819402545690537E-2  
 7.729729729729730E8    -3.834652602672577E-1   5.336602926254273E-1  -6.463976204395294E-2  -1.306185871362686E-1  -6.338571012020111E-2  -1.318707615137100E-1  -7.597625851631165E-1  -7.856209576129913E-2  
 7.753753753753754E8    -3.691663146018982E-1   5.475822687149048E-1  -7.105983793735504E-2  -1.215941086411476E-1  -7.004538178443909E-2  -1.232324242591858E-1  -7.772361040115356E-1  -5.708926543593407E-2  
 7.777777777777778E8    -3.563749790191650E-1   5.581597685813904E-1  -7.619142532348633E-2  -1.129551678895950E-1  -7.544241845607758E-2  -1.140699759125710E-1  -7.911579608917236E-1  -3.522694855928421E-2  
 7.801801801801802E8    -3.440090715885162E-1   5.678807497024536E-1  -7.999685406684876E-2  -1.047537475824356E-1  -7.921390235424042E-2  -1.047439500689507E-1  -8.008095622062683E-1  -1.383591908961535E-2  
 7.825825825825826E8    -3.298601806163788E-1   5.790190696716309E-1  -8.287932723760605E-2  -9.625789523124695E-2  -8.246463537216187E-2  -9.626840054988861E-2  -8.107588291168213E-1   7.965390570461750E-3  
 7.849849849849850E8    -3.171375989913940E-1   5.911017060279846E-1  -8.520300686359406E-2  -8.828876912593842E-2  -8.459772169589996E-2  -8.863937109708786E-2  -8.186402320861816E-1   2.659651823341847E-2  
 7.873873873873874E8    -3.045944273471832E-1   6.039552688598633E-1  -8.722919970750809E-2  -8.102782815694809E-2  -8.623959124088287E-2  -8.132712543010712E-2  -8.257752656936646E-1   4.355743154883385E-2  
 7.897897897897898E8    -2.902125120162964E-1   6.175095438957214E-1  -8.865601569414139E-2  -7.408463954925537E-2  -8.783321082592011E-2  -7.418792694807053E-2  -8.337674736976624E-1   6.083328276872635E-2  
 7.921921921921922E8    -2.729172408580780E-1   6.306235790252686E-1  -8.953187614679337E-2  -6.700070202350617E-2  -8.906804770231247E-2  -6.749746203422546E-2  -8.426506519317627E-1   7.844032347202301E-2  
 7.945945945945946E8    -2.570417225360870E-1   6.427027583122253E-1  -9.028548002243042E-2  -6.066032126545906E-2  -8.942782878875732E-2  -6.125069782137871E-2  -8.470495343208313E-1   9.650375694036484E-2  
 7.969969969969970E8    -2.411228567361832E-1   6.518436670303345E-1  -9.051157534122467E-2  -5.464887619018555E-2  -8.972487598657608E-2  -5.522017180919647E-2  -8.509567975997925E-1   1.148458346724510E-1  
 7.993993993993994E8    -2.250117659568787E-1   6.588272452354431E-1  -9.049385786056519E-2  -4.898390173912048E-2  -8.988078683614731E-2  -4.924365505576134E-2  -8.540185093879700E-1   1.329820752143860E-1  
 8.018018018018018E8    -2.074054628610611E-1   6.650131940841675E-1  -9.019412845373154E-2  -4.332105070352554E-2  -8.988704532384872E-2  -4.338563978672028E-2  -8.557921051979065E-1   1.510685682296753E-1  
 8.042042042042042E8    -1.899084895849228E-1   6.717208027839661E-1  -8.968967199325562E-2  -3.771483525633812E-2  -8.954234421253204E-2  -3.781780600547791E-2  -8.578222393989563E-1   1.665966957807541E-1  
 8.066066066066066E8    -1.722692102193832E-1   6.775571703910828E-1  -8.882410079240799E-2  -3.211751580238342E-2  -8.873673528432846E-2  -3.239713981747627E-2  -8.592147827148438E-1   1.840565949678421E-1  
 8.090090090090090E8    -1.556441038846970E-1   6.824746727943420E-1  -8.754719793796539E-2  -2.691818773746491E-2  -8.754947781562805E-2  -2.727095410227776E-2  -8.595632910728455E-1   2.005353718996048E-1  
 8.114114114114114E8    -1.400824487209320E-1   6.860906481742859E-1  -8.599333465099335E-2  -2.227924019098282E-2  -8.595988154411316E-2  -2.255694195628166E-2  -8.594489097595215E-1   2.162039130926132E-1  
 8.138138138138138E8    -1.248796880245209E-1   6.893017292022705E-1  -8.429656177759171E-2  -1.802790910005570E-2  -8.428479731082916E-2  -1.829184964299202E-2  -8.592101335525513E-1   2.314503788948059E-1  
 8.162162162162162E8    -1.096678078174591E-1   6.924991011619568E-1  -8.283745497465134E-2  -1.416259817779064E-2  -8.257582038640976E-2  -1.447300147265196E-2  -8.586091995239258E-1   2.457548528909683E-1  
 8.186186186186186E8    -9.694571048021317E-2   6.947453022003174E-1  -8.114787936210632E-2  -1.051691826432943E-2  -8.091890066862106E-2  -1.073301676660776E-2  -8.574890494346619E-1   2.611836791038513E-1  
 8.210210210210210E8    -8.238843083381653E-2   6.970374584197998E-1  -7.945777475833893E-2  -6.954100914299488E-3  -7.921295613050461E-2  -7.247388828545809E-3  -8.557147979736328E-1   2.763555347919464E-1  
 8.234234234234234E8    -6.837467849254608E-2   6.989019513130188E-1  -7.750977575778961E-2  -3.445765934884548E-3  -7.738447934389114E-2  -3.810116322711110E-3  -8.535197377204895E-1   2.903588116168976E-1  
