#  HZ   S   RI   R     50.00 
! Rohde & Schwarz ZVB8 2Ports - Version 2.81 - 1145.1010k08 SN: 100113
! Date: 2016-05-03 01:38:10
! Measurements: S11 S21 S12 S22 
! 
 6.000000000000000E8     5.040017962455750E-1   2.334854155778885E-1  -1.003412716090679E-2   1.293408568017185E-3  -1.002240832895041E-2   1.250523258931935E-3  -9.671686887741089E-1  -6.837847083806992E-2  
 6.024024024024024E8     4.964604079723358E-1   1.997837424278259E-1  -1.009446661919355E-2   1.447316724807024E-3  -1.002480182796717E-2   1.487953471951187E-3  -9.675100445747376E-1  -5.534936487674713E-2  
 6.048048048048048E8     4.860522449016571E-1   1.660412102937698E-1  -1.014776714146137E-2   1.566347316838801E-3  -1.010954286903143E-2   1.479729195125401E-3  -9.676047563552856E-1  -4.283035546541214E-2  
 6.072072072072072E8     4.727407395839691E-1   1.338460892438889E-1  -1.017093472182751E-2   1.474044867791235E-3  -1.011678855866194E-2   1.460036495700479E-3  -9.674153327941895E-1  -3.002665750682354E-2  
 6.096096096096096E8     4.566981792449951E-1   1.039021834731102E-1  -1.027850806713104E-2   1.400784472934902E-3  -1.022680848836899E-2   1.377305830828846E-3  -9.669737219810486E-1  -1.736629568040371E-2  
 6.120120120120120E8     4.395001828670502E-1   8.084207028150559E-2  -1.045415550470352E-2   1.098818844184279E-3  -1.042339298874140E-2   1.133033889345825E-3  -9.662149548530579E-1  -6.325111724436283E-3  
 6.144144144144144E8     4.218539893627167E-1   6.153959035873413E-2  -1.077053695917130E-2   7.225231383927167E-4  -1.080630626529455E-2   6.749283056706190E-4  -9.659694433212280E-1   5.811105016618967E-3  
 6.168168168168168E8     4.036925733089447E-1   4.426355287432671E-2  -1.126970443874598E-2   8.603924652561545E-5  -1.121838111430407E-2   8.030556637095287E-5  -9.652256369590759E-1   1.831600628793240E-2  
 6.192192192192192E8     3.860624730587006E-1   3.041509352624416E-2  -1.222246512770653E-2  -7.134093320928514E-4  -1.218737103044987E-2  -7.934243767522275E-4  -9.642795920372009E-1   3.139932081103325E-2  
 6.216216216216216E8     3.715331852436066E-1   1.980789192020893E-2  -1.366827450692654E-2  -1.528762280941010E-3  -1.363953575491905E-2  -1.591514912433922E-3  -9.625812768936157E-1   4.532649368047714E-2  
 6.240240240240240E8     3.613151013851166E-1   1.149638742208481E-2  -1.583990827202797E-2  -2.200864022597671E-3  -1.582353934645653E-2  -2.367739100009203E-3  -9.603448510169983E-1   5.845000222325325E-2  
 6.264264264264264E8     3.578397035598755E-1   3.434792859479785E-3  -1.870724186301231E-2  -2.327557420358062E-3  -1.857289858162403E-2  -2.411841414868832E-3  -9.590317010879517E-1   7.279402017593384E-2  
 6.288288288288288E8     3.593124747276306E-1  -9.124300442636013E-3  -2.196341566741467E-2  -1.586347585543990E-3  -2.197311632335186E-2  -1.711372402496636E-3  -9.570159316062927E-1   8.545960485935211E-2  
 6.312312312312312E8     3.638638854026794E-1  -2.871564589440823E-2  -2.534063719213009E-2   2.189051883760840E-4  -2.534056454896927E-2   1.066738404915668E-4  -9.544317722320557E-1   9.749952703714371E-2  
 6.336336336336336E8     3.685805201530457E-1  -5.490237474441528E-2  -2.842944115400314E-2   3.025691490620375E-3  -2.841054834425449E-2   2.910018665716052E-3  -9.521530866622925E-1   1.085432395339012E-1  
 6.360360360360360E8     3.688653409481049E-1  -8.806016296148300E-2  -3.075570799410343E-2   6.541654933243990E-3  -3.071506135165691E-2   6.449794862419367E-3  -9.498088955879211E-1   1.190824955701828E-1  
 6.384384384384384E8     3.618195950984955E-1  -1.255896240472794E-1  -3.232055157423019E-2   1.073181349784136E-2  -3.227461874485016E-2   1.062681339681149E-2  -9.470359086990356E-1   1.314587593078613E-1  
 6.408408408408408E8     3.474892377853394E-1  -1.657018512487412E-1  -3.301006555557251E-2   1.509813219308853E-2  -3.297062590718269E-2   1.497652381658554E-2  -9.443500041961670E-1   1.439150869846344E-1  
 6.432432432432432E8     3.235034644603729E-1  -2.063470631837845E-1  -3.280844911932945E-2   1.941851153969765E-2  -3.277840465307236E-2   1.915987208485603E-2  -9.413200616836548E-1   1.558323949575424E-1  
 6.456456456456456E8     2.916350960731506E-1  -2.440646588802338E-1  -3.195785358548164E-2   2.355516515672207E-2  -3.201661631464958E-2   2.319140732288361E-2  -9.382700920104981E-1   1.679113209247589E-1  
 6.480480480480480E8     2.565099895000458E-1  -2.758381366729736E-1  -3.061642125248909E-2   2.727618254721165E-2  -3.069622814655304E-2   2.696551755070686E-2  -9.349447488784790E-1   1.792030036449432E-1  
 6.504504504504504E8     2.172191590070725E-1  -3.012627661228180E-1  -2.875886298716068E-2   3.077473305165768E-2  -2.889708802103996E-2   3.051535040140152E-2  -9.287637472152710E-1   1.916265934705734E-1  
 6.528528528528528E8     1.750569939613342E-1  -3.224230408668518E-1  -2.660734020173550E-2   3.379918262362480E-2  -2.665799483656883E-2   3.362859413027763E-2  -9.230409264564514E-1   2.056839466094971E-1  
 6.552552552552552E8     1.324868202209473E-1  -3.385052978992462E-1  -2.424796670675278E-2   3.638373315334320E-2  -2.432894892990589E-2   3.613596037030220E-2  -9.191880822181702E-1   2.201847732067108E-1  
 6.576576576576576E8     8.757003396749497E-2  -3.496324121952057E-1  -2.175250835716724E-2   3.863472864031792E-2  -2.187583595514298E-2   3.848239406943321E-2  -9.170210361480713E-1   2.330406755208969E-1  
 6.600600600600600E8     4.267024248838425E-2  -3.554101288318634E-1  -1.913959346711636E-2   4.045215249061585E-2  -1.914747990667820E-2   4.031966999173164E-2  -9.149334430694580E-1   2.436531484127045E-1  
 6.624624624624624E8    -1.252377871423960E-3  -3.549202382564545E-1  -1.634919457137585E-2   4.195491597056389E-2  -1.648813486099243E-2   4.178691282868385E-2  -9.099541902542114E-1   2.575199604034424E-1  
 6.648648648648648E8    -4.616980999708176E-2  -3.504729568958283E-1  -1.375048793852329E-2   4.294432699680328E-2  -1.402539107948542E-2   4.277696833014488E-2  -9.042731523513794E-1   2.712266147136688E-1  
 6.672672672672672E8    -8.783975988626480E-2  -3.415110409259796E-1  -1.130662299692631E-2   4.370819404721260E-2  -1.168688479810953E-2   4.350069537758827E-2  -8.981777429580689E-1   2.844519913196564E-1  
 6.696696696696696E8    -1.255636960268021E-1  -3.287962973117828E-1  -9.031536057591438E-3   4.401164874434471E-2  -9.311152622103691E-3   4.378758743405342E-2  -8.913564682006836E-1   2.978040575981140E-1  
 6.720720720720720E8    -1.594159752130508E-1  -3.137952089309692E-1  -7.137853186577559E-3   4.384412243962288E-2  -7.377695292234421E-3   4.367965832352638E-2  -8.841010928153992E-1   3.109334409236908E-1  
 6.744744744744744E8    -1.878245621919632E-1  -2.963765859603882E-1  -5.795164033770561E-3   4.337116703391075E-2  -5.858943797647953E-3   4.331155121326447E-2  -8.760777115821838E-1   3.250401616096497E-1  
 6.768768768768768E8    -2.154023498296738E-1  -2.766138613224030E-1  -5.265400744974613E-3   4.266839846968651E-2  -5.319977179169655E-3   4.254985600709915E-2  -8.675435185432434E-1   3.392097353935242E-1  
 6.792792792792792E8    -2.392928898334503E-1  -2.558818757534027E-1  -5.837320350110531E-3   4.215687513351440E-2  -5.961547605693340E-3   4.203545302152634E-2  -8.580083250999451E-1   3.529758453369141E-1  
 6.816816816816816E8    -2.586757838726044E-1  -2.356161326169968E-1  -7.653407286852598E-3   4.240868240594864E-2  -7.823377847671509E-3   4.228829592466354E-2  -8.474636077880859E-1   3.673895299434662E-1  
 6.840840840840840E8    -2.742238342761993E-1  -2.166477590799332E-1  -1.057087443768978E-2   4.412243142724037E-2  -1.085275970399380E-2   4.400791972875595E-2  -8.360685706138611E-1   3.810640573501587E-1  
 6.864864864864864E8    -2.862985432147980E-1  -1.996108442544937E-1  -1.387751102447510E-2   4.814802855253220E-2  -1.426683086901903E-2   4.794561117887497E-2  -8.229948282241821E-1   3.929468095302582E-1  
 6.888888888888888E8    -2.976433634757996E-1  -1.887382715940476E-1  -1.649631001055241E-2   5.490522086620331E-2  -1.708988286554813E-2   5.461378023028374E-2  -8.093599677085877E-1   4.045034945011139E-1  
 6.912912912912912E8    -3.097238838672638E-1  -1.833139508962631E-1  -1.705430075526238E-2   6.432442367076874E-2  -1.769367791712284E-2   6.400791555643082E-2  -7.961058616638184E-1   4.147552549839020E-1  
 6.936936936936936E8    -3.269705772399902E-1  -1.811737120151520E-1  -1.423007715493441E-2   7.512353360652924E-2  -1.448296289891005E-2   7.485933601856232E-2  -7.836393713951111E-1   4.243083000183106E-1  
 6.960960960960960E8    -3.535338342189789E-1  -1.755223125219345E-1  -7.497204467654228E-3   8.532879501581192E-2  -7.570463232696056E-3   8.508945256471634E-2  -7.719507217407227E-1   4.338177740573883E-1  
 6.984984984984984E8    -3.843486607074738E-1  -1.638616621494293E-1   2.085653366521001E-3   9.348867833614349E-2   2.918757498264313E-3   9.323640912771225E-2  -7.585682272911072E-1   4.468311071395874E-1  
 7.009009009009008E8    -4.162114560604096E-1  -1.444863379001617E-1   1.330952439457178E-2   9.891352057456970E-2   1.487240567803383E-2   9.842661768198013E-2  -7.455176711082459E-1   4.595719873905182E-1  
 7.033033033033032E8    -4.445094466209412E-1  -1.184238642454147E-1   2.520051598548889E-2   1.014762297272682E-1   2.654039300978184E-2   1.009142473340035E-1  -7.334719300270081E-1   4.706057906150818E-1  
 7.057057057057056E8    -4.681142866611481E-1  -8.888100087642670E-2   3.664581850171089E-2   1.020350307226181E-1   3.714725375175476E-2   1.016969606280327E-1  -7.223486900329590E-1   4.795912206172943E-1  
 7.081081081081080E8    -4.860006570816040E-1  -5.684824287891388E-2   4.786874353885651E-2   1.011924445629120E-1   4.718613624572754E-2   1.014011055231094E-1  -7.093727588653565E-1   4.897284209728241E-1  
 7.105105105105104E8    -4.991346001625061E-1  -2.376471273601055E-2   5.848415568470955E-2   9.920264035463333E-2   5.698695778846741E-2   1.000165492296219E-1  -6.951621174812317E-1   5.011466741561890E-1  
 7.129129129129129E8    -5.094506144523621E-1   8.166919462382793E-3   6.817648559808731E-2   9.669696539640427E-2   6.660444289445877E-2   9.774816036224365E-2  -6.781021356582642E-1   5.136296749114990E-1  
 7.153153153153153E8    -5.170158743858337E-1   3.943917527794838E-2   7.714223116636276E-2   9.392249584197998E-2   7.612419873476028E-2   9.470625221729279E-2  -6.584960818290710E-1   5.268338918685913E-1  
 7.177177177177178E8    -5.226228833198547E-1   7.063174247741699E-2   8.606195449829102E-2   9.083224087953568E-2   8.577133715152741E-2   9.112550318241119E-2  -6.366967558860779E-1   5.396202206611633E-1  
 7.201201201201202E8    -5.251368284225464E-1   1.028989702463150E-1   9.560722112655640E-2   8.694241940975189E-2   9.544296562671661E-2   8.723458647727966E-2  -6.135817170143127E-1   5.512388348579407E-1  
 7.225225225225226E8    -5.251007676124573E-1   1.347190588712692E-1   1.053064540028572E-1   8.201120048761368E-2   1.052062585949898E-1   8.215589821338654E-2  -5.885875821113586E-1   5.618320703506470E-1  
 7.249249249249250E8    -5.222931504249573E-1   1.657405644655228E-1   1.152533739805222E-1   7.522480934858322E-2   1.138916611671448E-1   7.679922133684158E-2  -5.650814175605774E-1   5.687923431396484E-1  
 7.273273273273274E8    -5.174185633659363E-1   1.937106400728226E-1   1.244137063622475E-1   6.772305816411972E-2   1.225006654858589E-1   7.024730741977692E-2  -5.400714278221130E-1   5.747674703598023E-1  
 7.297297297297298E8    -5.119173526763916E-1   2.189504653215408E-1   1.327691227197647E-1   6.006994843482971E-2   1.313222646713257E-1   6.220822036266327E-2  -5.128929018974304E-1   5.794192552566528E-1  
 7.321321321321322E8    -5.058188438415527E-1   2.402852028608322E-1   1.402826309204102E-1   5.254567787051201E-2   1.396065652370453E-1   5.260822176933289E-2  -4.839362502098084E-1   5.830051302909851E-1  
 7.345345345345346E8    -4.985523223876953E-1   2.623877823352814E-1   1.470751017332077E-1   4.369506984949112E-2   1.467278152704239E-1   4.289700835943222E-2  -4.533330798149109E-1   5.853778719902039E-1  
 7.369369369369370E8    -4.904591739177704E-1   2.846138477325440E-1   1.535759270191193E-1   3.442168980836868E-2   1.533317565917969E-1   3.286843374371529E-2  -4.208118915557861E-1   5.860337615013123E-1  
 7.393393393393394E8    -4.809923768043518E-1   3.059118986129761E-1   1.601208895444870E-1   2.428465522825718E-2   1.597089767456055E-1   2.268569730222225E-2  -3.866870403289795E-1   5.833632349967957E-1  
 7.417417417417418E8    -4.707302153110504E-1   3.251451253890991E-1   1.665292680263519E-1   1.305607706308365E-2   1.662390232086182E-1   1.206608768552542E-2  -3.510985076427460E-1   5.768824815750122E-1  
 7.441441441441442E8    -4.596770703792572E-1   3.430204987525940E-1   1.725806891918182E-1   2.522748254705221E-4   1.725101917982101E-1   5.263581988401711E-4  -3.144560158252716E-1   5.653537511825562E-1  
 7.465465465465466E8    -4.501877129077911E-1   3.591714799404144E-1   1.777865290641785E-1  -1.328940689563751E-2   1.778896450996399E-1  -1.269195321947336E-2  -2.763692736625671E-1   5.507330298423767E-1  
 7.489489489489490E8    -4.406357705593109E-1   3.744469583034515E-1   1.822334975004196E-1  -2.793418802320957E-2   1.826412826776505E-1  -2.684237994253635E-2  -2.403226792812347E-1   5.308210849761963E-1  
 7.513513513513514E8    -4.303964376449585E-1   3.892135918140411E-1   1.856174170970917E-1  -4.430155828595161E-2   1.862388104200363E-1  -4.268276691436768E-2  -2.059411406517029E-1   5.062605738639832E-1  
 7.537537537537538E8    -4.186097085475922E-1   4.034626781940460E-1   1.876126527786255E-1  -6.277453899383545E-2   1.886226832866669E-1  -6.048874184489250E-2  -1.715197712182999E-1   4.755732417106628E-1  
 7.561561561561562E8    -4.066942632198334E-1   4.147798418998718E-1   1.879000663757324E-1  -8.248382806777954E-2   1.883448362350464E-1  -8.042635768651962E-2  -1.397483199834824E-1   4.363895952701569E-1  
 7.585585585585586E8    -3.961380720138550E-1   4.255343079566956E-1   1.847199797630310E-1  -1.033578142523766E-1   1.845744848251343E-1  -1.015799716114998E-1  -1.110542714595795E-1   3.925934135913849E-1  
 7.609609609609610E8    -3.872195780277252E-1   4.355632066726685E-1   1.780312508344650E-1  -1.242778152227402E-1   1.775999963283539E-1  -1.222677752375603E-1  -8.982668817043304E-2   3.437400758266449E-1  
 7.633633633633634E8    -3.805058598518372E-1   4.434567391872406E-1   1.683568507432938E-1  -1.445775479078293E-1   1.678436100482941E-1  -1.423985064029694E-1  -7.758384943008423E-2   2.908175289630890E-1  
 7.657657657657658E8    -3.752259910106659E-1   4.527520537376404E-1   1.557429730892181E-1  -1.634344309568405E-1   1.556756496429443E-1  -1.617411822080612E-1  -7.469201833009720E-2   2.357133775949478E-1  
 7.681681681681682E8    -3.702688515186310E-1   4.627231657505035E-1   1.407383382320404E-1  -1.802987754344940E-1   1.408296823501587E-1  -1.800539642572403E-1  -8.010306209325790E-2   1.803534626960754E-1  
 7.705705705705706E8    -3.660525083541870E-1   4.745464622974396E-1   1.225479915738106E-1  -1.958972960710526E-1   1.233473494648933E-1  -1.954818964004517E-1  -9.224329143762589E-2   1.292355507612228E-1  
 7.729729729729730E8    -3.609731495380402E-1   4.866717159748077E-1   1.009687632322311E-1  -2.085339725017548E-1   1.029191613197327E-1  -2.088118791580200E-1  -1.105763539671898E-1   8.104295283555985E-2  
 7.753753753753754E8    -3.556039631366730E-1   4.996946752071381E-1   7.768418639898300E-2  -2.175472378730774E-1   7.991230487823486E-2  -2.181402146816254E-1  -1.352855563163757E-1   3.585093840956688E-2  
 7.777777777777778E8    -3.493359684944153E-1   5.125925540924072E-1   5.433474108576775E-2  -2.223255783319473E-1   5.577296391129494E-2  -2.227428704500198E-1  -1.662003695964813E-1  -5.522205494344235E-3  
 7.801801801801802E8    -3.425371348857880E-1   5.252912044525147E-1   3.162620589137077E-2  -2.238343507051468E-1   3.275687247514725E-2  -2.229245454072952E-1  -2.006620317697525E-1  -4.079968854784966E-2  
 7.825825825825826E8    -3.339295685291290E-1   5.390210151672363E-1   9.653472341597080E-3  -2.215511798858643E-1   1.087694335728884E-2  -2.214608788490295E-1  -2.387894988059998E-1  -6.952076405286789E-2  
 7.849849849849850E8    -3.256815969944000E-1   5.540971755981445E-1  -1.114007271826267E-2  -2.174028605222702E-1  -9.133309125900269E-3  -2.173743247985840E-1  -2.791619300842285E-1  -9.316590428352356E-2  
 7.873873873873874E8    -3.173368871212006E-1   5.699104666709900E-1  -3.025251626968384E-2  -2.114252150058746E-1  -2.823134325444698E-2  -2.110072225332260E-1  -3.207368552684784E-1  -1.114527210593224E-1  
 7.897897897897898E8    -3.069076240062714E-1   5.859225988388062E-1  -4.780518636107445E-2  -2.035743892192841E-1  -4.624270275235176E-2  -2.028294056653976E-1  -3.639879524707794E-1  -1.247337833046913E-1  
 7.921921921921922E8    -2.925215661525726E-1   6.018438339233398E-1  -6.364099681377411E-2  -1.939326524734497E-1  -6.242974847555161E-2  -1.937329024076462E-1  -4.080579578876495E-1  -1.326421052217484E-1  
 7.945945945945946E8    -2.786637842655182E-1   6.176788210868835E-1  -7.771572470664978E-2  -1.832693666219711E-1  -7.608066499233246E-2  -1.830431222915649E-1  -4.498555660247803E-1  -1.336259245872498E-1  
 7.969969969969970E8    -2.636086344718933E-1   6.306363344192505E-1  -8.977622538805008E-2  -1.713688075542450E-1  -8.816632628440857E-2  -1.717307865619659E-1  -4.896073043346405E-1  -1.291201412677765E-1  
 7.993993993993994E8    -2.483960390090942E-1   6.419420242309570E-1  -9.977478533983231E-2  -1.592402160167694E-1  -9.869883209466934E-2  -1.596485227346420E-1  -5.268646478652954E-1  -1.204734519124031E-1  
 8.018018018018018E8    -2.315686494112015E-1   6.519342064857483E-1  -1.081956624984741E-1  -1.467727720737457E-1  -1.076212227344513E-1  -1.469371616840363E-1  -5.612514615058899E-1  -1.083772778511047E-1  
 8.042042042042042E8    -2.139584720134735E-1   6.625282764434815E-1  -1.153877004981041E-1  -1.342575550079346E-1  -1.149911060929298E-1  -1.342863440513611E-1  -5.927564501762390E-1  -9.470007568597794E-2  
 8.066066066066066E8    -1.963043957948685E-1   6.711694002151489E-1  -1.213787794113159E-1  -1.215417757630348E-1  -1.209869012236595E-1  -1.213122010231018E-1  -6.213427782058716E-1  -7.705578207969666E-2  
 8.090090090090090E8    -1.786458045244217E-1   6.785769462585449E-1  -1.256783753633499E-1  -1.084341034293175E-1  -1.252612769603729E-1  -1.084288433194161E-1  -6.461924910545349E-1  -5.854252353310585E-2  
 8.114114114114114E8    -1.619315743446350E-1   6.845156550407410E-1  -1.281495690345764E-1  -9.594892710447311E-2  -1.278560012578964E-1  -9.618657082319260E-2  -6.675796508789063E-1  -4.007187485694885E-2  
 8.138138138138138E8    -1.455631703138351E-1   6.894856095314026E-1  -1.294772922992706E-1  -8.432970196008682E-2  -1.290717869997025E-1  -8.443940430879593E-2  -6.872159838676453E-1  -2.061961591243744E-2  
 8.162162162162162E8    -1.291442811489105E-1   6.940652728080750E-1  -1.299477070569992E-1  -7.344605773687363E-2  -1.294578015804291E-1  -7.355765253305435E-2  -7.045432329177856E-1  -1.024310709908605E-3  
 8.186186186186186E8    -1.140622124075890E-1   6.977964639663696E-1  -1.297047585248947E-1  -6.306760758161545E-2  -1.292047500610352E-1  -6.315169483423233E-2  -7.195514440536499E-1   1.908356696367264E-2  
 8.210210210210210E8    -9.838832169771195E-2   7.010215520858765E-1  -1.282782405614853E-1  -5.273347720503807E-2  -1.279861032962799E-1  -5.334521830081940E-2  -7.324240803718567E-1   3.916868194937706E-2  
 8.234234234234234E8    -8.378788828849793E-2   7.033053040504456E-1  -1.262856721878052E-1  -4.326329752802849E-2  -1.259457767009735E-1  -4.381009563803673E-2  -7.438752055168152E-1   5.875148624181747E-2  
