#  HZ   S   RI   R     50.00 
! Rohde & Schwarz ZVB8 2Ports - Version 2.81 - 1145.1010k08 SN: 100113
! Date: 2016-05-03 01:37:00
! Measurements: S11 S21 S12 S22 
! 
 6.000000000000000E8     3.216522932052612E-1   7.436457872390747E-1  -4.085353109985590E-3  -1.541564241051674E-3  -4.041196312755346E-3  -1.471745898015797E-3  -9.691390395164490E-1  -1.083597466349602E-1  
 6.024024024024024E8     3.359966278076172E-1   7.304852008819580E-1  -4.096176009625197E-3  -1.425791182555258E-3  -4.042479209601879E-3  -1.488974085077643E-3  -9.701061844825745E-1  -9.696981310844421E-2  
 6.048048048048048E8     3.510925173759460E-1   7.162770032882690E-1  -4.036503843963146E-3  -1.478684367612004E-3  -3.977818414568901E-3  -1.488321577198803E-3  -9.708102941513062E-1  -8.560135215520859E-2  
 6.072072072072072E8     3.656467199325562E-1   7.009093761444092E-1  -3.977756481617689E-3  -1.579783274792135E-3  -4.005938768386841E-3  -1.614266424439848E-3  -9.715980887413025E-1  -7.451909035444260E-2  
 6.096096096096096E8     3.799178004264832E-1   6.843697428703308E-1  -3.919047303497791E-3  -1.669771037995815E-3  -3.881118027493358E-3  -1.718033570796251E-3  -9.718142747879028E-1  -6.296446174383164E-2  
 6.120120120120120E8     3.900648951530457E-1   6.692156195640564E-1  -3.919607028365135E-3  -1.853848923929036E-3  -3.884333185851574E-3  -1.933482941240072E-3  -9.715904593467712E-1  -5.400979518890381E-2  
 6.144144144144144E8     3.989111185073853E-1   6.554432511329651E-1  -3.859841963276267E-3  -2.215243410319090E-3  -3.860695753246546E-3  -2.193932188674808E-3  -9.724949598312378E-1  -4.379830136895180E-2  
 6.168168168168168E8     4.075311720371246E-1   6.417334079742432E-1  -3.910228144377470E-3  -2.604665933176875E-3  -3.925988450646401E-3  -2.635262208059430E-3  -9.729792475700378E-1  -3.279642760753632E-2  
 6.192192192192192E8     4.156564772129059E-1   6.289282441139221E-1  -3.950910642743111E-3  -3.208395559340715E-3  -3.916521556675434E-3  -3.225275781005621E-3  -9.731032848358154E-1  -2.153609693050385E-2  
 6.216216216216216E8     4.239906668663025E-1   6.167340278625488E-1  -4.295120015740395E-3  -3.833784023299813E-3  -4.186934325844050E-3  -3.890682710334659E-3  -9.727072715759277E-1  -9.438350796699524E-3  
 6.240240240240240E8     4.322046041488648E-1   6.057527065277100E-1  -4.819355905056000E-3  -4.637488164007664E-3  -4.688815679401159E-3  -4.668525420129299E-3  -9.718716740608215E-1   2.312293509021401E-3  
 6.264264264264264E8     4.412215948104858E-1   5.973474383354187E-1  -5.701774731278420E-3  -5.495644640177488E-3  -5.580903962254524E-3  -5.542498547583818E-3  -9.719368815422058E-1   1.465153135359287E-2  
 6.288288288288288E8     4.523026943206787E-1   5.898476839065552E-1  -6.880724336951971E-3  -6.071906536817551E-3  -6.834231782704592E-3  -6.088515277951956E-3  -9.714943170547485E-1   2.546782419085503E-2  
 6.312312312312312E8     4.660436809062958E-1   5.824936628341675E-1  -8.276629261672497E-3  -6.376735400408506E-3  -8.210388012230396E-3  -6.365299224853516E-3  -9.710574746131897E-1   3.566995635628700E-2  
 6.336336336336336E8     4.826085567474365E-1   5.735513567924500E-1  -9.875438176095486E-3  -6.223911885172129E-3  -9.766083210706711E-3  -6.246674805879593E-3  -9.704145193099976E-1   4.504936560988426E-2  
 6.360360360360360E8     5.012026429176331E-1   5.620019435882568E-1  -1.127082761377096E-2  -5.832889582961798E-3  -1.121853478252888E-2  -5.816291552037001E-3  -9.693495631217957E-1   5.356754362583160E-2  
 6.384384384384384E8     5.200631618499756E-1   5.480102896690369E-1  -1.253228262066841E-2  -5.113305989652872E-3  -1.243750844150782E-2  -5.181520245969296E-3  -9.685419201850891E-1   6.428533792495728E-2  
 6.408408408408408E8     5.387763381004334E-1   5.308308601379395E-1  -1.364038139581680E-2  -4.196683410555124E-3  -1.362704113125801E-2  -4.270504228770733E-3  -9.675852060317993E-1   7.471390068531036E-2  
 6.432432432432432E8     5.569391846656799E-1   5.101491212844849E-1  -1.460454240441322E-2  -3.268884262070060E-3  -1.453607343137264E-2  -3.296651644632220E-3  -9.663758873939514E-1   8.478672802448273E-2  
 6.456456456456456E8     5.734470486640930E-1   4.870358407497406E-1  -1.535242237150669E-2  -2.229352714493871E-3  -1.535460911691189E-2  -2.295741578564048E-3  -9.652072787284851E-1   9.471393376588821E-2  
 6.480480480480480E8     5.884057283401489E-1   4.623177349567413E-1  -1.601395197212696E-2  -1.216721488162875E-3  -1.594519242644310E-2  -1.210833550430834E-3  -9.638612270355225E-1   1.038803160190582E-1  
 6.504504504504504E8     6.013591885566711E-1   4.379790723323822E-1  -1.653175801038742E-2   5.099222107673995E-6  -1.650219224393368E-2  -1.000990305328742E-4  -9.600017666816711E-1   1.139059364795685E-1  
 6.528528528528528E8     6.125125885009766E-1   4.118363261222839E-1  -1.694273576140404E-2   1.028087572194636E-3  -1.689309626817703E-2   1.009047380648553E-3  -9.563326835632324E-1   1.253316402435303E-1  
 6.552552552552552E8     6.217128038406372E-1   3.847887814044952E-1  -1.710470393300057E-2   2.153497654944658E-3  -1.704485900700092E-2   2.146129729226232E-3  -9.551834464073181E-1   1.371969133615494E-1  
 6.576576576576576E8     6.285621523857117E-1   3.567082285881043E-1  -1.716811396181583E-2   3.128459909930825E-3  -1.716387458145618E-2   3.037767019122839E-3  -9.554699063301086E-1   1.470925062894821E-1  
 6.600600600600600E8     6.340769529342651E-1   3.276663720607758E-1  -1.710378006100655E-2   4.154351539909840E-3  -1.708212681114674E-2   4.077288322150707E-3  -9.564296007156372E-1   1.552644222974777E-1  
 6.624624624624624E8     6.375141739845276E-1   3.005992770195007E-1  -1.697546057403088E-2   5.058412905782461E-3  -1.708441227674484E-2   4.893070086836815E-3  -9.546557664871216E-1   1.657693982124329E-1  
 6.648648648648648E8     6.395278573036194E-1   2.726960778236389E-1  -1.683474332094193E-2   5.761123728007078E-3  -1.682645268738270E-2   5.603894125670195E-3  -9.524722695350647E-1   1.762721240520477E-1  
 6.672672672672672E8     6.391955614089966E-1   2.440712898969650E-1  -1.669029891490936E-2   6.326232571154833E-3  -1.674148812890053E-2   6.174681242555380E-3  -9.502883553504944E-1   1.863432973623276E-1  
 6.696696696696696E8     6.364319324493408E-1   2.156184315681458E-1  -1.658768765628338E-2   6.858961656689644E-3  -1.657241396605969E-2   6.851489190012217E-3  -9.477698802947998E-1   1.960723251104355E-1  
 6.720720720720720E8     6.322555541992188E-1   1.882949620485306E-1  -1.645048893988133E-2   7.223568856716156E-3  -1.638372987508774E-2   7.201862055808306E-3  -9.448142647743225E-1   2.056094110012054E-1  
 6.744744744744744E8     6.259375810623169E-1   1.632418036460877E-1  -1.618533022701740E-2   7.529212161898613E-3  -1.623672619462013E-2   7.468077354133129E-3  -9.422900676727295E-1   2.163139730691910E-1  
 6.768768768768768E8     6.178466677665710E-1   1.395297199487686E-1  -1.612592861056328E-2   7.556346245110035E-3  -1.610949262976646E-2   7.448979187756777E-3  -9.392687082290649E-1   2.264603078365326E-1  
 6.792792792792792E8     6.080574393272400E-1   1.181184723973274E-1  -1.611761376261711E-2   7.177244871854782E-3  -1.616114936769009E-2   7.158770691603422E-3  -9.361706376075745E-1   2.369384914636612E-1  
 6.816816816816816E8     5.984516739845276E-1   9.988810867071152E-2  -1.656887866556644E-2   6.595586426556110E-3  -1.667933911085129E-2   6.508702412247658E-3  -9.327368140220642E-1   2.474220991134644E-1  
 6.840840840840840E8     5.898660421371460E-1   8.429419994354248E-2  -1.773989386856556E-2   5.819880869239569E-3  -1.771816238760948E-2   5.724711343646050E-3  -9.292923808097839E-1   2.578414380550385E-1  
 6.864864864864864E8     5.832942724227905E-1   7.208129763603210E-2  -1.971397921442986E-2   5.230762064456940E-3  -1.970557309687138E-2   5.141534376889467E-3  -9.249795079231262E-1   2.676165699958801E-1  
 6.888888888888888E8     5.806113481521606E-1   5.994680896401405E-2  -2.244393713772297E-2   5.413222126662731E-3  -2.241114526987076E-2   5.158795509487391E-3  -9.203696250915527E-1   2.775100171566010E-1  
 6.912912912912912E8     5.818867087364197E-1   4.659020155668259E-2  -2.556829340755940E-2   6.562556605786085E-3  -2.562110871076584E-2   6.275744177401066E-3  -9.157078266143799E-1   2.876042127609253E-1  
 6.936936936936936E8     5.862489938735962E-1   2.941318973898888E-2  -2.868034690618515E-2   8.811683394014835E-3  -2.869661152362824E-2   8.536835201084614E-3  -9.117864966392517E-1   2.972361445426941E-1  
 6.960960960960960E8     5.911230444908142E-1   6.583620328456163E-3  -3.124124370515347E-2   1.199358422309160E-2  -3.122302703559399E-2   1.201230753213167E-2  -9.075738191604614E-1   3.070063292980194E-1  
 6.984984984984984E8     5.940139293670654E-1  -2.051074989140034E-2  -3.291755169630051E-2   1.579475030303001E-2  -3.275743871927261E-2   1.614785380661488E-2  -9.023869633674622E-1   3.202886879444122E-1  
 7.009009009009008E8     5.918208956718445E-1  -5.172671005129814E-2  -3.393467515707016E-2   1.998865045607090E-2  -3.341777995228767E-2   2.052602171897888E-2  -8.974618315696716E-1   3.327539563179016E-1  
 7.033033033033032E8     5.841402411460877E-1  -8.425422757863998E-2  -3.379999473690987E-2   2.410223707556725E-2  -3.337618336081505E-2   2.463076822459698E-2  -8.929436206817627E-1   3.424840867519379E-1  
 7.057057057057056E8     5.713987350463867E-1  -1.167524531483650E-1  -3.328293561935425E-2   2.803294360637665E-2  -3.300743177533150E-2   2.821395732462406E-2  -8.896821141242981E-1   3.486219346523285E-1  
 7.081081081081080E8     5.539811849594116E-1  -1.488823592662811E-1  -3.219024091959000E-2   3.186278790235519E-2  -3.231543302536011E-2   3.165943920612335E-2  -8.865371346473694E-1   3.555303514003754E-1  
 7.105105105105104E8     5.330176949501038E-1  -1.773473173379898E-1  -3.086882829666138E-2   3.569701313972473E-2  -3.142490237951279E-2   3.506564348936081E-2  -8.829965591430664E-1   3.637690246105194E-1  
 7.129129129129129E8     5.096729397773743E-1  -2.025381028652191E-1  -2.931611984968185E-2   3.902951255440712E-2  -2.991456910967827E-2   3.857495263218880E-2  -8.782818317413330E-1   3.736296296119690E-1  
 7.153153153153153E8     4.845120012760162E-1  -2.245754897594452E-1  -2.754050306975842E-2   4.241710156202316E-2  -2.802203223109245E-2   4.194390028715134E-2  -8.728559613227844E-1   3.848090767860413E-1  
 7.177177177177178E8     4.578643143177033E-1  -2.442497313022614E-1  -2.559564262628555E-2   4.534555599093437E-2  -2.572308853268623E-2   4.521886631846428E-2  -8.666348457336426E-1   3.972394764423370E-1  
 7.201201201201202E8     4.298646748065949E-1  -2.618227899074554E-1  -2.314160764217377E-2   4.840167611837387E-2  -2.331576310098171E-2   4.821565374732018E-2  -8.608456254005432E-1   4.085169434547424E-1  
 7.225225225225226E8     4.011425971984863E-1  -2.759464681148529E-1  -2.047932893037796E-2   5.131554231047630E-2  -2.055458165705204E-2   5.110337585210800E-2  -8.542914986610413E-1   4.205062091350555E-1  
 7.249249249249250E8     3.715527653694153E-1  -2.874356210231781E-1  -1.716402918100357E-2   5.387511849403381E-2  -1.778388768434525E-2   5.344331637024880E-2  -8.487511873245239E-1   4.292313456535339E-1  
 7.273273273273274E8     3.424907326698303E-1  -2.960524260997772E-1  -1.384574547410011E-2   5.596866458654404E-2  -1.499665901064873E-2   5.551048740744591E-2  -8.430333137512207E-1   4.379059374332428E-1  
 7.297297297297298E8     3.150588572025299E-1  -3.021467626094818E-1  -1.095785014331341E-2   5.775467306375504E-2  -1.179561857134104E-2   5.735708773136139E-2  -8.373931646347046E-1   4.469214081764221E-1  
 7.321321321321322E8     2.890405058860779E-1  -3.059275746345520E-1  -8.214169181883335E-3   5.926444008946419E-2  -8.285723626613617E-3   5.907804891467094E-2  -8.314194083213806E-1   4.566862583160400E-1  
 7.345345345345346E8     2.627348303794861E-1  -3.079261183738709E-1  -5.170766264200211E-3   6.054694205522537E-2  -4.958563018590212E-3   6.039305031299591E-2  -8.251704573631287E-1   4.674400091171265E-1  
 7.369369369369370E8     2.362944334745407E-1  -3.091878294944763E-1  -2.111050998792052E-3   6.166179850697517E-2  -1.633760402910411E-3   6.152694672346115E-2  -8.180181384086609E-1   4.781732857227325E-1  
 7.393393393393394E8     2.103821039199829E-1  -3.085890412330627E-1   9.506595670245588E-4   6.257322430610657E-2   1.437306636944413E-3   6.238074600696564E-2  -8.112524747848511E-1   4.884415566921234E-1  
 7.417417417417418E8     1.860197186470032E-1  -3.067101538181305E-1   3.968554083257914E-3   6.340641528367996E-2   4.170959815382958E-3   6.318817287683487E-2  -8.045130968093872E-1   4.976576566696167E-1  
 7.441441441441442E8     1.626637876033783E-1  -3.040815293788910E-1   6.998698227107525E-3   6.423854082822800E-2   6.668866612017155E-3   6.405580043792725E-2  -7.979860305786133E-1   5.056723356246948E-1  
 7.465465465465466E8     1.401863396167755E-1  -2.995181977748871E-1   9.806048125028610E-3   6.513998657464981E-2   9.273685514926910E-3   6.509922444820404E-2  -7.904956340789795E-1   5.161125659942627E-1  
 7.489489489489490E8     1.175788119435310E-1  -2.940014600753784E-1   1.267124060541391E-2   6.628657132387161E-2   1.212358288466930E-2   6.622176617383957E-2  -7.840055823326111E-1   5.254982709884644E-1  
 7.513513513513514E8     9.583678096532822E-2  -2.869309484958649E-1   1.588596776127815E-2   6.724782288074493E-2   1.520730089396238E-2   6.731878966093063E-2  -7.773532867431641E-1   5.346742868423462E-1  
 7.537537537537538E8     7.548692822456360E-2  -2.792037129402161E-1   1.937594823539257E-2   6.814740598201752E-2   1.862942241132259E-2   6.832527369260788E-2  -7.701048254966736E-1   5.444336533546448E-1  
 7.561561561561562E8     5.726797506213188E-2  -2.710180878639221E-1   2.263567224144936E-2   6.901338696479797E-2   2.206683531403542E-2   6.902813166379929E-2  -7.618258595466614E-1   5.525945425033569E-1  
 7.585585585585586E8     3.854690119624138E-2  -2.610530853271484E-1   2.619660273194313E-2   7.001984864473343E-2   2.564340271055698E-2   6.974403560161591E-2  -7.515339255332947E-1   5.628871321678162E-1  
 7.609609609609610E8     2.096318826079369E-2  -2.504000663757324E-1   3.009345754981041E-2   7.115691155195236E-2   2.942026592791081E-2   7.078727334737778E-2  -7.415040135383606E-1   5.727144479751587E-1  
 7.633633633633634E8     5.361767951399088E-3  -2.390564680099487E-1   3.458601981401444E-2   7.204480469226837E-2   3.379955515265465E-2   7.169406861066818E-2  -7.325164675712585E-1   5.813372135162354E-1  
 7.657657657657658E8    -7.826165296137333E-3  -2.280527800321579E-1   3.938589617609978E-2   7.246144115924835E-2   3.865107893943787E-2   7.235977053642273E-2  -7.249634861946106E-1   5.886223912239075E-1  
 7.681681681681682E8    -1.862442307174206E-2  -2.171897739171982E-1   4.427108541131020E-2   7.224965840578079E-2   4.378205537796021E-2   7.256703823804855E-2  -7.188022732734680E-1   5.949416756629944E-1  
 7.705705705705706E8    -2.761205658316612E-2  -2.056206464767456E-1   4.926858842372894E-2   7.165637612342835E-2   4.867990687489510E-2   7.217367738485336E-2  -7.121425271034241E-1   6.013932228088379E-1  
 7.729729729729730E8    -3.637512028217316E-2  -1.967074126005173E-1   5.419335886836052E-2   7.034828513860703E-2   5.375548079609871E-2   7.144021242856979E-2  -7.055186033248901E-1   6.103181242942810E-1  
 7.753753753753754E8    -4.619573056697846E-2  -1.892580687999725E-1   5.889698117971420E-2   6.888096779584885E-2   5.867820978164673E-2   7.008467614650726E-2  -6.964346766471863E-1   6.210178732872009E-1  
 7.777777777777778E8    -5.641642957925797E-2  -1.819677203893662E-1   6.349054723978043E-2   6.753213703632355E-2   6.312850117683411E-2   6.837090104818344E-2  -6.850744485855103E-1   6.298513412475586E-1  
 7.801801801801802E8    -6.716310232877731E-2  -1.744203716516495E-1   6.824471056461334E-2   6.630456447601318E-2   6.759377568960190E-2   6.644706428050995E-2  -6.712556481361389E-1   6.363371610641480E-1  
 7.825825825825826E8    -7.830992341041565E-2  -1.642207652330399E-1   7.303497195243835E-2   6.447723507881165E-2   7.255260646343231E-2   6.438589841127396E-2  -6.584175229072571E-1   6.443861126899719E-1  
 7.849849849849850E8    -8.818445354700089E-2  -1.547093242406845E-1   7.798589020967484E-2   6.213774159550667E-2   7.710917294025421E-2   6.228171661496162E-2  -6.480574607849121E-1   6.493446230888367E-1  
 7.873873873873874E8    -9.873681515455246E-2  -1.457730233669281E-1   8.271149545907974E-2   5.994193628430367E-2   8.160252869129181E-2   6.008522585034370E-2  -6.391239762306213E-1   6.541817784309387E-1  
 7.897897897897898E8    -1.099919304251671E-1  -1.352306008338928E-1   8.764258027076721E-2   5.762299150228500E-2   8.664827048778534E-2   5.785217136144638E-2  -6.308394074440002E-1   6.611678600311279E-1  
 7.921921921921922E8    -1.201967298984528E-1  -1.221602112054825E-1   9.290865808725357E-2   5.465814098715782E-2   9.246636182069778E-2   5.521943047642708E-2  -6.228997111320496E-1   6.701695322990418E-1  
 7.945945945945946E8    -1.279786527156830E-1  -1.067648455500603E-1   9.841301292181015E-2   5.104097351431847E-2   9.778501838445664E-2   5.181832984089851E-2  -6.113708615303040E-1   6.768815517425537E-1  
 7.969969969969970E8    -1.331632584333420E-1  -9.228670597076416E-2   1.036209240555763E-1   4.658656939864159E-2   1.030225083231926E-1   4.752733185887337E-2  -5.995002388954163E-1   6.841555833816528E-1  
 7.993993993993994E8    -1.370966732501984E-1  -7.864753901958466E-2   1.083813533186913E-1   4.185326024889946E-2   1.081017032265663E-1   4.266896098852158E-2  -5.871883034706116E-1   6.917498111724854E-1  
 8.018018018018018E8    -1.392068266868591E-1  -6.531313061714172E-2   1.128827407956123E-1   3.666892647743225E-2   1.127661317586899E-1   3.704055771231651E-2  -5.737329721450806E-1   6.990719437599182E-1  
 8.042042042042042E8    -1.397335380315781E-1  -5.336875468492508E-2   1.172162368893623E-1   3.094684332609177E-2   1.168660819530487E-1   3.117128089070320E-2  -5.617865324020386E-1   7.048313021659851E-1  
 8.066066066066066E8    -1.396590620279312E-1  -4.180473089218140E-2   1.207608804106712E-1   2.451555803418160E-2   1.205463334918022E-1   2.487127482891083E-2  -5.481356978416443E-1   7.123853564262390E-1  
 8.090090090090090E8    -1.388898342847824E-1  -3.176509588956833E-2   1.239046379923821E-1   1.817586086690426E-2   1.236818730831146E-1   1.847785338759422E-2  -5.339988470077515E-1   7.191231846809387E-1  
 8.114114114114114E8    -1.376493722200394E-1  -2.366652898490429E-2   1.266492456197739E-1   1.166843529790640E-2   1.264574676752091E-1   1.200531329959631E-2  -5.202848315238953E-1   7.244814634323120E-1  
 8.138138138138138E8    -1.369585990905762E-1  -1.728308573365212E-2   1.290632188320160E-1   5.149077158421278E-3   1.288186162710190E-1   5.473634693771601E-3  -5.065169930458069E-1   7.297615408897400E-1  
 8.162162162162162E8    -1.367824524641037E-1  -1.147451065480709E-2   1.312112659215927E-1  -1.848322339355946E-3   1.309593766927719E-1  -1.229925430379808E-3  -4.929023981094360E-1   7.346288561820984E-1  
 8.186186186186186E8    -1.376168131828308E-1  -5.777236074209213E-3   1.327266693115234E-1  -8.811527863144875E-3   1.323303580284119E-1  -8.318538777530193E-3  -4.779695272445679E-1   7.398620843887329E-1  
 8.210210210210210E8    -1.385958343744278E-1  -1.742991444189102E-4   1.336391419172287E-1  -1.568806730210781E-2   1.334166228771210E-1  -1.508628018200398E-2  -4.628204405307770E-1   7.447000741958618E-1  
 8.234234234234234E8    -1.394269615411758E-1   4.461233504116535E-3   1.342971026897430E-1  -2.274924702942371E-2   1.340971887111664E-1  -2.217303775250912E-2  -4.470897316932678E-1   7.490308880805969E-1  
