#  HZ   S   RI   R     50.00 
! Rohde & Schwarz ZVB8 2Ports - Version 2.81 - 1145.1010k08 SN: 100113
! Date: 2016-05-03 01:37:59
! Measurements: S11 S21 S12 S22 
! 
 6.000000000000000E8     5.044603943824768E-1   2.378019690513611E-1  -8.922724984586239E-3   1.251405803486705E-3  -8.941900916397572E-3   1.227195258252323E-3  -9.681176543235779E-1  -7.794454693794251E-2  
 6.024024024024024E8     4.982462227344513E-1   2.058937698602676E-1  -8.946695365011692E-3   1.371859339997172E-3  -8.889865130186081E-3   1.363571500405669E-3  -9.686691164970398E-1  -6.570485979318619E-2  
 6.048048048048048E8     4.897866845130920E-1   1.726069152355194E-1  -8.915134705603123E-3   1.430006697773933E-3  -8.883786387741566E-3   1.454927842132747E-3  -9.688889980316162E-1  -5.314746499061585E-2  
 6.072072072072072E8     4.777724444866180E-1   1.393304616212845E-1  -8.942529559135437E-3   1.372940605506301E-3  -9.013330563902855E-3   1.388093805871904E-3  -9.688472151756287E-1  -4.111176729202271E-2  
 6.096096096096096E8     4.623180627822876E-1   1.082791835069656E-1  -9.004593826830387E-3   1.244291313923895E-3  -9.055341593921185E-3   1.269390690140426E-3  -9.686893820762634E-1  -2.843992598354816E-2  
 6.120120120120120E8     4.442574381828308E-1   8.317947387695313E-2  -9.111661463975906E-3   1.041792682372034E-3  -9.084770455956459E-3   1.005942816846073E-3  -9.679785966873169E-1  -1.852987892925739E-2  
 6.144144144144144E8     4.260329902172089E-1   6.256473809480667E-2  -9.257065132260323E-3   5.860810051672161E-4  -9.300781413912773E-3   5.660197930410504E-4  -9.681869745254517E-1  -6.628356873989105E-3  
 6.168168168168168E8     4.086724221706390E-1   4.508993774652481E-2  -9.703228250145912E-3  -2.845145900209900E-5  -9.762565605342388E-3  -1.519601210020483E-4  -9.677984714508057E-1   5.523785483092070E-3  
 6.192192192192192E8     3.935962319374085E-1   3.059697523713112E-2  -1.047325599938631E-2  -8.866230491548777E-4  -1.043135020881891E-2  -8.657620637677610E-4  -9.672507047653198E-1   1.812230609357357E-2  
 6.216216216216216E8     3.808563947677612E-1   1.765215396881104E-2  -1.168775092810392E-2  -1.750544761307538E-3  -1.171460375189781E-2  -1.799258403480053E-3  -9.658978581428528E-1   3.163548186421394E-2  
 6.240240240240240E8     3.714930713176727E-1   7.025160361081362E-3  -1.357914041727781E-2  -2.490498591214418E-3  -1.356729678809643E-2  -2.572853118181229E-3  -9.639887213706970E-1   4.431990906596184E-2  
 6.264264264264264E8     3.664929270744324E-1  -3.858069423586130E-3  -1.610518246889114E-2  -2.829252509400249E-3  -1.607706397771835E-2  -2.881221938878298E-3  -9.631603956222534E-1   5.756548792123795E-2  
 6.288288288288288E8     3.642195165157318E-1  -1.843770593404770E-2  -1.907493174076080E-2  -2.484620315954089E-3  -1.907288841903210E-2  -2.511847997084260E-3  -9.617446064949036E-1   7.003892958164215E-2  
 6.312312312312312E8     3.644876778125763E-1  -3.762355074286461E-2  -2.235578186810017E-2  -1.062519266270101E-3  -2.228960953652859E-2  -1.270014909096062E-3  -9.600437283515930E-1   8.140808343887329E-2  
 6.336336336336336E8     3.655723631381989E-1  -6.288591027259827E-2  -2.534219808876514E-2   1.267798128537834E-3  -2.527499012649059E-2   1.210046466439962E-3  -9.578250646591187E-1   9.206487238407135E-2  
 6.360360360360360E8     3.639942705631256E-1  -9.532505273818970E-2  -2.771112695336342E-2   4.523295909166336E-3  -2.771631628274918E-2   4.385162610560656E-3  -9.560832977294922E-1   1.019666194915772E-1  
 6.384384384384384E8     3.563312590122223E-1  -1.314784139394760E-1  -2.919475361704826E-2   8.284870535135269E-3  -2.916893549263477E-2   8.061889559030533E-3  -9.540719389915466E-1   1.137247979640961E-1  
 6.408408408408408E8     3.413632810115814E-1  -1.703336536884308E-1  -2.990038692951202E-2   1.218353491276503E-2  -2.993585541844368E-2   1.192008238285780E-2  -9.519971013069153E-1   1.254216730594635E-1  
 6.432432432432432E8     3.195789754390717E-1  -2.078705877065659E-1  -2.979051880538464E-2   1.596764288842678E-2  -2.979441359639168E-2   1.582965254783630E-2  -9.497175216674805E-1   1.369117945432663E-1  
 6.456456456456456E8     2.896018922328949E-1  -2.437374144792557E-1  -2.912476100027561E-2   1.955446787178516E-2  -2.912048622965813E-2   1.933501288294792E-2  -9.471272826194763E-1   1.482764780521393E-1  
 6.480480480480480E8     2.543084621429443E-1  -2.755300700664520E-1  -2.800733409821987E-2   2.297136746346951E-2  -2.798784337937832E-2   2.266558445990086E-2  -9.445431828498840E-1   1.589521020650864E-1  
 6.504504504504504E8     2.142687290906906E-1  -3.014782965183258E-1  -2.636365965008736E-2   2.600187808275223E-2  -2.644279599189758E-2   2.582839690148830E-2  -9.390888810157776E-1   1.706769615411758E-1  
 6.528528528528528E8     1.718193292617798E-1  -3.226089179515839E-1  -2.447617985308170E-2   2.871039323508740E-2  -2.458100765943527E-2   2.848943509161472E-2  -9.342544674873352E-1   1.839439272880554E-1  
 6.552552552552552E8     1.298441886901856E-1  -3.383373022079468E-1  -2.247014641761780E-2   3.086351603269577E-2  -2.250232920050621E-2   3.071558848023415E-2  -9.313549995422363E-1   1.975597739219666E-1  
 6.576576576576576E8     8.632320910692215E-2  -3.492150902748108E-1  -2.033177390694618E-2   3.271113336086273E-2  -2.048139646649361E-2   3.263869881629944E-2  -9.302713274955750E-1   2.095264494419098E-1  
 6.600600600600600E8     4.181089997291565E-2  -3.548882603645325E-1  -1.809377968311310E-2   3.428135812282562E-2  -1.820399053394795E-2   3.414450585842133E-2  -9.293907880783081E-1   2.192459106445313E-1  
 6.624624624624624E8    -2.378941746428609E-3  -3.544298708438873E-1  -1.575108058750629E-2   3.557067736983299E-2  -1.587924361228943E-2   3.544143587350845E-2  -9.253988265991211E-1   2.320599555969238E-1  
 6.648648648648648E8    -4.770425334572792E-2  -3.501363992691040E-1  -1.357640512287617E-2   3.639424964785576E-2  -1.383926998823881E-2   3.616082295775414E-2  -9.210248589515686E-1   2.448173910379410E-1  
 6.672672672672672E8    -8.895834535360336E-2  -3.411394953727722E-1  -1.161420531570911E-2   3.686437010765076E-2  -1.181653793901205E-2   3.671950101852417E-2  -9.163011312484741E-1   2.570111751556397E-1  
 6.696696696696696E8    -1.268199980258942E-1  -3.282763659954071E-1  -9.723779745399952E-3   3.712734207510948E-2  -9.954642504453659E-3   3.701242804527283E-2  -9.113346338272095E-1   2.689492702484131E-1  
 6.720720720720720E8    -1.600617468357086E-1  -3.134938776493073E-1  -8.249615319073200E-3   3.698681667447090E-2  -8.301456458866596E-3   3.687992319464684E-2  -9.059749841690064E-1   2.809310853481293E-1  
 6.744744744744744E8    -1.896847933530808E-1  -2.957382202148438E-1  -7.147406693547964E-3   3.661448881030083E-2  -7.154915016144514E-3   3.649985417723656E-2  -8.999547362327576E-1   2.939962446689606E-1  
 6.768768768768768E8    -2.175085395574570E-1  -2.753187417984009E-1  -6.586045958101749E-3   3.601032122969627E-2  -6.653029005974531E-3   3.591441735625267E-2  -8.936730623245239E-1   3.069271445274353E-1  
 6.792792792792792E8    -2.406924366950989E-1  -2.536184191703796E-1  -7.075128145515919E-3   3.535691648721695E-2  -7.084325887262821E-3   3.523182496428490E-2  -8.866111040115356E-1   3.197090923786163E-1  
 6.816816816816816E8    -2.581503093242645E-1  -2.326993048191071E-1  -8.628486655652523E-3   3.527092188596726E-2  -8.654376491904259E-3   3.510940074920654E-2  -8.793074488639832E-1   3.327139616012573E-1  
 6.840840840840840E8    -2.725101709365845E-1  -2.136857807636261E-1  -1.118668075650930E-2   3.630414977669716E-2  -1.129303313791752E-2   3.614414110779762E-2  -8.710295557975769E-1   3.455325961112976E-1  
 6.864864864864864E8    -2.830860614776611E-1  -1.976957172155380E-1  -1.435156073421240E-2   3.923640400171280E-2  -1.474420726299286E-2   3.910174593329430E-2  -8.615748286247253E-1   3.570262193679810E-1  
 6.888888888888888E8    -2.938739359378815E-1  -1.868858784437180E-1  -1.709160767495632E-2   4.444842040538788E-2  -1.756501011550427E-2   4.420993477106094E-2  -8.518446683883667E-1   3.684431016445160E-1  
 6.912912912912912E8    -3.065228462219238E-1  -1.818357259035111E-1  -1.818538270890713E-2   5.198321491479874E-2  -1.872121356427670E-2   5.163366720080376E-2  -8.420808315277100E-1   3.790714740753174E-1  
 6.936936936936936E8    -3.222320973873138E-1  -1.818442791700363E-1  -1.694102957844734E-2   6.071307882666588E-2  -1.724596135318279E-2   6.048585101962090E-2  -8.328742980957031E-1   3.890900611877441E-1  
 6.960960960960960E8    -3.478526175022125E-1  -1.786185055971146E-1  -1.246798224747181E-2   6.948284059762955E-2  -1.240601297467947E-2   6.927706301212311E-2  -8.243203163146973E-1   3.992040753364563E-1  
 6.984984984984984E8    -3.792304098606110E-1  -1.687156409025192E-1  -5.516796838492155E-3   7.683854550123215E-2  -4.612642340362072E-3   7.661677151918411E-2  -8.147861957550049E-1   4.127870202064514E-1  
 7.009009009009008E8    -4.118768870830536E-1  -1.512820571660996E-1   3.184650093317032E-3   8.198533952236176E-2   4.706240259110928E-3   8.162324875593185E-2  -8.051780462265015E-1   4.259116649627686E-1  
 7.033033033033032E8    -4.420884251594544E-1  -1.268672049045563E-1   1.257292367517948E-2   8.468282967805862E-2   1.370191108435392E-2   8.432877063751221E-2  -7.969146370887756E-1   4.367825686931610E-1  
 7.057057057057056E8    -4.688740670681000E-1  -9.701606631278992E-2   2.166802994906902E-2   8.558055013418198E-2   2.207751385867596E-2   8.528256416320801E-2  -7.896990776062012E-1   4.457326233386993E-1  
 7.081081081081080E8    -4.898837506771088E-1  -6.338959932327271E-2   3.037597611546516E-2   8.516778051853180E-2   2.963131293654442E-2   8.536033332347870E-2  -7.813697457313538E-1   4.553444087505341E-1  
 7.105105105105104E8    -5.045787692070007E-1  -2.915754355490208E-2   3.839715197682381E-2   8.415256440639496E-2   3.699328005313873E-2   8.462891727685928E-2  -7.722641229629517E-1   4.667588770389557E-1  
 7.129129129129129E8    -5.149924159049988E-1   3.814731957390904E-3   4.557730257511139E-2   8.259635418653488E-2   4.416532441973686E-2   8.331663161516190E-2  -7.612141370773315E-1   4.794622659683228E-1  
 7.153153153153153E8    -5.228419303894043E-1   3.566838428378105E-2   5.212473869323731E-2   8.091442286968231E-2   5.117852613329887E-2   8.145411312580109E-2  -7.479251027107239E-1   4.934174120426178E-1  
 7.177177177177178E8    -5.283830761909485E-1   6.752735376358032E-2   5.842673406004906E-2   7.915547490119934E-2   5.813685059547424E-2   7.928556948900223E-2  -7.335499525070190E-1   5.075099468231201E-1  
 7.201201201201202E8    -5.308564901351929E-1   1.000086739659309E-1   6.519662588834763E-2   7.691591233015060E-2   6.491993367671967E-2   7.695998251438141E-2  -7.187545895576477E-1   5.208628773689270E-1  
 7.225225225225226E8    -5.314286947250366E-1   1.318982988595963E-1   7.205935567617416E-2   7.420904189348221E-2   7.168322056531906E-2   7.419502735137940E-2  -7.031263113021851E-1   5.343593358993530E-1  
 7.249249249249250E8    -5.298179388046265E-1   1.633853614330292E-1   7.907480001449585E-2   7.042700797319412E-2   7.772895693778992E-2   7.143780589103699E-2  -6.875047683715820E-1   5.447496771812439E-1  
 7.273273273273274E8    -5.260618925094605E-1   1.928505450487137E-1   8.567889034748077E-2   6.624349951744080E-2   8.386088162660599E-2   6.806255877017975E-2  -6.715009212493897E-1   5.548840761184692E-1  
 7.297297297297298E8    -5.211250782012940E-1   2.193943709135056E-1   9.162577986717224E-2   6.225986406207085E-2   9.024500101804733E-2   6.365597248077393E-2  -6.546080112457275E-1   5.651538372039795E-1  
 7.321321321321322E8    -5.152310132980347E-1   2.435949891805649E-1   9.686425328254700E-2   5.825080722570419E-2   9.651459753513336E-2   5.842527374625206E-2  -6.364090442657471E-1   5.756149888038635E-1  
 7.345345345345346E8    -5.078306794166565E-1   2.666596770286560E-1   1.019868776202202E-1   5.355653166770935E-2   1.020485833287239E-1   5.304278433322907E-2  -6.166824102401733E-1   5.864462256431580E-1  
 7.369369369369370E8    -4.994462132453919E-1   2.892432212829590E-1   1.067675128579140E-1   4.861803725361824E-2   1.071187853813171E-1   4.734972119331360E-2  -5.956153869628906E-1   5.969407558441162E-1  
 7.393393393393394E8    -4.896913468837738E-1   3.113583028316498E-1   1.115920469164848E-1   4.341654852032661E-2   1.118008196353912E-1   4.216203838586807E-2  -5.735676884651184E-1   6.061837077140808E-1  
 7.417417417417418E8    -4.796206057071686E-1   3.319609165191650E-1   1.164987906813622E-1   3.788617998361588E-2   1.164298877120018E-1   3.721163421869278E-2  -5.506788492202759E-1   6.137078404426575E-1  
 7.441441441441442E8    -4.687668979167938E-1   3.510296642780304E-1   1.215252801775932E-1   3.203435987234116E-2   1.213009133934975E-1   3.235241770744324E-2  -5.269479155540466E-1   6.193613409996033E-1  
 7.465465465465466E8    -4.590699672698975E-1   3.691074550151825E-1   1.265784204006195E-1   2.609506808221340E-2   1.262187808752060E-1   2.682010829448700E-2  -5.007429122924805E-1   6.256081461906433E-1  
 7.489489489489490E8    -4.492060244083405E-1   3.863046169281006E-1   1.317198127508164E-1   1.983659155666828E-2   1.314906179904938E-1   2.099475078284740E-2  -4.749320745468140E-1   6.294756531715393E-1  
 7.513513513513514E8    -4.382415711879730E-1   4.027684330940247E-1   1.370896100997925E-1   1.295496430248022E-2   1.369618028402329E-1   1.437276974320412E-2  -4.483022093772888E-1   6.316663622856140E-1  
 7.537537537537538E8    -4.254707992076874E-1   4.197464585304260E-1   1.429350227117539E-1   4.936434794217348E-3   1.429769247770309E-1   6.813645828515291E-3  -4.189584851264954E-1   6.319944262504578E-1  
 7.561561561561562E8    -4.114916622638702E-1   4.343512356281281E-1   1.490008234977722E-1  -3.884335514158011E-3   1.487394869327545E-1  -2.475594636052847E-3  -3.876731097698212E-1   6.287100911140442E-1  
 7.585585585585586E8    -3.976198434829712E-1   4.483563601970673E-1   1.546355932950974E-1  -1.400003768503666E-2   1.539814770221710E-1  -1.298614498227835E-2  -3.535973429679871E-1   6.243421435356140E-1  
 7.609609609609610E8    -3.842472434043884E-1   4.600375294685364E-1   1.596643477678299E-1  -2.575382776558399E-2   1.587212234735489E-1  -2.467602118849754E-2  -3.200217187404633E-1   6.165804862976074E-1  
 7.633633633633634E8    -3.717824220657349E-1   4.697345197200775E-1   1.635877639055252E-1  -3.917383402585983E-2   1.627027690410614E-1  -3.754924610257149E-2  -2.874613702297211E-1   6.046021580696106E-1  
 7.657657657657658E8    -3.606496453285217E-1   4.787489771842957E-1   1.662774831056595E-1  -5.343259871006012E-2   1.659147292375565E-1  -5.168327689170837E-2  -2.557546496391296E-1   5.884660482406616E-1  
 7.681681681681682E8    -3.497589528560638E-1   4.865510761737824E-1   1.675835400819778E-1  -6.812614947557449E-2   1.681407988071442E-1  -6.721632182598114E-2  -2.258279323577881E-1   5.686327219009399E-1  
 7.705705705705706E8    -3.399332165718079E-1   4.937638640403748E-1   1.674486398696899E-1  -8.414999395608902E-2   1.682843863964081E-1  -8.348898589611054E-2  -1.961995065212250E-1   5.458649992942810E-1  
 7.729729729729730E8    -3.303211331367493E-1   5.001915097236633E-1   1.644721478223801E-1  -1.016289591789246E-1   1.663495749235153E-1  -1.011522114276886E-1  -1.672501564025879E-1   5.207862854003906E-1  
 7.753753753753754E8    -3.220487534999847E-1   5.064540505409241E-1   1.590480059385300E-1  -1.195335760712624E-1   1.612811386585236E-1  -1.192004010081291E-1  -1.389478147029877E-1   4.915188252925873E-1  
 7.777777777777778E8    -3.153219819068909E-1   5.121924877166748E-1   1.511636674404144E-1  -1.368692368268967E-1   1.529924571514130E-1  -1.366513520479202E-1  -1.129172965884209E-1   4.569251835346222E-1  
 7.801801801801802E8    -3.097678720951080E-1   5.181230306625366E-1   1.409353911876679E-1  -1.533490270376205E-1   1.416439265012741E-1  -1.524312794208527E-1  -9.077731519937515E-2   4.161535501480103E-1  
 7.825825825825826E8    -3.039187490940094E-1   5.261276960372925E-1   1.281597614288330E-1  -1.681150346994400E-1   1.288283914327622E-1  -1.675267070531845E-1  -7.351146638393402E-2   3.739646375179291E-1  
 7.849849849849850E8    -3.003284633159638E-1   5.351899266242981E-1   1.136495023965836E-1  -1.818809062242508E-1   1.145804673433304E-1  -1.805130988359451E-1  -6.337993592023850E-2   3.293237686157227E-1  
 7.873873873873874E8    -2.971221208572388E-1   5.467820763587952E-1   9.806820750236511E-2  -1.936430484056473E-1   9.864738583564758E-2  -1.917160153388977E-1  -5.837777629494667E-2   2.843122184276581E-1  
 7.897897897897898E8    -2.906389832496643E-1   5.614458322525024E-1   8.105788379907608E-2  -2.038859874010086E-1   8.187499642372131E-2  -2.019039988517761E-1  -5.735151097178459E-2   2.389381378889084E-1  
 7.921921921921922E8    -2.802319228649139E-1   5.772576332092285E-1   6.185488030314446E-2  -2.121158987283707E-1   6.356575340032578E-2  -2.113929092884064E-1  -6.256657093763351E-2   1.906874924898148E-1  
 7.945945945945946E8    -2.701681554317474E-1   5.925515294075012E-1   4.171580448746681E-2  -2.182890772819519E-1   4.408211633563042E-2  -2.175031751394272E-1  -7.469869405031204E-2   1.424114555120468E-1  
 7.969969969969970E8    -2.595240175724030E-1   6.054213047027588E-1   2.118382789194584E-2  -2.213544547557831E-1   2.369268052279949E-2  -2.209801375865936E-1  -9.383537620306015E-2   9.739980101585388E-2  
 7.993993993993994E8    -2.479837536811829E-1   6.174436211585999E-1   5.430331220850349E-4  -2.217644751071930E-1   2.594619523733854E-3  -2.216350287199020E-1  -1.195844411849976E-1   5.549579858779907E-2  
 8.018018018018018E8    -2.346477210521698E-1   6.286095380783081E-1  -1.946719177067280E-2  -2.195602953433991E-1  -1.859038695693016E-2  -2.196732461452484E-1  -1.499330103397369E-1   1.872765645384789E-2  
 8.042042042042042E8    -2.208784967660904E-1   6.393339037895203E-1  -3.935385122895241E-2  -2.153543978929520E-1  -3.863617777824402E-2  -2.151380479335785E-1  -1.844572573900223E-1  -1.361216418445110E-2  
 8.066066066066066E8    -2.069061994552612E-1   6.496322154998779E-1  -5.828473344445229E-2  -2.085966318845749E-1  -5.801999196410179E-2  -2.080518752336502E-1  -2.223467379808426E-1  -4.019650444388390E-2  
 8.090090090090090E8    -1.912656426429749E-1   6.596505045890808E-1  -7.587318122386932E-2  -1.992616057395935E-1  -7.608226686716080E-2  -1.987893432378769E-1  -2.631313204765320E-1  -6.111463531851769E-2  
 8.114114114114114E8    -1.757321953773499E-1   6.684943437576294E-1  -9.200437366962433E-2  -1.875406950712204E-1  -9.193411469459534E-2  -1.873032748699188E-1  -3.046372532844544E-1  -7.513947039842606E-2  
 8.138138138138138E8    -1.604831069707871E-1   6.767616868019104E-1  -1.055678874254227E-1  -1.743379533290863E-1  -1.052188724279404E-1  -1.743548214435577E-1  -3.451722264289856E-1  -8.343301713466644E-2  
 8.162162162162162E8    -1.452928185462952E-1   6.843861937522888E-1  -1.167604401707649E-1  -1.605329811573029E-1  -1.162243410944939E-1  -1.606270819902420E-1  -3.847765326499939E-1  -8.657443523406982E-2  
 8.186186186186186E8    -1.304036527872086E-1   6.913592219352722E-1  -1.256380528211594E-1  -1.461616754531860E-1  -1.248885914683342E-1  -1.465875804424286E-1  -4.212556481361389E-1  -8.502504229545593E-2  
 8.210210210210210E8    -1.154659166932106E-1   6.966449618339539E-1  -1.326575428247452E-1  -1.318414360284805E-1  -1.319236010313034E-1  -1.323219984769821E-1  -4.566376209259033E-1  -7.977414131164551E-2  
 8.234234234234234E8    -1.007809266448021E-1   7.010906338691711E-1  -1.379479765892029E-1  -1.173952668905258E-1  -1.372814774513245E-1  -1.176065206527710E-1  -4.900484085083008E-1  -7.156424224376679E-2  
