#  HZ   S   RI   R     50.00 
! Rohde & Schwarz ZVB8 2Ports - Version 2.81 - 1145.1010k08 SN: 100113
! Date: 2016-05-03 01:37:29
! Measurements: S11 S21 S12 S22 
! 
 6.000000000000000E8     4.875109493732452E-1   4.605163931846619E-1  -6.647369358688593E-3  -4.604154964908958E-4  -6.691905204206705E-3  -4.990409943275154E-4  -9.690082073211670E-1  -9.546568989753723E-2  
 6.024024024024024E8     4.935448169708252E-1   4.320830702781677E-1  -6.703223567456007E-3  -4.194171051494777E-4  -6.704247090965509E-3  -3.949299280066043E-4  -9.697058796882629E-1  -8.409567922353745E-2  
 6.048048048048048E8     4.976374804973602E-1   4.029083251953125E-1  -6.703000050038099E-3  -4.469728155527264E-4  -6.619515828788281E-3  -3.641713992692530E-4  -9.703129529953003E-1  -7.210992276668549E-2  
 6.072072072072072E8     4.992609918117523E-1   3.731364607810974E-1  -6.610638462007046E-3  -5.027643637731671E-4  -6.668256130069494E-3  -5.558211123570800E-4  -9.708774685859680E-1  -6.058068200945854E-2  
 6.096096096096096E8     4.981211423873901E-1   3.437897264957428E-1  -6.630070973187685E-3  -6.627382244914770E-4  -6.695717107504606E-3  -6.330866599455476E-4  -9.708184599876404E-1  -4.887763410806656E-2  
 6.120120120120120E8     4.934054315090179E-1   3.194813430309296E-1  -6.740742828696966E-3  -9.266310953535140E-4  -6.756477057933807E-3  -9.925550548359752E-4  -9.704874753952026E-1  -3.947177156805992E-2  
 6.144144144144144E8     4.878036081790924E-1   2.985865771770477E-1  -6.816622801125050E-3  -1.396899693645537E-3  -6.871406920254231E-3  -1.398374442942441E-3  -9.711164832115173E-1  -2.872725762426853E-2  
 6.168168168168168E8     4.820215404033661E-1   2.793022394180298E-1  -7.099064998328686E-3  -1.987723633646965E-3  -7.108516991138458E-3  -2.011210424825549E-3  -9.714040160179138E-1  -1.689362525939941E-2  
 6.192192192192192E8     4.767827987670898E-1   2.623170912265778E-1  -7.572402711957693E-3  -2.691358560696244E-3  -7.598532829433680E-3  -2.684468869119883E-3  -9.710147380828857E-1  -5.213528405874968E-3  
 6.216216216216216E8     4.731107056140900E-1   2.469929456710815E-1  -8.409739471971989E-3  -3.506925422698259E-3  -8.436392061412334E-3  -3.527751658111811E-3  -9.705326557159424E-1   7.034926675260067E-3  
 6.240240240240240E8     4.710226058959961E-1   2.335103601217270E-1  -9.776853956282139E-3  -4.326947499066591E-3  -9.638919495046139E-3  -4.353182390332222E-3  -9.693402647972107E-1   1.925687305629253E-2  
 6.264264264264264E8     4.730306863784790E-1   2.219347357749939E-1  -1.143896859139204E-2  -4.873252008110285E-3  -1.142446696758270E-2  -4.938993137329817E-3  -9.692173600196838E-1   3.214856609702110E-2  
 6.288288288288288E8     4.792183041572571E-1   2.090256065130234E-1  -1.360210124403238E-2  -5.073296837508678E-3  -1.354347169399262E-2  -5.075089633464813E-3  -9.683973193168640E-1   4.334361851215363E-2  
 6.312312312312312E8     4.889817535877228E-1   1.925347149372101E-1  -1.597665809094906E-2  -4.593241494148970E-3  -1.592399552464485E-2  -4.576192237436771E-3  -9.673050642013550E-1   5.396815761923790E-2  
 6.336336336336336E8     5.009232163429260E-1   1.712009012699127E-1  -1.822360418736935E-2  -3.439552616328001E-3  -1.807210221886635E-2  -3.457079408690333E-3  -9.662709236145020E-1   6.378267705440521E-2  
 6.360360360360360E8     5.126461982727051E-1   1.435174793004990E-1  -2.020069397985935E-2  -1.694672391749919E-3  -2.011041156947613E-2  -1.875973888672888E-3  -9.648716449737549E-1   7.299581170082092E-2  
 6.384384384384384E8     5.212543606758118E-1   1.115272641181946E-1  -2.182502485811710E-2   2.493766078259796E-4  -2.168724499642849E-2   1.645003503654152E-4  -9.635531306266785E-1   8.387333154678345E-2  
 6.408408408408408E8     5.261466503143311E-1   7.564602047204971E-2  -2.293349057435989E-2   2.496192231774330E-3  -2.285099960863590E-2   2.436660230159760E-3  -9.623258709907532E-1   9.493014216423035E-2  
 6.432432432432432E8     5.259559750556946E-1   3.688982874155045E-2  -2.371984347701073E-2   4.855930805206299E-3  -2.366223186254501E-2   4.726111888885498E-3  -9.607995748519898E-1   1.054354459047318E-1  
 6.456456456456456E8     5.193681120872498E-1  -5.138706881552935E-3  -2.411906979978085E-2   7.176279556006193E-3  -2.402324043214321E-2   6.948946509510279E-3  -9.590992331504822E-1   1.157728582620621E-1  
 6.480480480480480E8     5.075801610946655E-1  -4.603634774684906E-2  -2.428818680346012E-2   9.418787434697151E-3  -2.423257566988468E-2   9.255115874111652E-3  -9.573478102684021E-1   1.256536394357681E-1  
 6.504504504504504E8     4.906816184520721E-1  -8.424644172191620E-2  -2.413859404623509E-2   1.171772461384535E-2  -2.414883859455586E-2   1.156558282673359E-2  -9.529146552085877E-1   1.357994824647903E-1  
 6.528528528528528E8     4.703306257724762E-1  -1.203875914216042E-1  -2.377575635910034E-2   1.394075620919466E-2  -2.374589629471302E-2   1.375468447804451E-2  -9.492180943489075E-1   1.483492404222488E-1  
 6.552552552552552E8     4.466729760169983E-1  -1.539046615362167E-1  -2.307949215173721E-2   1.594271324574947E-2  -2.312669903039932E-2   1.584868133068085E-2  -9.472044110298157E-1   1.606869995594025E-1  
 6.576576576576576E8     4.188672006130219E-1  -1.855078339576721E-1  -2.217091247439385E-2   1.772247441112995E-2  -2.215407602488995E-2   1.767699047923088E-2  -9.472123384475708E-1   1.712720841169357E-1  
 6.600600600600600E8     3.887090682983398E-1  -2.139742523431778E-1  -2.112957462668419E-2   1.941616833209992E-2  -2.113732136785984E-2   1.925748772919178E-2  -9.474076032638550E-1   1.797613948583603E-1  
 6.624624624624624E8     3.566538691520691E-1  -2.376634776592255E-1  -1.986785233020783E-2   2.084608748555183E-2  -2.005472965538502E-2   2.061192505061626E-2  -9.451323747634888E-1   1.912420392036438E-1  
 6.648648648648648E8     3.213910758495331E-1  -2.593000531196594E-1  -1.874089799821377E-2   2.192906849086285E-2  -1.885211654007435E-2   2.177762426435947E-2  -9.422067403793335E-1   2.023738473653793E-1  
 6.672672672672672E8     2.850229442119598E-1  -2.764493823051453E-1  -1.768349856138229E-2   2.293352968990803E-2  -1.776820048689842E-2   2.267928235232830E-2  -9.389987587928772E-1   2.133013755083084E-1  
 6.696696696696696E8     2.484336644411087E-1  -2.889622151851654E-1  -1.647740043699741E-2   2.358541823923588E-2  -1.661487109959126E-2   2.348140440881252E-2  -9.357894062995911E-1   2.236074209213257E-1  
 6.720720720720720E8     2.126676142215729E-1  -2.978991270065308E-1  -1.530201919376850E-2   2.389034256339073E-2  -1.539027877151966E-2   2.388303913176060E-2  -9.322113990783691E-1   2.341045141220093E-1  
 6.744744744744744E8     1.774316430091858E-1  -3.023041188716888E-1  -1.441279053688049E-2   2.402278222143650E-2  -1.446291152387857E-2   2.390999160706997E-2  -9.287444949150085E-1   2.454894334077835E-1  
 6.768768768768768E8     1.440302431583405E-1  -3.028886914253235E-1  -1.375925168395042E-2   2.368183806538582E-2  -1.387674920260906E-2   2.361647039651871E-2  -9.248001575469971E-1   2.566509842872620E-1  
 6.792792792792792E8     1.138033345341682E-1  -2.995465695858002E-1  -1.380563341081142E-2   2.297264710068703E-2  -1.392634678632021E-2   2.295177429914475E-2  -9.205831289291382E-1   2.678529322147369E-1  
 6.816816816816816E8     8.863931894302368E-2  -2.936190962791443E-1  -1.483621913939714E-2   2.231648191809654E-2  -1.483381353318691E-2   2.220783010125160E-2  -9.161313772201538E-1   2.790172696113586E-1  
 6.840840840840840E8     6.786532700061798E-2  -2.869997024536133E-1  -1.686541363596916E-2   2.203794382512569E-2  -1.687399856746197E-2   2.193986438214779E-2  -9.113926291465759E-1   2.905589640140533E-1  
 6.864864864864864E8     5.118548497557640E-2  -2.811938226222992E-1  -1.988550275564194E-2   2.286089584231377E-2  -1.999258995056152E-2   2.271047607064247E-2  -9.054924845695496E-1   3.008183538913727E-1  
 6.888888888888888E8     3.804515302181244E-2  -2.800609469413757E-1  -2.336104586720467E-2   2.546093985438347E-2  -2.357341535389423E-2   2.518092095851898E-2  -8.993636369705200E-1   3.115207850933075E-1  
 6.912912912912912E8     2.660246193408966E-2  -2.850969135761261E-1  -2.642416022717953E-2   3.002579696476460E-2  -2.669660933315754E-2   2.955884486436844E-2  -8.931621909141541E-1   3.218316733837128E-1  
 6.936936936936936E8     1.136965211480856E-2  -2.971991598606110E-1  -2.814125083386898E-2   3.615152835845947E-2  -2.840326540172100E-2   3.582613542675972E-2  -8.877389430999756E-1   3.315964341163635E-1  
 6.960960960960960E8    -1.079200301319361E-2  -3.130623698234558E-1  -2.786719612777233E-2   4.305914416909218E-2  -2.799014747142792E-2   4.292574152350426E-2  -8.823848366737366E-1   3.415997028350830E-1  
 6.984984984984984E8    -4.242880642414093E-2  -3.276615738868713E-1  -2.554692327976227E-2   4.985423758625984E-2  -2.505307272076607E-2   5.000448599457741E-2  -8.760465979576111E-1   3.552652597427368E-1  
 7.009009009009008E8    -8.194473385810852E-2  -3.364509046077728E-1  -2.160852961242199E-2   5.563994497060776E-2  -2.059745788574219E-2   5.590545386075974E-2  -8.697918653488159E-1   3.676315546035767E-1  
 7.033033033033032E8    -1.241922676563263E-1  -3.369788825511932E-1  -1.656656898558140E-2   6.025256589055061E-2  -1.566424965858460E-2   6.036393716931343E-2  -8.644156455993652E-1   3.778749704360962E-1  
 7.057057057057056E8    -1.649098098278046E-1  -3.310157954692841E-1  -1.128861028701067E-2   6.352588534355164E-2  -1.077008526772261E-2   6.347870826721191E-2  -8.604615330696106E-1   3.847444653511047E-1  
 7.081081081081080E8    -2.057075053453445E-1  -3.172063827514648E-1  -5.645723082125187E-3   6.611350923776627E-2  -5.913063883781433E-3   6.596480309963226E-2  -8.559082150459290E-1   3.927836120128632E-1  
 7.105105105105104E8    -2.436469644308090E-1  -2.968353927135468E-1   4.844155046157539E-5   6.798119097948074E-2  -9.943142067641020E-4   6.787718087434769E-2  -8.512020111083984E-1   4.022565484046936E-1  
 7.129129129129129E8    -2.770036458969116E-1  -2.737007737159729E-1   5.375898443162441E-3   6.908267736434937E-2   4.039086867123842E-3   6.911350041627884E-2  -8.451863527297974E-1   4.128574430942535E-1  
 7.153153153153153E8    -3.061237633228302E-1  -2.497455030679703E-1   1.013678126037121E-2   6.987372040748596E-2   9.122867137193680E-3   6.994739919900894E-2  -8.382192850112915E-1   4.252358675003052E-1  
 7.177177177177178E8    -3.330859243869782E-1  -2.241246253252029E-1   1.478632073849440E-2   7.046955823898315E-2   1.424249261617661E-2   7.054965943098068E-2  -8.299918174743652E-1   4.381627440452576E-1  
 7.201201201201202E8    -3.576572537422180E-1  -1.960589885711670E-1   1.963865943253040E-2   7.080576568841934E-2   1.927392557263374E-2   7.089709490537643E-2  -8.219735622406006E-1   4.506079256534576E-1  
 7.225225225225226E8    -3.796043992042542E-1  -1.661072373390198E-1   2.475607953965664E-2   7.094961404800415E-2   2.445060387253761E-2   7.084874063730240E-2  -8.134462833404541E-1   4.635925292968750E-1  
 7.249249249249250E8    -3.969622850418091E-1  -1.349337995052338E-1   3.006370738148689E-2   7.047726958990097E-2   2.902868203818798E-2   7.059960812330246E-2  -8.057949542999268E-1   4.732655882835388E-1  
 7.273273273273274E8    -4.103401005268097E-1  -1.044148132205010E-1   3.526470810174942E-2   6.962189823389053E-2   3.371725603938103E-2   6.997884064912796E-2  -7.977909445762634E-1   4.831421375274658E-1  
 7.297297297297298E8    -4.209947884082794E-1  -7.630167156457901E-2   3.976888209581375E-2   6.856404244899750E-2   3.856780752539635E-2   6.890334933996201E-2  -7.896843552589417E-1   4.930301606655121E-1  
 7.321321321321322E8    -4.303308725357056E-1  -4.900879412889481E-2   4.389945417642593E-2   6.736483424901962E-2   4.371012747287750E-2   6.715472787618637E-2  -7.810550928115845E-1   5.035259127616882E-1  
 7.345345345345346E8    -4.381715059280396E-1  -2.009254880249500E-2   4.806573688983917E-2   6.561964005231857E-2   4.814513027667999E-2   6.510380655527115E-2  -7.720451354980469E-1   5.152029395103455E-1  
 7.369369369369370E8    -4.443867206573486E-1   9.290180169045925E-3   5.191440507769585E-2   6.365001946687698E-2   5.219995975494385E-2   6.308490037918091E-2  -7.619665861129761E-1   5.268622040748596E-1  
 7.393393393393394E8    -4.482095539569855E-1   3.826221823692322E-2   5.549937486648560E-2   6.171057745814323E-2   5.579982325434685E-2   6.116694211959839E-2  -7.517818212509155E-1   5.381049513816834E-1  
 7.417417417417418E8    -4.496582746505737E-1   6.587235629558563E-2   5.915017426013947E-2   5.991963669657707E-2   5.929652601480484E-2   5.966430529952049E-2  -7.416104674339294E-1   5.479248762130737E-1  
 7.441441441441442E8    -4.489504992961884E-1   9.265322238206863E-2   6.316389143466950E-2   5.788554623723030E-2   6.272286921739578E-2   5.811557546257973E-2  -7.319899797439575E-1   5.567308068275452E-1  
 7.465465465465466E8    -4.475006163120270E-1   1.185825467109680E-1   6.684673577547073E-2   5.595553666353226E-2   6.638537347316742E-2   5.631442368030548E-2  -7.202836871147156E-1   5.680505037307739E-1  
 7.489489489489490E8    -4.444800317287445E-1   1.415035426616669E-1   7.055872678756714E-2   5.427628383040428E-2   7.007511705160141E-2   5.476543307304382E-2  -7.103675007820129E-1   5.777610540390015E-1  
 7.513513513513514E8    -4.401203691959381E-1   1.646023988723755E-1   7.454814761877060E-2   5.244097858667374E-2   7.404033094644547E-2   5.307540670037270E-2  -6.999129056930542E-1   5.874089598655701E-1  
 7.537537537537538E8    -4.341213703155518E-1   1.875416487455368E-1   7.897388190031052E-2   5.022475868463516E-2   7.844914495944977E-2   5.105745792388916E-2  -6.880198121070862E-1   5.978009104728699E-1  
 7.561561561561562E8    -4.263049066066742E-1   2.092703431844711E-1   8.356533944606781E-2   4.797338694334030E-2   8.302654325962067E-2   4.842828959226608E-2  -6.752987504005432E-1   6.060125231742859E-1  
 7.585585585585586E8    -4.174660444259644E-1   2.308776229619980E-1   8.828052878379822E-2   4.526142403483391E-2   8.763452619314194E-2   4.531890153884888E-2  -6.600263118743897E-1   6.163632273674011E-1  
 7.609609609609610E8    -4.078654348850250E-1   2.504020035266876E-1   9.321300685405731E-2   4.196761175990105E-2   9.233555197715759E-2   4.211798682808876E-2  -6.447185873985291E-1   6.260085105895996E-1  
 7.633633633633634E8    -3.982883095741272E-1   2.672123908996582E-1   9.819865971803665E-2   3.798519074916840E-2   9.712274372577667E-2   3.844092413783073E-2  -6.304511427879334E-1   6.344071626663208E-1  
 7.657657657657658E8    -3.888050615787506E-1   2.823086082935333E-1   1.029500439763069E-1   3.355251252651215E-2   1.020230427384377E-1   3.436494618654251E-2  -6.170089840888977E-1   6.414757370948792E-1  
 7.681681681681682E8    -3.790278732776642E-1   2.957110404968262E-1   1.073046177625656E-1   2.882607094943523E-2   1.070688962936401E-1   2.972842007875443E-2  -6.047728657722473E-1   6.473069190979004E-1  
 7.705705705705706E8    -3.697197735309601E-1   3.081665635108948E-1   1.116969808936119E-1   2.326958626508713E-2   1.115882620215416E-1   2.447856031358242E-2  -5.919778347015381E-1   6.529855728149414E-1  
 7.729729729729730E8    -3.609131574630737E-1   3.184095025062561E-1   1.154087334871292E-1   1.691026054322720E-2   1.158572956919670E-1   1.834268495440483E-2  -5.788095593452454E-1   6.616667509078980E-1  
 7.753753753753754E8    -3.534095883369446E-1   3.277675807476044E-1   1.183663830161095E-1   1.025284454226494E-2   1.191019788384438E-1   1.154410559684038E-2  -5.623818635940552E-1   6.705933809280396E-1  
 7.777777777777778E8    -3.469188213348389E-1   3.361611068248749E-1   1.207764372229576E-1   3.895312780514360E-3   1.211320832371712E-1   4.928087815642357E-3  -5.437174439430237E-1   6.778687834739685E-1  
 7.801801801801802E8    -3.417465686798096E-1   3.448694646358490E-1   1.230167746543884E-1  -2.021317835897207E-3   1.225130632519722E-1  -1.366840442642570E-3  -5.228632688522339E-1   6.818445920944214E-1  
 7.825825825825826E8    -3.356876671314240E-1   3.564625084400177E-1   1.249680593609810E-1  -7.962948642671108E-3   1.246208772063255E-1  -7.546462118625641E-3  -5.020385980606079E-1   6.872530579566956E-1  
 7.849849849849850E8    -3.299713730812073E-1   3.682415783405304E-1   1.271713227033615E-1  -1.436395663768053E-2   1.267625391483307E-1  -1.353474613279104E-2  -4.833592474460602E-1   6.895014643669128E-1  
 7.873873873873874E8    -3.249971568584442E-1   3.804446458816528E-1   1.294220685958862E-1  -2.079299278557301E-2   1.288872361183167E-1  -1.979105174541473E-2  -4.656944870948792E-1   6.920081377029419E-1  
 7.897897897897898E8    -3.183758258819580E-1   3.941393792629242E-1   1.319025754928589E-1  -2.763527631759644E-2   1.314154863357544E-1  -2.664855681359768E-2  -4.475054442882538E-1   6.958655118942261E-1  
 7.921921921921922E8    -3.088887333869934E-1   4.083672463893890E-1   1.340471208095551E-1  -3.512548655271530E-2   1.342492252588272E-1  -3.438594937324524E-2  -4.287438988685608E-1   7.009862661361694E-1  
 7.945945945945946E8    -2.994477748870850E-1   4.217369556427002E-1   1.362042874097824E-1  -4.365469142794609E-2   1.364819109439850E-1  -4.224099218845367E-2  -4.063207805156708E-1   7.021564245223999E-1  
 7.969969969969970E8    -2.893338203430176E-1   4.323724210262299E-1   1.376876235008240E-1  -5.266949906945229E-2   1.382316797971726E-1  -5.130944773554802E-2  -3.830361068248749E-1   7.027647495269775E-1  
 7.993993993993994E8    -2.796654105186462E-1   4.409576058387756E-1   1.386438459157944E-1  -6.221515685319901E-2   1.391988545656204E-1  -6.127711385488510E-2  -3.593404889106751E-1   7.021715044975281E-1  
 8.018018018018018E8    -2.694314122200012E-1   4.482132792472839E-1   1.391626149415970E-1  -7.234381884336472E-2   1.391896307468414E-1  -7.192015647888184E-2  -3.345467448234558E-1   7.001981735229492E-1  
 8.042042042042042E8    -2.587256133556366E-1   4.563151597976685E-1   1.386226564645767E-1  -8.348146826028824E-2   1.383936554193497E-1  -8.314672112464905E-2  -3.105264604091644E-1   6.960092186927795E-1  
 8.066066066066066E8    -2.479154318571091E-1   4.641665816307068E-1   1.364617496728897E-1  -9.523034840822220E-2   1.365698277950287E-1  -9.458690881729126E-2  -2.851743698120117E-1   6.911593079566956E-1  
 8.090090090090090E8    -2.381281256675720E-1   4.700227081775665E-1   1.330429166555405E-1  -1.070241779088974E-1   1.332192569971085E-1  -1.064637526869774E-1  -2.594633996486664E-1   6.839244961738586E-1  
 8.114114114114114E8    -2.300969213247299E-1   4.753982126712799E-1   1.281849741935730E-1  -1.187381744384766E-1   1.284662932157517E-1  -1.181350126862526E-1  -2.343251556158066E-1   6.742100715637207E-1  
 8.138138138138138E8    -2.231862992048264E-1   4.812846779823303E-1   1.221073344349861E-1  -1.299995779991150E-1   1.227089092135429E-1  -1.291824579238892E-1  -2.100642770528793E-1   6.623483300209045E-1  
 8.162162162162162E8    -2.166207730770111E-1   4.885609447956085E-1   1.153908073902130E-1  -1.407633721828461E-1   1.159275546669960E-1  -1.398588567972183E-1  -1.859080046415329E-1   6.487839221954346E-1  
 8.186186186186186E8    -2.099859863519669E-1   4.957931339740753E-1   1.077667623758316E-1  -1.508302837610245E-1   1.082459688186646E-1  -1.500514298677445E-1  -1.611324399709702E-1   6.338539123535156E-1  
 8.210210210210210E8    -2.030919194221497E-1   5.015012621879578E-1   9.939979016780853E-2  -1.603358387947083E-1   9.976383298635483E-2  -1.600655317306519E-1  -1.368516385555267E-1   6.156705021858215E-1  
 8.234234234234234E8    -1.965551227331162E-1   5.078010559082031E-1   8.971938490867615E-2  -1.699849963188171E-1   8.992895483970642E-2  -1.697446852922440E-1  -1.136981472373009E-1   5.953664779663086E-1  
