#  HZ   S   RI   R     50.00 
! Rohde & Schwarz ZVB8 2Ports - Version 2.81 - 1145.1010k08 SN: 100113
! Date: 2016-05-03 01:37:07
! Measurements: S11 S21 S12 S22 
! 
 6.000000000000000E8     3.565569221973419E-1   7.080670595169067E-1  -4.377001430839300E-3  -1.388513366691768E-3  -4.423753824084997E-3  -1.372279715724289E-3  -9.690551161766052E-1  -1.058497652411461E-1  
 6.024024024024024E8     3.710879683494568E-1   6.919984817504883E-1  -4.360055085271597E-3  -1.371438149362803E-3  -4.418405238538981E-3  -1.376559725031257E-3  -9.701454639434815E-1  -9.428535401821137E-2  
 6.048048048048048E8     3.852694332599640E-1   6.753892302513123E-1  -4.387270193547010E-3  -1.414757338352501E-3  -4.350326955318451E-3  -1.478647929616272E-3  -9.707514047622681E-1  -8.302982896566391E-2  
 6.072072072072072E8     3.993614017963409E-1   6.573174595832825E-1  -4.315033089369535E-3  -1.535909599624574E-3  -4.362196195870638E-3  -1.449979492463172E-3  -9.713066816329956E-1  -7.167981564998627E-2  
 6.096096096096096E8     4.120331108570099E-1   6.385338902473450E-1  -4.355830140411854E-3  -1.694673672318459E-3  -4.271485377103090E-3  -1.663668896071613E-3  -9.715524911880493E-1  -6.039136648178101E-2  
 6.120120120120120E8     4.213857650756836E-1   6.208836436271668E-1  -4.302999470382929E-3  -1.873151748441160E-3  -4.238988738507032E-3  -1.800950733013451E-3  -9.714413881301880E-1  -5.136737972497940E-2  
 6.144144144144144E8     4.287704229354858E-1   6.047857999801636E-1  -4.224429838359356E-3  -2.212250838056207E-3  -4.221765790134668E-3  -2.240692963823676E-3  -9.723603725433350E-1  -4.067358374595642E-2  
 6.168168168168168E8     4.358412921428680E-1   5.885113477706909E-1  -4.316749051213265E-3  -2.725418191403151E-3  -4.192363470792770E-3  -2.738511189818382E-3  -9.726713895797730E-1  -2.959662862122059E-2  
 6.192192192192192E8     4.413624405860901E-1   5.737106800079346E-1  -4.379848483949900E-3  -3.360045375302434E-3  -4.300755914300680E-3  -3.361405106261373E-3  -9.728147387504578E-1  -1.828853785991669E-2  
 6.216216216216216E8     4.475626349449158E-1   5.603121519088745E-1  -4.766454454511404E-3  -4.128637723624706E-3  -4.768783226609230E-3  -4.155362024903297E-3  -9.723358154296875E-1  -5.992750637233257E-3  
 6.240240240240240E8     4.535263478755951E-1   5.484554767608643E-1  -5.438975989818573E-3  -4.979758989065886E-3  -5.436860024929047E-3  -5.029716994613409E-3  -9.713860154151917E-1   5.500728730112314E-3  
 6.264264264264264E8     4.612742960453033E-1   5.397186875343323E-1  -6.452234461903572E-3  -5.804411601275206E-3  -6.516573019325733E-3  -5.846115760505199E-3  -9.715651869773865E-1   1.782309822738171E-2  
 6.288288288288288E8     4.713538587093353E-1   5.320081114768982E-1  -7.846282795071602E-3  -6.406140979379416E-3  -7.886759005486965E-3  -6.413470022380352E-3  -9.711224436759949E-1   2.860132232308388E-2  
 6.312312312312312E8     4.846995472908020E-1   5.237336158752441E-1  -9.571342729032040E-3  -6.512454710900784E-3  -9.499936364591122E-3  -6.580433342605829E-3  -9.703879952430725E-1   3.910028934478760E-2  
 6.336336336336336E8     5.012046694755554E-1   5.136128067970276E-1  -1.118307933211327E-2  -6.268698722124100E-3  -1.119807176291943E-2  -6.400252226740122E-3  -9.696259498596191E-1   4.862098395824432E-2  
 6.360360360360360E8     5.196614265441895E-1   5.002860426902771E-1  -1.279535889625549E-2  -5.778246093541384E-3  -1.279354654252529E-2  -5.839928518980742E-3  -9.686863422393799E-1   5.736603587865830E-2  
 6.384384384384384E8     5.382248759269714E-1   4.841790199279785E-1  -1.422579027712345E-2  -4.905273206532002E-3  -1.423701643943787E-2  -4.905516747385263E-3  -9.677902460098267E-1   6.794194132089615E-2  
 6.408408408408408E8     5.567134022712708E-1   4.640959799289703E-1  -1.542164944112301E-2  -3.791785100474954E-3  -1.538030244410038E-2  -3.844273975118995E-3  -9.666969776153565E-1   7.859439402818680E-2  
 6.432432432432432E8     5.739173889160156E-1   4.407028257846832E-1  -1.636957004666328E-2  -2.609150484204292E-3  -1.640217378735542E-2  -2.633220516145229E-3  -9.655339121818543E-1   8.866187930107117E-2  
 6.456456456456456E8     5.893461108207703E-1   4.141431748867035E-1  -1.718621328473091E-2  -1.363219693303108E-3  -1.712657511234283E-2  -1.440564752556384E-3  -9.641782641410828E-1   9.855222702026367E-2  
 6.480480480480480E8     6.023128032684326E-1   3.859931230545044E-1  -1.782772131264210E-2  -8.440537203568965E-5  -1.776091940701008E-2  -1.655429077800363E-4  -9.626989364624023E-1   1.080443337559700E-1  
 6.504504504504504E8     6.129970550537109E-1   3.580410480499268E-1  -1.839902810752392E-2   1.121151144616306E-3  -1.833187416195869E-2   1.095842220820487E-3  -9.587403535842896E-1   1.180403828620911E-1  
 6.528528528528528E8     6.210757493972778E-1   3.284319341182709E-1  -1.871158741414547E-2   2.460254356265068E-3  -1.862472109496594E-2   2.387512708082795E-3  -9.554134607315064E-1   1.295551210641861E-1  
 6.552552552552552E8     6.269591450691223E-1   2.985129058361054E-1  -1.891669817268848E-2   3.700632834807038E-3  -1.883427053689957E-2   3.658645320683718E-3  -9.538206458091736E-1   1.417530179023743E-1  
 6.576576576576576E8     6.302359700202942E-1   2.674605846405029E-1  -1.892680674791336E-2   4.977148491889238E-3  -1.891303248703480E-2   4.842260386794806E-3  -9.543365240097046E-1   1.516144424676895E-1  
 6.600600600600600E8     6.314247250556946E-1   2.358615845441818E-1  -1.883359812200069E-2   6.111404858529568E-3  -1.878951303660870E-2   5.979679990559816E-3  -9.549508690834045E-1   1.596449166536331E-1  
 6.624624624624624E8     6.307451128959656E-1   2.061374634504318E-1  -1.862697862088680E-2   7.154864724725485E-3  -1.859703473746777E-2   6.947644520550966E-3  -9.529879093170166E-1   1.705519855022430E-1  
 6.648648648648648E8     6.277739405632019E-1   1.759788393974304E-1  -1.846595294773579E-2   8.030227385461330E-3  -1.839214749634266E-2   7.920106872916222E-3  -9.508026242256165E-1   1.811335682868958E-1  
 6.672672672672672E8     6.218777894973755E-1   1.456141769886017E-1  -1.818636432290077E-2   8.835248649120331E-3  -1.822850108146668E-2   8.727846667170525E-3  -9.482722282409668E-1   1.912917643785477E-1  
 6.696696696696696E8     6.138805150985718E-1   1.165076345205307E-1  -1.788203977048397E-2   9.601959958672524E-3  -1.789672300219536E-2   9.454078041017056E-3  -9.456223845481873E-1   2.011359184980393E-1  
 6.720720720720720E8     6.042303442955017E-1   8.928752690553665E-2  -1.752110570669174E-2   1.005815900862217E-2  -1.755564473569393E-2   1.004879176616669E-2  -9.426066875457764E-1   2.105823159217835E-1  
 6.744744744744744E8     5.932472944259644E-1   6.464575231075287E-2  -1.713405363261700E-2   1.044198963791132E-2  -1.718379370868206E-2   1.038201618939638E-2  -9.399074912071228E-1   2.215391844511032E-1  
 6.768768768768768E8     5.800475478172302E-1   4.136841744184494E-2  -1.680684834718704E-2   1.046301051974297E-2  -1.682860404253006E-2   1.045347191393375E-2  -9.370155930519104E-1   2.319627255201340E-1  
 6.792792792792792E8     5.660316348075867E-1   2.119094878435135E-2  -1.667897775769234E-2   1.013930793851614E-2  -1.675902493298054E-2   1.009826455265284E-2  -9.335936307907105E-1   2.423399388790131E-1  
 6.816816816816816E8     5.521591901779175E-1   4.180008545517921E-3  -1.710749603807926E-2   9.409892372786999E-3  -1.713504455983639E-2   9.388675913214684E-3  -9.299619793891907E-1   2.528745532035828E-1  
 6.840840840840840E8     5.401164889335632E-1  -9.888781234622002E-3  -1.843030750751495E-2   8.609406650066376E-3  -1.840825937688351E-2   8.574409410357475E-3  -9.265285134315491E-1   2.635927200317383E-1  
 6.864864864864864E8     5.307965278625488E-1  -2.120093442499638E-2  -2.055899985134602E-2   8.152981288731098E-3  -2.058225870132446E-2   8.022080175578594E-3  -9.219648241996765E-1   2.732989192008972E-1  
 6.888888888888888E8     5.259658694267273E-1  -3.292959928512573E-2  -2.349933423101902E-2   8.482574485242367E-3  -2.359695546329022E-2   8.301277644932270E-3  -9.168114066123962E-1   2.836809158325195E-1  
 6.912912912912912E8     5.247663855552673E-1  -4.698860645294190E-2  -2.691936120390892E-2   1.002350170165300E-2  -2.696904912590981E-2   9.739258326590061E-3  -9.119930267333984E-1   2.935578227043152E-1  
 6.936936936936936E8     5.261292457580566E-1  -6.589735299348831E-2  -3.013981506228447E-2   1.285580080002546E-2  -3.023459762334824E-2   1.267400570213795E-2  -9.075880050659180E-1   3.033880293369293E-1  
 6.960960960960960E8     5.265315175056458E-1  -9.104324132204056E-2  -3.260335326194763E-2   1.677798852324486E-2  -3.262106329202652E-2   1.673549227416515E-2  -9.034700989723206E-1   3.130722343921661E-1  
 6.984984984984984E8     5.235965251922607E-1  -1.205347329378128E-1  -3.414081782102585E-2   2.136017754673958E-2  -3.384298458695412E-2   2.167733386158943E-2  -8.982103466987610E-1   3.265817761421204E-1  
 7.009009009009008E8     5.135166645050049E-1  -1.532890051603317E-1  -3.443357348442078E-2   2.619614079594612E-2  -3.391556441783905E-2   2.671071328222752E-2  -8.928565382957459E-1   3.390679955482483E-1  
 7.033033033033032E8     4.968022108078003E-1  -1.856229752302170E-1  -3.367585316300392E-2   3.083648905158043E-2  -3.315500915050507E-2   3.126810491085053E-2  -8.882457017898560E-1   3.488223552703857E-1  
 7.057057057057056E8     4.753675162792206E-1  -2.155921310186386E-1  -3.222871571779251E-2   3.512496128678322E-2  -3.186453133821487E-2   3.526133671402931E-2  -8.849154710769653E-1   3.548247814178467E-1  
 7.081081081081080E8     4.495780467987061E-1  -2.431586682796478E-1  -3.029455058276653E-2   3.908682614564896E-2  -3.044801205396652E-2   3.889156877994537E-2  -8.813794851303101E-1   3.619351089000702E-1  
 7.105105105105104E8     4.208449721336365E-1  -2.661497294902802E-1  -2.803954482078552E-2   4.279766231775284E-2  -2.868216298520565E-2   4.231692850589752E-2  -8.779058456420898E-1   3.706359267234802E-1  
 7.129129129129129E8     3.908001780509949E-1  -2.847106754779816E-1  -2.563253417611122E-2   4.609433934092522E-2  -2.639473602175713E-2   4.559290781617165E-2  -8.733315467834473E-1   3.803456127643585E-1  
 7.153153153153153E8     3.609111309051514E-1  -2.996207475662231E-1  -2.315226569771767E-2   4.888108000159264E-2  -2.374450676143169E-2   4.852619767189026E-2  -8.676059842109680E-1   3.918302357196808E-1  
 7.177177177177178E8     3.309719562530518E-1  -3.130707442760468E-1  -2.075756527483463E-2   5.150284245610237E-2  -2.098277769982815E-2   5.130232870578766E-2  -8.612423539161682E-1   4.043056368827820E-1  
 7.201201201201202E8     2.999973893165588E-1  -3.247961997985840E-1  -1.799218729138374E-2   5.413385480642319E-2  -1.816538535058498E-2   5.390350148081780E-2  -8.549261093139648E-1   4.158397018909454E-1  
 7.225225225225226E8     2.677683830261231E-1  -3.338170051574707E-1  -1.497216336429119E-2   5.662399902939796E-2  -1.522720232605934E-2   5.638272687792778E-2  -8.483042716979981E-1   4.281753003597260E-1  
 7.249249249249250E8     2.344823032617569E-1  -3.398215770721436E-1  -1.150541380047798E-2   5.893470346927643E-2  -1.231065671890974E-2   5.859343335032463E-2  -8.421753048896790E-1   4.371865689754486E-1  
 7.273273273273274E8     2.021949440240860E-1  -3.427422344684601E-1  -8.085058070719242E-3   6.097562238574028E-2  -9.378500282764435E-3   6.056432053446770E-2  -8.362749218940735E-1   4.459302723407745E-1  
 7.297297297297298E8     1.716158241033554E-1  -3.433291912078857E-1  -4.883418325334787E-3   6.267789751291275E-2  -5.953949410468340E-3   6.233709305524826E-2  -8.301082849502564E-1   4.553673863410950E-1  
 7.321321321321322E8     1.434089988470078E-1  -3.420387506484985E-1  -1.962712500244379E-3   6.413689255714417E-2  -2.010058145970106E-3   6.384285539388657E-2  -8.236779570579529E-1   4.651612341403961E-1  
 7.345345345345346E8     1.137919872999191E-1  -3.382183909416199E-1   1.381458831019700E-3   6.534563750028610E-2   1.625155098736286E-3   6.519100815057755E-2  -8.168570399284363E-1   4.758675396442413E-1  
 7.369369369369370E8     8.424082398414612E-2  -3.323062956333160E-1   4.743061494082212E-3   6.641018390655518E-2   5.224203690886498E-3   6.614173203706741E-2  -8.094689846038818E-1   4.870624542236328E-1  
 7.393393393393394E8     5.629911273717880E-2  -3.243206739425659E-1   8.103945292532444E-3   6.723774969577789E-2   8.596694096922875E-3   6.694397330284119E-2  -8.020324110984802E-1   4.973017275333405E-1  
 7.417417417417418E8     2.993451803922653E-2  -3.151884675025940E-1   1.148532237857580E-2   6.804847717285156E-2   1.167386956512928E-2   6.785515695810318E-2  -7.948011755943298E-1   5.066543221473694E-1  
 7.441441441441442E8     4.854167811572552E-3  -3.047505915164948E-1   1.490846741944552E-2   6.884298473596573E-2   1.457149535417557E-2   6.883379817008972E-2  -7.879954576492310E-1   5.148404240608215E-1  
 7.465465465465466E8    -1.895173825323582E-2  -2.920617163181305E-1   1.821122132241726E-2   6.989460438489914E-2   1.777102425694466E-2   6.991612911224365E-2  -7.796431183815002E-1   5.253540277481079E-1  
 7.489489489489490E8    -4.179097712039948E-2  -2.783387005329132E-1   2.189678885042667E-2   7.100186496973038E-2   2.124849520623684E-2   7.116695493459702E-2  -7.726973891258240E-1   5.348060727119446E-1  
 7.513513513513514E8    -6.339282542467117E-2  -2.629271745681763E-1   2.589473873376846E-2   7.208938151597977E-2   2.520513907074928E-2   7.232295721769333E-2  -7.656900286674500E-1   5.442622303962708E-1  
 7.537537537537538E8    -8.234572410583496E-2  -2.458968460559845E-1   3.044176474213600E-2   7.281985133886337E-2   2.962026372551918E-2   7.323364913463593E-2  -7.577432394027710E-1   5.540211796760559E-1  
 7.561561561561562E8    -9.774649888277054E-2  -2.283126413822174E-1   3.502729535102844E-2   7.352785766124725E-2   3.434351831674576E-2   7.358417659997940E-2  -7.487226724624634E-1   5.623096227645874E-1  
 7.585585585585586E8    -1.117913201451302E-1  -2.095601558685303E-1   3.976228460669518E-2   7.372681796550751E-2   3.923954814672470E-2   7.351386547088623E-2  -7.379987835884094E-1   5.721464753150940E-1  
 7.609609609609610E8    -1.237998306751251E-1  -1.914259493350983E-1   4.483195021748543E-2   7.373409718275070E-2   4.414605721831322E-2   7.330569624900818E-2  -7.273468971252441E-1   5.821322202682495E-1  
 7.633633633633634E8    -1.340698450803757E-1  -1.744606941938400E-1   5.010603368282318E-2   7.322634011507034E-2   4.922756552696228E-2   7.293906807899475E-2  -7.176791429519653E-1   5.908300280570984E-1  
 7.657657657657658E8    -1.427256166934967E-1  -1.583763360977173E-1   5.534221604466438E-2   7.240636646747589E-2   5.450627952814102E-2   7.246096432209015E-2  -7.093676328659058E-1   5.980680584907532E-1  
 7.681681681681682E8    -1.489832252264023E-1  -1.425416916608810E-1   6.065522506833077E-2   7.116308808326721E-2   6.016102433204651E-2   7.165854424238205E-2  -7.024887800216675E-1   6.042116880416870E-1  
 7.705705705705706E8    -1.528247445821762E-1  -1.264998465776444E-1   6.628055870532990E-2   6.939411908388138E-2   6.573724001646042E-2   7.014582306146622E-2  -6.950960755348206E-1   6.106626987457275E-1  
 7.729729729729730E8    -1.561816781759262E-1  -1.139193847775459E-1   7.175639271736145E-2   6.665952503681183E-2   7.149250060319901E-2   6.792929023504257E-2  -6.875643134117127E-1   6.199145913124085E-1  
 7.753753753753754E8    -1.605884879827499E-1  -1.032005250453949E-1   7.674243301153183E-2   6.358788162469864E-2   7.668425887823105E-2   6.491653621196747E-2  -6.779108643531799E-1   6.303380727767944E-1  
 7.777777777777778E8    -1.650275737047195E-1  -9.335774183273315E-2   8.142110705375671E-2   6.027538701891899E-2   8.127119392156601E-2   6.130953505635262E-2  -6.655445098876953E-1   6.395136713981628E-1  
 7.801801801801802E8    -1.704137623310089E-1  -8.435695618391037E-2   8.564346283674240E-2   5.717708915472031E-2   8.500707894563675E-2   5.759701877832413E-2  -6.513425707817078E-1   6.457049250602722E-1  
 7.825825825825826E8    -1.764892190694809E-1  -7.324094325304031E-2   8.954232931137085E-2   5.394356325268745E-2   8.915112912654877E-2   5.401628091931343E-2  -6.376400589942932E-1   6.539250016212463E-1  
 7.849849849849850E8    -1.824659854173660E-1  -6.254405528306961E-2   9.363012015819550E-2   5.063378065824509E-2   9.285819530487061E-2   5.086553841829300E-2  -6.261637210845947E-1   6.586474180221558E-1  
 7.873873873873874E8    -1.890022158622742E-1  -5.128572508692741E-2   9.779776632785797E-2   4.734513163566589E-2   9.673364460468292E-2   4.763935133814812E-2  -6.162036061286926E-1   6.636943817138672E-1  
 7.897897897897898E8    -1.948188543319702E-1  -3.856182470917702E-2   1.022114530205727E-1   4.398225620388985E-2   1.012729257345200E-1   4.432648047804833E-2  -6.067684292793274E-1   6.708168387413025E-1  
 7.921921921921922E8    -1.991731524467468E-1  -2.514079213142395E-2   1.066211014986038E-1   3.987613320350647E-2   1.062241271138191E-1   4.049255698919296E-2  -5.976999998092651E-1   6.796774864196777E-1  
 7.945945945945946E8    -2.025446444749832E-1  -1.103748660534620E-2   1.110645607113838E-1   3.535411879420281E-2   1.104474738240242E-1   3.635165095329285E-2  -5.847696065902710E-1   6.862223148345947E-1  
 7.969969969969970E8    -2.047449499368668E-1   2.011087955906987E-3   1.153149083256722E-1   3.051733970642090E-2   1.148822829127312E-1   3.167972341179848E-2  -5.716712474822998E-1   6.932665109634399E-1  
 7.993993993993994E8    -2.063007354736328E-1   1.469737011939287E-2   1.194526925683022E-1   2.537058852612972E-2   1.192037239670754E-1   2.636692486703396E-2  -5.574928522109985E-1   7.002180218696594E-1  
 8.018018018018018E8    -2.063814997673035E-1   2.710560895502567E-2   1.235145106911659E-1   1.977070793509483E-2   1.233821585774422E-1   2.022009529173374E-2  -5.428407788276672E-1   7.069544196128845E-1  
 8.042042042042042E8    -2.055389881134033E-1   3.867950662970543E-2   1.274131834506989E-1   1.330293715000153E-2   1.271613389253616E-1   1.368994638323784E-2  -5.295128822326660E-1   7.123011946678162E-1  
 8.066066066066066E8    -2.039701193571091E-1   5.002541467547417E-2   1.304579675197601E-1   6.104034837335348E-3   1.302297413349152E-1   6.473004817962647E-3  -5.142754912376404E-1   7.194503545761108E-1  
 8.090090090090090E8    -2.019332498311997E-1   6.002367660403252E-2   1.328640282154083E-1  -1.092280377633870E-3   1.327356100082398E-1  -8.052025805227459E-4  -4.986917972564697E-1   7.252441048622131E-1  
 8.114114114114114E8    -1.997651457786560E-1   6.854315847158432E-2   1.348115354776382E-1  -8.307874202728272E-3   1.346429586410523E-1  -8.035021834075451E-3  -4.829888343811035E-1   7.299113273620606E-1  
 8.138138138138138E8    -1.980480402708054E-1   7.627530395984650E-2   1.363362222909927E-1  -1.557953376322985E-2   1.363038271665573E-1  -1.523703802376986E-2  -4.677954018115997E-1   7.342492341995239E-1  
 8.162162162162162E8    -1.967273056507111E-1   8.333981782197952E-2   1.377384811639786E-1  -2.302887290716171E-2   1.376614868640900E-1  -2.252360247075558E-2  -4.524755477905273E-1   7.382786273956299E-1  
 8.186186186186186E8    -1.959334909915924E-1   9.043921530246735E-2   1.385920643806458E-1  -3.068462572991848E-2   1.384349018335342E-1  -3.017119877040386E-2  -4.352477490901947E-1   7.429175376892090E-1  
 8.210210210210210E8    -1.953409016132355E-1   9.682090580463409E-2   1.388559639453888E-1  -3.841336444020271E-2   1.387038975954056E-1  -3.776742145419121E-2  -4.185014963150024E-1   7.463583946228027E-1  
 8.234234234234234E8    -1.954996883869171E-1   1.016237139701843E-1   1.386172622442246E-1  -4.614545032382011E-2   1.385212391614914E-1  -4.541881382465363E-2  -4.004395306110382E-1   7.494783997535706E-1  
