#  HZ   S   RI   R     50.00 
! Rohde & Schwarz ZVB8 2Ports - Version 2.81 - 1145.1010k08 SN: 100113
! Date: 2016-05-03 01:38:17
! Measurements: S11 S21 S12 S22 
! 
 6.000000000000000E8     5.032365322113037E-1   2.391117364168167E-1  -1.084860600531101E-2   1.897113630548120E-3  -1.073898933827877E-2   1.923853065818548E-3  -9.662027955055237E-1  -5.920885875821114E-2  
 6.024024024024024E8     4.976378977298737E-1   2.066236287355423E-1  -1.082211453467608E-2   2.156771253794432E-3  -1.079518347978592E-2   2.184151438996196E-3  -9.662799239158630E-1  -4.600612074136734E-2  
 6.048048048048048E8     4.897398054599762E-1   1.737642884254456E-1  -1.075726095587015E-2   2.215432235971093E-3  -1.075018290430307E-2   2.249263692647219E-3  -9.662386178970337E-1  -3.274996951222420E-2  
 6.072072072072072E8     4.790951311588287E-1   1.409572958946228E-1  -1.075697876513004E-2   2.184907905757427E-3  -1.077724713832140E-2   2.278740750625730E-3  -9.657185077667236E-1  -1.976377889513969E-2  
 6.096096096096096E8     4.652338922023773E-1   1.091640070080757E-1  -1.082088891416788E-2   2.103428822010756E-3  -1.074287388473749E-2   2.049968810752034E-3  -9.649356007575989E-1  -6.572360172867775E-3  
 6.120120120120120E8     4.485018253326416E-1   8.161064982414246E-2  -1.095988508313894E-2   1.800674246624112E-3  -1.096569374203682E-2   1.758904196321964E-3  -9.637975096702576E-1   4.792439751327038E-3  
 6.144144144144144E8     4.300815165042877E-1   5.802035704255104E-2  -1.121528446674347E-2   1.289873034693301E-3  -1.126283500343561E-2   1.206109183840454E-3  -9.634252786636353E-1   1.735693775117397E-2  
 6.168168168168168E8     4.103601276874542E-1   3.772158548235893E-2  -1.175833214074373E-2   6.051710224710405E-4  -1.181414257735014E-2   5.125712486915290E-4  -9.624643921852112E-1   3.054204396903515E-2  
 6.192192192192192E8     3.907190859317780E-1   2.222247794270515E-2  -1.274769380688667E-2  -3.426895418670028E-4  -1.267143525183201E-2  -4.591000324580818E-4  -9.609950184822083E-1   4.428136348724365E-2  
 6.216216216216216E8     3.738850951194763E-1   1.077037304639816E-2  -1.437890622764826E-2  -1.368528697639704E-3  -1.429487764835358E-2  -1.501178252510727E-3  -9.587604999542236E-1   5.878217890858650E-2  
 6.240240240240240E8     3.616992831230164E-1   2.587434835731983E-3  -1.677887700498104E-2  -2.199345035478473E-3  -1.665418408811092E-2  -2.341508399695158E-3  -9.561633467674255E-1   7.296087592840195E-2  
 6.264264264264264E8     3.561409413814545E-1  -4.079674370586872E-3  -1.989499852061272E-2  -2.372957067564130E-3  -1.983235217630863E-2  -2.479621209204197E-3  -9.539690613746643E-1   8.765030652284622E-2  
 6.288288288288288E8     3.566229641437531E-1  -1.376519817858934E-2  -2.360754273831844E-2  -1.591202220879495E-3  -2.355732396245003E-2  -1.716933446004987E-3  -9.515069127082825E-1   1.009887084364891E-1  
 6.312312312312312E8     3.607056438922882E-1  -3.039178438484669E-2  -2.753333561122417E-2   3.187440161127597E-4  -2.742697484791279E-2   1.972342142835259E-4  -9.482728242874146E-1   1.134819164872170E-1  
 6.336336336336336E8     3.650534451007843E-1  -5.590216070413590E-2  -3.101656958460808E-2   3.530540736392140E-3  -3.096493333578110E-2   3.412755904719234E-3  -9.453600049018860E-1   1.252071559429169E-1  
 6.360360360360360E8     3.655794858932495E-1  -8.920020610094070E-2  -3.368611633777618E-2   7.660711184144020E-3  -3.359505906701088E-2   7.490481249988079E-3  -9.422644376754761E-1   1.360686868429184E-1  
 6.384384384384384E8     3.585649132728577E-1  -1.273857802152634E-1  -3.534070774912834E-2   1.236777752637863E-2  -3.534908220171928E-2   1.216986589133740E-2  -9.387138485908508E-1   1.491252481937408E-1  
 6.408408408408408E8     3.432687222957611E-1  -1.680295318365097E-1  -3.613755479454994E-2   1.733502559363842E-2  -3.615387529134750E-2   1.704608276486397E-2  -9.353780150413513E-1   1.620676666498184E-1  
 6.432432432432432E8     3.185804188251495E-1  -2.084832936525345E-1  -3.590104728937149E-2   2.214190550148487E-2  -3.588864207267761E-2   2.181926555931568E-2  -9.317819476127625E-1   1.748114824295044E-1  
 6.456456456456456E8     2.908311188220978E-1  -2.430089116096497E-1  -3.508181497454643E-2   2.664175257086754E-2  -3.499620035290718E-2   2.643259987235069E-2  -9.279040098190308E-1   1.873845309019089E-1  
 6.480480480480480E8     2.551155090332031E-1  -2.750286459922791E-1  -3.353143855929375E-2   3.100585378706455E-2  -3.352730348706245E-2   3.071481734514237E-2  -9.238560795783997E-1   1.995400935411453E-1  
 6.504504504504504E8     2.150983363389969E-1  -3.006393015384674E-1  -3.165086731314659E-2   3.505818918347359E-2  -3.161559998989105E-2   3.481864184141159E-2  -9.165454506874085E-1   2.128765285015106E-1  
 6.528528528528528E8     1.720598638057709E-1  -3.218584060668945E-1  -2.902823686599731E-2   3.872774913907051E-2  -2.918649278581142E-2   3.835825994610786E-2  -9.098141789436340E-1   2.281697392463684E-1  
 6.552552552552552E8     1.274162083864212E-1  -3.381938636302948E-1  -2.635394036769867E-2   4.176096990704536E-2  -2.651811204850674E-2   4.146734997630119E-2  -9.045197367668152E-1   2.433407753705978E-1  
 6.576576576576576E8     8.187998086214066E-2  -3.489312827587128E-1  -2.343839034438133E-2   4.447527974843979E-2  -2.365219034254551E-2   4.414376989006996E-2  -9.012715816497803E-1   2.570095062255859E-1  
 6.600600600600600E8     3.621217235922813E-2  -3.540294468402863E-1  -2.024314925074577E-2   4.671143367886543E-2  -2.051120437681675E-2   4.651117697358131E-2  -8.976088166236877E-1   2.690316736698151E-1  
 6.624624624624624E8    -5.058129783719778E-3  -3.528167903423309E-1  -1.721042208373547E-2   4.850223287940025E-2  -1.738339476287365E-2   4.831163957715035E-2  -8.909155726432800E-1   2.838758826255798E-1  
 6.648648648648648E8    -4.846800491213799E-2  -3.477854132652283E-1  -1.409427542239428E-2   4.984954744577408E-2  -1.442886143922806E-2   4.956470057368279E-2  -8.835682868957520E-1   2.987122237682343E-1  
 6.672672672672672E8    -8.969073742628098E-2  -3.380904793739319E-1  -1.123057305812836E-2   5.084672197699547E-2  -1.150954328477383E-2   5.062667280435562E-2  -8.753219246864319E-1   3.132471442222595E-1  
 6.696696696696696E8    -1.274250745773315E-1  -3.242693841457367E-1  -8.423093706369400E-3   5.138352885842323E-2  -8.774337358772755E-3   5.120265483856201E-2  -8.662872314453125E-1   3.275565803050995E-1  
 6.720720720720720E8    -1.608928591012955E-1  -3.083316683769226E-1  -6.094278302043676E-3   5.140495300292969E-2  -6.400477606803179E-3   5.128254368901253E-2  -8.563359975814819E-1   3.417558670043945E-1  
 6.744744744744744E8    -1.907793134450913E-1  -2.896569371223450E-1  -4.295438528060913E-3   5.114168301224709E-2  -4.498179070651531E-3   5.108895152807236E-2  -8.456513285636902E-1   3.572819530963898E-1  
 6.768768768768768E8    -2.167915403842926E-1  -2.696348428726196E-1  -3.323626704514027E-3   5.062007531523705E-2  -3.564140759408474E-3   5.061553791165352E-2  -8.338130712509155E-1   3.725008666515350E-1  
 6.792792792792792E8    -2.380253672599793E-1  -2.499916404485703E-1  -3.647349309176207E-3   5.030734464526177E-2  -3.889747662469745E-3   5.024212971329689E-2  -8.204339742660523E-1   3.874485492706299E-1  
 6.816816816816816E8    -2.547763884067535E-1  -2.315090745687485E-1  -5.369039718061686E-3   5.089166015386581E-2  -5.500374827533960E-3   5.082968622446060E-2  -8.057286739349365E-1   4.021870195865631E-1  
 6.840840840840840E8    -2.690584361553192E-1  -2.146161198616028E-1  -8.395938202738762E-3   5.320052057504654E-2  -8.519888855516911E-3   5.307023227214813E-2  -7.899993658065796E-1   4.159299731254578E-1  
 6.864864864864864E8    -2.818210124969482E-1  -1.995438933372498E-1  -1.169474050402641E-2   5.827201530337334E-2  -1.218061242252588E-2   5.802580341696739E-2  -7.723314762115479E-1   4.274865090847015E-1  
 6.888888888888888E8    -2.945713400840759E-1  -1.889851093292236E-1  -1.402958948165178E-2   6.681060791015625E-2  -1.477140001952648E-2   6.635666638612747E-2  -7.534935474395752E-1   4.379502832889557E-1  
 6.912912912912912E8    -3.092988729476929E-1  -1.821513921022415E-1  -1.349065825343132E-2   7.840688526630402E-2  -1.445853244513273E-2   7.805308699607849E-2  -7.351002097129822E-1   4.466702640056610E-1  
 6.936936936936936E8    -3.292393982410431E-1  -1.779737174510956E-1  -8.435890078544617E-3   9.138385951519013E-2  -9.204732254147530E-3   9.127371758222580E-2  -7.180464863777161E-1   4.543560147285461E-1  
 6.960960960960960E8    -3.560698330402374E-1  -1.709589958190918E-1   1.567708211950958E-3   1.033065915107727E-1   1.099027227610350E-3   1.032225415110588E-1  -7.021094560623169E-1   4.620099365711212E-1  
 6.984984984984984E8    -3.857074677944183E-1  -1.576544791460037E-1   1.465211343020201E-2   1.121995598077774E-1   1.579795777797699E-2   1.120647713541985E-1  -6.847184896469116E-1   4.732242524623871E-1  
 7.009009009009008E8    -4.143247604370117E-1  -1.380778253078461E-1   2.971888147294521E-2   1.173481792211533E-1   3.200129047036171E-2   1.165355443954468E-1  -6.670633554458618E-1   4.844798743724823E-1  
 7.033033033033032E8    -4.392119646072388E-1  -1.129312887787819E-1   4.510678723454475E-2   1.190100610256195E-1   4.722628742456436E-2   1.179812923073769E-1  -6.500570178031921E-1   4.946098625659943E-1  
 7.057057057057056E8    -4.611546099185944E-1  -8.338706940412521E-2   6.015910580754280E-2   1.180335953831673E-1   6.108666583895683E-2   1.173012331128120E-1  -6.330488324165344E-1   5.028546452522278E-1  
 7.081081081081080E8    -4.782398343086243E-1  -5.080617219209671E-2   7.478240132331848E-2   1.149991601705551E-1   7.396481186151505E-2   1.152589172124863E-1  -6.136530041694641E-1   5.114811658859253E-1  
 7.105105105105104E8    -4.903115332126617E-1  -1.754449866712093E-2   8.863101899623871E-2   1.105648279190064E-1   8.643271028995514E-2   1.121196970343590E-1  -5.915144085884094E-1   5.207486152648926E-1  
 7.129129129129129E8    -4.993172585964203E-1   1.405241992324591E-2   1.014942750334740E-1   1.054792553186417E-1   9.926537424325943E-2   1.075967475771904E-1  -5.656191110610962E-1   5.299619436264038E-1  
 7.153153153153153E8    -5.056874155998230E-1   4.393998160958290E-2   1.136845275759697E-1   9.987851232290268E-2   1.121044531464577E-1   1.015280857682228E-1  -5.360521078109741E-1   5.383319258689880E-1  
 7.177177177177178E8    -5.101739168167114E-1   7.324064522981644E-2   1.256601214408875E-1   9.344708174467087E-2   1.249985992908478E-1   9.428141266107559E-2  -5.033950209617615E-1   5.446039438247681E-1  
 7.201201201201202E8    -5.118221640586853E-1   1.030514612793922E-1   1.379958391189575E-1   8.531769365072250E-2   1.378809660673142E-1   8.579263836145401E-2  -4.691759347915649E-1   5.476702451705933E-1  
 7.225225225225226E8    -5.109188556671143E-1   1.309389173984528E-1   1.502629369497299E-1   7.553506642580032E-2   1.502260863780975E-1   7.548879832029343E-2  -4.329540431499481E-1   5.478070974349976E-1  
 7.249249249249250E8    -5.076419115066528E-1   1.579787880182266E-1   1.621579974889755E-1   6.311052292585373E-2   1.612523198127747E-1   6.472538411617279E-2  -3.975732028484345E-1   5.423038601875305E-1  
 7.273273273273274E8    -5.034005641937256E-1   1.838892400264740E-1   1.730751991271973E-1   4.915054515004158E-2   1.717833578586578E-1   5.228111520409584E-2  -3.609242737293243E-1   5.331662297248840E-1  
 7.297297297297298E8    -4.985078871250153E-1   2.064897418022156E-1   1.825602203607559E-1   3.435705602169037E-2   1.817582696676254E-1   3.705446422100067E-2  -3.237123191356659E-1   5.200080871582031E-1  
 7.321321321321322E8    -4.937537908554077E-1   2.267432808876038E-1   1.903782188892365E-1   1.886426657438278E-2   1.898460686206818E-1   1.899392157793045E-2  -2.865654826164246E-1   5.025247931480408E-1  
 7.345345345345346E8    -4.882261753082275E-1   2.477826178073883E-1   1.958987712860107E-1   1.169331022538245E-3   1.956929564476013E-1   6.489763036370277E-4  -2.490659952163696E-1   4.806805551052094E-1  
 7.369369369369370E8    -4.818086326122284E-1   2.683566212654114E-1   1.997104138135910E-1  -1.751656271517277E-2   1.992402672767639E-1  -1.852331869304180E-2  -2.127079516649246E-1   4.532476067543030E-1  
 7.393393393393394E8    -4.747343063354492E-1   2.873010635375977E-1   2.016651034355164E-1  -3.740302473306656E-2   2.009593993425369E-1  -3.820648044347763E-2  -1.780856996774674E-1   4.187918901443481E-1  
 7.417417417417418E8    -4.674277603626251E-1   3.050732910633087E-1   2.012707591056824E-1  -5.831068381667137E-2   2.007961720228195E-1  -5.821592733263969E-2  -1.470559090375900E-1   3.777353465557098E-1  
 7.441441441441442E8    -4.598549306392670E-1   3.208574056625366E-1   1.983276754617691E-1  -7.983901351690292E-2   1.985871046781540E-1  -7.832759618759155E-2  -1.211175769567490E-1   3.295505344867706E-1  
 7.465465465465466E8    -4.541553258895874E-1   3.351159393787384E-1   1.932230144739151E-1  -1.005878746509552E-1   1.934593617916107E-1  -9.923160821199417E-2  -1.011904552578926E-1   2.770260870456696E-1  
 7.489489489489490E8    -4.483121037483215E-1   3.489492833614349E-1   1.849491298198700E-1  -1.213050931692123E-1   1.854521483182907E-1  -1.201276704668999E-1  -9.163204580545425E-2   2.202953994274139E-1  
 7.513513513513514E8    -4.426050484180450E-1   3.631678819656372E-1   1.733371466398239E-1  -1.413070559501648E-1   1.739555746316910E-1  -1.403401792049408E-1  -9.179110080003738E-2   1.614480614662170E-1  
 7.537537537537538E8    -4.363839924335480E-1   3.781465888023377E-1   1.585378497838974E-1  -1.598876714706421E-1   1.595873683691025E-1  -1.587914079427719E-1  -1.012092232704163E-1   1.022383794188500E-1  
 7.561561561561562E8    -4.301348030567169E-1   3.929422795772553E-1   1.413794308900833E-1  -1.762927919626236E-1   1.416854411363602E-1  -1.753330081701279E-1  -1.206368356943131E-1   4.293041676282883E-2  
 7.585585585585586E8    -4.242300391197205E-1   4.093057215213776E-1   1.222069635987282E-1  -1.893521696329117E-1   1.219217404723167E-1  -1.882771104574204E-1  -1.485049724578857E-1  -9.268000721931458E-3  
 7.609609609609610E8    -4.181578755378723E-1   4.254580736160278E-1   1.017120257019997E-1  -1.997292935848236E-1   1.014755442738533E-1  -1.980246901512146E-1  -1.848072856664658E-1  -5.454721301794052E-2  
 7.633633633633634E8    -4.124655127525330E-1   4.414906203746796E-1   8.022600412368774E-2  -2.073436230421066E-1   8.073353022336960E-2  -2.053185403347015E-1  -2.275556772947311E-1  -9.170004725456238E-2  
 7.657657657657658E8    -4.071703851222992E-1   4.554005861282349E-1   5.910834670066834E-2  -2.123238295316696E-1   6.013267859816551E-2  -2.105467468500137E-1  -2.745962142944336E-1  -1.217253059148789E-1  
 7.681681681681682E8    -4.010487496852875E-1   4.711331725120544E-1   3.758332133293152E-2  -2.142892032861710E-1   3.898867964744568E-2  -2.138752639293671E-1  -3.233915269374847E-1  -1.439047008752823E-1  
 7.705705705705706E8    -3.941617906093597E-1   4.880444407463074E-1   1.605569943785667E-2  -2.135834693908691E-1   1.790891401469708E-2  -2.133188992738724E-1  -3.703407943248749E-1  -1.568915992975235E-1  
 7.729729729729730E8    -3.855475485324860E-1   5.050188899040222E-1  -5.623459350317717E-3  -2.091015875339508E-1  -3.000776749104261E-3  -2.102017998695374E-1  -4.163992702960968E-1  -1.634882837533951E-1  
 7.753753753753754E8    -3.756656348705292E-1   5.212748050689697E-1  -2.517408505082130E-2  -2.016478776931763E-1  -2.274131774902344E-2  -2.033939957618713E-1  -4.603459537029266E-1  -1.641062051057816E-1  
 7.777777777777778E8    -3.645271360874176E-1   5.365193486213684E-1  -4.220508784055710E-2  -1.920960098505020E-1  -4.023890942335129E-2  -1.935010701417923E-1  -5.014961361885071E-1  -1.598801910877228E-1  
 7.801801801801802E8    -3.535563349723816E-1   5.500859022140503E-1  -5.622985959053040E-2  -1.814022809267044E-1  -5.467479303479195E-2  -1.814974695444107E-1  -5.385825037956238E-1  -1.515360921621323E-1  
 7.825825825825826E8    -3.403887152671814E-1   5.642352700233460E-1  -6.771854311227799E-2  -1.693674772977829E-1  -6.684810668230057E-2  -1.697701066732407E-1  -5.742164850234985E-1  -1.396210193634033E-1  
 7.849849849849850E8    -3.282396197319031E-1   5.786098241806030E-1  -7.729420810937882E-2  -1.579472869634628E-1  -7.618469744920731E-2  -1.583073735237122E-1  -6.053547263145447E-1  -1.268552988767624E-1  
 7.873873873873874E8    -3.166014254093170E-1   5.922568440437317E-1  -8.539797365665436E-2  -1.472501009702683E-1  -8.408485352993012E-2  -1.470628380775452E-1  -6.339908242225647E-1  -1.128125414252281E-1  
 7.897897897897898E8    -3.029502034187317E-1   6.068933606147766E-1  -9.220694750547409E-2  -1.364471316337585E-1  -9.107287228107452E-2  -1.358397156000137E-1  -6.613572835922241E-1  -9.727168083190918E-2  
 7.921921921921922E8    -2.863762974739075E-1   6.214652061462402E-1  -9.757921844720841E-2  -1.253931075334549E-1  -9.680646657943726E-2  -1.251006573438644E-1  -6.879738569259644E-1  -8.020153641700745E-2  
 7.945945945945946E8    -2.704035639762878E-1   6.352154612541199E-1  -1.018507629632950E-1  -1.149790063500404E-1  -1.005505025386810E-1  -1.148540079593658E-1  -7.090218067169190E-1  -6.073646247386932E-2  
 7.969969969969970E8    -2.533209025859833E-1   6.463213562965393E-1  -1.050312370061874E-1  -1.049514338374138E-1  -1.038734912872315E-1  -1.051950007677078E-1  -7.278290987014771E-1  -4.031732678413391E-2  
 7.993993993993994E8    -2.362557500600815E-1   6.554704904556274E-1  -1.076057404279709E-1  -9.556216746568680E-2  -1.066877022385597E-1  -9.580074995756149E-2  -7.443347573280335E-1  -1.913719624280930E-2  
 8.018018018018018E8    -2.184945791959763E-1   6.627473235130310E-1  -1.095129251480103E-1  -8.617660403251648E-2  -1.090385019779205E-1  -8.647227287292481E-2  -7.584494352340698E-1   2.095504896715283E-3  
 8.042042042042042E8    -2.005023509263992E-1   6.701378226280212E-1  -1.109732687473297E-1  -7.710251957178116E-2  -1.107134371995926E-1  -7.764024287462235E-2  -7.707452178001404E-1   2.106487192213535E-2  
 8.066066066066066E8    -1.828613877296448E-1   6.766866445541382E-1  -1.117997840046883E-1  -6.804987043142319E-2  -1.117077544331551E-1  -6.873901188373566E-2  -7.819272279739380E-1   4.216408729553223E-2  
 8.090090090090090E8    -1.658888906240463E-1   6.821115612983704E-1  -1.117897927761078E-1  -5.935801193118095E-2  -1.116933003067970E-1  -5.997872725129128E-2  -7.913484573364258E-1   6.309192627668381E-2  
 8.114114114114114E8    -1.499147117137909E-1   6.865127086639404E-1  -1.110845953226090E-1  -5.133052170276642E-2  -1.110447421669960E-1  -5.174703523516655E-2  -7.990655899047852E-1   8.314053714275360E-2  
 8.138138138138138E8    -1.348307728767395E-1   6.901605725288391E-1  -1.100468635559082E-1  -4.394160956144333E-2  -1.098975464701653E-1  -4.430379718542099E-2  -8.058815002441406E-1   1.022650822997093E-1  
 8.162162162162162E8    -1.194123178720474E-1   6.944481134414673E-1  -1.085111349821091E-1  -3.701366484165192E-2  -1.082839816808701E-1  -3.723908960819244E-2  -8.113942146301270E-1   1.209011822938919E-1  
 8.186186186186186E8    -1.060372516512871E-1   6.973103284835815E-1  -1.068741157650948E-1  -3.067619167268276E-2  -1.064590737223625E-1  -3.083748184144497E-2  -8.164367675781250E-1   1.397557407617569E-1  
 8.210210210210210E8    -9.110538661479950E-2   7.005544304847717E-1  -1.046762466430664E-1  -2.460114844143391E-2  -1.043056100606918E-1  -2.480612508952618E-2  -8.200305700302124E-1   1.589735895395279E-1  
 8.234234234234234E8    -7.652574777603149E-2   7.031269669532776E-1  -1.022797971963882E-1  -1.883042603731155E-2  -1.019798070192337E-1  -1.919521950185299E-2  -8.225528001785278E-1   1.768108308315277E-1  
