#  HZ   S   RI   R     50.00 
! Rohde & Schwarz ZVB8 2Ports - Version 2.81 - 1145.1010k08 SN: 100113
! Date: 2016-05-03 01:37:51
! Measurements: S11 S21 S12 S22 
! 
 6.000000000000000E8     5.046149492263794E-1   2.370713800191879E-1  -8.502962067723274E-3   1.034744549542666E-3  -8.527440018951893E-3   9.957253932952881E-4  -9.683742523193359E-1  -8.439297229051590E-2  
 6.024024024024024E8     4.975913465023041E-1   2.031421512365341E-1  -8.486703038215637E-3   1.173189259134233E-3  -8.456874638795853E-3   1.129646552726626E-3  -9.690788984298706E-1  -7.189714163541794E-2  
 6.048048048048048E8     4.879027307033539E-1   1.696478724479675E-1  -8.440984413027763E-3   1.194518292322755E-3  -8.472135290503502E-3   1.114519196562469E-3  -9.696151018142700E-1  -6.014098599553108E-2  
 6.072072072072072E8     4.753085672855377E-1   1.374750584363937E-1  -8.494704030454159E-3   1.159153180196881E-3  -8.486754260957241E-3   1.125655951909721E-3  -9.697791337966919E-1  -4.816357791423798E-2  
 6.096096096096096E8     4.595404565334320E-1   1.075136363506317E-1  -8.534352295100689E-3   1.098382635973394E-3  -8.552341721951962E-3   1.045289565809071E-3  -9.694459438323975E-1  -3.581674024462700E-2  
 6.120120120120120E8     4.417808949947357E-1   8.317779749631882E-2  -8.644789457321167E-3   7.968876743689179E-4  -8.675963617861271E-3   8.147456101141870E-4  -9.692032337188721E-1  -2.609225735068321E-2  
 6.144144144144144E8     4.241856634616852E-1   6.313870102167130E-2  -8.817034773528576E-3   4.213862994220108E-4  -8.863756433129311E-3   3.453612443991005E-4  -9.693831205368042E-1  -1.479453872889280E-2  
 6.168168168168168E8     4.074052572250366E-1   4.628579691052437E-2  -9.332914836704731E-3  -2.114316157530993E-4  -9.230473078787327E-3  -2.059961552731693E-4  -9.692230820655823E-1  -2.791376784443855E-3  
 6.192192192192192E8     3.920637667179108E-1   3.266687691211700E-2  -1.002086419612169E-2  -9.261861559934914E-4  -9.958517737686634E-3  -9.643552475608885E-4  -9.688230156898499E-1   9.546944871544838E-3  
 6.216216216216216E8     3.790729343891144E-1   2.078150771558285E-2  -1.115270517766476E-2  -1.686388161033392E-3  -1.116677932441235E-2  -1.703216345049441E-3  -9.676586985588074E-1   2.218516916036606E-2  
 6.240240240240240E8     3.686960339546204E-1   1.010900828987360E-2  -1.292037498205900E-2  -2.312163589522243E-3  -1.286081317812204E-2  -2.418760210275650E-3  -9.663726687431335E-1   3.453392535448074E-2  
 6.264264264264264E8     3.645855784416199E-1   7.642984273843467E-4  -1.520379539579153E-2  -2.531243255361915E-3  -1.520964782685041E-2  -2.576972590759397E-3  -9.657447338104248E-1   4.786244779825211E-2  
 6.288288288288288E8     3.651199638843536E-1  -1.281398627907038E-2  -1.787934079766274E-2  -2.099099336192012E-3  -1.784351281821728E-2  -2.166281919926405E-3  -9.644255042076111E-1   5.987590923905373E-2  
 6.312312312312312E8     3.678645789623261E-1  -3.263099119067192E-2  -2.070936001837254E-2  -8.147206390276551E-4  -2.073022909462452E-2  -8.358990889973939E-4  -9.631557464599609E-1   7.086596637964249E-2  
 6.336336336336336E8     3.702185750007629E-1  -5.962988361716270E-2  -2.331086434423924E-2   1.293011591769755E-3  -2.319936826825142E-2   1.192291383631527E-3  -9.614401459693909E-1   8.117648214101791E-2  
 6.360360360360360E8     3.690201044082642E-1  -9.309916198253632E-2  -2.525206468999386E-2   4.064622335135937E-3  -2.527027763426304E-2   3.963229246437550E-3  -9.596750140190125E-1   9.096056967973709E-2  
 6.384384384384384E8     3.609247207641602E-1  -1.305535733699799E-1  -2.669592946767807E-2   7.337133400142193E-3  -2.661082148551941E-2   7.217224687337875E-3  -9.581192135810852E-1   1.023964211344719E-1  
 6.408408408408408E8     3.455378413200378E-1  -1.703983694314957E-1  -2.738525532186031E-2   1.074039936065674E-2  -2.726569585502148E-2   1.055327989161015E-2  -9.561731815338135E-1   1.137009710073471E-1  
 6.432432432432432E8     3.213360905647278E-1  -2.105087637901306E-1  -2.735786139965057E-2   1.421643234789372E-2  -2.734414860606194E-2   1.390733569860458E-2  -9.542590379714966E-1   1.249112710356712E-1  
 6.456456456456456E8     2.920910418033600E-1  -2.462518513202667E-1  -2.682326361536980E-2   1.734347641468048E-2  -2.687415666878223E-2   1.721503026783466E-2  -9.522200226783752E-1   1.356962025165558E-1  
 6.480480480480480E8     2.572080790996552E-1  -2.775891721248627E-1  -2.587988972663879E-2   2.030163444578648E-2  -2.593651600182056E-2   2.019805833697319E-2  -9.497018456459045E-1   1.459474563598633E-1  
 6.504504504504504E8     2.164925783872604E-1  -3.031679689884186E-1  -2.468030899763107E-2   2.315811812877655E-2  -2.459335140883923E-2   2.296980097889900E-2  -9.448241591453552E-1   1.572397053241730E-1  
 6.528528528528528E8     1.734119504690170E-1  -3.238593935966492E-1  -2.304624021053314E-2   2.562104165554047E-2  -2.308420650660992E-2   2.549695223569870E-2  -9.406106472015381E-1   1.701961308717728E-1  
 6.552552552552552E8     1.291727572679520E-1  -3.396601676940918E-1  -2.117584645748138E-2   2.767875045537949E-2  -2.122927457094193E-2   2.748359739780426E-2  -9.381771683692932E-1   1.830945461988449E-1  
 6.576576576576576E8     8.436714112758637E-2  -3.501599729061127E-1  -1.920637488365173E-2   2.950363978743553E-2  -1.933469064533711E-2   2.927728183567524E-2  -9.374082684516907E-1   1.945055276155472E-1  
 6.600600600600600E8     4.011220112442970E-2  -3.558251857757568E-1  -1.715785078704357E-2   3.093819133937359E-2  -1.727576367557049E-2   3.074927628040314E-2  -9.368816614151001E-1   2.036119699478149E-1  
 6.624624624624624E8    -4.617997910827398E-3  -3.555101454257965E-1  -1.499189250171185E-2   3.203900903463364E-2  -1.520033739507198E-2   3.178043290972710E-2  -9.337114691734314E-1   2.160472571849823E-1  
 6.648648648648648E8    -4.555275291204453E-2  -3.515436053276062E-1  -1.308680139482021E-2   3.271842375397682E-2  -1.317018084228039E-2   3.256890550255776E-2  -9.299534559249878E-1   2.282563447952271E-1  
 6.672672672672672E8    -8.645541220903397E-2  -3.427822291851044E-1  -1.131328381597996E-2   3.322174400091171E-2  -1.144719310104847E-2   3.313808143138886E-2  -9.261554479598999E-1   2.399150878190994E-1  
 6.696696696696696E8    -1.249693557620049E-1  -3.298880457878113E-1  -9.635953232645989E-3   3.344727680087090E-2  -9.794276207685471E-3   3.335478156805039E-2  -9.218357801437378E-1   2.512438595294952E-1  
 6.720720720720720E8    -1.600264161825180E-1  -3.142824172973633E-1  -8.151668123900890E-3   3.329538926482201E-2  -8.254784159362316E-3   3.321322798728943E-2  -9.172827601432800E-1   2.625554203987122E-1  
 6.744744744744744E8    -1.924472153186798E-1  -2.949543893337250E-1  -6.991092115640640E-3   3.288415074348450E-2  -7.125510834157467E-3   3.278853371739388E-2  -9.122031331062317E-1   2.749173939228058E-1  
 6.768768768768768E8    -2.199822366237640E-1  -2.742574512958527E-1  -6.409144960343838E-3   3.219796344637871E-2  -6.550024263560772E-3   3.213638439774513E-2  -9.069897532463074E-1   2.871102690696716E-1  
 6.792792792792792E8    -2.426037490367889E-1  -2.526623904705048E-1  -6.704130675643683E-3   3.140417113900185E-2  -6.886854302138090E-3   3.128603100776672E-2  -9.014772772789002E-1   2.992393374443054E-1  
 6.816816816816816E8    -2.599383592605591E-1  -2.319860160350800E-1  -8.094958961009979E-3   3.101508878171444E-2  -8.336597122251988E-3   3.087069280445576E-2  -8.953871726989746E-1   3.113229870796204E-1  
 6.840840840840840E8    -2.717774212360382E-1  -2.142776846885681E-1  -1.052581239491701E-2   3.159679099917412E-2  -1.064197625964880E-2   3.145806118845940E-2  -8.886747956275940E-1   3.236542642116547E-1  
 6.864864864864864E8    -2.808574438095093E-1  -1.990197598934174E-1  -1.353811286389828E-2   3.383591771125794E-2  -1.360602956265211E-2   3.362165018916130E-2  -8.810808658599854E-1   3.347735702991486E-1  
 6.888888888888888E8    -2.910774052143097E-1  -1.889018565416336E-1  -1.626678928732872E-2   3.819015994668007E-2  -1.659262925386429E-2   3.792902082204819E-2  -8.728564381599426E-1   3.459792733192444E-1  
 6.912912912912912E8    -3.039168417453766E-1  -1.838396340608597E-1  -1.779499463737011E-2   4.448309913277626E-2  -1.817816123366356E-2   4.421633481979370E-2  -8.646226525306702E-1   3.565810620784760E-1  
 6.936936936936936E8    -3.221691846847534E-1  -1.823731213808060E-1  -1.706442609429359E-2   5.213493853807449E-2  -1.755368337035179E-2   5.192781239748001E-2  -8.572415709495544E-1   3.664340376853943E-1  
 6.960960960960960E8    -3.474593460559845E-1  -1.797454059123993E-1  -1.367120724171400E-2   5.988655984401703E-2  -1.385491061955690E-2   5.979708582162857E-2  -8.502261042594910E-1   3.765816986560822E-1  
 6.984984984984984E8    -3.789602518081665E-1  -1.708849668502808E-1  -7.897396571934223E-3   6.635814905166626E-2  -7.350985426455736E-3   6.631313264369965E-2  -8.420963883399963E-1   3.902123272418976E-1  
 7.009009009009008E8    -4.125487804412842E-1  -1.540349870920181E-1  -7.971856393851340E-4   7.095706462860107E-2   3.979576285928488E-4   7.086481153964996E-2  -8.343113660812378E-1   4.033926427364349E-1  
 7.033033033033032E8    -4.436043500900269E-1  -1.298135519027710E-1   6.897418759763241E-3   7.344507426023483E-2   7.923252880573273E-3   7.336067408323288E-2  -8.274850249290466E-1   4.142566919326782E-1  
 7.057057057057056E8    -4.703662693500519E-1  -1.010521799325943E-1   1.435069646686316E-2   7.456589490175247E-2   1.467269379645586E-2   7.445624470710754E-2  -8.218804597854614E-1   4.222000539302826E-1  
 7.081081081081080E8    -4.911236763000488E-1  -6.880236417055130E-2   2.144165709614754E-2   7.474887371063232E-2   2.103597298264504E-2   7.474087923765183E-2  -8.152853250503540E-1   4.312998950481415E-1  
 7.105105105105104E8    -5.066949129104614E-1  -3.386649116873741E-2   2.809607982635498E-2   7.418837398290634E-2   2.697663940489292E-2   7.447034865617752E-2  -8.083904981613159E-1   4.419983923435211E-1  
 7.129129129129129E8    -5.182489156723023E-1   5.119478446431458E-4   3.417358174920082E-2   7.325228303670883E-2   3.282414376735687E-2   7.370343059301376E-2  -8.000864386558533E-1   4.540088176727295E-1  
 7.153153153153153E8    -5.265603661537170E-1   3.312745317816734E-2   3.953017294406891E-2   7.213866710662842E-2   3.856590762734413E-2   7.251764088869095E-2  -7.899170517921448E-1   4.673715531826019E-1  
 7.177177177177178E8    -5.329355597496033E-1   6.521058827638626E-2   4.476872459053993E-2   7.102259993553162E-2   4.440667107701302E-2   7.100080698728561E-2  -7.783588171005249E-1   4.813776016235352E-1  
 7.201201201201202E8    -5.366338491439819E-1   9.798365831375122E-2   5.006518214941025E-2   6.941036134958267E-2   4.968022182583809E-2   6.948363780975342E-2  -7.669762372970581E-1   4.946338236331940E-1  
 7.225225225225226E8    -5.380178689956665E-1   1.309537738561630E-1   5.552902817726135E-2   6.767702847719193E-2   5.524064227938652E-2   6.781393289566040E-2  -7.546235918998718E-1   5.085158944129944E-1  
 7.249249249249250E8    -5.368861556053162E-1   1.636792570352554E-1   6.135702505707741E-2   6.519392132759094E-2   6.028169393539429E-2   6.595098972320557E-2  -7.430537343025208E-1   5.190750360488892E-1  
 7.273273273273274E8    -5.330297350883484E-1   1.947156488895416E-1   6.694903224706650E-2   6.232329085469246E-2   6.535127758979797E-2   6.361938267946243E-2  -7.307948470115662E-1   5.294989943504334E-1  
 7.297297297297298E8    -5.273849964141846E-1   2.207762897014618E-1   7.200562953948975E-2   5.959297716617584E-2   7.076986879110336E-2   6.046055629849434E-2  -7.180970311164856E-1   5.402034521102905E-1  
 7.321321321321322E8    -5.206969380378723E-1   2.437876164913178E-1   7.633868604898453E-2   5.667109787464142E-2   7.606192678213120E-2   5.643373727798462E-2  -7.048237323760986E-1   5.509777069091797E-1  
 7.345345345345346E8    -5.132587552070618E-1   2.679202258586884E-1   8.050321787595749E-2   5.302079394459724E-2   8.047503978013992E-2   5.245057120919228E-2  -6.904494166374207E-1   5.629732012748718E-1  
 7.369369369369370E8    -5.052816271781921E-1   2.920026481151581E-1   8.409357070922852E-2   4.942982271313667E-2   8.432266116142273E-2   4.840395599603653E-2  -6.749723553657532E-1   5.747903585433960E-1  
 7.393393393393394E8    -4.960978627204895E-1   3.148691952228546E-1   8.762958645820618E-2   4.590422287583351E-2   8.791090548038483E-2   4.491380974650383E-2  -6.588892340660095E-1   5.860276222229004E-1  
 7.417417417417418E8    -4.858437776565552E-1   3.367510437965393E-1   9.160201251506805E-2   4.253829643130302E-2   9.167263656854630E-2   4.197754710912705E-2  -6.423001289367676E-1   5.959182977676392E-1  
 7.441441441441442E8    -4.744206666946411E-1   3.573979735374451E-1   9.588400274515152E-2   3.879662230610848E-2   9.568880498409271E-2   3.905315324664116E-2  -6.255205869674683E-1   6.042592525482178E-1  
 7.465465465465466E8    -4.639236330986023E-1   3.763958513736725E-1   1.001050248742104E-1   3.510975837707520E-2   9.990878403186798E-2   3.563483059406281E-2  -6.066843867301941E-1   6.145302653312683E-1  
 7.489489489489490E8    -4.527683258056641E-1   3.948934078216553E-1   1.045804247260094E-1   3.117816522717476E-2   1.044149324297905E-1   3.207819908857346E-2  -5.884383320808411E-1   6.231971979141235E-1  
 7.513513513513514E8    -4.404920041561127E-1   4.124619662761688E-1   1.093428954482079E-1   2.677242830395699E-2   1.092051118612289E-1   2.788355201482773E-2  -5.696172118186951E-1   6.308123469352722E-1  
 7.537537537537538E8    -4.261973798274994E-1   4.284704923629761E-1   1.144765168428421E-1   2.172219380736351E-2   1.143989264965057E-1   2.299511805176735E-2  -5.486123561859131E-1   6.385691761970520E-1  
 7.561561561561562E8    -4.110338687896729E-1   4.426496624946594E-1   1.199694797396660E-1   1.602467149496079E-2   1.195539757609367E-1   1.704883947968483E-2  -5.265959501266480E-1   6.432825326919556E-1  
 7.585585585585586E8    -3.965400457382202E-1   4.556367397308350E-1   1.250463575124741E-1   9.474620223045349E-3   1.243335902690888E-1   9.879073128104210E-3  -5.008050799369812E-1   6.492718458175659E-1  
 7.609609609609610E8    -3.829353153705597E-1   4.661912322044373E-1   1.299767941236496E-1   2.004562178626657E-3   1.288406699895859E-1   2.496412023901939E-3  -4.754411876201630E-1   6.530402302742004E-1  
 7.633633633633634E8    -3.704232275485992E-1   4.757301509380341E-1   1.342908740043640E-1  -6.448021624237299E-3   1.331162899732590E-1  -5.724495742470026E-3  -4.500776827335358E-1   6.548274755477905E-1  
 7.657657657657658E8    -3.591305315494537E-1   4.850027263164520E-1   1.378610879182816E-1  -1.530696358531714E-2   1.371900886297226E-1  -1.427356060594320E-2  -4.261242449283600E-1   6.542325019836426E-1  
 7.681681681681682E8    -3.479460477828980E-1   4.937775135040283E-1   1.410689949989319E-1  -2.469979040324688E-2   1.411408483982086E-1  -2.398317307233810E-2  -4.027398526668549E-1   6.518924832344055E-1  
 7.705705705705706E8    -3.378074169158936E-1   5.028807520866394E-1   1.434685587882996E-1  -3.489540144801140E-2   1.440638154745102E-1  -3.393931686878204E-2  -3.786298632621765E-1   6.487480401992798E-1  
 7.729729729729730E8    -3.271187245845795E-1   5.110314488410950E-1   1.447192430496216E-1  -4.602102935314179E-2   1.462333947420120E-1  -4.512563347816467E-2  -3.529678881168366E-1   6.464023590087891E-1  
 7.753753753753754E8    -3.168196976184845E-1   5.181446075439453E-1   1.450232714414597E-1  -5.774136632680893E-2   1.469728797674179E-1  -5.682380869984627E-2  -3.242990076541901E-1   6.430047750473023E-1  
 7.777777777777778E8    -3.074682354927063E-1   5.238618254661560E-1   1.445648372173309E-1  -6.970521807670593E-2   1.459400057792664E-1  -6.902319192886353E-2  -2.934408783912659E-1   6.350904107093811E-1  
 7.801801801801802E8    -2.997169494628906E-1   5.294520258903503E-1   1.431703418493271E-1  -8.157477527856827E-2   1.434221267700195E-1  -8.065633475780487E-2  -2.616889178752899E-1   6.220496296882629E-1  
 7.825825825825826E8    -2.909152209758759E-1   5.365889668464661E-1   1.404366940259934E-1  -9.354807436466217E-2   1.406334936618805E-1  -9.278219938278198E-2  -2.308469712734222E-1   6.073647737503052E-1  
 7.849849849849850E8    -2.837621271610260E-1   5.449790358543396E-1   1.365533024072647E-1  -1.060114651918411E-1   1.369669586420059E-1  -1.045028492808342E-1  -2.029899060726166E-1   5.889200568199158E-1  
 7.873873873873874E8    -2.773818075656891E-1   5.539693832397461E-1   1.322624534368515E-1  -1.183913275599480E-1   1.324415951967239E-1  -1.164213493466377E-1  -1.761496365070343E-1   5.685271024703980E-1  
 7.897897897897898E8    -2.694339156150818E-1   5.643529891967773E-1   1.268692314624786E-1  -1.309754550457001E-1   1.269811689853668E-1  -1.292133182287216E-1  -1.492153406143189E-1   5.458144545555115E-1  
 7.921921921921922E8    -2.588728964328766E-1   5.752119421958923E-1   1.197385266423225E-1  -1.438802033662796E-1   1.202900260686874E-1  -1.428814530372620E-1  -1.228394210338593E-1   5.204429030418396E-1  
 7.945945945945946E8    -2.495448887348175E-1   5.855762362480164E-1   1.111211106181145E-1  -1.568800657987595E-1   1.120158061385155E-1  -1.553535610437393E-1  -9.741401672363281E-2   4.884621500968933E-1  
 7.969969969969970E8    -2.396715134382248E-1   5.949964523315430E-1   1.003350913524628E-1  -1.692487597465515E-1   1.015647500753403E-1  -1.678564697504044E-1  -7.554177194833756E-2   4.525840282440186E-1  
 7.993993993993994E8    -2.298972606658936E-1   6.034402251243591E-1   8.799447119235992E-2  -1.804159432649612E-1   8.912013471126556E-2  -1.797884404659271E-1  -5.784659460186958E-2   4.135423600673676E-1  
 8.018018018018018E8    -2.194770276546478E-1   6.114119887351990E-1   7.411214709281921E-2  -1.905597001314163E-1   7.460363209247589E-2  -1.904315948486328E-1  -4.448011517524719E-2   3.718508183956146E-1  
 8.042042042042042E8    -2.086000144481659E-1   6.208429336547852E-1   5.830620974302292E-2  -1.997327655553818E-1   5.845360830426216E-2  -1.997556090354919E-1  -3.700609505176544E-2   3.276097774505615E-1  
 8.066066066066066E8    -1.971418857574463E-1   6.302891969680786E-1   4.039343446493149E-2  -2.066665589809418E-1   4.059597477316856E-2  -2.067866027355194E-1  -3.415716439485550E-2   2.826365828514099E-1  
 8.090090090090090E8    -1.854011267423630E-1   6.395320892333984E-1   2.159305475652218E-2  -2.113272547721863E-1   2.235178649425507E-2  -2.113706767559052E-1  -3.751485422253609E-2   2.387804090976715E-1  
 8.114114114114114E8    -1.740026772022247E-1   6.478482484817505E-1   2.177978632971644E-3  -2.137711942195892E-1   2.976477844640613E-3  -2.135817557573319E-1  -4.783512279391289E-2   1.939593404531479E-1  
 8.138138138138138E8    -1.621000617742539E-1   6.562153697013855E-1  -1.767670549452305E-2  -2.133594155311585E-1  -1.666899211704731E-2  -2.132527828216553E-1  -6.461933255195618E-2   1.511836200952530E-1  
 8.162162162162162E8    -1.500519961118698E-1   6.647976636886597E-1  -3.668447583913803E-2  -2.104716449975967E-1  -3.564668446779251E-2  -2.103689014911652E-1  -8.686421811580658E-2   1.110015064477921E-1  
 8.186186186186186E8    -1.380399763584137E-1   6.731593012809753E-1  -5.483431741595268E-2  -2.054364085197449E-1  -5.387560278177261E-2  -2.051213383674622E-1  -1.133589446544647E-1   7.545169442892075E-2  
 8.210210210210210E8    -1.242850124835968E-1   6.805454492568970E-1  -7.212235033512116E-2  -1.978940963745117E-1  -7.128092646598816E-2  -1.979873776435852E-1  -1.436398774385452E-1   4.435067623853684E-2  
 8.234234234234234E8    -1.105101853609085E-1   6.877357959747315E-1  -8.828336000442505E-2  -1.883524060249329E-1  -8.752135187387466E-2  -1.884454637765884E-1  -1.764196008443832E-1   1.799070835113525E-2  
