#  HZ   S   RI   R     50.00 
! Rohde & Schwarz ZVB8 2Ports - Version 2.81 - 1145.1010k08 SN: 100113
! Date: 2016-05-03 01:37:37
! Measurements: S11 S21 S12 S22 
! 
 6.000000000000000E8     5.015681982040405E-1   3.800436258316040E-1  -7.269691675901413E-3  -1.247782347491011E-5  -7.312255445867777E-3  -1.487487043050351E-5  -9.689188599586487E-1  -9.295785427093506E-2  
 6.024024024024024E8     5.032742619514465E-1   3.492482006549835E-1  -7.329402025789022E-3   1.693434460321441E-4  -7.287142798304558E-3   9.478926222072914E-5  -9.697507023811340E-1  -8.114404231309891E-2  
 6.048048048048048E8     5.032181739807129E-1   3.182686269283295E-1  -7.323354482650757E-3   8.033016638364643E-5  -7.303541526198387E-3   1.121758759836666E-4  -9.699581265449524E-1  -6.894353777170181E-2  
 6.072072072072072E8     5.003228187561035E-1   2.871631681919098E-1  -7.349491119384766E-3   5.067039455752820E-5  -7.370476145297289E-3   1.390152374369791E-5  -9.704561233520508E-1  -5.749822780489922E-2  
 6.096096096096096E8     4.944596290588379E-1   2.586714625358582E-1  -7.390700280666351E-3  -1.965388037206139E-5  -7.366673089563847E-3  -4.467815961106680E-5  -9.704203009605408E-1  -4.602272063493729E-2  
 6.120120120120120E8     4.856997430324554E-1   2.337747216224670E-1  -7.447605486959219E-3  -2.711418492253870E-4  -7.374102715402842E-3  -3.275446069892496E-4  -9.702517390251160E-1  -3.604418784379959E-2  
 6.144144144144144E8     4.765676558017731E-1   2.124280929565430E-1  -7.564439438283444E-3  -6.700697122141719E-4  -7.558646611869335E-3  -7.360510062426329E-4  -9.706795811653137E-1  -2.529679611325264E-2  
 6.168168168168168E8     4.675580561161041E-1   1.923009455204010E-1  -7.807500660419464E-3  -1.263133133761585E-3  -7.738811895251274E-3  -1.244517276063561E-3  -9.708608984947205E-1  -1.336196623742580E-2  
 6.192192192192192E8     4.589080214500427E-1   1.749378591775894E-1  -8.342879824340344E-3  -2.019910840317607E-3  -8.296398445963860E-3  -2.036256249994040E-3  -9.704822301864624E-1  -1.494481810368598E-3  
 6.216216216216216E8     4.518129527568817E-1   1.591052412986755E-1  -9.147890843451023E-3  -2.829713979735971E-3  -9.168748743832111E-3  -2.823925809934735E-3  -9.698079228401184E-1   1.114084199070931E-2  
 6.240240240240240E8     4.463731050491333E-1   1.447334587574005E-1  -1.061699166893959E-2  -3.620956093072891E-3  -1.051685214042664E-2  -3.698178566992283E-3  -9.686445593833923E-1   2.378104440867901E-2  
 6.264264264264264E8     4.451941251754761E-1   1.326732933521271E-1  -1.253304351121187E-2  -4.098077304661274E-3  -1.244927942752838E-2  -4.197668284177780E-3  -9.682255387306213E-1   3.641499206423760E-2  
 6.288288288288288E8     4.480603337287903E-1   1.188224107027054E-1  -1.475389953702688E-2  -4.236531443893910E-3  -1.467809267342091E-2  -4.197685513645411E-3  -9.673773050308228E-1   4.812125489115715E-2  
 6.312312312312312E8     4.547415375709534E-1   1.012885719537735E-1  -1.733200997114182E-2  -3.540697740390897E-3  -1.723403297364712E-2  -3.640636103227735E-3  -9.663631916046143E-1   5.878664180636406E-2  
 6.336336336336336E8     4.634116590023041E-1   7.812840491533279E-2  -1.976492628455162E-2  -2.167805330827832E-3  -1.968338526785374E-2  -2.332415198907256E-3  -9.648875594139099E-1   6.849078834056854E-2  
 6.360360360360360E8     4.719141423702240E-1   4.976987838745117E-2  -2.186973392963409E-2  -2.048453461611643E-4  -2.186595089733601E-2  -2.313826553290710E-4  -9.635621905326843E-1   7.790695130825043E-2  
 6.384384384384384E8     4.757443368434906E-1   1.554766576737166E-2  -2.356897667050362E-2   2.147559542208910E-3  -2.346065267920494E-2   2.150035928934813E-3  -9.621828794479370E-1   8.886820077896118E-2  
 6.408408408408408E8     4.738111495971680E-1  -2.366077154874802E-2  -2.471245639026165E-2   4.969630856066942E-3  -2.462883293628693E-2   4.818140529096127E-3  -9.606097936630249E-1   9.999050199985504E-2  
 6.432432432432432E8     4.653928875923157E-1  -6.520051509141922E-2  -2.527574077248573E-2   7.722088601440191E-3  -2.525305375456810E-2   7.560005411505699E-3  -9.590305685997009E-1   1.107378676533699E-1  
 6.456456456456456E8     4.499156475067139E-1  -1.071600615978241E-1  -2.544827386736870E-2   1.043813209980726E-2  -2.538723684847355E-2   1.027027610689402E-2  -9.573177695274353E-1   1.212129294872284E-1  
 6.480480480480480E8     4.290309250354767E-1  -1.472778618335724E-1  -2.519800700247288E-2   1.302780676633120E-2  -2.522388659417629E-2   1.287777069956064E-2  -9.552741646766663E-1   1.309177279472351E-1  
 6.504504504504504E8     4.031478166580200E-1  -1.829457283020020E-1  -2.462225966155529E-2   1.564823091030121E-2  -2.465005405247212E-2   1.549242716282606E-2  -9.509205818176270E-1   1.417176425457001E-1  
 6.528528528528528E8     3.737648725509644E-1  -2.157783061265945E-1  -2.374348603188992E-2   1.804995723068714E-2  -2.379108779132366E-2   1.778721995651722E-2  -9.469910264015198E-1   1.538440138101578E-1  
 6.552552552552552E8     3.413925170898438E-1  -2.448008954524994E-1  -2.259288169443607E-2   1.998025178909302E-2  -2.256927266716957E-2   1.988018862903118E-2  -9.449808001518250E-1   1.666645109653473E-1  
 6.576576576576576E8     3.057086169719696E-1  -2.704071104526520E-1  -2.129831910133362E-2   2.183210663497448E-2  -2.139489725232124E-2   2.170227468013763E-2  -9.448902010917664E-1   1.772470325231552E-1  
 6.600600600600600E8     2.687160670757294E-1  -2.917003333568573E-1  -1.987010613083839E-2   2.335448190569878E-2  -1.993264816701412E-2   2.325218357145786E-2  -9.448357820510864E-1   1.861208528280258E-1  
 6.624624624624624E8     2.293822169303894E-1  -3.081612288951874E-1  -1.842192187905312E-2   2.465424872934818E-2  -1.845942623913288E-2   2.448670379817486E-2  -9.421991705894470E-1   1.976123005151749E-1  
 6.648648648648648E8     1.876343637704849E-1  -3.214344382286072E-1  -1.685373112559319E-2   2.562905475497246E-2  -1.698504202067852E-2   2.542160637676716E-2  -9.392474889755249E-1   2.091823220252991E-1  
 6.672672672672672E8     1.466828435659409E-1  -3.295086324214935E-1  -1.548908371478319E-2   2.643388137221336E-2  -1.568878814578056E-2   2.624431811273098E-2  -9.359634518623352E-1   2.203129827976227E-1  
 6.696696696696696E8     1.077380999922752E-1  -3.326721191406250E-1  -1.406955067068338E-2   2.688496746122837E-2  -1.420302968472242E-2   2.677772380411625E-2  -9.326380491256714E-1   2.309775948524475E-1  
 6.720720720720720E8     7.103511691093445E-2  -3.327005803585053E-1  -1.284007821232081E-2   2.693114615976811E-2  -1.289825793355703E-2   2.688567712903023E-2  -9.287234544754028E-1   2.414745539426804E-1  
 6.744744744744744E8     3.663611039519310E-2  -3.284678757190704E-1  -1.190222799777985E-2   2.663081325590611E-2  -1.190551929175854E-2   2.662399224936962E-2  -9.249041080474854E-1   2.530597150325775E-1  
 6.768768768768768E8     2.646459033712745E-3  -3.210344016551971E-1  -1.149700675159693E-2   2.618550881743431E-2  -1.151054911315441E-2   2.611212432384491E-2  -9.206365346908569E-1   2.645038068294525E-1  
 6.792792792792792E8    -2.821313403546810E-2  -3.103456497192383E-1  -1.174847036600113E-2   2.540825121104717E-2  -1.180642191320658E-2   2.545234188437462E-2  -9.162048101425171E-1   2.760547101497650E-1  
 6.816816816816816E8    -5.428023636341095E-2  -2.970904409885407E-1  -1.309027429670095E-2   2.484737895429134E-2  -1.312002819031477E-2   2.476425282657147E-2  -9.114589691162109E-1   2.875534892082214E-1  
 6.840840840840840E8    -7.521156966686249E-2  -2.839791178703308E-1  -1.540251448750496E-2   2.501474879682064E-2  -1.554757542908192E-2   2.486492134630680E-2  -9.061143994331360E-1   2.990670204162598E-1  
 6.864864864864864E8    -9.013663977384567E-2  -2.720256149768829E-1  -1.857192441821098E-2   2.653459832072258E-2  -1.875096186995506E-2   2.626772969961166E-2  -8.998733162879944E-1   3.095466494560242E-1  
 6.888888888888888E8    -1.024051606655121E-1  -2.661786377429962E-1  -2.184004709124565E-2   2.989746443927288E-2  -2.217748574912548E-2   2.966230921447277E-2  -8.932294249534607E-1   3.202008306980133E-1  
 6.912912912912912E8    -1.142124980688095E-1  -2.670533955097199E-1  -2.437656559050083E-2   3.532379493117333E-2  -2.469886839389801E-2   3.499555960297585E-2  -8.866466283798218E-1   3.308056592941284E-1  
 6.936936936936936E8    -1.290876120328903E-1  -2.752495706081390E-1  -2.524293586611748E-2   4.218748211860657E-2  -2.541493810713291E-2   4.191912710666657E-2  -8.807395696640015E-1   3.406595289707184E-1  
 6.960960960960960E8    -1.540653854608536E-1  -2.853467166423798E-1  -2.372829988598824E-2   4.957419633865356E-2  -2.371372468769550E-2   4.952620342373848E-2  -8.750588297843933E-1   3.506037890911102E-1  
 6.984984984984984E8    -1.880880743265152E-1  -2.910950481891632E-1  -2.001501247286797E-2   5.638272315263748E-2  -1.929474063217640E-2   5.651355907320976E-2  -8.683009147644043E-1   3.644417524337769E-1  
 7.009009009009008E8    -2.284801602363586E-1  -2.887306511402130E-1  -1.480778399854899E-2   6.185424327850342E-2  -1.354121509939432E-2   6.197658181190491E-2  -8.617449998855591E-1   3.770610988140106E-1  
 7.033033033033032E8    -2.697639763355255E-1  -2.774229347705841E-1  -8.457478135824204E-3   6.567443907260895E-2  -7.449006661772728E-3   6.565266847610474E-2  -8.559470772743225E-1   3.874248862266541E-1  
 7.057057057057056E8    -3.090721368789673E-1  -2.589260041713715E-1  -2.104762941598892E-3   6.809245049953461E-2  -1.695003593340516E-3   6.809552758932114E-2  -8.514370322227478E-1   3.948847949504852E-1  
 7.081081081081080E8    -3.445498347282410E-1  -2.337876409292221E-1   4.245293792337179E-3   6.961007416248322E-2   3.814354073256254E-3   6.966919451951981E-2  -8.464160561561585E-1   4.028912186622620E-1  
 7.105105105105104E8    -3.740067481994629E-1  -2.041035741567612E-1   1.051687542349100E-2   7.032147794961929E-2   9.255155920982361E-3   7.050914317369461E-2  -8.413258194923401E-1   4.123724400997162E-1  
 7.129129129129129E8    -3.971902430057526E-1  -1.744669228792191E-1   1.598971150815487E-2   7.038215547800064E-2   1.476408727467060E-2   7.066079974174500E-2  -8.348011374473572E-1   4.234985411167145E-1  
 7.153153153153153E8    -4.162015318870544E-1  -1.455906778573990E-1   2.077314630150795E-2   7.019501924514771E-2   1.996936276555061E-2   7.038895040750504E-2  -8.269946575164795E-1   4.358788728713989E-1  
 7.177177177177178E8    -4.338105618953705E-1  -1.167919486761093E-1   2.541088685393333E-2   6.993736326694489E-2   2.506381459534168E-2   6.993947923183441E-2  -8.182030320167542E-1   4.492645561695099E-1  
 7.201201201201202E8    -4.495930373668671E-1  -8.569192141294479E-2   3.033756464719772E-2   6.944449245929718E-2   2.999442815780640E-2   6.944354623556137E-2  -8.096791505813599E-1   4.617383182048798E-1  
 7.225225225225226E8    -4.632800221443176E-1  -5.364441499114037E-2   3.520203009247780E-2   6.869351863861084E-2   3.491744771599770E-2   6.860570609569550E-2  -8.003457784652710E-1   4.749188721179962E-1  
 7.249249249249250E8    -4.739147424697876E-1  -2.076002955436707E-2   4.034086316823959E-2   6.745407730340958E-2   3.929960727691650E-2   6.776580959558487E-2  -7.919665575027466E-1   4.849078953266144E-1  
 7.273273273273274E8    -4.810608029365540E-1   1.117433980107307E-2   4.518717899918556E-2   6.594812124967575E-2   4.371486231684685E-2   6.656993180513382E-2  -7.830188274383545E-1   4.948840141296387E-1  
 7.297297297297298E8    -4.861282110214233E-1   4.101879894733429E-2   4.974017292261124E-2   6.438686698675156E-2   4.849572107195854E-2   6.502261757850647E-2  -7.742360830307007E-1   5.054220557212830E-1  
 7.321321321321322E8    -4.890056848526001E-1   6.925950199365616E-2   5.355272814631462E-2   6.277492642402649E-2   5.327390134334564E-2   6.269951909780502E-2  -7.647007107734680E-1   5.160640478134155E-1  
 7.345345345345346E8    -4.897331893444061E-1   9.885331243276596E-2   5.745114386081696E-2   6.060274690389633E-2   5.744988098740578E-2   6.029288098216057E-2  -7.546220421791077E-1   5.278935432434082E-1  
 7.369369369369370E8    -4.886206984519959E-1   1.278957873582840E-1   6.112521141767502E-2   5.824769288301468E-2   6.137507036328316E-2   5.763993039727211E-2  -7.436940073966980E-1   5.397137403488159E-1  
 7.393393393393394E8    -4.853647053241730E-1   1.552966237068176E-1   6.465914100408554E-2   5.585891753435135E-2   6.493056565523148E-2   5.533123388886452E-2  -7.324067950248718E-1   5.511351227760315E-1  
 7.417417417417418E8    -4.803476035594940E-1   1.804474443197250E-1   6.823609769344330E-2   5.357667803764343E-2   6.817424297332764E-2   5.332629010081291E-2  -7.207839488983154E-1   5.615150928497315E-1  
 7.441441441441442E8    -4.740714728832245E-1   2.033078223466873E-1   7.187043130397797E-2   5.132875218987465E-2   7.144161313772202E-2   5.142841488122940E-2  -7.097320556640625E-1   5.705407261848450E-1  
 7.465465465465466E8    -4.681299924850464E-1   2.250368744134903E-1   7.539875060319901E-2   4.923790693283081E-2   7.493934780359268E-2   4.941867291927338E-2  -6.967889666557312E-1   5.819382071495056E-1  
 7.489489489489490E8    -4.620913565158844E-1   2.469979673624039E-1   7.910759747028351E-2   4.724019765853882E-2   7.867068052291870E-2   4.772170633077622E-2  -6.848562955856323E-1   5.920023918151856E-1  
 7.513513513513514E8    -4.547593891620636E-1   2.687872648239136E-1   8.334583044052124E-2   4.500798135995865E-2   8.273113518953323E-2   4.577103257179260E-2  -6.723767518997192E-1   6.018568277359009E-1  
 7.537537537537538E8    -4.452574551105499E-1   2.904886007308960E-1   8.799722045660019E-2   4.229316860437393E-2   8.754280209541321E-2   4.339522123336792E-2  -6.587181687355042E-1   6.120189428329468E-1  
 7.561561561561562E8    -4.340174794197083E-1   3.103799223899841E-1   9.290223568677902E-2   3.919838741421700E-2   9.234576672315598E-2   4.003884270787239E-2  -6.437196731567383E-1   6.199234724044800E-1  
 7.585585585585586E8    -4.221420586109161E-1   3.294734358787537E-1   9.766151010990143E-2   3.547868877649307E-2   9.704867005348206E-2   3.601458296179771E-2  -6.260564327239990E-1   6.297862529754639E-1  
 7.609609609609610E8    -4.101414382457733E-1   3.460306823253632E-1   1.024961993098259E-1   3.130037337541580E-2   1.016024723649025E-1   3.167651593685150E-2  -6.088387370109558E-1   6.389884352684021E-1  
 7.633633633633634E8    -3.989143371582031E-1   3.594889938831329E-1   1.070552691817284E-1   2.652489393949509E-2   1.061219945549965E-1   2.701866067945957E-2  -5.919162631034851E-1   6.466495394706726E-1  
 7.657657657657658E8    -3.884760141372681E-1   3.723283112049103E-1   1.114071533083916E-1   2.148205041885376E-2   1.107144057750702E-1   2.220111340284348E-2  -5.762511491775513E-1   6.527774930000305E-1  
 7.681681681681682E8    -3.777164816856384E-1   3.846610784530640E-1   1.156519055366516E-1   1.618073694407940E-2   1.155536025762558E-1   1.692427694797516E-2  -5.617970228195190E-1   6.578046083450317E-1  
 7.705705705705706E8    -3.668263852596283E-1   3.965034186840057E-1   1.198950037360191E-1   1.016382034868002E-2   1.199042573571205E-1   1.116363704204559E-2  -5.463368296623230E-1   6.628257036209106E-1  
 7.729729729729730E8    -3.553540706634522E-1   4.069853127002716E-1   1.236825957894325E-1   3.048494458198547E-3   1.243556663393974E-1   4.423455800861120E-3  -5.300011634826660E-1   6.703698635101318E-1  
 7.753753753753754E8    -3.449936211109161E-1   4.157160520553589E-1   1.269855350255966E-1  -4.591327160596848E-3   1.279297471046448E-1  -3.210450988262892E-3  -5.105912089347839E-1   6.777299642562866E-1  
 7.777777777777778E8    -3.358924984931946E-1   4.230329692363739E-1   1.296406090259552E-1  -1.241783518344164E-2   1.302708238363266E-1  -1.143465563654900E-2  -4.886984229087830E-1   6.829360723495483E-1  
 7.801801801801802E8    -3.278500437736511E-1   4.304015934467316E-1   1.319380849599838E-1  -2.030721493065357E-2   1.316052526235580E-1  -1.921894401311874E-2  -4.646486043930054E-1   6.842827796936035E-1  
 7.825825825825826E8    -3.191188871860504E-1   4.387900531291962E-1   1.335744410753250E-1  -2.845148555934429E-2   1.332157552242279E-1  -2.775934152305126E-2  -4.407635927200317E-1   6.862745881080627E-1  
 7.849849849849850E8    -3.120991885662079E-1   4.478399455547333E-1   1.346691101789475E-1  -3.718485683202744E-2   1.344333738088608E-1  -3.588470816612244E-2  -4.195728600025177E-1   6.857193112373352E-1  
 7.873873873873874E8    -3.062851130962372E-1   4.572918415069580E-1   1.355393975973129E-1  -4.565224424004555E-2   1.351331770420075E-1  -4.420284926891327E-2  -3.985126316547394E-1   6.847565770149231E-1  
 7.897897897897898E8    -2.990754842758179E-1   4.689425230026245E-1   1.361463218927383E-1  -5.428559705615044E-2   1.357835978269577E-1  -5.297801643610001E-2  -3.772830069065094E-1   6.850308775901794E-1  
 7.921921921921922E8    -2.889515459537506E-1   4.811584055423737E-1   1.362664848566055E-1  -6.352385133504868E-2   1.366467624902725E-1  -6.272005289793015E-2  -3.542865812778473E-1   6.861144304275513E-1  
 7.945945945945946E8    -2.791462838649750E-1   4.926278889179230E-1   1.359650194644928E-1  -7.342592626810074E-2   1.365531980991364E-1  -7.211864739656448E-2  -3.287640810012817E-1   6.823583841323853E-1  
 7.969969969969970E8    -2.696266770362854E-1   5.014802217483521E-1   1.350895762443543E-1  -8.384022116661072E-2   1.358585953712463E-1  -8.255853503942490E-2  -3.024598956108093E-1   6.771265268325806E-1  
 7.993993993993994E8    -2.604114115238190E-1   5.096322894096375E-1   1.334356069564819E-1  -9.440471976995468E-2   1.339683532714844E-1  -9.368357807397842E-2  -2.752433121204376E-1   6.702027320861816E-1  
 8.018018018018018E8    -2.501097321510315E-1   5.163547992706299E-1   1.309697777032852E-1  -1.053718775510788E-1   1.311169415712357E-1  -1.050999313592911E-1  -2.479780018329620E-1   6.608392596244812E-1  
 8.042042042042042E8    -2.394902408123016E-1   5.242594480514526E-1   1.276597976684570E-1  -1.172707453370094E-1   1.275110691785812E-1  -1.169254332780838E-1  -2.222288399934769E-1   6.488343477249146E-1  
 8.066066066066066E8    -2.284681648015976E-1   5.316237807273865E-1   1.221616044640541E-1  -1.296621710062027E-1   1.222639158368111E-1  -1.292373538017273E-1  -1.954665333032608E-1   6.352932453155518E-1  
 8.090090090090090E8    -2.184314578771591E-1   5.380896329879761E-1   1.150278598070145E-1  -1.416713446378708E-1   1.154337599873543E-1  -1.412798911333084E-1  -1.696242988109589E-1   6.184632778167725E-1  
 8.114114114114114E8    -2.094380706548691E-1   5.440497994422913E-1   1.064570620656014E-1  -1.533764451742172E-1   1.069256961345673E-1  -1.529458314180374E-1  -1.449290066957474E-1   5.987703800201416E-1  
 8.138138138138138E8    -2.014844268560410E-1   5.501430630683899E-1   9.631088376045227E-2  -1.642013043165207E-1   9.697990119457245E-2  -1.636796146631241E-1  -1.222544535994530E-1   5.766921043395996E-1  
 8.162162162162162E8    -1.936230957508087E-1   5.571384429931641E-1   8.518274873495102E-2  -1.740546375513077E-1   8.598772436380386E-2  -1.734081506729126E-1  -1.012968420982361E-1   5.528675913810730E-1  
 8.186186186186186E8    -1.864182651042938E-1   5.644649267196655E-1   7.293152809143066E-2  -1.827764809131622E-1   7.383030652999878E-2  -1.820362210273743E-1  -8.114992827177048E-2   5.263864994049072E-1  
 8.210210210210210E8    -1.794068813323975E-1   5.707381963729858E-1   5.974742770195007E-2  -1.904039531946182E-1   6.010828167200089E-2  -1.898546218872070E-1  -6.268852949142456E-2   4.967677593231201E-1  
 8.234234234234234E8    -1.723803132772446E-1   5.776126980781555E-1   4.527710750699043E-2  -1.964914947748184E-1   4.534853249788284E-2  -1.960422545671463E-1  -4.738292470574379E-2   4.656374454498291E-1  
