#  HZ   S   RI   R     50.00 
! Rohde & Schwarz ZVB8 2Ports - Version 2.81 - 1145.1010k08 SN: 100113
! Date: 2016-05-03 01:38:24
! Measurements: S11 S21 S12 S22 
! 
 6.000000000000000E8     5.019975900650024E-1   2.386618405580521E-1  -1.158040948212147E-2   2.301469910889864E-3  -1.160310674458742E-2   2.277234802022576E-3  -9.645200967788696E-1  -4.674000665545464E-2  
 6.024024024024024E8     4.953526258468628E-1   2.053053677082062E-1  -1.158952526748180E-2   2.488677157089114E-3  -1.152586285024881E-2   2.484842902049422E-3  -9.642747640609741E-1  -3.343531489372253E-2  
 6.048048048048048E8     4.862529039382935E-1   1.724176555871964E-1  -1.153823360800743E-2   2.547962358221412E-3  -1.153386011719704E-2   2.582451561465859E-3  -9.637259244918823E-1  -1.935830153524876E-2  
 6.072072072072072E8     4.742943048477173E-1   1.399324685335159E-1  -1.166198123246431E-2   2.595843514427543E-3  -1.155928336083889E-2   2.555028535425663E-3  -9.629896879196167E-1  -5.522716324776411E-3  
 6.096096096096096E8     4.600045979022980E-1   1.098645776510239E-1  -1.177316904067993E-2   2.363884355872870E-3  -1.171858701854944E-2   2.327371621504426E-3  -9.618403315544128E-1   8.455011062324047E-3  
 6.120120120120120E8     4.444109797477722E-1   8.566358685493469E-2  -1.196873560547829E-2   2.016739221289754E-3  -1.192567404359579E-2   1.953205093741417E-3  -9.603307843208313E-1   2.002866379916668E-2  
 6.144144144144144E8     4.281555414199829E-1   6.432966142892838E-2  -1.247477810829878E-2   1.351796556264162E-3  -1.240755245089531E-2   1.359549583867192E-3  -9.594652652740479E-1   3.350736200809479E-2  
 6.168168168168168E8     4.098151624202728E-1   4.464397951960564E-2  -1.320058759301901E-2   6.092113326303661E-4  -1.320798695087433E-2   6.199576891958714E-4  -9.580553174018860E-1   4.744301363825798E-2  
 6.192192192192192E8     3.917289376258850E-1   2.884334512054920E-2  -1.443353947252035E-2  -3.479424049146473E-4  -1.441237796097994E-2  -3.940536989830434E-4  -9.558045268058777E-1   6.205905973911285E-2  
 6.216216216216216E8     3.760860562324524E-1   1.683340966701508E-2  -1.636769250035286E-2  -1.267497194930911E-3  -1.640699431300163E-2  -1.367951859720051E-3  -9.528309106826782E-1   7.735919207334518E-2  
 6.240240240240240E8     3.644664883613586E-1   7.376030553132296E-3  -1.917493157088757E-2  -1.970672979950905E-3  -1.908688060939312E-2  -2.106655389070511E-3  -9.495465159416199E-1   9.220802038908005E-2  
 6.264264264264264E8     3.592247068881989E-1  -1.003971439786255E-3  -2.275761403143406E-2  -1.896154368296266E-3  -2.278111502528191E-2  -2.174157882109284E-3  -9.464562535285950E-1   1.079027727246285E-1  
 6.288288288288288E8     3.592486381530762E-1  -1.323329191654921E-2  -2.696403488516808E-2  -8.333891164511442E-4  -2.696739323437214E-2  -1.007052836939693E-3  -9.426692128181458E-1   1.222146004438400E-1  
 6.312312312312312E8     3.645105957984924E-1  -2.995865046977997E-2  -3.140370920300484E-2   1.666351221501827E-3  -3.126894682645798E-2   1.529130269773305E-3  -9.388457536697388E-1   1.354549080133438E-1  
 6.336336336336336E8     3.689642548561096E-1  -5.602261796593666E-2  -3.515940532088280E-2   5.510729271918535E-3  -3.509983792901039E-2   5.387380719184876E-3  -9.347410202026367E-1   1.478402614593506E-1  
 6.360360360360360E8     3.693215847015381E-1  -8.962234854698181E-2  -3.809973224997520E-2   1.047329977154732E-2  -3.800657019019127E-2   1.027411967515945E-2  -9.306126236915588E-1   1.596159636974335E-1  
 6.384384384384384E8     3.623965382575989E-1  -1.273827999830246E-1  -3.977873921394348E-2   1.591670326888561E-2  -3.974280878901482E-2   1.584483124315739E-2  -9.261597394943237E-1   1.734059453010559E-1  
 6.408408408408408E8     3.468727469444275E-1  -1.682190150022507E-1  -4.037943109869957E-2   2.168733067810535E-2  -4.043572023510933E-2   2.149472385644913E-2  -9.215995669364929E-1   1.874338537454605E-1  
 6.432432432432432E8     3.228379189968109E-1  -2.084325104951859E-1  -3.997930139303207E-2   2.740609645843506E-2  -3.988942876458168E-2   2.699238434433937E-2  -9.164242148399353E-1   2.013020962476730E-1  
 6.456456456456456E8     2.908719480037689E-1  -2.462798506021500E-1  -3.873762860894203E-2   3.275815024971962E-2  -3.885255753993988E-2   3.237948194146156E-2  -9.110396504402161E-1   2.150292843580246E-1  
 6.480480480480480E8     2.544220983982086E-1  -2.785912752151489E-1  -3.685730695724487E-2   3.780221939086914E-2  -3.698526695370674E-2   3.735888004302979E-2  -9.053045511245728E-1   2.285579591989517E-1  
 6.504504504504504E8     2.144200205802918E-1  -3.038074374198914E-1  -3.447023779153824E-2   4.256437718868256E-2  -3.460580110549927E-2   4.224431142210960E-2  -8.962182998657227E-1   2.427862286567688E-1  
 6.528528528528528E8     1.733111739158630E-1  -3.237644433975220E-1  -3.137891367077828E-2   4.680410400032997E-2  -3.147427737712860E-2   4.657166451215744E-2  -8.875236511230469E-1   2.594779431819916E-1  
 6.552552552552552E8     1.300333589315414E-1  -3.394526839256287E-1  -2.810493484139442E-2   5.040550604462624E-2  -2.812479250133038E-2   5.026924982666969E-2  -8.802981972694397E-1   2.760583758354187E-1  
 6.576576576576576E8     8.467739820480347E-2  -3.500657975673676E-1  -2.444637566804886E-2   5.373412743210793E-2  -2.449871040880680E-2   5.352320522069931E-2  -8.745027780532837E-1   2.912932038307190E-1  
 6.600600600600600E8     3.887679800391197E-2  -3.553811013698578E-1  -2.053842321038246E-2   5.644607171416283E-2  -2.060266211628914E-2   5.622173100709915E-2  -8.681970238685608E-1   3.045899868011475E-1  
 6.624624624624624E8    -6.163575220853090E-3  -3.544469177722931E-1  -1.644637621939182E-2   5.858888849616051E-2  -1.678645052015781E-2   5.831982940435410E-2  -8.582494854927063E-1   3.208781778812408E-1  
 6.648648648648648E8    -5.070995911955833E-2  -3.493448495864868E-1  -1.262637693434954E-2   6.014970317482948E-2  -1.313042175024748E-2   5.988788232207298E-2  -8.475089669227600E-1   3.372770547866821E-1  
 6.672672672672672E8    -9.096912294626236E-2  -3.402847051620483E-1  -9.226405061781406E-3   6.150320544838905E-2  -9.555880911648274E-3   6.131523102521896E-2  -8.352617621421814E-1   3.535708785057068E-1  
 6.696696696696696E8    -1.275468021631241E-1  -3.273186385631561E-1  -5.830772221088409E-3   6.252612173557282E-2  -6.080696824938059E-3   6.240038946270943E-2  -8.217009305953980E-1   3.697438538074493E-1  
 6.720720720720720E8    -1.609258055686951E-1  -3.115431368350983E-1  -2.726669888943434E-3   6.306760013103485E-2  -2.721806988120079E-3   6.299920380115509E-2  -8.068097233772278E-1   3.854091465473175E-1  
 6.744744744744744E8    -1.926891654729843E-1  -2.922013103961945E-1   1.203520587296225E-4   6.313498318195343E-2  -4.011913915746845E-5   6.318982690572739E-2  -7.897758483886719E-1   4.024381339550018E-1  
 6.768768768768768E8    -2.202057540416718E-1  -2.714709341526032E-1   1.983402064070106E-3   6.289152801036835E-2   1.796859898604453E-3   6.289709359407425E-2  -7.713503837585449E-1   4.182498753070831E-1  
 6.792792792792792E8    -2.435007989406586E-1  -2.502797842025757E-1   2.464955206960440E-3   6.272934377193451E-2   2.158123068511486E-3   6.267464905977249E-2  -7.507843971252441E-1   4.333375394344330E-1  
 6.816816816816816E8    -2.624675035476685E-1  -2.297039926052094E-1   1.245713443495333E-3   6.365810334682465E-2   8.979856502264738E-4   6.362830102443695E-2  -7.275812029838562E-1   4.476408958435059E-1  
 6.840840840840840E8    -2.782695889472961E-1  -2.102916389703751E-1  -1.467979513108730E-3   6.687352061271668E-2  -1.924535958096385E-3   6.681147962808609E-2  -7.026774883270264E-1   4.596366882324219E-1  
 6.864864864864864E8    -2.898184061050415E-1  -1.930346190929413E-1  -4.339707084000111E-3   7.389014959335327E-2  -4.993809852749109E-3   7.365009933710098E-2  -6.756080389022827E-1   4.678358137607575E-1  
 6.888888888888888E8    -2.994513511657715E-1  -1.812567561864853E-1  -5.188216455280781E-3   8.509990572929382E-2  -6.030948832631111E-3   8.476489782333374E-2  -6.475079655647278E-1   4.733777940273285E-1  
 6.912912912912912E8    -3.118810951709747E-1  -1.729235649108887E-1  -1.658646389842033E-3   9.965589642524719E-2  -2.493192208930850E-3   9.928476065397263E-2  -6.204797625541687E-1   4.759950637817383E-1  
 6.936936936936936E8    -3.293381333351135E-1  -1.670625358819962E-1   8.067092858254910E-3   1.149950772523880E-1   7.275787647813559E-3   1.148320809006691E-1  -5.956866741180420E-1   4.767871797084808E-1  
 6.960960960960960E8    -3.530610501766205E-1  -1.587437838315964E-1   2.369976975023747E-2   1.279975026845932E-1   2.339648082852364E-2   1.279221475124359E-1  -5.722839236259460E-1   4.774626791477203E-1  
 6.984984984984984E8    -3.798779845237732E-1  -1.445792317390442E-1   4.353180900216103E-2   1.366415023803711E-1   4.486387968063355E-2   1.362172961235046E-1  -5.471698641777039E-1   4.813257157802582E-1  
 7.009009009009008E8    -4.063085317611694E-1  -1.245133355259895E-1   6.541285663843155E-2   1.395398080348969E-1   6.796184182167053E-2   1.384414434432983E-1  -5.217922329902649E-1   4.851182103157044E-1  
 7.033033033033032E8    -4.293544292449951E-1  -1.003094986081123E-1   8.744300156831741E-2   1.374854147434235E-1   8.970382809638977E-2   1.360090225934982E-1  -4.952486455440521E-1   4.878093600273132E-1  
 7.057057057057056E8    -4.471070766448975E-1  -7.483211159706116E-2   1.082179918885231E-1   1.318475902080536E-1   1.093235760927200E-1   1.307176500558853E-1  -4.678261876106262E-1   4.878239035606384E-1  
 7.081081081081080E8    -4.616033434867859E-1  -4.533652216196060E-2   1.282996088266373E-1   1.227786839008331E-1   1.276666522026062E-1   1.230695322155953E-1  -4.368328154087067E-1   4.859128892421722E-1  
 7.105105105105104E8    -4.718905687332153E-1  -1.454367395490408E-2   1.471958160400391E-1   1.110681891441345E-1   1.449280679225922E-1   1.133562773466110E-1  -4.022171199321747E-1   4.818773567676544E-1  
 7.129129129129129E8    -4.792460799217224E-1   1.449870038777590E-2   1.641599833965302E-1   9.761052578687668E-2   1.619054377079010E-1   1.009615361690521E-1  -3.634023666381836E-1   4.732421338558197E-1  
 7.153153153153153E8    -4.841007590293884E-1   4.087332263588905E-2   1.795824170112610E-1   8.244282752275467E-2   1.782200634479523E-1   8.518055826425552E-2  -3.216043710708618E-1   4.585547149181366E-1  
 7.177177177177178E8    -4.881999790668488E-1   6.564521044492722E-2   1.939986199140549E-1   6.517351418733597E-2   1.932929903268814E-1   6.673335283994675E-2  -2.794379293918610E-1   4.363723099231720E-1  
 7.201201201201202E8    -4.895341098308563E-1   8.912715315818787E-2   2.069509625434876E-1   4.492861777544022E-2   2.064670324325562E-1   4.554530978202820E-2  -2.393266409635544E-1   4.064164757728577E-1  
 7.225225225225226E8    -4.903881847858429E-1   1.121457517147064E-1   2.170431911945343E-1   2.175206691026688E-2   2.166289836168289E-1   2.147795818746090E-2  -2.029245048761368E-1   3.698240220546722E-1  
 7.249249249249250E8    -4.906730055809021E-1   1.355819553136826E-1   2.234487980604172E-1  -5.488641560077667E-3   2.228633761405945E-1  -3.092055907472968E-3  -1.726464331150055E-1   3.253991305828095E-1  
 7.273273273273274E8    -4.904575049877167E-1   1.566585600376129E-1   2.251280248165131E-1  -3.346996754407883E-2   2.252877205610275E-1  -2.948609739542007E-2  -1.491659283638001E-1   2.751801311969757E-1  
 7.297297297297298E8    -4.915076494216919E-1   1.759831458330154E-1   2.222808897495270E-1  -6.065700203180313E-2   2.228609025478363E-1  -5.750686302781105E-2  -1.338397264480591E-1   2.202646881341934E-1  
 7.321321321321322E8    -4.935881495475769E-1   1.945824623107910E-1   2.150795012712479E-1  -8.542080968618393E-2   2.147614061832428E-1  -8.580914884805679E-2  -1.268273293972015E-1   1.633435636758804E-1  
 7.345345345345346E8    -4.951131045818329E-1   2.157921493053436E-1   2.034452706575394E-1  -1.092653274536133E-1   2.024775743484497E-1  -1.106086149811745E-1  -1.281598210334778E-1   1.051918715238571E-1  
 7.369369369369370E8    -4.956124722957611E-1   2.374587208032608E-1   1.888891458511353E-1  -1.306741237640381E-1   1.872811913490295E-1  -1.323666125535965E-1  -1.394588202238083E-1   4.812010750174522E-2  
 7.393393393393394E8    -4.945997297763825E-1   2.590582072734833E-1   1.715377420186997E-1  -1.499169766902924E-1   1.698289066553116E-1  -1.509814709424973E-1  -1.604723781347275E-1  -6.509211380034685E-3  
 7.417417417417418E8    -4.923101067543030E-1   2.795782685279846E-1   1.517288535833359E-1  -1.660515666007996E-1   1.502738893032074E-1  -1.665498465299606E-1  -1.916443705558777E-1  -5.843398720026016E-2  
 7.441441441441442E8    -4.886977672576904E-1   3.009943962097168E-1   1.299035251140595E-1  -1.784882098436356E-1   1.300059407949448E-1  -1.777929365634918E-1  -2.293929755687714E-1  -1.031759083271027E-1  
 7.465465465465466E8    -4.855386912822723E-1   3.219927251338959E-1   1.084565445780754E-1  -1.866441518068314E-1   1.092510223388672E-1  -1.857316344976425E-1  -2.722473144531250E-1  -1.386785358190537E-1  
 7.489489489489490E8    -4.813430309295654E-1   3.429699242115021E-1   8.704552054405212E-2  -1.916591674089432E-1   8.877999335527420E-2  -1.908014863729477E-1  -3.203658759593964E-1  -1.660669147968292E-1  
 7.513513513513514E8    -4.758021831512451E-1   3.636754155158997E-1   6.642276793718338E-2  -1.936326622962952E-1   6.868179142475128E-2  -1.931261569261551E-1  -3.703261315822601E-1  -1.851169317960739E-1  
 7.537537537537538E8    -4.689458608627319E-1   3.849838674068451E-1   4.633090645074844E-2  -1.933301687240601E-1   4.911407455801964E-2  -1.930949687957764E-1  -4.212860167026520E-1  -1.970078796148300E-1  
 7.561561561561562E8    -4.605986773967743E-1   4.058400392532349E-1   2.834765426814556E-2  -1.911002099514008E-1   3.038932755589485E-2  -1.905838698148727E-1  -4.701678156852722E-1  -2.021701633930206E-1  
 7.585585585585586E8    -4.510787725448608E-1   4.268302619457245E-1   1.196342054754496E-2  -1.866935938596726E-1   1.320437714457512E-2  -1.858456581830978E-1  -5.156118869781494E-1  -1.980322450399399E-1  
 7.609609609609610E8    -4.411526918411255E-1   4.451104998588562E-1  -2.183737233281136E-3  -1.816997975111008E-1  -1.484683714807034E-3  -1.803069412708283E-1  -5.583515763282776E-1  -1.886228471994400E-1  
 7.633633633633634E8    -4.311000108718872E-1   4.622404575347900E-1  -1.541014481335878E-2  -1.762532144784927E-1  -1.459257863461971E-2  -1.745159029960632E-1  -5.972271561622620E-1  -1.752594858407974E-1  
 7.657657657657658E8    -4.207963943481445E-1   4.799568057060242E-1  -2.760704606771469E-2  -1.701722443103790E-1  -2.664520777761936E-2  -1.688445359468460E-1  -6.327274441719055E-1  -1.600807011127472E-1  
 7.681681681681682E8    -4.099184870719910E-1   4.971474409103394E-1  -3.902999684214592E-2  -1.634046137332916E-1  -3.820996731519699E-2  -1.631235480308533E-1  -6.640253067016602E-1  -1.443519443273544E-1  
 7.705705705705706E8    -3.985547423362732E-1   5.141392946243286E-1  -5.004322528839111E-2  -1.560730934143066E-1  -4.854881390929222E-2  -1.565541923046112E-1  -6.887789368629456E-1  -1.278141438961029E-1  
 7.729729729729730E8    -3.856326341629028E-1   5.301603078842163E-1  -6.053885444998741E-2  -1.471962034702301E-1  -5.884497985243797E-2  -1.487533897161484E-1  -7.131964564323425E-1  -1.094656214118004E-1  
 7.753753753753754E8    -3.718801438808441E-1   5.447733998298645E-1  -6.935889273881912E-2  -1.373933702707291E-1  -6.804931908845902E-2  -1.392269879579544E-1  -7.355167865753174E-1  -8.903462439775467E-2  
 7.777777777777778E8    -3.578227460384369E-1   5.572972297668457E-1  -7.637793570756912E-2  -1.271573752164841E-1  -7.533911615610123E-2  -1.287590414285660E-1  -7.532767057418823E-1  -6.797868758440018E-2  
 7.801801801801802E8    -3.446323573589325E-1   5.684001445770264E-1  -8.149307966232300E-2  -1.172069087624550E-1  -8.045179396867752E-2  -1.177321299910545E-1  -7.676540017127991E-1  -4.661761969327927E-2  
 7.825825825825826E8    -3.302707374095917E-1   5.797930955886841E-1  -8.495088666677475E-2  -1.073152497410774E-1  -8.450418710708618E-2  -1.078014746308327E-1  -7.817452549934387E-1  -2.475454844534397E-2  
 7.849849849849850E8    -3.176089227199554E-1   5.914334058761597E-1  -8.773031830787659E-2  -9.844991564750671E-2  -8.701132982969284E-2  -9.882374852895737E-2  -7.931433916091919E-1  -5.682423245161772E-3  
 7.873873873873874E8    -3.049321472644806E-1   6.036587357521057E-1  -9.007783234119415E-2  -9.059828519821167E-2  -8.898925036191940E-2  -9.049443900585175E-2  -8.034505844116211E-1   1.232028473168612E-2  
 7.897897897897898E8    -2.905278205871582E-1   6.161091923713684E-1  -9.173019975423813E-2  -8.280055224895477E-2  -9.067748486995697E-2  -8.251144737005234E-2  -8.142330050468445E-1   3.054356575012207E-2  
 7.921921921921922E8    -2.739249765872955E-1   6.285369396209717E-1  -9.277691692113876E-2  -7.534368336200714E-2  -9.203321486711502E-2  -7.519713789224625E-2  -8.252812623977661E-1   4.883261397480965E-2  
 7.945945945945946E8    -2.580039501190186E-1   6.405161023139954E-1  -9.342633932828903E-2  -6.839234381914139E-2  -9.246943891048431E-2  -6.867861002683640E-2  -8.317447304725647E-1   6.789292395114899E-2  
 7.969969969969970E8    -2.416205108165741E-1   6.503856182098389E-1  -9.376323223114014E-2  -6.186053156852722E-2  -9.297358989715576E-2  -6.245866790413857E-2  -8.373929858207703E-1   8.647440373897553E-2  
 7.993993993993994E8    -2.254471927881241E-1   6.581720113754273E-1  -9.394060820341110E-2  -5.576539412140846E-2  -9.336321055889130E-2  -5.641433969140053E-2  -8.420322537422180E-1   1.053114980459213E-1  
 8.018018018018018E8    -2.082096040248871E-1   6.646469831466675E-1  -9.387082606554031E-2  -4.975672438740730E-2  -9.369757026433945E-2  -5.017901584506035E-2  -8.457127809524536E-1   1.249972060322762E-1  
 8.042042042042042E8    -1.905496269464493E-1   6.715714931488037E-1  -9.371368587017059E-2  -4.391624778509140E-2  -9.363725781440735E-2  -4.436460509896278E-2  -8.488019108772278E-1   1.415402740240097E-1  
 8.066066066066066E8    -1.730727553367615E-1   6.775788068771362E-1  -9.334567934274674E-2  -3.813154995441437E-2  -9.339399635791779E-2  -3.848622366786003E-2  -8.511751294136047E-1   1.601913124322891E-1  
 8.090090090090090E8    -1.559320688247681E-1   6.823404431343079E-1  -9.263320267200470E-2  -3.237528353929520E-2  -9.262951463460922E-2  -3.278120979666710E-2  -8.525741696357727E-1   1.778666228055954E-1  
 8.114114114114114E8    -1.403852552175522E-1   6.853765845298767E-1  -9.161101281642914E-2  -2.708935923874378E-2  -9.155660122632980E-2  -2.732978761196137E-2  -8.532202839851379E-1   1.945899426937103E-1  
 8.138138138138138E8    -1.252564638853073E-1   6.880475878715515E-1  -9.024211764335632E-2  -2.211352437734604E-2  -9.002372622489929E-2  -2.210871502757072E-2  -8.533616065979004E-1   2.102438658475876E-1  
 8.162162162162162E8    -1.108505576848984E-1   6.909868717193604E-1  -8.869509398937225E-2  -1.729664020240307E-2  -8.836059272289276E-2  -1.740205287933350E-2  -8.533903360366821E-1   2.253771573305130E-1  
 8.186186186186186E8    -9.741411358118057E-2   6.932735443115234E-1  -8.695269376039505E-2  -1.301096566021442E-2  -8.649276196956635E-2  -1.301188487559557E-2  -8.532468080520630E-1   2.414107471704483E-1  
 8.210210210210210E8    -8.338457345962524E-2   6.954475641250610E-1  -8.473980426788330E-2  -8.608224801719189E-3  -8.463971316814423E-2  -9.010212495923042E-3  -8.519469499588013E-1   2.560006380081177E-1  
 8.234234234234234E8    -6.982331722974777E-2   6.972096562385559E-1  -8.238118141889572E-2  -4.570120945572853E-3  -8.239033073186874E-2  -5.048866849392653E-3  -8.503160476684570E-1   2.709419131278992E-1  
