#  HZ   S   RI   R     50.00 
! Rohde & Schwarz ZVB8 2Ports - Version 2.81 - 1145.1010k08 SN: 100113
! Date: 2016-05-03 01:38:06
! Measurements: S11 S21 S12 S22 
! 
 6.000000000000000E8     5.014119744300842E-1   2.339963614940643E-1  -9.901151992380619E-3   1.406093710102141E-3  -9.918636642396450E-3   1.474501448683441E-3  -9.672712087631226E-1  -6.928440928459168E-2  
 6.024024024024024E8     4.937045872211456E-1   2.018466740846634E-1  -9.922740980982781E-3   1.669333432801068E-3  -9.903333149850369E-3   1.639798865653575E-3  -9.678297042846680E-1  -5.674819648265839E-2  
 6.048048048048048E8     4.836569428443909E-1   1.697571426630020E-1  -9.884488768875599E-3   1.699037966318429E-3  -9.926746599376202E-3   1.720820087939501E-3  -9.678258299827576E-1  -4.419431090354919E-2  
 6.072072072072072E8     4.710499346256256E-1   1.383908241987228E-1  -1.004059519618750E-2   1.694723265245557E-3  -9.988375939428806E-3   1.717079547233880E-3  -9.676619172096252E-1  -3.151759132742882E-2  
 6.096096096096096E8     4.556697905063629E-1   1.095734909176827E-1  -1.008405536413193E-2   1.602682983502746E-3  -1.005357783287764E-2   1.608521095477045E-3  -9.670557975769043E-1  -1.845805533230305E-2  
 6.120120120120120E8     4.387570917606354E-1   8.596010506153107E-2  -1.018823310732842E-2   1.399578526616097E-3  -1.018985267728567E-2   1.340358401648700E-3  -9.662399888038635E-1  -7.935494184494019E-3  
 6.144144144144144E8     4.217649400234222E-1   6.612689793109894E-2  -1.044259872287512E-2   8.712235721759498E-4  -1.039882842451334E-2   8.936918457038701E-4  -9.661275744438171E-1   3.838019445538521E-3  
 6.168168168168168E8     4.061818420886993E-1   4.923062771558762E-2  -1.092772558331490E-2   2.440106181893498E-4  -1.094400044530630E-2   2.105819148709998E-4  -9.657586812973023E-1   1.644934527575970E-2  
 6.192192192192192E8     3.914528191089630E-1   3.516872599720955E-2  -1.181809417903423E-2  -4.769186198245734E-4  -1.185570098459721E-2  -5.906681763008237E-4  -9.646035432815552E-1   2.941390126943588E-2  
 6.216216216216216E8     3.789226710796356E-1   2.272483147680759E-2  -1.328321453183889E-2  -1.307517290115356E-3  -1.318733021616936E-2  -1.323547912761569E-3  -9.631494879722595E-1   4.328868538141251E-2  
 6.240240240240240E8     3.692835569381714E-1   1.214275322854519E-2  -1.516330800950527E-2  -1.892194151878357E-3  -1.522750966250897E-2  -1.945107127539814E-3  -9.610285758972168E-1   5.660448223352432E-2  
 6.264264264264264E8     3.648561835289002E-1   1.688710530288518E-3  -1.789242401719093E-2  -2.075674012303352E-3  -1.787852495908737E-2  -2.184070646762848E-3  -9.594911932945252E-1   7.037802785634995E-2  
 6.288288288288288E8     3.649235367774963E-1  -1.286897622048855E-2  -2.097937278449535E-2  -1.465133507736027E-3  -2.094985172152519E-2  -1.604270772077143E-3  -9.577696919441223E-1   8.320573717355728E-2  
 6.312312312312312E8     3.668840229511261E-1  -3.309156373143196E-2  -2.427068166434765E-2   8.999252895591781E-5  -2.424593269824982E-2  -4.506082768784836E-5  -9.554934501647949E-1   9.517469257116318E-2  
 6.336336336336336E8     3.685031831264496E-1  -5.974558368325234E-2  -2.726713567972183E-2   2.627418842166662E-3  -2.725200913846493E-2   2.528241835534573E-3  -9.528301358222961E-1   1.061392500996590E-1  
 6.360360360360360E8     3.676373660564423E-1  -9.239540994167328E-2  -2.975245751440525E-2   5.988736636936665E-3  -2.971634455025196E-2   5.807365756481886E-3  -9.504399895668030E-1   1.165683940052986E-1  
 6.384384384384384E8     3.600062131881714E-1  -1.293006092309952E-1  -3.142394125461578E-2   9.873312897980213E-3  -3.135986253619194E-2   9.692922234535217E-3  -9.479801058769226E-1   1.287998706102371E-1  
 6.408408408408408E8     3.452011346817017E-1  -1.691816151142120E-1  -3.224082663655281E-2   1.422275230288506E-2  -3.221685811877251E-2   1.396696921437979E-2  -9.450979232788086E-1   1.411584615707398E-1  
 6.432432432432432E8     3.232173025608063E-1  -2.081409841775894E-1  -3.225637599825859E-2   1.837515644729137E-2  -3.226052224636078E-2   1.818501763045788E-2  -9.425040483474731E-1   1.533057242631912E-1  
 6.456456456456456E8     2.919723093509674E-1  -2.452358454465866E-1  -3.161616250872612E-2   2.243920974433422E-2  -3.156040981411934E-2   2.208689041435719E-2  -9.396356344223023E-1   1.648887246847153E-1  
 6.480480480480480E8     2.557423412799835E-1  -2.773406803607941E-1  -3.039436601102352E-2   2.618969976902008E-2  -3.042698092758656E-2   2.592396736145020E-2  -9.365134835243225E-1   1.761955916881561E-1  
 6.504504504504504E8     2.153659760951996E-1  -3.030318021774292E-1  -2.871567010879517E-2   2.980761229991913E-2  -2.871285192668438E-2   2.950524911284447E-2  -9.304406046867371E-1   1.883759498596191E-1  
 6.528528528528528E8     1.728878766298294E-1  -3.235647082328796E-1  -2.651317790150642E-2   3.286128491163254E-2  -2.653367258608341E-2   3.264474123716354E-2  -9.247469902038574E-1   2.026689201593399E-1  
 6.552552552552552E8     1.297078430652618E-1  -3.390787243843079E-1  -2.412576973438263E-2   3.543406352400780E-2  -2.418131381273270E-2   3.534705191850662E-2  -9.210076332092285E-1   2.170350104570389E-1  
 6.576576576576576E8     8.513411134481430E-2  -3.493140935897827E-1  -2.159531787037849E-2   3.760357946157455E-2  -2.174142561852932E-2   3.751901909708977E-2  -9.190838336944580E-1   2.297975271940231E-1  
 6.600600600600600E8     4.136860743165016E-2  -3.544530272483826E-1  -1.901545375585556E-2   3.943675011396408E-2  -1.905582286417484E-2   3.929402306675911E-2  -9.171343445777893E-1   2.404269129037857E-1  
 6.624624624624624E8    -1.227796194143593E-3  -3.541086316108704E-1  -1.624201051890850E-2   4.081596061587334E-2  -1.634193770587444E-2   4.068399965763092E-2  -9.121198058128357E-1   2.540034651756287E-1  
 6.648648648648648E8    -4.554064571857452E-2  -3.501316606998444E-1  -1.374574936926365E-2   4.176780954003334E-2  -1.399195101112127E-2   4.154441505670548E-2  -9.068140983581543E-1   2.673392295837402E-1  
 6.672672672672672E8    -8.753512799739838E-2  -3.414113223552704E-1  -1.148239336907864E-2   4.241260513663292E-2  -1.173635106533766E-2   4.227873310446739E-2  -9.009057283401489E-1   2.805701196193695E-1  
 6.696696696696696E8    -1.260796338319778E-1  -3.286478519439697E-1  -9.293259121477604E-3   4.278596863150597E-2  -9.546255692839623E-3   4.260279610753059E-2  -8.943274021148682E-1   2.936288118362427E-1  
 6.720720720720720E8    -1.604677885770798E-1  -3.132285773754120E-1  -7.409783080220223E-3   4.270954430103302E-2  -7.620221469551325E-3   4.258342832326889E-2  -8.875375986099243E-1   3.066647052764893E-1  
 6.744744744744744E8    -1.895039975643158E-1  -2.952822744846344E-1  -6.026505026966333E-3   4.231979697942734E-2  -6.125323940068483E-3   4.227184131741524E-2  -8.797699213027954E-1   3.206882774829865E-1  
 6.768768768768768E8    -2.164880931377411E-1  -2.750128209590912E-1  -5.372249055653811E-3   4.165523871779442E-2  -5.426691379398108E-3   4.154232516884804E-2  -8.713926672935486E-1   3.345654904842377E-1  
 6.792792792792792E8    -2.390163242816925E-1  -2.539338469505310E-1  -5.869614891707897E-3   4.103223606944084E-2  -5.894680973142386E-3   4.095895960927010E-2  -8.624768853187561E-1   3.481984138488770E-1  
 6.816816816816816E8    -2.573111653327942E-1  -2.331077307462692E-1  -7.565361447632313E-3   4.095245525240898E-2  -7.682597264647484E-3   4.090578854084015E-2  -8.522678017616272E-1   3.621782958507538E-1  
 6.840840840840840E8    -2.716040611267090E-1  -2.145790457725525E-1  -1.061045099049807E-2   4.237685725092888E-2  -1.078089326620102E-2   4.236515238881111E-2  -8.415310978889465E-1   3.758688271045685E-1  
 6.864864864864864E8    -2.825380265712738E-1  -1.988435983657837E-1  -1.404374465346336E-2   4.625708237290382E-2  -1.447262708097696E-2   4.610216617584229E-2  -8.292127847671509E-1   3.876777291297913E-1  
 6.888888888888888E8    -2.936425209045410E-1  -1.886262446641922E-1  -1.678259856998920E-2   5.288118496537209E-2  -1.739067770540714E-2   5.258433893322945E-2  -8.162198662757874E-1   3.990531265735626E-1  
 6.912912912912912E8    -3.075660765171051E-1  -1.831330806016922E-1  -1.742289029061794E-2   6.196421757340431E-2  -1.816174015402794E-2   6.163185462355614E-2  -8.034324049949646E-1   4.099083542823792E-1  
 6.936936936936936E8    -3.253742456436157E-1  -1.814836114645004E-1  -1.498195249587297E-2   7.245764136314392E-2  -1.556061767041683E-2   7.223735749721527E-2  -7.913932800292969E-1   4.192729294300079E-1  
 6.960960960960960E8    -3.502587080001831E-1  -1.782098263502121E-1  -8.817115798592567E-3   8.255323767662048E-2  -8.858357556164265E-3   8.244697004556656E-2  -7.801930904388428E-1   4.288582205772400E-1  
 6.984984984984984E8    -3.811151087284088E-1  -1.682770550251007E-1   2.313594595761970E-4   9.091881662607193E-2   1.348340651020408E-3   9.046834707260132E-2  -7.676745653152466E-1   4.418675601482391E-1  
 7.009009009009008E8    -4.138661324977875E-1  -1.494993418455124E-1   1.117053441703320E-2   9.626524150371552E-2   1.297383755445480E-2   9.571257233619690E-2  -7.556021213531494E-1   4.544340372085571E-1  
 7.033033033033032E8    -4.436820745468140E-1  -1.234874799847603E-1   2.287034504115582E-2   9.891975671052933E-2   2.419985644519329E-2   9.819950163364410E-2  -7.445162534713745E-1   4.661075472831726E-1  
 7.057057057057056E8    -4.689533412456513E-1  -9.363298863172531E-2   3.395786508917809E-2   9.933690726757050E-2   3.440297022461891E-2   9.904196858406067E-2  -7.337965965270996E-1   4.752011597156525E-1  
 7.081081081081080E8    -4.893126189708710E-1  -5.958680436015129E-2   4.468190670013428E-2   9.841987490653992E-2   4.403896257281303E-2   9.873247146606445E-2  -7.218667268753052E-1   4.857220351696014E-1  
 7.105105105105104E8    -5.034877657890320E-1  -2.461230009794235E-2   5.477645620703697E-2   9.665066003799439E-2   5.306006222963333E-2   9.770573675632477E-2  -7.082599997520447E-1   4.977214932441711E-1  
 7.129129129129129E8    -5.133556723594666E-1   8.650038391351700E-3   6.397617608308792E-2   9.450083225965500E-2   6.241312995553017E-2   9.572412073612213E-2  -6.920632719993591E-1   5.103731155395508E-1  
 7.153153153153153E8    -5.199228525161743E-1   3.947444632649422E-2   7.264819741249085E-2   9.201841801404953E-2   7.173741608858109E-2   9.290437400341034E-2  -6.731255054473877E-1   5.238037109375000E-1  
 7.177177177177178E8    -5.248310565948486E-1   7.069613784551621E-2   8.122955262660980E-2   8.916339278221130E-2   8.080900460481644E-2   8.938299119472504E-2  -6.527923941612244E-1   5.367683768272400E-1  
 7.201201201201202E8    -5.267699360847473E-1   1.026682853698731E-1   9.015857428312302E-2   8.554788678884506E-2   8.984632045030594E-2   8.561454713344574E-2  -6.312677264213562E-1   5.487387776374817E-1  
 7.225225225225226E8    -5.266317725181580E-1   1.342658549547195E-1   9.916728734970093E-2   8.100636303424835E-2   9.886959195137024E-2   8.108035475015640E-2  -6.079272627830505E-1   5.604901909828186E-1  
 7.249249249249250E8    -5.239590406417847E-1   1.648086607456207E-1   1.084673032164574E-1   7.510429620742798E-2   1.071204692125320E-1   7.630416005849838E-2  -5.856416225433350E-1   5.681506991386414E-1  
 7.273273273273274E8    -5.194531083106995E-1   1.933432072401047E-1   1.172367557883263E-1   6.842474639415741E-2   1.153359338641167E-1   7.081228494644165E-2  -5.620709061622620E-1   5.751772522926331E-1  
 7.297297297297298E8    -5.138965845108032E-1   2.190907448530197E-1   1.252826303243637E-1   6.153251603245735E-2   1.237366870045662E-1   6.361294537782669E-2  -5.364844202995300E-1   5.815623998641968E-1  
 7.321321321321322E8    -5.078898668289185E-1   2.419030517339706E-1   1.325506865978241E-1   5.475355684757233E-2   1.318465620279312E-1   5.502237007021904E-2  -5.094065666198731E-1   5.871058106422424E-1  
 7.345345345345346E8    -5.005531907081604E-1   2.643201351165772E-1   1.391760408878326E-1   4.680772870779038E-2   1.389768719673157E-1   4.616521298885346E-2  -4.798351824283600E-1   5.921145081520081E-1  
 7.369369369369370E8    -4.924077093601227E-1   2.865431010723114E-1   1.455371230840683E-1   3.846931457519531E-2   1.455068588256836E-1   3.700504451990128E-2  -4.482445120811462E-1   5.949048399925232E-1  
 7.393393393393394E8    -4.827496409416199E-1   3.073974847793579E-1   1.520983576774597E-1   2.939572744071484E-2   1.518796682357788E-1   2.779745124280453E-2  -4.148846864700317E-1   5.948371887207031E-1  
 7.417417417417418E8    -4.721179306507111E-1   3.271198868751526E-1   1.584754437208176E-1   1.915613561868668E-2   1.583392173051834E-1   1.826231740415096E-2  -3.804375529289246E-1   5.911065340042114E-1  
 7.441441441441442E8    -4.611030817031860E-1   3.446353673934937E-1   1.644389629364014E-1   7.788299582898617E-3   1.642862111330032E-1   7.895645685493946E-3  -3.452512323856354E-1   5.829002857208252E-1  
 7.465465465465466E8    -4.517074823379517E-1   3.614378273487091E-1   1.699379980564117E-1  -3.913072869181633E-3   1.700770705938339E-1  -3.591070417314768E-3  -3.072249293327332E-1   5.723717808723450E-1  
 7.489489489489490E8    -4.414377808570862E-1   3.775955736637116E-1   1.753469705581665E-1  -1.680379919707775E-2   1.756297200918198E-1  -1.586618833243847E-2  -2.714843153953552E-1   5.564512610435486E-1  
 7.513513513513514E8    -4.300982356071472E-1   3.920966088771820E-1   1.800982058048248E-1  -3.155700862407684E-2   1.807597130537033E-1  -3.018119744956493E-2  -2.364486753940582E-1   5.355513095855713E-1  
 7.537537537537538E8    -4.178683757781982E-1   4.062840342521668E-1   1.834937036037445E-1  -4.867370426654816E-2   1.844595521688461E-1  -4.662619531154633E-2  -2.022486329078674E-1   5.100637078285217E-1  
 7.561561561561562E8    -4.058273434638977E-1   4.176044762134552E-1   1.853480339050293E-1  -6.690227240324020E-2   1.856614202260971E-1  -6.533966213464737E-2  -1.690680682659149E-1   4.773450493812561E-1  
 7.585585585585586E8    -3.950065374374390E-1   4.284683763980866E-1   1.844166666269302E-1  -8.619149774312973E-2   1.839967072010040E-1  -8.468437194824219E-2  -1.379357725381851E-1   4.418820142745972E-1  
 7.609609609609610E8    -3.854042887687683E-1   4.375619888305664E-1   1.812096238136292E-1  -1.061137393116951E-1   1.801327168941498E-1  -1.043913736939430E-1  -1.112048104405403E-1   4.003189206123352E-1  
 7.633633633633634E8    -3.773235380649567E-1   4.456857442855835E-1   1.746941208839417E-1  -1.267594844102860E-1   1.737991273403168E-1  -1.246744170784950E-1  -9.150899946689606E-2   3.535033762454987E-1  
 7.657657657657658E8    -3.709673583507538E-1   4.549135267734528E-1   1.647316664457321E-1  -1.468944698572159E-1   1.651848554611206E-1  -1.444951295852661E-1  -7.929954677820206E-2   3.033820092678070E-1  
 7.681681681681682E8    -3.651471436023712E-1   4.641640186309815E-1   1.519937068223953E-1  -1.656742691993713E-1   1.532935947179794E-1  -1.642310023307800E-1  -7.503581792116165E-2   2.506201565265656E-1  
 7.705705705705706E8    -3.605876863002777E-1   4.743746519088745E-1   1.357837766408920E-1  -1.827633231878281E-1   1.380713284015656E-1  -1.816628873348236E-1  -7.747879624366760E-2   1.988088041543961E-1  
 7.729729729729730E8    -3.560985922813416E-1   4.854476153850555E-1   1.164593994617462E-1  -1.974675804376602E-1   1.195899993181229E-1  -1.972454786300659E-1  -8.557704091072083E-2   1.483219712972641E-1  
 7.753753753753754E8    -3.514423370361328E-1   4.970795810222626E-1   9.478175640106201E-2  -2.091063559055328E-1   9.814263880252838E-2  -2.094413638114929E-1  -9.987274557352066E-2   9.871726483106613E-2  
 7.777777777777778E8    -3.466275632381439E-1   5.091762542724609E-1   7.238071411848068E-2  -2.169978171586990E-1   7.499083131551743E-2  -2.170977294445038E-1  -1.216828823089600E-1   5.034827068448067E-2  
 7.801801801801802E8    -3.421007394790649E-1   5.209523439407349E-1   5.068530142307282E-2  -2.212955057621002E-1   5.177938193082809E-2  -2.204656302928925E-1  -1.507353931665421E-1   5.411916412413120E-3  
 7.825825825825826E8    -3.347510993480682E-1   5.343877077102661E-1   2.902396023273468E-2  -2.223672866821289E-1   2.898783236742020E-2  -2.218569815158844E-1  -1.860719621181488E-1  -3.340513259172440E-2  
 7.849849849849850E8    -3.275144100189209E-1   5.494219660758972E-1   7.507368456572294E-3  -2.212087512016296E-1   7.629859726876020E-3  -2.202601581811905E-1  -2.252945601940155E-1  -6.556851416826248E-2  
 7.873873873873874E8    -3.197973072528839E-1   5.655289888381958E-1  -1.311198808252811E-2  -2.174208909273148E-1  -1.243025250732899E-2  -2.159535586833954E-1  -2.655422389507294E-1  -9.083201736211777E-2  
 7.897897897897898E8    -3.092221021652222E-1   5.828835964202881E-1  -3.225290402770042E-2  -2.110484689474106E-1  -3.133855387568474E-2  -2.097561210393906E-1  -3.077282607555389E-1  -1.107496172189713E-1  
 7.921921921921922E8    -2.947141528129578E-1   6.007642149925232E-1  -4.995104670524597E-2  -2.024946212768555E-1  -4.856055229902268E-2  -2.027137130498886E-1  -3.513275980949402E-1  -1.250006705522537E-1  
 7.945945945945946E8    -2.807158529758453E-1   6.167175173759460E-1  -6.590635329484940E-2  -1.927578896284103E-1  -6.368007510900497E-2  -1.933055520057678E-1  -3.954953849315643E-1  -1.325495392084122E-1  
 7.969969969969970E8    -2.659614086151123E-1   6.304610967636108E-1  -7.953912019729614E-2  -1.816226840019226E-1  -7.758734375238419E-2  -1.825860887765884E-1  -4.389299452304840E-1  -1.333208233118057E-1  
 7.993993993993994E8    -2.504525780677795E-1   6.423341631889343E-1  -9.109256416559219E-2  -1.696654707193375E-1  -8.953452110290527E-2  -1.708152741193771E-1  -4.800495505332947E-1  -1.286055743694305E-1  
 8.018018018018018E8    -2.336879223585129E-1   6.528005599975586E-1  -1.008345410227776E-1  -1.577546596527100E-1  -9.997681528329849E-2  -1.584938317537308E-1  -5.180980563163757E-1  -1.194919571280479E-1  
 8.042042042042042E8    -2.162411808967590E-1   6.628398299217224E-1  -1.093214824795723E-1  -1.458778232336044E-1  -1.087626367807388E-1  -1.462168395519257E-1  -5.534491539001465E-1  -1.081299260258675E-1  
 8.066066066066066E8    -1.982264965772629E-1   6.717405319213867E-1  -1.165319457650185E-1  -1.336225867271423E-1  -1.162131801247597E-1  -1.336574107408524E-1  -5.857307910919190E-1  -9.284097701311112E-2  
 8.090090090090090E8    -1.806851178407669E-1   6.788694858551025E-1  -1.223746463656426E-1  -1.211901456117630E-1  -1.221711859107018E-1  -1.209043413400650E-1  -6.143951416015625E-1  -7.551379501819611E-2  
 8.114114114114114E8    -1.633848249912262E-1   6.850098967552185E-1  -1.267817318439484E-1  -1.087169423699379E-1  -1.263621598482132E-1  -1.081049367785454E-1  -6.401330232620239E-1  -5.665818601846695E-2  
 8.138138138138138E8    -1.463630497455597E-1   6.907281875610352E-1  -1.295673698186874E-1  -9.625911712646484E-2  -1.291477680206299E-1  -9.609621763229370E-2  -6.613616347312927E-1  -3.749544173479080E-2  
 8.162162162162162E8    -1.296933889389038E-1   6.954273581504822E-1  -1.311699301004410E-1  -8.452562987804413E-2  -1.306847780942917E-1  -8.445854485034943E-2  -6.808153986930847E-1  -1.822123490273953E-2  
 8.186186186186186E8    -1.140527278184891E-1   6.995318531990051E-1  -1.317179203033447E-1  -7.321036607027054E-2  -1.313162595033646E-1  -7.368335872888565E-2  -6.969478726387024E-1   1.153658726252616E-3  
 8.210210210210210E8    -9.844260662794113E-2   7.025691866874695E-1  -1.312335431575775E-1  -6.229040771722794E-2  -1.309311687946320E-1  -6.279999017715454E-2  -7.123345732688904E-1   2.133022993803024E-2  
 8.234234234234234E8    -8.386670053005219E-2   7.042703628540039E-1  -1.301376670598984E-1  -5.221082642674446E-2  -1.296823322772980E-1  -5.255612358450890E-2  -7.258006334304810E-1   4.119750484824181E-2  
