#  HZ   S   RI   R     50.00 
! Rohde & Schwarz ZVB8 2Ports - Version 2.81 - 1145.1010k08 SN: 100113
! Date: 2016-05-03 01:37:14
! Measurements: S11 S21 S12 S22 
! 
 6.000000000000000E8     4.051012396812439E-1   6.421993374824524E-1  -5.103823263198137E-3  -1.231496687978506E-3  -5.085810087621212E-3  -1.221726648509502E-3  -9.693083763122559E-1  -1.025891900062561E-1  
 6.024024024024024E8     4.177105724811554E-1   6.230275034904480E-1  -5.098706111311913E-3  -1.183577463962138E-3  -5.048255436122417E-3  -1.260109827853739E-3  -9.701007008552551E-1  -9.133452177047730E-2  
 6.048048048048048E8     4.304152429103851E-1   6.024381518363953E-1  -5.083748139441013E-3  -1.263048034161329E-3  -5.086660850793123E-3  -1.199080026708543E-3  -9.707285761833191E-1  -7.986184954643250E-2  
 6.072072072072072E8     4.422875046730042E-1   5.807310938835144E-1  -5.031046923249960E-3  -1.385188894346356E-3  -5.032945889979601E-3  -1.384900999255478E-3  -9.714193940162659E-1  -6.834475696086884E-2  
 6.096096096096096E8     4.523677825927734E-1   5.580818057060242E-1  -5.014055408537388E-3  -1.438461360521615E-3  -5.031975451856852E-3  -1.478190300986171E-3  -9.715628623962402E-1  -5.686112120747566E-2  
 6.120120120120120E8     4.584583044052124E-1   5.371614694595337E-1  -5.047070328146219E-3  -1.707592396996915E-3  -4.953861702233553E-3  -1.728482544422150E-3  -9.711109399795532E-1  -4.764208197593689E-2  
 6.144144144144144E8     4.628158807754517E-1   5.184186100959778E-1  -5.048386752605438E-3  -2.117713214829564E-3  -4.990247543901205E-3  -2.098811091855168E-3  -9.720463752746582E-1  -3.696683794260025E-2  
 6.168168168168168E8     4.663800895214081E-1   5.002246499061585E-1  -5.113766063004732E-3  -2.568767173215747E-3  -5.093706771731377E-3  -2.644779393449426E-3  -9.724065661430359E-1  -2.590859867632389E-2  
 6.192192192192192E8     4.690268933773041E-1   4.839238226413727E-1  -5.353645421564579E-3  -3.258290234953165E-3  -5.301728378981352E-3  -3.289757296442986E-3  -9.721333384513855E-1  -1.453181076794863E-2  
 6.216216216216216E8     4.722855687141419E-1   4.694100022315979E-1  -5.805274937301874E-3  -4.087049514055252E-3  -5.774266552180052E-3  -4.135476890951395E-3  -9.717690348625183E-1  -2.093206392601132E-3  
 6.240240240240240E8     4.762689769268036E-1   4.569924771785736E-1  -6.637764628976584E-3  -4.956243094056845E-3  -6.628764793276787E-3  -4.994031041860580E-3  -9.709700345993042E-1   9.297741577029228E-3  
 6.264264264264264E8     4.823251366615295E-1   4.476244151592255E-1  -7.885021157562733E-3  -5.760914180427790E-3  -7.792453747242689E-3  -5.769465584307909E-3  -9.708853960037231E-1   2.181976474821568E-2  
 6.288288288288288E8     4.916069209575653E-1   4.384210109710693E-1  -9.545869193971157E-3  -6.296510342508555E-3  -9.474084712564945E-3  -6.377480924129486E-3  -9.703352451324463E-1   3.280289843678474E-2  
 6.312312312312312E8     5.045065879821777E-1   4.281316399574280E-1  -1.140153408050537E-2  -6.331450771540403E-3  -1.143616531044245E-2  -6.402628496289253E-3  -9.695324301719666E-1   4.329212754964829E-2  
 6.336336336336336E8     5.206180810928345E-1   4.147908091545105E-1  -1.333833299577236E-2  -5.974382162094116E-3  -1.329220924526453E-2  -5.950568709522486E-3  -9.686554670333862E-1   5.288109183311462E-2  
 6.360360360360360E8     5.385031700134277E-1   3.974679708480835E-1  -1.507128123193979E-2  -5.088123492896557E-3  -1.502003334462643E-2  -5.143609363585711E-3  -9.675052165985107E-1   6.173528358340263E-2  
 6.384384384384384E8     5.562085509300232E-1   3.766171336174011E-1  -1.673228666186333E-2  -3.859645221382380E-3  -1.665079221129417E-2  -3.962318412959576E-3  -9.664974808692932E-1   7.232526689767838E-2  
 6.408408408408408E8     5.726786255836487E-1   3.510819375514984E-1  -1.796986348927021E-2  -2.394180279225111E-3  -1.794268190860748E-2  -2.489148406311870E-3  -9.655901789665222E-1   8.300618082284927E-2  
 6.432432432432432E8     5.870019197463989E-1   3.216524124145508E-1  -1.887450367212296E-2  -9.011924848891795E-4  -1.888166554272175E-2  -9.467176860198379E-4  -9.641491174697876E-1   9.349156171083450E-2  
 6.456456456456456E8     5.982770323753357E-1   2.906607389450073E-1  -1.962539739906788E-2   7.345140329562128E-4  -1.956678554415703E-2   6.222146912477911E-4  -9.628968834877014E-1   1.032987758517265E-1  
 6.480480480480480E8     6.063387393951416E-1   2.569625377655029E-1  -2.020905725657940E-2   2.280993619933724E-3  -2.010750956833363E-2   2.114713424816728E-3  -9.613672494888306E-1   1.127041503787041E-1  
 6.504504504504504E8     6.111134886741638E-1   2.234707325696945E-1  -2.060228213667870E-2   3.853373462334275E-3  -2.053607255220413E-2   3.773682750761509E-3  -9.571078419685364E-1   1.230946257710457E-1  
 6.528528528528528E8     6.127981543540955E-1   1.890272498130798E-1  -2.078413590788841E-2   5.367649253457785E-3  -2.073932439088821E-2   5.291736684739590E-3  -9.535773992538452E-1   1.347343623638153E-1  
 6.552552552552552E8     6.113229393959045E-1   1.540847420692444E-1  -2.083486132323742E-2   6.961857434362173E-3  -2.075915597379208E-2   6.807655096054077E-3  -9.520467519760132E-1   1.469473242759705E-1  
 6.576576576576576E8     6.066796779632568E-1   1.195588186383247E-1  -2.067759446799755E-2   8.372215554118156E-3  -2.063045464456081E-2   8.279637433588505E-3  -9.523568749427795E-1   1.571119278669357E-1  
 6.600600600600600E8     5.992158651351929E-1   8.478496223688126E-2  -2.028105407953262E-2   9.736310690641403E-3  -2.031358331441879E-2   9.574052877724171E-3  -9.528462290763855E-1   1.652749180793762E-1  
 6.624624624624624E8     5.896619558334351E-1   5.308266729116440E-2  -1.989333331584930E-2   1.096997410058975E-2  -1.991686411201954E-2   1.080166641622782E-2  -9.508244991302490E-1   1.763951778411865E-1  
 6.648648648648648E8     5.779213905334473E-1   2.250440604984760E-2  -1.943747140467167E-2   1.196778286248446E-2  -1.943746581673622E-2   1.181358098983765E-2  -9.486150145530701E-1   1.868874877691269E-1  
 6.672672672672672E8     5.621688365936279E-1  -8.113267831504345E-3  -1.893375441431999E-2   1.290694531053305E-2  -1.900737918913364E-2   1.274341717362404E-2  -9.459961056709290E-1   1.976930499076843E-1  
 6.696696696696696E8     5.444864630699158E-1  -3.638149052858353E-2  -1.840417832136154E-2   1.363702770322561E-2  -1.840728893876076E-2   1.345399301499128E-2  -9.430241584777832E-1   2.074595838785172E-1  
 6.720720720720720E8     5.257441401481628E-1  -6.229313835501671E-2  -1.778001897037029E-2   1.417608931660652E-2  -1.782168075442314E-2   1.411077845841646E-2  -9.401721954345703E-1   2.171509116888046E-1  
 6.744744744744744E8     5.055571198463440E-1  -8.507992327213287E-2  -1.723123714327812E-2   1.449132058769465E-2  -1.728251203894615E-2   1.440742611885071E-2  -9.369695186614990E-1   2.280217409133911E-1  
 6.768768768768768E8     4.840071499347687E-1  -1.052874028682709E-1  -1.683852821588516E-2   1.447583921253681E-2  -1.690957508981228E-2   1.428044028580189E-2  -9.337135553359985E-1   2.388857901096344E-1  
 6.792792792792792E8     4.617925882339478E-1  -1.216048076748848E-1  -1.677966862916946E-2   1.392018143087626E-2  -1.689708232879639E-2   1.388750411570072E-2  -9.301999211311340E-1   2.495714724063873E-1  
 6.816816816816816E8     4.408540725708008E-1  -1.343465596437454E-1  -1.744157262146473E-2   1.319330651313067E-2  -1.747682504355907E-2   1.314087025821209E-2  -9.262863397598267E-1   2.603158056735992E-1  
 6.840840840840840E8     4.232364594936371E-1  -1.436340212821960E-1  -1.897001080214977E-2   1.250732969492674E-2  -1.904118247330189E-2   1.243494544178248E-2  -9.224779605865479E-1   2.711117565631867E-1  
 6.864864864864864E8     4.097350537776947E-1  -1.504777520895004E-1  -2.151149697601795E-2   1.239861361682415E-2  -2.153858542442322E-2   1.228445488959551E-2  -9.174832701683044E-1   2.810512185096741E-1  
 6.888888888888888E8     4.009776115417481E-1  -1.592971980571747E-1  -2.483190037310123E-2   1.336732879281044E-2  -2.490200847387314E-2   1.313330139964819E-2  -9.123913049697876E-1   2.914648950099945E-1  
 6.912912912912912E8     3.952514827251434E-1  -1.720545291900635E-1  -2.829361520707607E-2   1.577335596084595E-2  -2.842682041227818E-2   1.547586079686880E-2  -9.072850942611694E-1   3.013480007648468E-1  
 6.936936936936936E8     3.908128440380096E-1  -1.910269707441330E-1  -3.134951740503311E-2   1.959583163261414E-2  -3.149332106113434E-2   1.936759985983372E-2  -9.025965332984924E-1   3.112086951732636E-1  
 6.960960960960960E8     3.834295570850372E-1  -2.163710296154022E-1  -3.344555944204330E-2   2.460579760372639E-2  -3.340538591146469E-2   2.447887510061264E-2  -8.979596495628357E-1   3.211364746093750E-1  
 6.984984984984984E8     3.702816963195801E-1  -2.454380840063095E-1  -3.416304290294647E-2   3.013584762811661E-2  -3.382750973105431E-2   3.045213036239147E-2  -8.923344016075134E-1   3.346201181411743E-1  
 7.009009009009008E8     3.481191396713257E-1  -2.759152948856354E-1  -3.342464193701744E-2   3.572535514831543E-2  -3.277096524834633E-2   3.624396026134491E-2  -8.869096040725708E-1   3.471597731113434E-1  
 7.033033033033032E8     3.191816210746765E-1  -3.028176426887512E-1  -3.141368180513382E-2   4.087078198790550E-2  -3.078537620604038E-2   4.130546003580093E-2  -8.819826245307922E-1   3.567985296249390E-1  
 7.057057057057056E8     2.853984534740448E-1  -3.255590200424194E-1  -2.884896099567413E-2   4.538539797067642E-2  -2.841951139271259E-2   4.552961513400078E-2  -8.786439299583435E-1   3.633249104022980E-1  
 7.081081081081080E8     2.483016252517700E-1  -3.432457745075226E-1  -2.545732818543911E-2   4.951015487313271E-2  -2.583159692585468E-2   4.925557971000671E-2  -8.747709989547730E-1   3.703892827033997E-1  
 7.105105105105104E8     2.106223404407501E-1  -3.545435965061188E-1  -2.203542366623879E-2   5.297283083200455E-2  -2.274108119308949E-2   5.263330042362213E-2  -8.708486557006836E-1   3.792749047279358E-1  
 7.129129129129129E8     1.731476187705994E-1  -3.605270087718964E-1  -1.841482706367970E-2   5.593832954764366E-2  -1.931540295481682E-2   5.558925122022629E-2  -8.660168647766113E-1   3.893568217754364E-1  
 7.153153153153153E8     1.371072083711624E-1  -3.629097640514374E-1  -1.502044126391411E-2   5.835965648293495E-2  -1.564233750104904E-2   5.814196169376373E-2  -8.598478436470032E-1   4.010534584522247E-1  
 7.177177177177178E8     1.022398248314858E-1  -3.634182512760162E-1  -1.163589581847191E-2   6.054000556468964E-2  -1.191827282309532E-2   6.038189306855202E-2  -8.532897233963013E-1   4.135085642337799E-1  
 7.201201201201202E8     6.699451804161072E-2  -3.615680634975433E-1  -8.054567500948906E-3   6.272007524967194E-2  -8.202495053410530E-3   6.252055615186691E-2  -8.464840650558472E-1   4.254820048809052E-1  
 7.225225225225226E8     3.157487139105797E-2  -3.564814925193787E-1  -4.053404089063406E-3   6.464530527591705E-2  -4.216042812913656E-3   6.451432406902313E-2  -8.392608165740967E-1   4.379289448261261E-1  
 7.249249249249250E8    -3.108896547928453E-3  -3.480148911476135E-1   3.196161414962262E-4   6.621167808771133E-2  -6.310039316304028E-4   6.602216511964798E-2  -8.329268693923950E-1   4.472527205944061E-1  
 7.273273273273274E8    -3.554040193557739E-2  -3.367748856544495E-1   4.645969253033400E-3   6.741966307163239E-2   3.113783430308104E-3   6.726345419883728E-2  -8.264164328575134E-1   4.561286866664887E-1  
 7.297297297297298E8    -6.495621055364609E-2  -3.240578174591065E-1   8.538141846656799E-3   6.839254498481751E-2   7.328110747039318E-3   6.826496869325638E-2  -8.199471831321716E-1   4.654895663261414E-1  
 7.321321321321322E8    -9.186807274818420E-2  -3.103551566600800E-1   1.200106739997864E-2   6.910979747772217E-2   1.182503160089254E-2   6.886685639619827E-2  -8.129861354827881E-1   4.754269719123840E-1  
 7.345345345345346E8    -1.170344725251198E-1  -2.946082353591919E-1   1.588337682187557E-2   6.958313286304474E-2   1.610860042273998E-2   6.927013397216797E-2  -8.056715726852417E-1   4.866330921649933E-1  
 7.369369369369370E8    -1.420875191688538E-1  -2.765689194202423E-1   1.964059285819531E-2   6.973214447498322E-2   2.014713920652866E-2   6.930372118949890E-2  -7.976496815681458E-1   4.979000985622406E-1  
 7.393393393393394E8    -1.644367873668671E-1  -2.576105594635010E-1   2.344568446278572E-2   6.969212740659714E-2   2.388524636626244E-2   6.927447766065598E-2  -7.896888852119446E-1   5.084636807441711E-1  
 7.417417417417418E8    -1.850266009569168E-1  -2.381848096847534E-1   2.716885693371296E-2   6.970307976007462E-2   2.737893164157867E-2   6.938224285840988E-2  -7.819039225578308E-1   5.179408192634583E-1  
 7.441441441441442E8    -2.039559781551361E-1  -2.179133743047714E-1   3.086131438612938E-2   6.962839514017105E-2   3.061861544847488E-2   6.954852491617203E-2  -7.742218375205994E-1   5.264544486999512E-1  
 7.465465465465466E8    -2.211463749408722E-1  -1.964199393987656E-1   3.466615825891495E-2   6.985572725534439E-2   3.417653217911720E-2   6.987120211124420E-2  -7.652189731597900E-1   5.372340083122253E-1  
 7.489489489489490E8    -2.367762178182602E-1  -1.744955629110336E-1   3.869451954960823E-2   7.014907151460648E-2   3.802492469549179E-2   7.039962708950043E-2  -7.575569152832031E-1   5.466372370719910E-1  
 7.513513513513514E8    -2.505211830139160E-1  -1.517503112554550E-1   4.307287186384201E-2   7.023428380489349E-2   4.231224209070206E-2   7.061119377613068E-2  -7.498015165328980E-1   5.564773082733154E-1  
 7.537537537537538E8    -2.615875601768494E-1  -1.281562447547913E-1   4.787089303135872E-2   6.991087645292282E-2   4.714462161064148E-2   7.054891437292099E-2  -7.409856915473938E-1   5.662989020347595E-1  
 7.561561561561562E8    -2.693160176277161E-1  -1.052720993757248E-1   5.278234928846359E-2   6.951082497835159E-2   5.206123366951942E-2   6.984485685825348E-2  -7.310059070587158E-1   5.745989084243774E-1  
 7.585585585585586E8    -2.753518223762512E-1  -8.202192187309265E-2   5.778891593217850E-2   6.873103231191635E-2   5.714980512857437E-2   6.869339942932129E-2  -7.191303372383118E-1   5.848389863967896E-1  
 7.609609609609610E8    -2.793218493461609E-1  -6.032284721732140E-2   6.304772198200226E-2   6.765002012252808E-2   6.222757697105408E-2   6.743928790092468E-2  -7.078922986984253E-1   5.947293639183044E-1  
 7.633633633633634E8    -2.820711433887482E-1  -4.013822972774506E-2   6.852835416793823E-2   6.603682786226273E-2   6.755010783672333E-2   6.587999314069748E-2  -6.970534920692444E-1   6.034625172615051E-1  
 7.657657657657658E8    -2.834358513355255E-1  -2.171771600842476E-2   7.391424477100372E-2   6.395644694566727E-2   7.301791757345200E-2   6.415312737226486E-2  -6.877626776695252E-1   6.105651855468750E-1  
 7.681681681681682E8    -2.830702066421509E-1  -4.397967830300331E-3   7.921102643013001E-2   6.161396205425263E-2   7.882258296012878E-2   6.200208887457848E-2  -6.796141862869263E-1   6.170598268508911E-1  
 7.705705705705706E8    -2.812368869781494E-1   1.262019295245409E-2   8.472310751676559E-2   5.843829363584518E-2   8.431626111268997E-2   5.905554071068764E-2  -6.707590818405151E-1   6.236151456832886E-1  
 7.729729729729730E8    -2.795910239219666E-1   2.670479379594326E-2   8.991560339927673E-2   5.423745885491371E-2   8.985644578933716E-2   5.560036376118660E-2  -6.622651219367981E-1   6.325658559799194E-1  
 7.753753753753754E8    -2.791218459606171E-1   3.911153227090836E-2   9.458047151565552E-2   4.976005852222443E-2   9.477291256189346E-2   5.114658921957016E-2  -6.511443853378296E-1   6.432377099990845E-1  
 7.777777777777778E8    -2.792738676071167E-1   5.075129121541977E-2   9.872757643461227E-2   4.530177265405655E-2   9.882140159606934E-2   4.641371965408325E-2  -6.374419927597046E-1   6.521214246749878E-1  
 7.801801801801802E8    -2.803044915199280E-1   6.210985407233238E-2   1.026449427008629E-1   4.098036885261536E-2   1.020765602588654E-1   4.149354621767998E-2  -6.215552091598511E-1   6.580493450164795E-1  
 7.825825825825826E8    -2.809689044952393E-1   7.578401267528534E-2   1.061541736125946E-1   3.649767115712166E-2   1.056914031505585E-1   3.673592582345009E-2  -6.061611175537109E-1   6.657547354698181E-1  
 7.849849849849850E8    -2.818004190921783E-1   8.882107585668564E-2   1.096808314323425E-1   3.169116377830505E-2   1.090300604701042E-1   3.226368129253388E-2  -5.931268334388733E-1   6.704010963439941E-1  
 7.873873873873874E8    -2.828777134418488E-1   1.014350354671478E-1   1.132787019014359E-1   2.715102024376392E-2   1.121783554553986E-1   2.787689119577408E-2  -5.816636085510254E-1   6.750780344009399E-1  
 7.897897897897898E8    -2.832557260990143E-1   1.155093610286713E-1   1.170452833175659E-1   2.249428816139698E-2   1.161154285073280E-1   2.310035564005375E-2  -5.704586505889893E-1   6.822439432144165E-1  
 7.921921921921922E8    -2.816267013549805E-1   1.297755837440491E-1   1.206492632627487E-1   1.723536662757397E-2   1.203657314181328E-1   1.775122433900833E-2  -5.591312646865845E-1   6.907377243041992E-1  
 7.945945945945946E8    -2.794542014598846E-1   1.445260941982269E-1   1.241842359304428E-1   1.131893042474985E-2   1.238681003451347E-1   1.238758396357298E-2  -5.442202687263489E-1   6.964805722236633E-1  
 7.969969969969970E8    -2.761922776699066E-1   1.575947105884552E-1   1.274359822273254E-1   5.172596313059330E-3   1.271003335714340E-1   6.229209247976542E-3  -5.289449095726013E-1   7.027673125267029E-1  
 7.993993993993994E8    -2.726383805274963E-1   1.698701530694962E-1   1.304201781749725E-1  -1.232983660884202E-3   1.304852962493897E-1  -3.168540424667299E-4  -5.127938389778137E-1   7.087985873222351E-1  
 8.018018018018018E8    -2.681682705879211E-1   1.815174371004105E-1   1.335613131523132E-1  -8.110605180263519E-3   1.334029138088226E-1  -7.581002544611692E-3  -4.954379796981812E-1   7.144034504890442E-1  
 8.042042042042042E8    -2.630545496940613E-1   1.925123631954193E-1   1.362216174602509E-1  -1.581685245037079E-2   1.360278278589249E-1  -1.530270185321569E-2  -4.798505008220673E-1   7.184605598449707E-1  
 8.066066066066066E8    -2.578208148479462E-1   2.031877189874649E-1   1.378971040248871E-1  -2.418166957795620E-2   1.378434598445892E-1  -2.363933250308037E-2  -4.618966281414032E-1   7.241491079330444E-1  
 8.090090090090090E8    -2.524920105934143E-1   2.132889479398727E-1   1.389187574386597E-1  -3.259270638227463E-2   1.388568580150604E-1  -3.212529793381691E-2  -4.436590075492859E-1   7.283615469932556E-1  
 8.114114114114114E8    -2.473139166831970E-1   2.213709056377411E-1   1.394314318895340E-1  -4.104093462228775E-2   1.394587010145187E-1  -4.058545455336571E-2  -4.254203140735626E-1   7.310740351676941E-1  
 8.138138138138138E8    -2.428020238876343E-1   2.285961806774139E-1   1.394358724355698E-1  -4.956972971558571E-2   1.395523548126221E-1  -4.908493161201477E-2  -4.073934257030487E-1   7.330774068832398E-1  
 8.162162162162162E8    -2.391285002231598E-1   2.355103492736816E-1   1.390022486448288E-1  -5.841498821973801E-2   1.390766203403473E-1  -5.773173645138741E-2  -3.890120983123779E-1   7.349805831909180E-1  
 8.186186186186186E8    -2.361787706613541E-1   2.418977320194244E-1   1.378790140151978E-1  -6.701269745826721E-2   1.378953158855438E-1  -6.638825684785843E-2  -3.695205450057983E-1   7.364029288291931E-1  
 8.210210210210210E8    -2.334644794464111E-1   2.475541085004807E-1   1.360766738653183E-1  -7.566041499376297E-2   1.359952986240387E-1  -7.505514472723007E-2  -3.492986559867859E-1   7.369089722633362E-1  
 8.234234234234234E8    -2.321654111146927E-1   2.539721131324768E-1   1.335696280002594E-1  -8.409892022609711E-2   1.336298733949661E-1  -8.356863260269165E-2  -3.285867273807526E-1   7.365079522132874E-1  
