#  HZ   S   RI   R     50.00 
! Rohde & Schwarz ZVB8 2Ports - Version 2.81 - 1145.1010k08 SN: 100113
! Date: 2016-05-03 01:36:49
! Measurements: S11 S21 S12 S22 
! 
 6.000000000000000E8     2.665396332740784E-1   7.937102317810059E-1  -3.413204336538911E-3  -1.446409616619349E-3  -3.385473974049091E-3  -1.395853352732956E-3  -9.690414071083069E-1  -1.128142103552818E-1  
 6.024024024024024E8     2.820045948028565E-1   7.831623554229736E-1  -3.273686859756708E-3  -1.407910953275859E-3  -3.354916814714670E-3  -1.439692452549934E-3  -9.700062274932861E-1  -1.012930423021317E-1  
 6.048048048048048E8     2.978036403656006E-1   7.721826434135437E-1  -3.334769513458014E-3  -1.452396274544299E-3  -3.316674847155809E-3  -1.411651028320193E-3  -9.709873199462891E-1  -9.023591130971909E-2  
 6.072072072072072E8     3.138091862201691E-1   7.594931721687317E-1  -3.256094176322222E-3  -1.541188103146851E-3  -3.276708303019404E-3  -1.495979842729867E-3  -9.714174270629883E-1  -7.958281040191650E-2  
 6.096096096096096E8     3.293125331401825E-1   7.458393573760986E-1  -3.229124937206507E-3  -1.665287534706295E-3  -3.269653301686049E-3  -1.708929543383420E-3  -9.719761013984680E-1  -6.815820187330246E-2  
 6.120120120120120E8     3.408992886543274E-1   7.334155440330505E-1  -3.159340471029282E-3  -1.850523985922337E-3  -3.172112861648202E-3  -1.843066187575460E-3  -9.721801877021790E-1  -5.911106243729591E-2  
 6.144144144144144E8     3.513431251049042E-1   7.218049764633179E-1  -3.028614213690162E-3  -2.111513866111636E-3  -3.023190889507532E-3  -2.142213983461261E-3  -9.728934168815613E-1  -4.892152175307274E-2  
 6.168168168168168E8     3.615274429321289E-1   7.100599408149719E-1  -3.031973959878087E-3  -2.479531569406390E-3  -2.979026641696692E-3  -2.542711328715086E-3  -9.732116460800171E-1  -3.818281739950180E-2  
 6.192192192192192E8     3.709663450717926E-1   6.986989378929138E-1  -3.066951874643564E-3  -3.013365669175983E-3  -3.033659420907497E-3  -3.016580594703555E-3  -9.735426306724548E-1  -2.691430039703846E-2  
 6.216216216216216E8     3.802700340747833E-1   6.883665323257446E-1  -3.224606625735760E-3  -3.710420802235603E-3  -3.169650211930275E-3  -3.700245870277286E-3  -9.731609225273132E-1  -1.492256391793490E-2  
 6.240240240240240E8     3.897474408149719E-1   6.791542768478394E-1  -3.653584979474545E-3  -4.434183239936829E-3  -3.545314539223909E-3  -4.430220462381840E-3  -9.727524518966675E-1  -3.111392259597778E-3  
 6.264264264264264E8     3.998024761676788E-1   6.723165512084961E-1  -4.373553674668074E-3  -5.230569746345282E-3  -4.333374090492725E-3  -5.184001754969358E-3  -9.726521372795105E-1   9.130848571658135E-3  
 6.288288288288288E8     4.111894369125366E-1   6.661795377731323E-1  -5.418909247964621E-3  -5.821656901389360E-3  -5.312034394592047E-3  -5.827197339385748E-3  -9.722719788551331E-1   1.959584280848503E-2  
 6.312312312312312E8     4.246196746826172E-1   6.602011919021606E-1  -6.564620882272720E-3  -6.149491760879755E-3  -6.577466148883104E-3  -6.199130322784185E-3  -9.719695448875427E-1   2.983104996383190E-2  
 6.336336336336336E8     4.404027760028839E-1   6.537528038024902E-1  -7.857358083128929E-3  -6.185322999954224E-3  -7.875279523432255E-3  -6.247235462069511E-3  -9.711455106735230E-1   3.909137845039368E-2  
 6.360360360360360E8     4.581849873065949E-1   6.453796625137329E-1  -9.164230898022652E-3  -5.888721439987421E-3  -9.088249877095223E-3  -5.964224692434073E-3  -9.703722000122070E-1   4.725344106554985E-2  
 6.384384384384384E8     4.767995178699493E-1   6.356298327445984E-1  -1.032545696943998E-2  -5.405458156019449E-3  -1.030039787292481E-2  -5.391021259129047E-3  -9.697630405426025E-1   5.775862932205200E-2  
 6.408408408408408E8     4.960374534130096E-1   6.226131916046143E-1  -1.136994641274214E-2  -4.692585673183203E-3  -1.120672561228275E-2  -4.676190204918385E-3  -9.688774347305298E-1   6.798974424600601E-2  
 6.432432432432432E8     5.149253010749817E-1   6.066730022430420E-1  -1.212968118488789E-2  -3.874890273436904E-3  -1.207127235829830E-2  -3.986347932368517E-3  -9.677686691284180E-1   7.815692573785782E-2  
 6.456456456456456E8     5.329847931861877E-1   5.885335803031921E-1  -1.277067605406046E-2  -3.053209278732538E-3  -1.267778314650059E-2  -3.198355669155717E-3  -9.667456150054932E-1   8.778758347034454E-2  
 6.480480480480480E8     5.495963096618652E-1   5.687209367752075E-1  -1.338032819330692E-2  -2.325719222426415E-3  -1.335904654115439E-2  -2.369407331570983E-3  -9.656286239624023E-1   9.672252833843231E-2  
 6.504504504504504E8     5.645732879638672E-1   5.492612719535828E-1  -1.385988388210535E-2  -1.480226521380246E-3  -1.384129002690315E-2  -1.497027929872274E-3  -9.618877172470093E-1   1.065772846341133E-1  
 6.528528528528528E8     5.784521698951721E-1   5.287604331970215E-1  -1.427816320210695E-2  -5.833512404933572E-4  -1.426594331860542E-2  -6.167442770674825E-4  -9.585275053977966E-1   1.179302632808685E-1  
 6.552552552552552E8     5.909121632575989E-1   5.071372985839844E-1  -1.454777549952269E-2   1.765022316249088E-4  -1.443164609372616E-2   1.751980162225664E-4  -9.573538899421692E-1   1.294799298048019E-1  
 6.576576576576576E8     6.020075678825378E-1   4.843049347400665E-1  -1.463972497731447E-2   9.701570379547775E-4  -1.460249070078135E-2   9.467910276725888E-4  -9.580440521240234E-1   1.392462402582169E-1  
 6.600600600600600E8     6.126413345336914E-1   4.596724808216095E-1  -1.479566283524036E-2   1.791882794350386E-3  -1.469520013779402E-2   1.722359913401306E-3  -9.590226411819458E-1   1.469525992870331E-1  
 6.624624624624624E8     6.210402250289917E-1   4.371674656867981E-1  -1.474249269813299E-2   2.468487480655313E-3  -1.472510863095522E-2   2.331080613657832E-3  -9.573670029640198E-1   1.574895828962326E-1  
 6.648648648648648E8     6.284967660903931E-1   4.133954644203186E-1  -1.478973962366581E-2   3.056195331737399E-3  -1.476131100207567E-2   2.986708190292120E-3  -9.554662108421326E-1   1.679341495037079E-1  
 6.672672672672672E8     6.339650154113770E-1   3.889201879501343E-1  -1.470672897994518E-2   3.584821708500385E-3  -1.469060685485601E-2   3.547215601429343E-3  -9.532680511474609E-1   1.779123842716217E-1  
 6.696696696696696E8     6.376668810844421E-1   3.639928400516510E-1  -1.461432129144669E-2   4.069329239428043E-3  -1.463511120527983E-2   4.018545616418123E-3  -9.508856534957886E-1   1.872970014810562E-1  
 6.720720720720720E8     6.403055191040039E-1   3.393597006797791E-1  -1.444919034838677E-2   4.509089514613152E-3  -1.448051352053881E-2   4.416758660227060E-3  -9.482491612434387E-1   1.964752823114395E-1  
 6.744744744744744E8     6.415488123893738E-1   3.169202506542206E-1  -1.424527447670698E-2   4.621250089257956E-3  -1.418389566242695E-2   4.640261642634869E-3  -9.458904266357422E-1   2.069443911314011E-1  
 6.768768768768768E8     6.412757039070129E-1   2.946491837501526E-1  -1.409543026238680E-2   4.582536406815052E-3  -1.398908533155918E-2   4.524436313658953E-3  -9.431065320968628E-1   2.170630991458893E-1  
 6.792792792792792E8     6.390262842178345E-1   2.734667956829071E-1  -1.396684348583221E-2   4.192043095827103E-3  -1.401102915406227E-2   4.119399935007095E-3  -9.403235316276550E-1   2.272254675626755E-1  
 6.816816816816816E8     6.359726190567017E-1   2.544598579406738E-1  -1.431664917618036E-2   3.472584532573819E-3  -1.429146993905306E-2   3.442527260631323E-3  -9.372705221176148E-1   2.373793125152588E-1  
 6.840840840840840E8     6.330481767654419E-1   2.377350777387619E-1  -1.519178878515959E-2   2.597900805994868E-3  -1.519956346601248E-2   2.553181955590844E-3  -9.341890215873718E-1   2.475725859403610E-1  
 6.864864864864864E8     6.309381723403931E-1   2.242613881826401E-1  -1.675484143197537E-2   1.849625143222511E-3  -1.688595674932003E-2   1.748935668729246E-3  -9.299966096878052E-1   2.570921182632446E-1  
 6.888888888888888E8     6.317847371101379E-1   2.117398232221603E-1  -1.918512582778931E-2   1.572425360791385E-3  -1.916698366403580E-2   1.378125394694507E-3  -9.257398247718811E-1   2.670694887638092E-1  
 6.912912912912912E8     6.358447074890137E-1   1.995897144079208E-1  -2.199333719909191E-2   2.101011574268341E-3  -2.206316962838173E-2   1.930017839185894E-3  -9.217189550399780E-1   2.767605185508728E-1  
 6.936936936936936E8     6.437458395957947E-1   1.848069280385971E-1  -2.479006536304951E-2   3.655682317912579E-3  -2.491736412048340E-2   3.478231839835644E-3  -9.181262850761414E-1   2.863075435161591E-1  
 6.960960960960960E8     6.532648801803589E-1   1.655822098255158E-1  -2.727846615016460E-2   5.988171324133873E-3  -2.737390622496605E-2   5.991119425743818E-3  -9.144729375839233E-1   2.961143255233765E-1  
 6.984984984984984E8     6.623380780220032E-1   1.426463276147842E-1  -2.916102483868599E-2   8.882229216396809E-3  -2.905660122632980E-2   9.250012226402760E-3  -9.096602201461792E-1   3.095043599605560E-1  
 7.009009009009008E8     6.678231954574585E-1   1.152168512344360E-1  -3.037140332162380E-2   1.208125427365303E-2  -3.005310148000717E-2   1.261184643954039E-2  -9.049309492111206E-1   3.216690719127655E-1  
 7.033033033033032E8     6.690962314605713E-1   8.539004623889923E-2  -3.081232495605946E-2   1.533008273690939E-2  -3.049445152282715E-2   1.582775451242924E-2  -9.007279872894287E-1   3.312468230724335E-1  
 7.057057057057056E8     6.665146946907044E-1   5.485157668590546E-2  -3.081710636615753E-2   1.851151883602142E-2  -3.067822754383087E-2   1.868370361626148E-2  -8.979528546333313E-1   3.373019993305206E-1  
 7.081081081081080E8     6.602288484573364E-1   2.375465817749500E-2  -3.051406517624855E-2   2.159320190548897E-2  -3.053454682230949E-2   2.136128582060337E-2  -8.946843147277832E-1   3.439652025699616E-1  
 7.105105105105104E8     6.508011221885681E-1  -5.075533408671618E-3  -2.987302094697952E-2   2.464541047811508E-2  -3.027019649744034E-2   2.416391670703888E-2  -8.913543224334717E-1   3.519620299339294E-1  
 7.129129129129129E8     6.390639543533325E-1  -3.109472244977951E-2  -2.908639237284660E-2   2.745145745575428E-2  -2.962805517017841E-2   2.687188796699047E-2  -8.875187039375305E-1   3.616044521331787E-1  
 7.153153153153153E8     6.266431212425232E-1  -5.513940006494522E-2  -2.823401801288128E-2   2.995389327406883E-2  -2.858499996364117E-2   2.962979488074780E-2  -8.823605179786682E-1   3.727760314941406E-1  
 7.177177177177178E8     6.131256222724915E-1  -7.891827821731567E-2  -2.732024341821671E-2   3.245164453983307E-2  -2.742966264486313E-2   3.222676366567612E-2  -8.767282962799072E-1   3.851601183414459E-1  
 7.201201201201202E8     5.982396006584168E-1  -1.029223874211311E-1  -2.623324282467365E-2   3.498397395014763E-2  -2.625275775790215E-2   3.472330048680306E-2  -8.708926439285278E-1   3.960233330726624E-1  
 7.225225225225226E8     5.814471244812012E-1  -1.253636181354523E-1  -2.498297952115536E-2   3.750663623213768E-2  -2.495943382382393E-2   3.737192600965500E-2  -8.647834062576294E-1   4.082083404064179E-1  
 7.249249249249250E8     5.622549057006836E-1  -1.468780338764191E-1  -2.320842072367668E-2   4.020453989505768E-2  -2.371849305927753E-2   3.971163555979729E-2  -8.597356677055359E-1   4.167215824127197E-1  
 7.273273273273274E8     5.420474410057068E-1  -1.655116081237793E-1  -2.139188535511494E-2   4.268015176057816E-2  -2.214937284588814E-2   4.217473044991493E-2  -8.546569347381592E-1   4.251750111579895E-1  
 7.297297297297298E8     5.222331285476685E-1  -1.812772750854492E-1  -1.952479407191277E-2   4.489147663116455E-2  -2.020133286714554E-2   4.439947381615639E-2  -8.490964174270630E-1   4.339162707328796E-1  
 7.321321321321322E8     5.028557181358337E-1  -1.947968453168869E-1  -1.784839108586311E-2   4.679717123508453E-2  -1.781375892460346E-2   4.654027521610260E-2  -8.438074588775635E-1   4.433816969394684E-1  
 7.345345345345346E8     4.828473925590515E-1  -2.079255580902100E-1  -1.570139080286026E-2   4.860965907573700E-2  -1.552116591483355E-2   4.843754693865776E-2  -8.379028439521790E-1   4.538269937038422E-1  
 7.369369369369370E8     4.615188539028168E-1  -2.205363363027573E-1  -1.361438073217869E-2   5.020994320511818E-2  -1.316503342241049E-2   5.013173073530197E-2  -8.314258456230164E-1   4.645730555057526E-1  
 7.393393393393394E8     4.396104514598846E-1  -2.314526885747910E-1  -1.142746116966009E-2   5.180510506033897E-2  -1.102605648338795E-2   5.176029354333878E-2  -8.248558044433594E-1   4.743654727935791E-1  
 7.417417417417418E8     4.180943071842194E-1  -2.409366369247437E-1  -9.123141877353191E-3   5.330310016870499E-2  -8.918452076613903E-3   5.325306579470635E-2  -8.188433051109314E-1   4.834699630737305E-1  
 7.441441441441442E8     3.967984020709992E-1  -2.488730698823929E-1  -6.750661414116621E-3   5.478594452142716E-2  -6.934475619345903E-3   5.464188009500504E-2  -8.130664825439453E-1   4.911563098430634E-1  
 7.465465465465466E8     3.766263723373413E-1  -2.545114457607269E-1  -4.496984183788300E-3   5.618702247738838E-2  -4.900200758129358E-3   5.609610304236412E-2  -8.060894608497620E-1   5.013214945793152E-1  
 7.489489489489490E8     3.555169701576233E-1  -2.597410380840302E-1  -2.322937361896038E-3   5.776561424136162E-2  -2.772337524220347E-3   5.760101228952408E-2  -8.004782795906067E-1   5.104249119758606E-1  
 7.513513513513514E8     3.340900540351868E-1  -2.643794119358063E-1   7.852500129956752E-5   5.935186147689819E-2  -5.069121834821999E-4   5.917198583483696E-2  -7.945626974105835E-1   5.194655060768127E-1  
 7.537537537537538E8     3.124108314514160E-1  -2.681214511394501E-1   2.721677999943495E-3   6.085376441478729E-2   1.972010126337409E-3   6.084946915507317E-2  -7.881990075111389E-1   5.291185379028320E-1  
 7.561561561561562E8     2.914256155490875E-1  -2.699640989303589E-1   5.393004976212978E-3   6.252185255289078E-2   4.827646072953939E-3   6.239418685436249E-2  -7.808131575584412E-1   5.369870662689209E-1  
 7.585585585585586E8     2.702316939830780E-1  -2.692120671272278E-1   8.339872583746910E-3   6.420538574457169E-2   7.949791848659515E-3   6.383112818002701E-2  -7.711675763130188E-1   5.471737384796143E-1  
 7.609609609609610E8     2.501843869686127E-1  -2.669943273067474E-1   1.156554464250803E-2   6.587558239698410E-2   1.104138698428869E-2   6.538464874029160E-2  -7.624250650405884E-1   5.566254258155823E-1  
 7.633633633633634E8     2.318490296602249E-1  -2.641943991184235E-1   1.520819775760174E-2   6.727300584316254E-2   1.453110016882420E-2   6.681203842163086E-2  -7.540280818939209E-1   5.654386878013611E-1  
 7.657657657657658E8     2.152638286352158E-1  -2.609188854694367E-1   1.902812719345093E-2   6.855753064155579E-2   1.828269101679325E-2   6.830405443906784E-2  -7.475691437721252E-1   5.724596977233887E-1  
 7.681681681681682E8     2.005779892206192E-1  -2.565264701843262E-1   2.308825403451920E-2   6.958074122667313E-2   2.247468940913677E-2   6.968351453542709E-2  -7.423152327537537E-1   5.784922242164612E-1  
 7.705705705705706E8     1.879823505878449E-1  -2.495727539062500E-1   2.752798609435558E-2   7.020254433155060E-2   2.701315283775330E-2   7.053435593843460E-2  -7.364730834960938E-1   5.843733549118042E-1  
 7.729729729729730E8     1.767774075269699E-1  -2.448602169752121E-1   3.227012604475021E-2   7.005935907363892E-2   3.169545903801918E-2   7.082450389862061E-2  -7.310624122619629E-1   5.934780240058899E-1  
 7.753753753753754E8     1.659924238920212E-1  -2.418776750564575E-1   3.675372153520584E-2   6.942102313041687E-2   3.629158437252045E-2   7.042051106691361E-2  -7.234473824501038E-1   6.036740541458130E-1  
 7.777777777777778E8     1.552378982305527E-1  -2.398463785648346E-1   4.097594693303108E-2   6.880404055118561E-2   4.057307541370392E-2   6.936905533075333E-2  -7.130365371704102E-1   6.126295328140259E-1  
 7.801801801801802E8     1.442698538303375E-1  -2.385328263044357E-1   4.497617110610008E-2   6.802102178335190E-2   4.435973241925240E-2   6.798785179853439E-2  -7.008956670761108E-1   6.188407540321350E-1  
 7.825825825825826E8     1.317388415336609E-1  -2.362731099128723E-1   4.891546070575714E-2   6.710309535264969E-2   4.855176433920860E-2   6.683789193630219E-2  -6.895596385002136E-1   6.269404888153076E-1  
 7.849849849849850E8     1.194322556257248E-1  -2.346017062664032E-1   5.281249433755875E-2   6.586605310440064E-2   5.219457671046257E-2   6.576659530401230E-2  -6.805587410926819E-1   6.319295763969421E-1  
 7.873873873873874E8     1.061852872371674E-1  -2.332951873540878E-1   5.673509836196899E-2   6.494357436895371E-2   5.581996962428093E-2   6.481757014989853E-2  -6.728826761245728E-1   6.370403766632080E-1  
 7.897897897897898E8     9.150993078947067E-2  -2.304544299840927E-1   6.074712797999382E-2   6.396741420030594E-2   5.985791236162186E-2   6.398703902959824E-2  -6.664387583732605E-1   6.438542604446411E-1  
 7.921921921921922E8     7.690372318029404E-2  -2.257004082202911E-1   6.499018520116806E-2   6.266065686941147E-2   6.451820582151413E-2   6.301142275333405E-2  -6.605047583580017E-1   6.529892683029175E-1  
 7.945945945945946E8     6.338842213153839E-2  -2.179121226072311E-1   6.965827941894531E-2   6.106097623705864E-2   6.890369206666946E-2   6.168681383132935E-2  -6.504305601119995E-1   6.597276926040649E-1  
 7.969969969969970E8     5.173785611987114E-2  -2.090021222829819E-1   7.430382817983627E-2   5.913456529378891E-2   7.369249314069748E-2   5.977813899517059E-2  -6.400632262229919E-1   6.674938797950745E-1  
 7.993993993993994E8     4.162475466728210E-2  -1.997723877429962E-1   7.895156741142273E-2   5.682806298136711E-2   7.856530696153641E-2   5.745393410325050E-2  -6.296786665916443E-1   6.753755807876587E-1  
 8.018018018018018E8     3.277947381138802E-2  -1.904419511556625E-1   8.369684219360352E-2   5.412518978118897E-2   8.342851698398590E-2   5.445317551493645E-2  -6.183728575706482E-1   6.828880906105042E-1  
 8.042042042042042E8     2.577921934425831E-2  -1.814619451761246E-1   8.850777894258499E-2   5.077527835965157E-2   8.824864774942398E-2   5.100298300385475E-2  -6.083885431289673E-1   6.894127130508423E-1  
 8.066066066066066E8     2.007663249969482E-2  -1.716281324625015E-1   9.301342070102692E-2   4.669462516903877E-2   9.268549084663391E-2   4.682595282793045E-2  -5.969035029411316E-1   6.971500515937805E-1  
 8.090090090090090E8     1.655032113194466E-2  -1.629785001277924E-1   9.696580469608307E-2   4.213227331638336E-2   9.679857641458511E-2   4.233800992369652E-2  -5.853310227394104E-1   7.044390439987183E-1  
 8.114114114114114E8     1.440828107297421E-2  -1.569255143404007E-1   1.004568412899971E-1   3.750303015112877E-2   1.002075746655464E-1   3.761718049645424E-2  -5.738879442214966E-1   7.108645439147949E-1  
 8.138138138138138E8     1.146045327186585E-2  -1.530226320028305E-1   1.035310178995132E-1   3.273507952690125E-2   1.032624989748001E-1   3.305433690547943E-2  -5.625298023223877E-1   7.167291641235352E-1  
 8.162162162162162E8     7.787571288645268E-3  -1.495473235845566E-1   1.065263003110886E-1   2.804838307201862E-2   1.061349436640739E-1   2.841217629611492E-2  -5.520313978195190E-1   7.224799990653992E-1  
 8.186186186186186E8     3.679028246551752E-3  -1.456641405820847E-1   1.091833040118218E-1   2.302503213286400E-2   1.088033765554428E-1   2.334713935852051E-2  -5.397390723228455E-1   7.292270064353943E-1  
 8.210210210210210E8    -5.629647639580071E-4  -1.423296332359314E-1   1.112699359655380E-1   1.787984371185303E-2   1.109349802136421E-1   1.821497082710266E-2  -5.273416042327881E-1   7.355163097381592E-1  
 8.234234234234234E8    -4.982815589755774E-3  -1.402893960475922E-1   1.130501180887222E-1   1.280497945845127E-2   1.127854287624359E-1   1.324651669710875E-2  -5.147072672843933E-1   7.414377331733704E-1  
