#  HZ   S   RI   R     50.00 
! Rohde & Schwarz ZVB8 2Ports - Version 2.81 - 1145.1010k08 SN: 100113
! Date: 2016-05-03 01:36:56
! Measurements: S11 S21 S12 S22 
! 
 6.000000000000000E8     2.971516847610474E-1   7.667022943496704E-1  -3.782799234613776E-3  -1.319122849963605E-3  -3.777120029553771E-3  -1.369262929074466E-3  -9.689997434616089E-1  -1.101003885269165E-1  
 6.024024024024024E8     3.120190799236298E-1   7.545346617698669E-1  -3.742447588592768E-3  -1.360455877147615E-3  -3.761923871934414E-3  -1.375101390294731E-3  -9.700604677200317E-1  -9.878008067607880E-2  
 6.048048048048048E8     3.271928429603577E-1   7.416911721229553E-1  -3.685526084154844E-3  -1.383647439070046E-3  -3.659150330349803E-3  -1.352321123704314E-3  -9.708408117294312E-1  -8.776772767305374E-2  
 6.072072072072072E8     3.422972857952118E-1   7.277587056159973E-1  -3.641175106167793E-3  -1.456421334296465E-3  -3.606110112741590E-3  -1.507089356891811E-3  -9.713672399520874E-1  -7.654767483472824E-2  
 6.096096096096096E8     3.567312061786652E-1   7.133247256278992E-1  -3.599773626774550E-3  -1.613710657693446E-3  -3.570562461391091E-3  -1.563223660923541E-3  -9.717888832092285E-1  -6.510533392429352E-2  
 6.120120120120120E8     3.680131435394287E-1   6.999369263648987E-1  -3.483775770291686E-3  -1.808259403333068E-3  -3.522632876411080E-3  -1.749011920765042E-3  -9.716896414756775E-1  -5.614856630563736E-2  
 6.144144144144144E8     3.785007596015930E-1   6.875023841857910E-1  -3.358132205903530E-3  -2.063424792140722E-3  -3.376622451469302E-3  -2.041036495938897E-3  -9.726316332817078E-1  -4.592346772551537E-2  
 6.168168168168168E8     3.885367810726166E-1   6.744288206100464E-1  -3.350896527990699E-3  -2.507939701899886E-3  -3.323040436953306E-3  -2.564484253525734E-3  -9.731853604316711E-1  -3.504864126443863E-2  
 6.192192192192192E8     3.975845575332642E-1   6.621034741401672E-1  -3.458792576566339E-3  -3.005085978657007E-3  -3.468163311481476E-3  -3.098560264334083E-3  -9.732150435447693E-1  -2.352517843246460E-2  
 6.216216216216216E8     4.065089225769043E-1   6.504378318786621E-1  -3.638632129877806E-3  -3.787758294492960E-3  -3.612867323681712E-3  -3.768258029595017E-3  -9.728978276252747E-1  -1.175997219979763E-2  
 6.240240240240240E8     4.154647290706635E-1   6.395189762115479E-1  -4.053194541484118E-3  -4.505852703005076E-3  -4.115409217774868E-3  -4.538647364825010E-3  -9.721887707710266E-1  -2.707486855797470E-4  
 6.264264264264264E8     4.249255657196045E-1   6.320256590843201E-1  -4.951483570039272E-3  -5.318652372807264E-3  -4.815027117729187E-3  -5.353488028049469E-3  -9.723939299583435E-1   1.184611581265926E-2  
 6.288288288288288E8     4.361820220947266E-1   6.247589588165283E-1  -6.044286768883467E-3  -5.973092280328274E-3  -5.951886065304279E-3  -5.986152216792107E-3  -9.719004034996033E-1   2.272031828761101E-2  
 6.312312312312312E8     4.498420357704163E-1   6.176800131797791E-1  -7.365371566265822E-3  -6.370247341692448E-3  -7.297612261027098E-3  -6.405354477465153E-3  -9.713248014450073E-1   3.288780525326729E-2  
 6.336336336336336E8     4.656757414340973E-1   6.097829937934876E-1  -8.789113722741604E-3  -6.381934508681297E-3  -8.747152984142304E-3  -6.372527685016394E-3  -9.707813262939453E-1   4.220505431294441E-2  
 6.360360360360360E8     4.837042093276978E-1   5.997264385223389E-1  -1.019707042723894E-2  -6.009866017848253E-3  -1.020502205938101E-2  -6.036900915205479E-3  -9.697463512420654E-1   5.101079866290093E-2  
 6.384384384384384E8     5.022957921028137E-1   5.876407623291016E-1  -1.150086522102356E-2  -5.405826959758997E-3  -1.143957488238812E-2  -5.451315082609654E-3  -9.689944982528687E-1   6.135750561952591E-2  
 6.408408408408408E8     5.213853716850281E-1   5.725532174110413E-1  -1.260889228433371E-2  -4.614267498254776E-3  -1.255753170698881E-2  -4.650765098631382E-3  -9.682160615921021E-1   7.181477546691895E-2  
 6.432432432432432E8     5.398505330085754E-1   5.542533397674561E-1  -1.349284313619137E-2  -3.715121652930975E-3  -1.334706880152226E-2  -3.770808223634958E-3  -9.669585824012756E-1   8.203835785388947E-2  
 6.456456456456456E8     5.571280717849731E-1   5.338045954704285E-1  -1.423103082925081E-2  -2.777126384899020E-3  -1.411961577832699E-2  -2.852604258805513E-3  -9.658232927322388E-1   9.167127311229706E-2  
 6.480480480480480E8     5.733213424682617E-1   5.114129781723023E-1  -1.479312218725681E-2  -1.873319852165878E-3  -1.469686161726713E-2  -1.927005127072334E-3  -9.645491838455200E-1   1.007025092840195E-1  
 6.504504504504504E8     5.875195264816284E-1   4.893399775028229E-1  -1.532894186675549E-2  -8.330751443281770E-4  -1.530696917325258E-2  -9.507432696409524E-4  -9.606676101684570E-1   1.108067482709885E-1  
 6.528528528528528E8     6.003410816192627E-1   4.656917750835419E-1  -1.568852365016937E-2   9.077299910131842E-5  -1.569243334233761E-2  -6.065990419301670E-6  -9.574202299118042E-1   1.221986860036850E-1  
 6.552552552552552E8     6.114377975463867E-1   4.408609271049500E-1  -1.587929576635361E-2   1.063415547832847E-3  -1.598546281456947E-2   1.004653051495552E-3  -9.560321569442749E-1   1.340210586786270E-1  
 6.576576576576576E8     6.206793189048767E-1   4.148692488670349E-1  -1.612462475895882E-2   1.986896619200707E-3  -1.605466566979885E-2   1.881724921986461E-3  -9.566282629966736E-1   1.438119262456894E-1  
 6.600600600600600E8     6.286027431488037E-1   3.875983655452728E-1  -1.618840172886848E-2   2.793633146211505E-3  -1.608791202306747E-2   2.703261096030474E-3  -9.575027823448181E-1   1.515545547008514E-1  
 6.624624624624624E8     6.348357200622559E-1   3.621202707290649E-1  -1.622807420790196E-2   3.660986432805657E-3  -1.614508405327797E-2   3.511419519782066E-3  -9.557514786720276E-1   1.622971892356873E-1  
 6.648648648648648E8     6.392213106155396E-1   3.358401656150818E-1  -1.610058732330799E-2   4.299375228583813E-3  -1.613853313028812E-2   4.236476030200720E-3  -9.537699818611145E-1   1.726840734481812E-1  
 6.672672672672672E8     6.417652368545532E-1   3.084881305694580E-1  -1.606742292642593E-2   4.921544808894396E-3  -1.610941812396050E-2   4.785992205142975E-3  -9.516177773475647E-1   1.826523691415787E-1  
 6.696696696696696E8     6.418913006782532E-1   2.811878323554993E-1  -1.600069925189018E-2   5.570481996983290E-3  -1.598373241722584E-2   5.375994369387627E-3  -9.489925503730774E-1   1.923179626464844E-1  
 6.720720720720720E8     6.403045654296875E-1   2.547699213027954E-1  -1.580022834241390E-2   5.956409964710474E-3  -1.574712991714478E-2   5.859460216015577E-3  -9.462835192680359E-1   2.016608417034149E-1  
 6.744744744744744E8     6.374593377113342E-1   2.308769822120667E-1  -1.554804481565952E-2   6.205818615853787E-3  -1.553775556385517E-2   6.207632366567850E-3  -9.435864090919495E-1   2.123078405857086E-1  
 6.768768768768768E8     6.330703496932983E-1   2.076898515224457E-1  -1.530713774263859E-2   6.194141227751970E-3  -1.535217929631472E-2   6.122713442891836E-3  -9.409739971160889E-1   2.225562036037445E-1  
 6.792792792792792E8     6.270103454589844E-1   1.862248480319977E-1  -1.541545148938894E-2   5.830401554703713E-3  -1.532600168138742E-2   5.754043813794851E-3  -9.379583001136780E-1   2.325735539197922E-1  
 6.816816816816816E8     6.204110383987427E-1   1.672775894403458E-1  -1.576248556375504E-2   5.140067078173161E-3  -1.573150977492333E-2   5.099433939903975E-3  -9.346585869789124E-1   2.430254071950913E-1  
 6.840840840840840E8     6.141029000282288E-1   1.510677486658096E-1  -1.683618314564228E-2   4.275373183190823E-3  -1.678296178579330E-2   4.291965626180172E-3  -9.314177036285400E-1   2.536484003067017E-1  
 6.864864864864864E8     6.097323298454285E-1   1.379614323377609E-1  -1.867654174566269E-2   3.680827096104622E-3  -1.867021061480045E-2   3.558756085112691E-3  -9.272566437721252E-1   2.629534304141998E-1  
 6.888888888888888E8     6.089003086090088E-1   1.256385296583176E-1  -2.122431434690952E-2   3.654697444289923E-3  -2.127158641815186E-2   3.390669589862227E-3  -9.227110743522644E-1   2.729949951171875E-1  
 6.912912912912912E8     6.116455197334290E-1   1.124168187379837E-1  -2.423842996358872E-2   4.499351140111685E-3  -2.426622994244099E-2   4.318765364587307E-3  -9.184620976448059E-1   2.829569280147553E-1  
 6.936936936936936E8     6.176724433898926E-1   9.591688215732575E-2  -2.720758691430092E-2   6.497039925307035E-3  -2.725252509117127E-2   6.331333890557289E-3  -9.145805239677429E-1   2.926630377769470E-1  
 6.960960960960960E8     6.247864365577698E-1   7.420910149812698E-2  -2.974362298846245E-2   9.324940852820873E-3  -2.971493639051914E-2   9.214207530021668E-3  -9.104630351066589E-1   3.023142516613007E-1  
 6.984984984984984E8     6.306735873222351E-1   4.830196872353554E-2  -3.157992660999298E-2   1.270172186195850E-2  -3.141314163804054E-2   1.307354122400284E-2  -9.056107997894287E-1   3.157369196414948E-1  
 7.009009009009008E8     6.317296624183655E-1   1.805455982685089E-2  -3.260496631264687E-2   1.646512933075428E-2  -3.224012628197670E-2   1.705387607216835E-2  -9.008446335792542E-1   3.280636072158814E-1  
 7.033033033033032E8     6.275015473365784E-1  -1.394450291991234E-2  -3.280143812298775E-2   2.027532830834389E-2  -3.245149925351143E-2   2.076821774244309E-2  -8.963357806205750E-1   3.377097547054291E-1  
 7.057057057057056E8     6.186528801918030E-1  -4.590699076652527E-2  -3.251446038484573E-2   2.391017414629459E-2  -3.230087459087372E-2   2.410523407161236E-2  -8.933333754539490E-1   3.437174558639526E-1  
 7.081081081081080E8     6.055036187171936E-1  -7.765386253595352E-2  -3.170593455433846E-2   2.744843997061253E-2  -3.178159520030022E-2   2.726139873266220E-2  -8.899644613265991E-1   3.505994975566864E-1  
 7.105105105105104E8     5.893778800964356E-1  -1.061374172568321E-1  -3.066308796405792E-2   3.089589439332485E-2  -3.112944588065147E-2   3.033475205302239E-2  -8.864871859550476E-1   3.589025437831879E-1  
 7.129129129129129E8     5.708933472633362E-1  -1.311751604080200E-1  -2.930805459618568E-2   3.404903784394264E-2  -2.988661825656891E-2   3.345614299178124E-2  -8.825302124023438E-1   3.686294555664063E-1  
 7.153153153153153E8     5.516883134841919E-1  -1.534030288457871E-1  -2.796005830168724E-2   3.680621460080147E-2  -2.837334945797920E-2   3.641888126730919E-2  -8.771753907203674E-1   3.797988295555115E-1  
 7.177177177177178E8     5.317081809043884E-1  -1.748039722442627E-1  -2.644019387662411E-2   3.959365561604500E-2  -2.661346644163132E-2   3.933148086071014E-2  -8.710706233978272E-1   3.919682204723358E-1  
 7.201201201201202E8     5.104476213455200E-1  -1.958314925432205E-1  -2.467835508286953E-2   4.221285507082939E-2  -2.485295943915844E-2   4.195315018296242E-2  -8.652265667915344E-1   4.034427702426910E-1  
 7.225225225225226E8     4.875280559062958E-1  -2.145261466503143E-1  -2.283715456724167E-2   4.488276690244675E-2  -2.289628796279430E-2   4.471128433942795E-2  -8.586506843566895E-1   4.150772690773010E-1  
 7.249249249249250E8     4.624115526676178E-1  -2.314947098493576E-1  -2.043143287301064E-2   4.756353422999382E-2  -2.098102495074272E-2   4.708693549036980E-2  -8.534198403358460E-1   4.240329265594482E-1  
 7.273273273273274E8     4.372752010822296E-1  -2.454198151826859E-1  -1.788683980703354E-2   4.994083940982819E-2  -1.890959590673447E-2   4.936549067497253E-2  -8.480485677719116E-1   4.326692521572113E-1  
 7.297297297297298E8     4.129208624362946E-1  -2.565191984176636E-1  -1.546469330787659E-2   5.208794772624970E-2  -1.620431989431381E-2   5.163254216313362E-2  -8.425585627555847E-1   4.415564239025116E-1  
 7.321321321321322E8     3.895989954471588E-1  -2.653469741344452E-1  -1.324717514216900E-2   5.376422777771950E-2  -1.328093092888594E-2   5.358933657407761E-2  -8.365623950958252E-1   4.511320590972900E-1  
 7.345345345345346E8     3.656448721885681E-1  -2.730226814746857E-1  -1.062311604619026E-2   5.541619285941124E-2  -1.039998233318329E-2   5.526559799909592E-2  -8.303776383399963E-1   4.618543684482575E-1  
 7.369369369369370E8     3.408631384372711E-1  -2.797389626502991E-1  -8.093995973467827E-3   5.680119618773460E-2  -7.539472077041864E-3   5.670911073684692E-2  -8.239019513130188E-1   4.723043143749237E-1  
 7.393393393393394E8     3.163103461265564E-1  -2.847298383712769E-1  -5.443654954433441E-3   5.805088207125664E-2  -4.960837308317423E-3   5.797157064080238E-2  -8.170408606529236E-1   4.825484752655029E-1  
 7.417417417417418E8     2.928858101367950E-1  -2.880133390426636E-1  -2.738054608926177E-3   5.932206287980080E-2  -2.571637975051999E-3   5.912753194570541E-2  -8.107793331146240E-1   4.916729331016541E-1  
 7.441441441441442E8     2.706733644008637E-1  -2.906916141510010E-1  -9.547716763336211E-5   6.048372015357018E-2  -3.156379680149257E-4   6.031916663050652E-2  -8.043785691261292E-1   4.995138943195343E-1  
 7.465465465465466E8     2.490288913249970E-1  -2.917052805423737E-1   2.338328165933490E-3   6.189054623246193E-2   2.008150098845363E-3   6.171832606196404E-2  -7.972950935363770E-1   5.099785923957825E-1  
 7.489489489489490E8     2.266720682382584E-1  -2.923964262008667E-1   4.945471882820129E-3   6.327126175165176E-2   4.450106527656317E-3   6.320228427648544E-2  -7.909985184669495E-1   5.190372467041016E-1  
 7.513513513513514E8     2.038505375385284E-1  -2.919416427612305E-1   7.787090726196766E-3   6.470655649900436E-2   7.138158194720745E-3   6.472858041524887E-2  -7.847496867179871E-1   5.283844470977783E-1  
 7.537537537537538E8     1.808726787567139E-1  -2.902066707611084E-1   1.098334137350321E-2   6.610421836376190E-2   1.019581779837608E-2   6.622798740863800E-2  -7.779555916786194E-1   5.380458831787109E-1  
 7.561561561561562E8     1.596878767013550E-1  -2.865992188453674E-1   1.400639303028584E-2   6.752882897853851E-2   1.344257872551680E-2   6.745350360870361E-2  -7.701442241668701E-1   5.459558963775635E-1  
 7.585585585585586E8     1.382113397121429E-1  -2.811561524868012E-1   1.738328672945499E-2   6.899309903383255E-2   1.694703847169876E-2   6.866376101970673E-2  -7.600339651107788E-1   5.560292601585388E-1  
 7.609609609609610E8     1.171310022473335E-1  -2.745762765407562E-1   2.106378041207790E-2   7.053383439779282E-2   2.055061236023903E-2   7.007507234811783E-2  -7.504722476005554E-1   5.659926533699036E-1  
 7.633633633633634E8     9.757544845342636E-2  -2.661980986595154E-1   2.523038908839226E-2   7.194699347019196E-2   2.457541413605213E-2   7.155431061983109E-2  -7.417913079261780E-1   5.745892524719238E-1  
 7.657657657657658E8     8.056945353746414E-2  -2.571088075637817E-1   2.986101433634758E-2   7.312901318073273E-2   2.911677770316601E-2   7.287680357694626E-2  -7.345195412635803E-1   5.817295312881470E-1  
 7.681681681681682E8     6.620988994836807E-2  -2.468009591102600E-1   3.467525914311409E-2   7.383158057928085E-2   3.413566201925278E-2   7.411429286003113E-2  -7.289154529571533E-1   5.876803994178772E-1  
 7.705705705705706E8     5.460366979241371E-2  -2.341288179159164E-1   4.015111550688744E-2   7.404506951570511E-2   3.962712362408638E-2   7.447459548711777E-2  -7.225837111473084E-1   5.938469171524048E-1  
 7.729729729729730E8     4.552699252963066E-2  -2.240461409091950E-1   4.578832164406776E-2   7.308580726385117E-2   4.534941539168358E-2   7.410668581724167E-2  -7.165614366531372E-1   6.027024984359741E-1  
 7.753753753753754E8     3.680633008480072E-2  -2.165207117795944E-1   5.104361474514008E-2   7.163417339324951E-2   5.075607821345329E-2   7.269363105297089E-2  -7.081209421157837E-1   6.131973266601563E-1  
 7.777777777777778E8     2.803195454180241E-2  -2.104039937257767E-1   5.584586784243584E-2   6.993074715137482E-2   5.548326298594475E-2   7.062358409166336E-2  -6.971943378448486E-1   6.219863891601563E-1  
 7.801801801801802E8     1.899483241140842E-2  -2.049458175897598E-1   6.037162989377976E-2   6.831549853086472E-2   5.977388098835945E-2   6.833963841199875E-2  -6.844190955162048E-1   6.284821033477783E-1  
 7.825825825825826E8     9.013826958835125E-3  -1.986041069030762E-1   6.459721177816391E-2   6.622672080993652E-2   6.423621624708176E-2   6.617479771375656E-2  -6.721920967102051E-1   6.366542577743530E-1  
 7.849849849849850E8    -1.162890461273491E-3  -1.933984905481339E-1   6.885004788637161E-2   6.406762450933456E-2   6.815519928932190E-2   6.411232799291611E-2  -6.621955633163452E-1   6.414887309074402E-1  
 7.873873873873874E8    -1.260348875075579E-2  -1.885565668344498E-1   7.297763228416443E-2   6.217011064291000E-2   7.189711928367615E-2   6.217898428440094E-2  -6.539819240570068E-1   6.464226841926575E-1  
 7.897897897897898E8    -2.526194974780083E-2  -1.817371547222138E-1   7.726581394672394E-2   6.044363602995873E-2   7.634577900171280E-2   6.053897738456726E-2  -6.466234326362610E-1   6.536363959312439E-1  
 7.921921921921922E8    -3.707195073366165E-2  -1.728170514106751E-1   8.194229006767273E-2   5.815149098634720E-2   8.153863996267319E-2   5.850635841488838E-2  -6.395263075828552E-1   6.624758839607239E-1  
 7.945945945945946E8    -4.721912369132042E-2  -1.615891903638840E-1   8.688328415155411E-2   5.526459589600563E-2   8.622910827398300E-2   5.590373650193214E-2  -6.288074851036072E-1   6.690710186958313E-1  
 7.969969969969970E8    -5.548337101936340E-2  -1.504207402467728E-1   9.154996275901794E-2   5.193291231989861E-2   9.099940210580826E-2   5.282565578818321E-2  -6.180031299591065E-1   6.766866445541382E-1  
 7.993993993993994E8    -6.275451183319092E-2  -1.396237909793854E-1   9.610752761363983E-2   4.852761700749397E-2   9.573643654584885E-2   4.922138527035713E-2  -6.061784029006958E-1   6.845300197601318E-1  
 8.018018018018018E8    -6.912607699632645E-2  -1.282785385847092E-1   1.006948873400688E-1   4.467805847525597E-2   1.004901081323624E-1   4.502291232347488E-2  -5.937557220458984E-1   6.918710470199585E-1  
 8.042042042042042E8    -7.323017716407776E-2  -1.168698668479919E-1   1.055332794785500E-1   4.024098441004753E-2   1.052435189485550E-1   4.032560810446739E-2  -5.828539729118347E-1   6.978229880332947E-1  
 8.066066066066066E8    -7.533925026655197E-2  -1.055762767791748E-1   1.097808703780174E-1   3.465741872787476E-2   1.095892637968063E-1   3.488564863801003E-2  -5.705894231796265E-1   7.057373523712158E-1  
 8.090090090090090E8    -7.610511779785156E-2  -9.644068032503128E-2   1.133091300725937E-1   2.867732010781765E-2   1.130428686738014E-1   2.894454821944237E-2  -5.578668117523193E-1   7.124556303024292E-1  
 8.114114114114114E8    -7.656447589397430E-2  -9.008897840976715E-2   1.161037981510162E-1   2.267248742282391E-2   1.158457100391388E-1   2.295517176389694E-2  -5.451700687408447E-1   7.185537815093994E-1  
 8.138138138138138E8    -7.818448543548584E-2  -8.529298007488251E-2   1.185243353247643E-1   1.686300709843636E-2   1.182558313012123E-1   1.716394163668156E-2  -5.328352451324463E-1   7.243199348449707E-1  
 8.162162162162162E8    -8.069916814565659E-2  -8.102662116289139E-2   1.206606701016426E-1   1.104036625474691E-2   1.203984171152115E-1   1.142638642340899E-2  -5.204771757125855E-1   7.300454378128052E-1  
 8.186186186186186E8    -8.405226469039917E-2  -7.611745595932007E-2   1.225090399384499E-1   5.186418071389198E-3   1.221866384148598E-1   5.560061894357204E-3  -5.073271989822388E-1   7.360712885856628E-1  
 8.210210210210210E8    -8.787228912115097E-2  -7.154854387044907E-2   1.237625330686569E-1  -8.189735817722976E-4   1.235059201717377E-1  -3.349463222548366E-4  -4.931705594062805E-1   7.418375015258789E-1  
 8.234234234234234E8    -9.178794175386429E-2  -6.722155213356018E-2   1.248568370938301E-1  -6.685155443847179E-3   1.246111616492271E-1  -6.194308865815401E-3  -4.791030287742615E-1   7.472962737083435E-1  
