#  HZ   S   RI   R     50.00 
! Rohde & Schwarz ZVB8 2Ports - Version 2.81 - 1145.1010k08 SN: 100113
! Date: 2016-05-17 22:37:50
! Measurements: S11 S21 S12 S22 
! 
 6.000000000000000E8    -7.838190793991089E-1   5.086014866828919E-1  -1.376365427859128E-3  -2.413368318229914E-3  -1.448948285542429E-3  -2.451158594340086E-3  -9.329017400741577E-1   2.655771672725678E-1  
 6.024024024024024E8    -7.743571400642395E-1   5.196217894554138E-1  -1.492665498517454E-3  -2.498978981748223E-3  -1.411786535754800E-3  -2.470121718943119E-3  -9.287821650505066E-1   2.771442234516144E-1  
 6.048048048048048E8    -7.643079161643982E-1   5.308329463005066E-1  -1.480739563703537E-3  -2.525889081880450E-3  -1.430065953172743E-3  -2.605563960969448E-3  -9.246318340301514E-1   2.886884212493897E-1  
 6.072072072072072E8    -7.535269260406494E-1   5.429974198341370E-1  -1.559233525767922E-3  -2.622921252623200E-3  -1.514067174866796E-3  -2.573626348748803E-3  -9.204208850860596E-1   2.997837364673615E-1  
 6.096096096096096E8    -7.420373558998108E-1   5.549912452697754E-1  -1.511870184913278E-3  -2.716673305258155E-3  -1.519995857961476E-3  -2.673654118552804E-3  -9.161171317100525E-1   3.109468817710877E-1  
 6.120120120120120E8    -7.327434420585632E-1   5.642992258071899E-1  -1.432386343367398E-3  -2.861612010747194E-3  -1.370928250253201E-3  -2.910201903432608E-3  -9.122242331504822E-1   3.197039663791657E-1  
 6.144144144144144E8    -7.224208116531372E-1   5.745683312416077E-1  -1.405917690135539E-3  -3.060956485569477E-3  -1.269286032766104E-3  -3.049314022064209E-3  -9.084264039993286E-1   3.300889134407044E-1  
 6.168168168168168E8    -7.112994790077210E-1   5.850371122360230E-1  -1.242085127159953E-3  -3.249162575230002E-3  -1.208289293572307E-3  -3.337283385917544E-3  -9.037566184997559E-1   3.409515321254730E-1  
 6.192192192192192E8    -6.997607350349426E-1   5.946881771087647E-1  -1.089598517864943E-3  -3.630819264799357E-3  -1.125708338804543E-3  -3.679111367091537E-3  -8.989894986152649E-1   3.515833020210266E-1  
 6.216216216216216E8    -6.880137920379639E-1   6.044124364852905E-1  -1.098806620575488E-3  -4.102453589439392E-3  -1.061873626895249E-3  -4.191747400909662E-3  -8.937350511550903E-1   3.622291982173920E-1  
 6.240240240240240E8    -6.759687066078186E-1   6.134541034698486E-1  -1.113229896873236E-3  -4.807463847100735E-3  -1.034269924275577E-3  -4.857869818806648E-3  -8.884105086326599E-1   3.728332817554474E-1  
 6.264264264264264E8    -6.646232008934021E-1   6.220550537109375E-1  -1.290125190280378E-3  -5.741463974118233E-3  -1.228541019372642E-3  -5.628598388284445E-3  -8.828673958778381E-1   3.853736221790314E-1  
 6.288288288288288E8    -6.536110639572144E-1   6.304168701171875E-1  -1.756590208970010E-3  -6.606914103031158E-3  -1.685086521320045E-3  -6.631901953369379E-3  -8.770961761474609E-1   3.963065445423126E-1  
 6.312312312312312E8    -6.436449289321899E-1   6.388224363327026E-1  -2.472610212862492E-3  -7.486736867576838E-3  -2.416415372863412E-3  -7.478341925889254E-3  -8.713914155960083E-1   4.064721465110779E-1  
 6.336336336336336E8    -6.339913010597229E-1   6.475809216499329E-1  -3.496532561257482E-3  -8.245209231972694E-3  -3.344648052006960E-3  -8.217096328735352E-3  -8.659983277320862E-1   4.156525731086731E-1  
 6.360360360360360E8    -6.233401894569397E-1   6.573295593261719E-1  -4.705216269940138E-3  -8.756153285503388E-3  -4.665927961468697E-3  -8.889550343155861E-3  -8.605449199676514E-1   4.241080582141876E-1  
 6.384384384384384E8    -6.119363903999329E-1   6.670461297035217E-1  -6.038593593984842E-3  -9.135676547884941E-3  -6.019769702106714E-3  -9.134581312537193E-3  -8.553223609924316E-1   4.341215491294861E-1  
 6.408408408408408E8    -5.994736552238464E-1   6.770886182785034E-1  -7.411609869450331E-3  -9.145114570856094E-3  -7.317882031202316E-3  -9.176122955977917E-3  -8.493895530700684E-1   4.444554746150971E-1  
 6.432432432432432E8    -5.859771370887756E-1   6.870789527893066E-1  -8.668074384331703E-3  -9.012605063617230E-3  -8.596537634730339E-3  -8.963031694293022E-3  -8.428959846496582E-1   4.544068574905396E-1  
 6.456456456456456E8    -5.717435479164124E-1   6.963303089141846E-1  -9.875818155705929E-3  -8.772090077400208E-3  -9.845774620771408E-3  -8.741655386984348E-3  -8.363320231437683E-1   4.638052880764008E-1  
 6.480480480480480E8    -5.565291047096252E-1   7.052463293075562E-1  -1.092312671244144E-2  -8.301191031932831E-3  -1.088113524019718E-2  -8.319055661559105E-3  -8.296394944190979E-1   4.734213948249817E-1  
 6.504504504504504E8    -5.402278900146484E-1   7.151541113853455E-1  -1.189839746803045E-2  -7.820566184818745E-3  -1.187156885862351E-2  -7.846293970942497E-3  -8.190627694129944E-1   4.838728308677673E-1  
 6.528528528528528E8    -5.232480168342590E-1   7.236449122428894E-1  -1.285582873970270E-2  -7.391049992293119E-3  -1.286947354674339E-2  -7.362423930317164E-3  -8.091403841972351E-1   4.962888658046722E-1  
 6.552552552552552E8    -5.060874223709106E-1   7.313991785049439E-1  -1.383049320429564E-2  -6.973681505769491E-3  -1.379208359867334E-2  -6.962864659726620E-3  -8.019809722900391E-1   5.089697241783142E-1  
 6.576576576576576E8    -4.876331388950348E-1   7.384573817253113E-1  -1.479253172874451E-2  -6.491541862487793E-3  -1.474686712026596E-2  -6.594652310013771E-3  -7.972505688667297E-1   5.191441774368286E-1  
 6.600600600600600E8    -4.672060608863831E-1   7.448604702949524E-1  -1.580541394650936E-2  -6.025742739439011E-3  -1.574197784066200E-2  -6.073057651519775E-3  -7.910955548286438E-1   5.260546207427979E-1  
 6.624624624624624E8    -4.478434622287750E-1   7.510722279548645E-1  -1.689201593399048E-2  -5.413897801190615E-3  -1.682753860950470E-2  -5.474007688462734E-3  -7.823500037193298E-1   5.368759036064148E-1  
 6.648648648648648E8    -4.276288449764252E-1   7.561021447181702E-1  -1.794320717453957E-2  -4.845218732953072E-3  -1.785887964069843E-2  -4.922649823129177E-3  -7.734779715538025E-1   5.470870137214661E-1  
 6.672672672672672E8    -4.080240726470947E-1   7.600820660591126E-1  -1.902607828378677E-2  -4.100579768419266E-3  -1.903543062508106E-2  -4.192437045276165E-3  -7.645658850669861E-1   5.572998523712158E-1  
 6.696696696696696E8    -3.875353932380676E-1   7.634236812591553E-1  -2.017726376652718E-2  -3.343360498547554E-3  -2.020182088017464E-2  -3.443384077399969E-3  -7.553558349609375E-1   5.671072602272034E-1  
 6.720720720720720E8    -3.649434447288513E-1   7.662357091903687E-1  -2.139171957969666E-2  -2.474696142598987E-3  -2.139652520418167E-2  -2.553991740569472E-3  -7.462769150733948E-1   5.768978595733643E-1  
 6.744744744744744E8    -3.421036005020142E-1   7.675580382347107E-1  -2.257512882351875E-2  -1.432601711712778E-3  -2.253973297774792E-2  -1.458189915865660E-3  -7.352319359779358E-1   5.876075029373169E-1  
 6.768768768768768E8    -3.186083137989044E-1   7.678283452987671E-1  -2.371309511363506E-2  -1.801856997190043E-4  -2.361516468226910E-2  -2.513952204026282E-4  -7.242291569709778E-1   5.979671478271484E-1  
 6.792792792792792E8    -2.948881983757019E-1   7.664049863815308E-1  -2.471316047012806E-2   1.119910855777562E-3  -2.464379370212555E-2   1.039440277963877E-3  -7.127122879028320E-1   6.079000830650330E-1  
 6.816816816816816E8    -2.701261639595032E-1   7.636765241622925E-1  -2.568428404629231E-2   2.444650977849960E-3  -2.564247511327267E-2   2.316596452146769E-3  -7.010390162467957E-1   6.184293627738953E-1  
 6.840840840840840E8    -2.453074902296066E-1   7.596444487571716E-1  -2.669206261634827E-2   3.709219628944993E-3  -2.660308219492436E-2   3.725097514688969E-3  -6.887938380241394E-1   6.286553144454956E-1  
 6.864864864864864E8    -2.204288542270660E-1   7.547889947891235E-1  -2.758920192718506E-2   5.150351207703352E-3  -2.764311060309410E-2   5.085243843495846E-3  -6.761016845703125E-1   6.382527351379395E-1  
 6.888888888888888E8    -1.944951415061951E-1   7.478134036064148E-1  -2.876992337405682E-2   6.758178118616343E-3  -2.877696231007576E-2   6.504161283373833E-3  -6.622222661972046E-1   6.485383510589600E-1  
 6.912912912912912E8    -1.689071953296661E-1   7.383221983909607E-1  -3.011244349181652E-2   8.573490194976330E-3  -3.011464886367321E-2   8.366264402866364E-3  -6.481077671051025E-1   6.588498353958130E-1  
 6.936936936936936E8    -1.437210738658905E-1   7.265405654907227E-1  -3.115497343242168E-2   1.080630905926228E-2  -3.109954297542572E-2   1.049049571156502E-2  -6.335688829421997E-1   6.688204407691956E-1  
 6.960960960960960E8    -1.184052601456642E-1   7.124572992324829E-1  -3.199499100446701E-2   1.294498704373837E-2  -3.198159113526344E-2   1.271959953010082E-2  -6.184160709381104E-1   6.789046525955200E-1  
 6.984984984984984E8    -9.566166996955872E-2   6.954493522644043E-1  -3.283403813838959E-2   1.520416233688593E-2  -3.257839381694794E-2   1.539612561464310E-2  -5.995675921440125E-1   6.908643245697022E-1  
 7.009009009009008E8    -7.437331229448319E-2   6.766865849494934E-1  -3.337447345256805E-2   1.763625815510750E-2  -3.297098726034164E-2   1.811091974377632E-2  -5.807728171348572E-1   7.012809514999390E-1  
 7.033033033033032E8    -5.447428300976753E-2   6.569505929946899E-1  -3.345371782779694E-2   1.982873119413853E-2  -3.317193314433098E-2   2.044878900051117E-2  -5.633900761604309E-1   7.096553444862366E-1  
 7.057057057057056E8    -3.499998152256012E-2   6.342381834983826E-1  -3.374436497688294E-2   2.177691832184792E-2  -3.357001021504402E-2   2.228636667132378E-2  -5.479344129562378E-1   7.153820991516113E-1  
 7.081081081081080E8    -1.561604160815477E-2   6.068595647811890E-1  -3.419608250260353E-2   2.395160309970379E-2  -3.433509543538094E-2   2.390346862375736E-2  -5.312293171882629E-1   7.213402390480042E-1  
 7.105105105105104E8    -4.006396629847586E-4   5.769358873367310E-1  -3.486153855919838E-2   2.638649940490723E-2  -3.536247834563255E-2   2.560989744961262E-2  -5.129377245903015E-1   7.280219793319702E-1  
 7.129129129129129E8     8.467258885502815E-3   5.442645549774170E-1  -3.577746450901032E-2   2.871808782219887E-2  -3.636511787772179E-2   2.790619805455208E-2  -4.919127225875855E-1   7.343280315399170E-1  
 7.153153153153153E8     1.007602084428072E-2   5.125858783721924E-1  -3.699300438165665E-2   3.083654120564461E-2  -3.738974779844284E-2   3.013345226645470E-2  -4.681602120399475E-1   7.401835918426514E-1  
 7.177177177177178E8     7.438162807375193E-3   4.838917553424835E-1  -3.902490809559822E-2   3.269921243190765E-2  -3.917267918586731E-2   3.239276260137558E-2  -4.421204328536987E-1   7.450155019760132E-1  
 7.201201201201202E8     1.814227318391204E-3   4.594404399394989E-1  -4.232558235526085E-2   3.521967306733131E-2  -4.248157143592835E-2   3.503261879086494E-2  -4.156773388385773E-1   7.475916147232056E-1  
 7.225225225225226E8    -5.310595966875553E-3   4.406819343566895E-1  -4.744242131710053E-2   3.915686532855034E-2  -4.739117249846458E-2   3.912384435534477E-2  -3.876349329948425E-1   7.481276988983154E-1  
 7.249249249249250E8    -9.483373723924160E-3   4.262696206569672E-1  -5.358802899718285E-2   4.645136743783951E-2  -5.403627455234528E-2   4.599264264106751E-2  -3.623716533184052E-1   7.440371513366699E-1  
 7.273273273273274E8    -8.904682472348213E-3   4.110783934593201E-1  -5.909489467740059E-2   5.840462818741798E-2  -6.010329723358154E-2   5.762851238250732E-2  -3.389264941215515E-1   7.383270263671875E-1  
 7.297297297297298E8    -6.444721948355436E-3   3.903233706951141E-1  -6.150087714195252E-2   7.435501366853714E-2  -6.268022209405899E-2   7.366808503866196E-2  -3.168613910675049E-1   7.317011952400208E-1  
 7.321321321321322E8    -6.158536300063133E-3   3.631301522254944E-1  -5.923008918762207E-2   9.232209622859955E-2  -5.928025767207146E-2   9.231481701135635E-2  -2.960713505744934E-1   7.255919575691223E-1  
 7.345345345345346E8    -1.218589674681425E-2   3.332263231277466E-1  -5.080681294202805E-2   1.100695580244064E-1  -5.036719143390656E-2   1.102767437696457E-1  -2.764184176921845E-1   7.206467390060425E-1  
 7.369369369369370E8    -2.455244772136211E-2   3.036614954471588E-1  -3.807483240962029E-2   1.253608465194702E-1  -3.732492774724960E-2   1.252369135618210E-1  -2.555298209190369E-1   7.169463038444519E-1  
 7.393393393393394E8    -4.366681352257729E-2   2.747057676315308E-1  -2.197549678385258E-2   1.386322528123856E-1  -2.137868478894234E-2   1.384418904781342E-1  -2.331891655921936E-1   7.129086256027222E-1  
 7.417417417417418E8    -6.832594424486160E-2   2.509773671627045E-1  -2.274319529533386E-3   1.484485864639282E-1  -2.475601853802800E-3   1.481307446956635E-1  -2.092966735363007E-1   7.076036334037781E-1  
 7.441441441441442E8    -9.327528625726700E-2   2.332962304353714E-1   1.861081086099148E-2   1.537979394197464E-1   1.768443733453751E-2   1.536645293235779E-1  -1.844696849584580E-1   7.003762125968933E-1  
 7.465465465465466E8    -1.197749227285385E-1   2.210594862699509E-1   3.856841847300530E-2   1.551607996225357E-1   3.830713406205177E-2   1.554298996925354E-1  -1.569510251283646E-1   6.929496526718140E-1  
 7.489489489489490E8    -1.479558497667313E-1   2.111608684062958E-1   5.792900547385216E-2   1.537541002035141E-1   5.808301270008087E-2   1.543905735015869E-1  -1.297689527273178E-1   6.834188699722290E-1  
 7.513513513513514E8    -1.774627864360809E-1   2.048110514879227E-1   7.724500447511673E-2   1.498216539621353E-1   7.660891860723496E-2   1.507652848958969E-1  -1.021629869937897E-1   6.724047660827637E-1  
 7.537537537537538E8    -2.060510665178299E-1   2.027415335178375E-1   9.618570655584335E-2   1.442026644945145E-1   9.478520601987839E-2   1.457260251045227E-1  -7.173575460910797E-2   6.581698060035706E-1  
 7.561561561561562E8    -2.326054275035858E-1   2.049462497234345E-1   1.145735532045364E-1   1.367639154195786E-1   1.132872849702835E-1   1.376666426658630E-1  -3.884651884436607E-2   6.392273902893066E-1  
 7.585585585585586E8    -2.574400901794434E-1   2.115386426448822E-1   1.321254074573517E-1   1.268232315778732E-1   1.309184134006500E-1   1.273261457681656E-1  -3.017516341060400E-3   6.171150803565979E-1  
 7.609609609609610E8    -2.804643213748932E-1   2.197391390800476E-1   1.492398977279663E-1   1.153173595666885E-1   1.476074755191803E-1   1.155875101685524E-1   3.190710395574570E-2   5.890978574752808E-1  
 7.633633633633634E8    -3.012133538722992E-1   2.288904935121536E-1   1.655334532260895E-1   1.014533340930939E-1   1.641798168420792E-1   1.015872061252594E-1   6.431933492422104E-2   5.553480386734009E-1  
 7.657657657657658E8    -3.200313746929169E-1   2.381146997213364E-1   1.804723888635635E-1   8.452354371547699E-2   1.795222014188767E-1   8.465199172496796E-2   9.378898143768311E-2   5.158806443214417E-1  
 7.681681681681682E8    -3.394536375999451E-1   2.493180334568024E-1   1.922754794359207E-1   6.526149064302445E-2   1.927560865879059E-1   6.505654752254486E-2   1.202645152807236E-1   4.693750441074371E-1  
 7.705705705705706E8    -3.582950830459595E-1   2.652219533920288E-1   2.012895047664642E-1   4.413457214832306E-2   2.018545418977737E-1   4.414953291416168E-2   1.423462629318237E-1   4.190663397312164E-1  
 7.729729729729730E8    -3.730035126209259E-1   2.829697430133820E-1   2.076423913240433E-1   2.187205478549004E-2   2.090003639459610E-1   2.326902374625206E-2   1.601560562849045E-1   3.659235239028931E-1  
 7.753753753753754E8    -3.841474652290344E-1   3.002278208732605E-1   2.120326608419418E-1  -1.677375403232873E-3   2.137906253337860E-1   1.169901734101586E-4   1.721748560667038E-1   3.049048781394959E-1  
 7.777777777777778E8    -3.924863338470459E-1   3.166317343711853E-1   2.134190052747726E-1  -2.656649611890316E-2   2.147504389286041E-1  -2.489970065653324E-2   1.749935746192932E-1   2.380703836679459E-1  
 7.801801801801802E8    -3.982813954353333E-1   3.308911323547363E-1   2.114502191543579E-1  -5.219421163201332E-2   2.115153372287750E-1  -4.956524446606636E-2   1.681642532348633E-1   1.716318279504776E-1  
 7.825825825825826E8    -4.026503264904022E-1   3.459218740463257E-1   2.044379711151123E-1  -7.808753103017807E-2   2.049958109855652E-1  -7.593654841184616E-2   1.504504382610321E-1   1.029683873057365E-1  
 7.849849849849850E8    -4.056324362754822E-1   3.587283492088318E-1   1.934273391962051E-1  -1.022472530603409E-1   1.940548121929169E-1  -1.000717505812645E-1   1.207910180091858E-1   3.741363063454628E-2  
 7.873873873873874E8    -4.100787043571472E-1   3.693927228450775E-1   1.791332811117172E-1  -1.234873309731484E-1   1.793164014816284E-1  -1.213441938161850E-1   8.108959347009659E-2  -2.284657955169678E-2  
 7.897897897897898E8    -4.172983467578888E-1   3.809745907783508E-1   1.626900881528854E-1  -1.420358866453171E-1   1.618369668722153E-1  -1.407337635755539E-1   3.185907378792763E-2  -7.685211300849915E-2  
 7.921921921921922E8    -4.248851835727692E-1   3.974074721336365E-1   1.427835673093796E-1  -1.579465568065643E-1   1.427230685949326E-1  -1.576843261718750E-1  -2.429373562335968E-2  -1.219803020358086E-1  
 7.945945945945946E8    -4.318530559539795E-1   4.155183434486389E-1   1.207520291209221E-1  -1.701849848031998E-1   1.207874193787575E-1  -1.694741696119309E-1  -8.432800322771072E-2  -1.573007553815842E-1  
 7.969969969969970E8    -4.356276988983154E-1   4.341492950916290E-1   9.803502261638641E-2  -1.779767572879791E-1   9.834438562393189E-2  -1.775753200054169E-1  -1.479015648365021E-1  -1.836790740489960E-1  
 7.993993993993994E8    -4.372691512107849E-1   4.520908594131470E-1   7.483533769845963E-2  -1.818632185459137E-1   7.580008357763290E-2  -1.815622448921204E-1  -2.109816074371338E-1  -1.996410489082336E-1  
 8.018018018018018E8    -4.372540414333344E-1   4.691427946090698E-1   5.287784337997437E-2  -1.815789341926575E-1   5.386108905076981E-2  -1.816478520631790E-1  -2.739510536193848E-1  -2.061270326375961E-1  
 8.042042042042042E8    -4.364231526851654E-1   4.858451783657074E-1   3.341111540794373E-2  -1.787946373224258E-1   3.452219814062119E-2  -1.788503974676132E-1  -3.358031809329987E-1  -2.048470973968506E-1  
 8.066066066066066E8    -4.329488277435303E-1   5.026226639747620E-1   1.532339025288820E-2  -1.743504703044891E-1   1.611320301890373E-2  -1.744296103715897E-1  -3.962787687778473E-1  -1.939032673835754E-1  
 8.090090090090090E8    -4.289672970771790E-1   5.192068219184876E-1  -4.108433495275676E-4  -1.679845750331879E-1  -3.233239986002445E-4  -1.680074781179428E-1  -4.507225751876831E-1  -1.768417060375214E-1  
 8.114114114114114E8    -4.239445328712463E-1   5.351224541664124E-1  -1.438904087990522E-2  -1.604216098785400E-1  -1.439329981803894E-2  -1.604116261005402E-1  -4.998615384101868E-1  -1.550104022026062E-1  
 8.138138138138138E8    -4.185715019702911E-1   5.494586825370789E-1  -2.692890167236328E-2  -1.522728353738785E-1  -2.693867869675160E-2  -1.522701084613800E-1  -5.427575111389160E-1  -1.291707158088684E-1  
 8.162162162162162E8    -4.137290418148041E-1   5.627479553222656E-1  -3.800861164927483E-2  -1.430807709693909E-1  -3.795778751373291E-2  -1.431346684694290E-1  -5.802453160285950E-1  -1.025637686252594E-1  
 8.186186186186186E8    -4.096027612686157E-1   5.763180255889893E-1  -4.698302596807480E-2  -1.333156228065491E-1  -4.690104350447655E-2  -1.334310024976730E-1  -6.146250963211060E-1  -7.405650615692139E-2  
 8.210210210210210E8    -4.035787582397461E-1   5.901058912277222E-1  -5.479636415839195E-2  -1.230814531445503E-1  -5.473088845610619E-2  -1.233028843998909E-1  -6.443908214569092E-1  -4.306308180093765E-2  
 8.234234234234234E8    -3.970911204814911E-1   6.015138626098633E-1  -6.074321269989014E-2  -1.126561835408211E-1  -6.061347573995590E-2  -1.128360927104950E-1  -6.691431403160095E-1  -1.256493106484413E-2  
