#  HZ   S   RI   R     50.00 
! Rohde & Schwarz ZVB8 2Ports - Version 2.81 - 1145.1010k08 SN: 100113
! Date: 2016-05-17 22:36:38
! Measurements: S11 S21 S12 S22 
! 
 6.000000000000000E8    -8.220696449279785E-1   4.733492434024811E-1  -3.590368432924151E-4  -1.184929045848548E-3  -3.801962884608656E-4  -1.157071790657938E-3  -9.498096108436585E-1   2.264155596494675E-1  
 6.024024024024024E8    -8.151186108589172E-1   4.837453663349152E-1  -3.903226170223206E-4  -1.146030495874584E-3  -4.077212361153215E-4  -1.167832058854401E-3  -9.467045068740845E-1   2.368922531604767E-1  
 6.048048048048048E8    -8.076449632644653E-1   4.944981634616852E-1  -4.175977664999664E-4  -1.194418407976627E-3  -4.228741454426199E-4  -1.156649435870349E-3  -9.438009858131409E-1   2.470684647560120E-1  
 6.072072072072072E8    -7.994340658187866E-1   5.063715577125549E-1  -4.058268677908927E-4  -1.204107771627605E-3  -4.283486050553620E-4  -1.221330836415291E-3  -9.405884146690369E-1   2.567853033542633E-1  
 6.096096096096096E8    -7.907494306564331E-1   5.179530978202820E-1  -3.589182451833040E-4  -1.251264242455363E-3  -3.333163040224463E-4  -1.249062828719616E-3  -9.377506375312805E-1   2.669566273689270E-1  
 6.120120120120120E8    -7.844916582107544E-1   5.270965099334717E-1  -3.199928032699972E-4  -1.258809119462967E-3  -2.666621003299952E-4  -1.198861631564796E-3  -9.350091218948364E-1   2.745448350906372E-1  
 6.144144144144144E8    -7.771635055541992E-1   5.374636054039002E-1  -2.111330250045285E-4  -1.358664361760020E-3  -2.338585909456015E-4  -1.292216591536999E-3  -9.324021935462952E-1   2.834408879280090E-1  
 6.168168168168168E8    -7.688890695571899E-1   5.481263995170593E-1  -1.170281757367775E-4  -1.365697709843516E-3  -9.785347356228158E-5  -1.375338528305292E-3  -9.296702146530151E-1   2.927505671977997E-1  
 6.192192192192192E8    -7.606091499328613E-1   5.582467317581177E-1  -6.469983054557815E-5  -1.594045315869153E-3   6.015453436702956E-6  -1.508425688371062E-3  -9.263324737548828E-1   3.020439147949219E-1  
 6.216216216216216E8    -7.519547343254089E-1   5.682743191719055E-1   4.829096724279225E-5  -1.784217893145979E-3   6.238080823095515E-5  -1.710793818347156E-3  -9.232950806617737E-1   3.111897408962250E-1  
 6.240240240240240E8    -7.428843379020691E-1   5.780041813850403E-1   1.203267529490404E-4  -2.022546948865056E-3   9.504533227300271E-5  -1.973408507183194E-3  -9.192627072334290E-1   3.206130266189575E-1  
 6.264264264264264E8    -7.342410683631897E-1   5.879399776458740E-1   1.444281951989979E-4  -2.350554103031755E-3   1.478739577578381E-4  -2.390619367361069E-3  -9.157587885856628E-1   3.317094147205353E-1  
 6.288288288288288E8    -7.261001467704773E-1   5.968083143234253E-1   9.234772005584091E-5  -2.800378482788801E-3   7.656002708245069E-5  -2.847824245691299E-3  -9.120894074440002E-1   3.416926264762878E-1  
 6.312312312312312E8    -7.182484865188599E-1   6.055356264114380E-1  -1.674878731137142E-4  -3.253297880291939E-3  -1.151073811342940E-4  -3.135016886517406E-3  -9.080938100814819E-1   3.506227731704712E-1  
 6.336336336336336E8    -7.108629345893860E-1   6.144220232963562E-1  -5.204590852372348E-4  -3.538054879754782E-3  -4.361798055469990E-4  -3.549437271431088E-3  -9.046919345855713E-1   3.585264980792999E-1  
 6.360360360360360E8    -7.032681107521057E-1   6.235493421554565E-1  -8.641746244393289E-4  -3.828393761068583E-3  -8.455532952211797E-4  -3.846496576443315E-3  -9.013105034828186E-1   3.657879233360291E-1  
 6.384384384384384E8    -6.947949528694153E-1   6.324540972709656E-1  -1.345789758488536E-3  -3.991340752691031E-3  -1.349056488834322E-3  -3.971150610595942E-3  -8.980058431625366E-1   3.746752738952637E-1  
 6.408408408408408E8    -6.862914562225342E-1   6.416777372360230E-1  -1.766619272530079E-3  -4.059053957462311E-3  -1.757637946866453E-3  -4.029520321637392E-3  -8.946378827095032E-1   3.833388686180115E-1  
 6.432432432432432E8    -6.774978041648865E-1   6.508396267890930E-1  -2.237643348053098E-3  -4.107259679585695E-3  -2.182990545406938E-3  -4.023903980851173E-3  -8.905349373817444E-1   3.915871679782867E-1  
 6.456456456456456E8    -6.683166027069092E-1   6.593880653381348E-1  -2.653812989592552E-3  -4.020405933260918E-3  -2.638963516801596E-3  -4.015747457742691E-3  -8.862283229827881E-1   3.997757434844971E-1  
 6.480480480480480E8    -6.588572859764099E-1   6.680075526237488E-1  -2.956667682155967E-3  -3.852159250527620E-3  -2.975184936076403E-3  -3.893207758665085E-3  -8.821583986282349E-1   4.076932370662689E-1  
 6.504504504504504E8    -6.484035849571228E-1   6.777729392051697E-1  -3.246900858357549E-3  -3.746139118447900E-3  -3.210703376680613E-3  -3.788596484810114E-3  -8.743262290954590E-1   4.165885150432587E-1  
 6.528528528528528E8    -6.383112072944641E-1   6.873649954795837E-1  -3.468318609520793E-3  -3.688711673021317E-3  -3.476075362414122E-3  -3.620537463575602E-3  -8.673296570777893E-1   4.273546040058136E-1  
 6.552552552552552E8    -6.276485323905945E-1   6.961070299148560E-1  -3.710123943164945E-3  -3.538387129083276E-3  -3.689410397782922E-3  -3.540737088769674E-3  -8.631098866462708E-1   4.384900629520416E-1  
 6.576576576576576E8    -6.169872283935547E-1   7.040440440177918E-1  -3.950535785406828E-3  -3.463559783995152E-3  -3.903526579961181E-3  -3.506161039695144E-3  -8.614140152931213E-1   4.465111196041107E-1  
 6.600600600600600E8    -6.047074198722839E-1   7.125768661499023E-1  -4.194519016891718E-3  -3.405618481338024E-3  -4.218337126076222E-3  -3.388093318790197E-3  -8.589645028114319E-1   4.519222676753998E-1  
 6.624624624624624E8    -5.935049057006836E-1   7.209680080413818E-1  -4.435028880834580E-3  -3.237950615584850E-3  -4.402165301144123E-3  -3.303718753159046E-3  -8.540155291557312E-1   4.606627523899078E-1  
 6.648648648648648E8    -5.824034214019775E-1   7.291241288185120E-1  -4.649145063012838E-3  -3.126715542748570E-3  -4.617164842784405E-3  -3.183787455782294E-3  -8.489747047424316E-1   4.692723751068115E-1  
 6.672672672672672E8    -5.712974667549133E-1   7.368211150169373E-1  -4.878580570220947E-3  -2.992503112182021E-3  -4.827759228646755E-3  -3.064907854422927E-3  -8.439957499504089E-1   4.773094952106476E-1  
 6.696696696696696E8    -5.596155524253845E-1   7.445300817489624E-1  -5.075188819319010E-3  -2.941675484180450E-3  -5.103220697492361E-3  -2.969933673739433E-3  -8.392012119293213E-1   4.850817620754242E-1  
 6.720720720720720E8    -5.472404360771179E-1   7.521204352378845E-1  -5.294382106512785E-3  -2.858778927475214E-3  -5.224888678640127E-3  -2.869613235816360E-3  -8.345240950584412E-1   4.928380846977234E-1  
 6.744744744744744E8    -5.342514514923096E-1   7.593356966972351E-1  -5.454577971249819E-3  -2.728834282606840E-3  -5.476593039929867E-3  -2.735753543674946E-3  -8.286569714546204E-1   5.018633008003235E-1  
 6.768768768768768E8    -5.214360952377319E-1   7.663055062294006E-1  -5.665492266416550E-3  -2.543929265812039E-3  -5.692493170499802E-3  -2.584014553576708E-3  -8.229392170906067E-1   5.102339982986450E-1  
 6.792792792792792E8    -5.082241296768189E-1   7.729686498641968E-1  -5.845598876476288E-3  -2.436977112665772E-3  -5.831322167068720E-3  -2.460804767906666E-3  -8.171521425247192E-1   5.183618068695068E-1  
 6.816816816816816E8    -4.946340918540955E-1   7.793092727661133E-1  -6.027467548847199E-3  -2.292367164045572E-3  -6.030809134244919E-3  -2.335948171094060E-3  -8.112059831619263E-1   5.266823172569275E-1  
 6.840840840840840E8    -4.808579087257385E-1   7.854864001274109E-1  -6.191013380885124E-3  -2.256064675748348E-3  -6.142462603747845E-3  -2.213532105088234E-3  -8.056652545928955E-1   5.352236628532410E-1  
 6.864864864864864E8    -4.665434956550598E-1   7.917207479476929E-1  -6.347021088004112E-3  -2.112199552357197E-3  -6.325704511255026E-3  -2.071127993986011E-3  -7.991775870323181E-1   5.435116291046143E-1  
 6.888888888888888E8    -4.526231884956360E-1   7.979471683502197E-1  -6.586658302694559E-3  -2.030458766967058E-3  -6.542199291288853E-3  -2.024007262662053E-3  -7.925031781196594E-1   5.520560145378113E-1  
 6.912912912912912E8    -4.388262033462524E-1   8.042477965354919E-1  -6.826689001172781E-3  -1.858152681961656E-3  -6.762196309864521E-3  -1.955331768840551E-3  -7.859205007553101E-1   5.606975555419922E-1  
 6.936936936936936E8    -4.247280061244965E-1   8.099657297134399E-1  -6.970538292080164E-3  -1.768862479366362E-3  -6.901578512042761E-3  -1.738840132020414E-3  -7.797567844390869E-1   5.691485404968262E-1  
 6.960960960960960E8    -4.101882278919220E-1   8.157028555870056E-1  -7.046218961477280E-3  -1.532078022137284E-3  -7.090123370289803E-3  -1.648775185458362E-3  -7.734484672546387E-1   5.779244303703308E-1  
 6.984984984984984E8    -3.962971866130829E-1   8.207926750183106E-1  -7.279816549271345E-3  -1.514420029707253E-3  -7.186783012002707E-3  -1.482313964515925E-3  -7.643274068832398E-1   5.892601013183594E-1  
 7.009009009009008E8    -3.819042742252350E-1   8.252989053726196E-1  -7.257681805640459E-3  -1.492623821832240E-3  -7.292798720300198E-3  -1.361811184324324E-3  -7.559349536895752E-1   5.993234515190125E-1  
 7.033033033033032E8    -3.667449951171875E-1   8.289859294891357E-1  -7.414582185447216E-3  -1.429675146937370E-3  -7.416974753141403E-3  -1.363188261166215E-3  -7.490895390510559E-1   6.071121692657471E-1  
 7.057057057057056E8    -3.513137400150299E-1   8.318792581558228E-1  -7.432132493704557E-3  -1.464636763557792E-3  -7.485602051019669E-3  -1.407771371304989E-3  -7.444924116134644E-1   6.115837097167969E-1  
 7.081081081081080E8    -3.341508805751801E-1   8.345345258712769E-1  -7.628143765032291E-3  -1.514442730695009E-3  -7.593201007694006E-3  -1.554366201162338E-3  -7.396366596221924E-1   6.165130734443665E-1  
 7.105105105105104E8    -3.170077800750732E-1   8.377467989921570E-1  -7.735827937722206E-3  -1.611581305041909E-3  -7.663997821509838E-3  -1.706564216874540E-3  -7.339660525321960E-1   6.228879690170288E-1  
 7.129129129129129E8    -3.016549646854401E-1   8.395693898200989E-1  -7.906823419034481E-3  -1.868164283223450E-3  -7.841529324650765E-3  -2.011145930737257E-3  -7.272024750709534E-1   6.301608085632324E-1  
 7.153153153153153E8    -2.871227562427521E-1   8.403735756874085E-1  -8.048552088439465E-3  -2.193096792325378E-3  -8.073356933891773E-3  -2.314547542482615E-3  -7.188737392425537E-1   6.387727856636047E-1  
 7.177177177177178E8    -2.723745703697205E-1   8.407801985740662E-1  -8.351138792932034E-3  -2.741800155490637E-3  -8.385202847421169E-3  -2.817291766405106E-3  -7.097015380859375E-1   6.476345062255859E-1  
 7.201201201201202E8    -2.569024562835693E-1   8.414349555969238E-1  -8.789624087512493E-3  -3.401331836357713E-3  -8.831168524920940E-3  -3.374108579009771E-3  -7.006863355636597E-1   6.561844944953919E-1  
 7.225225225225226E8    -2.432778179645538E-1   8.418043255805969E-1  -9.614011272788048E-3  -4.307105205953121E-3  -9.571659378707409E-3  -4.232157021760941E-3  -6.907704472541809E-1   6.655068397521973E-1  
 7.249249249249250E8    -2.293248474597931E-1   8.429228663444519E-1  -1.102457009255886E-2  -5.077555775642395E-3  -1.094707474112511E-2  -5.096829030662775E-3  -6.828104853630066E-1   6.717026829719544E-1  
 7.273273273273274E8    -2.149956375360489E-1   8.446742892265320E-1  -1.298448443412781E-2  -5.474817007780075E-3  -1.282307412475348E-2  -5.715369246900082E-3  -6.745861768722534E-1   6.775629520416260E-1  
 7.297297297297298E8    -2.013621628284454E-1   8.464328646659851E-1  -1.507848221808672E-2  -5.338262766599655E-3  -1.500971987843514E-2  -5.559253040701151E-3  -6.665731072425842E-1   6.835556030273438E-1  
 7.321321321321322E8    -1.879958957433701E-1   8.480755686759949E-1  -1.721736229956150E-2  -4.729920998215675E-3  -1.716368459165096E-2  -4.693464376032352E-3  -6.583167910575867E-1   6.903341412544251E-1  
 7.345345345345346E8    -1.730739772319794E-1   8.494626283645630E-1  -1.909400708973408E-2  -3.663074690848589E-3  -1.908243633806706E-2  -3.494122531265020E-3  -6.504223346710205E-1   6.974290013313294E-1  
 7.369369369369370E8    -1.564891934394836E-1   8.502311706542969E-1  -2.067399024963379E-2  -2.298411214724183E-3  -2.061234414577484E-2  -2.050429349765182E-3  -6.418889164924622E-1   7.049065828323364E-1  
 7.393393393393394E8    -1.391574889421463E-1   8.500043749809265E-1  -2.205561101436615E-2  -7.483281078748405E-4  -2.202712930738926E-2  -5.555367679335177E-4  -6.338044404983521E-1   7.119643092155457E-1  
 7.417417417417418E8    -1.212541013956070E-1   8.485506176948547E-1  -2.317650802433491E-2   1.022757263854146E-3  -2.320943027734757E-2   1.102062524296343E-3  -6.259390115737915E-1   7.187510728836060E-1  
 7.441441441441442E8    -1.027291417121887E-1   8.460953235626221E-1  -2.413790486752987E-2   2.782228868454695E-3  -2.409234270453453E-2   2.699153730645776E-3  -6.184551119804382E-1   7.244166731834412E-1  
 7.465465465465466E8    -8.762297034263611E-2   8.435568809509277E-1  -2.482928521931171E-2   4.425841849297285E-3  -2.485539205372334E-2   4.363758955150843E-3  -6.087689995765686E-1   7.322267293930054E-1  
 7.489489489489490E8    -7.227642089128494E-2   8.404260873794556E-1  -2.546201646327972E-2   6.070514209568501E-3  -2.553707920014858E-2   5.930589511990547E-3  -6.006333231925964E-1   7.389074563980103E-1  
 7.513513513513514E8    -5.524765700101852E-2   8.357969522476196E-1  -2.596572600305080E-2   7.774739060550928E-3  -2.604344114661217E-2   7.623428013175726E-3  -5.927327275276184E-1   7.449381351470947E-1  
 7.537537537537538E8    -3.615283593535423E-2   8.306170701980591E-1  -2.657330781221390E-2   9.365377947688103E-3  -2.670955285429955E-2   9.196778759360313E-3  -5.833191275596619E-1   7.518088221549988E-1  
 7.561561561561562E8    -1.629351079463959E-2   8.236488103866577E-1  -2.724749594926834E-2   1.108319312334061E-2  -2.734196558594704E-2   1.096617057919502E-2  -5.733100771903992E-1   7.571458816528320E-1  
 7.585585585585586E8     1.515054027549923E-3   8.155213594436646E-1  -2.790817990899086E-2   1.288464479148388E-2  -2.781223691999912E-2   1.287286356091499E-2  -5.615963935852051E-1   7.646504044532776E-1  
 7.609609609609610E8     1.808491349220276E-2   8.068181276321411E-1  -2.845943719148636E-2   1.495610363781452E-2  -2.829692699015141E-2   1.483382191509008E-2  -5.503896474838257E-1   7.719454765319824E-1  
 7.633633633633634E8     3.398023173213005E-2   7.981181740760803E-1  -2.894130535423756E-2   1.711855269968510E-2  -2.878430113196373E-2   1.701466925442219E-2  -5.403017401695252E-1   7.782623767852783E-1  
 7.657657657657658E8     5.007301643490791E-2   7.894201874732971E-1  -2.926398254930973E-2   1.942807622253895E-2  -2.921918965876102E-2   1.921319589018822E-2  -5.319969654083252E-1   7.833499908447266E-1  
 7.681681681681682E8     6.695847213268280E-2   7.795864939689636E-1  -2.966067381203175E-2   2.188204415142536E-2  -2.972153387963772E-2   2.171435020864010E-2  -5.249358415603638E-1   7.875762581825256E-1  
 7.705705705705706E8     8.058287203311920E-2   7.690099477767944E-1  -2.981423959136009E-2   2.446043677628040E-2  -3.004147857427597E-2   2.431862987577915E-2  -5.170109272003174E-1   7.915295958518982E-1  
 7.729729729729730E8     9.507954865694046E-2   7.559387683868408E-1  -2.965410612523556E-2   2.740615978837013E-2  -3.004406578838825E-2   2.738474123179913E-2  -5.084018111228943E-1   7.978704571723938E-1  
 7.753753753753754E8     1.082631200551987E-1   7.411221265792847E-1  -2.906037122011185E-2   3.037632443010807E-2  -2.957976795732975E-2   3.037898615002632E-2  -4.972861409187317E-1   8.049553036689758E-1  
 7.777777777777778E8     1.194249615073204E-1   7.249624729156494E-1  -2.825571782886982E-2   3.337251394987106E-2  -2.860156446695328E-2   3.334857150912285E-2  -4.831713140010834E-1   8.102250099182129E-1  
 7.801801801801802E8     1.277605742216110E-1   7.085288166999817E-1  -2.712580189108849E-2   3.651906549930573E-2  -2.724275365471840E-2   3.622479736804962E-2  -4.673603475093842E-1   8.127417564392090E-1  
 7.825825825825826E8     1.353683322668076E-1   6.932047605514526E-1  -2.553222700953484E-2   3.929015994071960E-2  -2.569050155580044E-2   3.904869034886360E-2  -4.520934224128723E-1   8.180602788925171E-1  
 7.849849849849850E8     1.419706940650940E-1   6.806228756904602E-1  -2.401975728571415E-2   4.193386062979698E-2  -2.411051653325558E-2   4.170668125152588E-2  -4.408230483531952E-1   8.202081322669983E-1  
 7.873873873873874E8     1.488267779350281E-1   6.703599095344544E-1  -2.248071134090424E-2   4.452859237790108E-2  -2.253030426800251E-2   4.414485767483711E-2  -4.317875504493713E-1   8.227744698524475E-1  
 7.897897897897898E8     1.591486483812332E-1   6.590617895126343E-1  -2.098461426794529E-2   4.730994626879692E-2  -2.107824943959713E-2   4.699190333485603E-2  -4.227521419525147E-1   8.273818492889404E-1  
 7.921921921921922E8     1.707519441843033E-1   6.452419161796570E-1  -1.896180585026741E-2   5.050099641084671E-2  -1.915822550654411E-2   5.040588602423668E-2  -4.138440787792206E-1   8.343753218650818E-1  
 7.945945945945946E8     1.780962347984314E-1   6.324220895767212E-1  -1.613136008381844E-2   5.340275168418884E-2  -1.664157398045063E-2   5.327409878373146E-2  -4.027008712291718E-1   8.376017808914185E-1  
 7.969969969969970E8     1.843244880437851E-1   6.174986958503723E-1  -1.335486676543951E-2   5.584733560681343E-2  -1.379327382892370E-2   5.577774718403816E-2  -3.905659914016724E-1   8.418247103691101E-1  
 7.993993993993994E8     1.887087970972061E-1   6.009622812271118E-1  -1.023554615676403E-2   5.812741816043854E-2  -1.061937026679516E-2   5.812546238303185E-2  -3.780799806118012E-1   8.460986614227295E-1  
 8.018018018018018E8     1.906256675720215E-1   5.845035314559937E-1  -7.119861897081137E-3   6.020800396800041E-2  -7.229635957628489E-3   6.027376651763916E-2  -3.648979067802429E-1   8.501301407814026E-1  
 8.042042042042042E8     1.913611590862274E-1   5.697360634803772E-1  -4.021780565381050E-3   6.235766038298607E-2  -4.117570817470551E-3   6.245377287268639E-2  -3.535861372947693E-1   8.529425859451294E-1  
 8.066066066066066E8     1.914189457893372E-1   5.564470291137695E-1  -1.989841548493132E-4   6.459206342697144E-2  -3.898267168551683E-4   6.474932283163071E-2  -3.399379551410675E-1   8.567034602165222E-1  
 8.090090090090090E8     1.900180578231812E-1   5.445188879966736E-1   4.225397948175669E-3   6.647709757089615E-2   4.080332349985838E-3   6.657981127500534E-2  -3.270493745803833E-1   8.596714735031128E-1  
 8.114114114114114E8     1.880421191453934E-1   5.351017713546753E-1   9.110894054174423E-3   6.753764301538467E-2   9.034906513988972E-3   6.778056919574738E-2  -3.145066797733307E-1   8.623840808868408E-1  
 8.138138138138138E8     1.888478845357895E-1   5.281524658203125E-1   1.387379411607981E-2   6.747309118509293E-2   1.378629077225924E-2   6.772036105394363E-2  -3.024274408817291E-1   8.646722435951233E-1  
 8.162162162162162E8     1.928763985633850E-1   5.196626186370850E-1   1.776711083948612E-2   6.714966893196106E-2   1.764330081641674E-2   6.733538210391998E-2  -2.907226085662842E-1   8.676770925521851E-1  
 8.186186186186186E8     1.949109882116318E-1   5.080772638320923E-1   2.118257433176041E-2   6.714003533124924E-2   2.102173492312431E-2   6.722812354564667E-2  -2.771935462951660E-1   8.712210059165955E-1  
 8.210210210210210E8     1.947900205850601E-1   4.972973167896271E-1   2.508213184773922E-2   6.703246384859085E-2   2.491045184433460E-2   6.709063798189163E-2  -2.635806500911713E-1   8.741680979728699E-1  
 8.234234234234234E8     1.970953047275543E-1   4.867622256278992E-1   2.850198745727539E-2   6.637887656688690E-2   2.836762927472591E-2   6.651550531387329E-2  -2.493527233600617E-1   8.769353032112122E-1  
