#  HZ   S   RI   R     50.00 
! Rohde & Schwarz ZVB8 2Ports - Version 2.81 - 1145.1010k08 SN: 100113
! Date: 2016-05-17 22:37:29
! Measurements: S11 S21 S12 S22 
! 
 6.000000000000000E8    -7.875829935073853E-1   5.056298375129700E-1  -1.045622979290783E-3  -2.056018449366093E-3  -1.125445938669145E-3  -2.023461041972041E-3  -9.407035112380981E-1   2.485394924879074E-1  
 6.024024024024024E8    -7.783916592597961E-1   5.165432095527649E-1  -1.063043600879610E-3  -2.108873100951314E-3  -1.138910185545683E-3  -2.020774874836206E-3  -9.371808767318726E-1   2.593961358070374E-1  
 6.048048048048048E8    -7.689620256423950E-1   5.279278755187988E-1  -1.125189824961126E-3  -2.113297116011381E-3  -1.128931413404644E-3  -2.071991330012679E-3  -9.336844086647034E-1   2.702843844890595E-1  
 6.072072072072072E8    -7.583524584770203E-1   5.398212075233460E-1  -1.123110298067331E-3  -2.145063597708941E-3  -1.037296839058399E-3  -2.149347215890884E-3  -9.300911426544190E-1   2.807627916336060E-1  
 6.096096096096096E8    -7.473110556602478E-1   5.521404743194580E-1  -1.067137112841010E-3  -2.256388776004314E-3  -1.093227416276932E-3  -2.294376725330949E-3  -9.263110160827637E-1   2.911076545715332E-1  
 6.120120120120120E8    -7.382083535194397E-1   5.611873269081116E-1  -1.035906025208533E-3  -2.320549683645368E-3  -9.419217822141945E-4  -2.325324108824134E-3  -9.230781793594360E-1   2.993125915527344E-1  
 6.144144144144144E8    -7.283340096473694E-1   5.719863772392273E-1  -9.879040298983455E-4  -2.463647862896323E-3  -9.797259699553251E-4  -2.462964504957199E-3  -9.199030995368958E-1   3.094919621944428E-1  
 6.168168168168168E8    -7.172202467918396E-1   5.823316574096680E-1  -8.175837574526668E-4  -2.761441282927990E-3  -8.074119687080383E-4  -2.714833011850715E-3  -9.160742759704590E-1   3.196839690208435E-1  
 6.192192192192192E8    -7.058084607124329E-1   5.923470854759216E-1  -7.594469352625310E-4  -2.989161061123014E-3  -7.256717653945088E-4  -2.997468924149871E-3  -9.119621515274048E-1   3.294738829135895E-1  
 6.216216216216216E8    -6.940103173255920E-1   6.019425988197327E-1  -6.824011798016727E-4  -3.388944314792752E-3  -6.465096375904977E-4  -3.360318485647440E-3  -9.079919457435608E-1   3.395688235759735E-1  
 6.240240240240240E8    -6.823439002037048E-1   6.109674572944641E-1  -6.623861263506115E-4  -3.885545535013080E-3  -6.466922350227833E-4  -3.965178038924933E-3  -9.034942388534546E-1   3.496270775794983E-1  
 6.264264264264264E8    -6.714559197425842E-1   6.195204257965088E-1  -8.206875645555556E-4  -4.605549387633801E-3  -7.863701903261244E-4  -4.619067069143057E-3  -8.989278674125671E-1   3.611330986022949E-1  
 6.288288288288288E8    -6.606495380401611E-1   6.279740929603577E-1  -1.092418679036200E-3  -5.352554377168417E-3  -1.037915237247944E-3  -5.330369807779789E-3  -8.941003680229187E-1   3.718065619468689E-1  
 6.312312312312312E8    -6.510484814643860E-1   6.362525224685669E-1  -1.655068132095039E-3  -6.127720698714256E-3  -1.623726566322148E-3  -6.053374148905277E-3  -8.896610140800476E-1   3.811992108821869E-1  
 6.336336336336336E8    -6.415179967880249E-1   6.451149582862854E-1  -2.460201969370246E-3  -6.701409816741943E-3  -2.354391152039170E-3  -6.733361165970564E-3  -8.850044012069702E-1   3.898314833641052E-1  
 6.360360360360360E8    -6.314855217933655E-1   6.546387672424316E-1  -3.352490719407797E-3  -7.127913180738688E-3  -3.217700868844986E-3  -7.111265324056149E-3  -8.805918693542481E-1   3.978573381900787E-1  
 6.384384384384384E8    -6.204510927200317E-1   6.645177006721497E-1  -4.272151272743940E-3  -7.363560143858194E-3  -4.328640177845955E-3  -7.376600988209248E-3  -8.766114115715027E-1   4.074504673480988E-1  
 6.408408408408408E8    -6.084625124931335E-1   6.744987368583679E-1  -5.362447351217270E-3  -7.411232218146324E-3  -5.335873458534479E-3  -7.465025410056114E-3  -8.719430565834045E-1   4.167384505271912E-1  
 6.432432432432432E8    -5.958948135375977E-1   6.845728158950806E-1  -6.226355675607920E-3  -7.278727833181620E-3  -6.279531866312027E-3  -7.348631042987108E-3  -8.669126033782959E-1   4.256495237350464E-1  
 6.456456456456456E8    -5.822980999946594E-1   6.938082575798035E-1  -7.153965998440981E-3  -7.098315283656120E-3  -7.217262871563435E-3  -7.146863732486963E-3  -8.615083098411560E-1   4.344710707664490E-1  
 6.480480480480480E8    -5.679267644882202E-1   7.027142047882080E-1  -7.955466397106648E-3  -6.763999816030264E-3  -7.987190969288349E-3  -6.748512387275696E-3  -8.562238216400147E-1   4.432116150856018E-1  
 6.504504504504504E8    -5.518676638603210E-1   7.126059532165527E-1  -8.682703599333763E-3  -6.514941342175007E-3  -8.676078170537949E-3  -6.480143871158361E-3  -8.472892642021179E-1   4.529969096183777E-1  
 6.528528528528528E8    -5.358074903488159E-1   7.216086387634277E-1  -9.349002502858639E-3  -6.160755641758442E-3  -9.358254261314869E-3  -6.144999992102385E-3  -8.390437364578247E-1   4.646177589893341E-1  
 6.552552552552552E8    -5.193940401077271E-1   7.295895218849182E-1  -9.953526780009270E-3  -5.827587563544512E-3  -9.957066737115383E-3  -5.869294051080942E-3  -8.334978818893433E-1   4.763607680797577E-1  
 6.576576576576576E8    -5.022484660148621E-1   7.367438077926636E-1  -1.066531054675579E-2  -5.624474026262760E-3  -1.055620703846216E-2  -5.619848612695932E-3  -8.303573727607727E-1   4.855187833309174E-1  
 6.600600600600600E8    -4.830617010593414E-1   7.433690428733826E-1  -1.138062682002783E-2  -5.245321895927191E-3  -1.131700817495585E-2  -5.288310814648867E-3  -8.267940282821655E-1   4.916277229785919E-1  
 6.624624624624624E8    -4.652445018291473E-1   7.500281333923340E-1  -1.206088624894619E-2  -4.830531775951386E-3  -1.201055198907852E-2  -4.816758912056685E-3  -8.199980258941650E-1   5.012763142585754E-1  
 6.648648648648648E8    -4.467907547950745E-1   7.560940980911255E-1  -1.264858338981867E-2  -4.496455192565918E-3  -1.265410985797644E-2  -4.503641277551651E-3  -8.132758140563965E-1   5.107460021972656E-1  
 6.672672672672672E8    -4.277753829956055E-1   7.611740827560425E-1  -1.338942907750607E-2  -4.075301811099052E-3  -1.338752266019583E-2  -4.165725316852331E-3  -8.066203594207764E-1   5.198330879211426E-1  
 6.696696696696696E8    -4.080129861831665E-1   7.655859589576721E-1  -1.408686581999064E-2  -3.637130139395595E-3  -1.408792193979025E-2  -3.642986528575420E-3  -7.999600768089294E-1   5.285101532936096E-1  
 6.720720720720720E8    -3.871820867061615E-1   7.694898247718811E-1  -1.480034273117781E-2  -3.148587187752128E-3  -1.480293553322554E-2  -3.176032798364759E-3  -7.937180399894714E-1   5.373801589012146E-1  
 6.744744744744744E8    -3.655905425548554E-1   7.724864482879639E-1  -1.557578891515732E-2  -2.571197692304850E-3  -1.555622741580010E-2  -2.711256267502904E-3  -7.856378555297852E-1   5.469750761985779E-1  
 6.768768768768768E8    -3.441012799739838E-1   7.745332717895508E-1  -1.633119769394398E-2  -1.982787158340216E-3  -1.633633300662041E-2  -2.007789677008987E-3  -7.776920199394226E-1   5.562190413475037E-1  
 6.792792792792792E8    -3.209780454635620E-1   7.751027345657349E-1  -1.699814200401306E-2  -1.289326697587967E-3  -1.704588159918785E-2  -1.382863498292863E-3  -7.699298858642578E-1   5.656284689903259E-1  
 6.816816816816816E8    -2.973130047321320E-1   7.741333246231079E-1  -1.766666583716869E-2  -6.381139392033219E-4  -1.768499240279198E-2  -6.979926256462932E-4  -7.618245482444763E-1   5.748920440673828E-1  
 6.840840840840840E8    -2.726118564605713E-1   7.720249891281128E-1  -1.840586774051189E-2   1.112342433771119E-4  -1.839333400130272E-2  -3.640635623014532E-5  -7.535130977630615E-1   5.841367244720459E-1  
 6.864864864864864E8    -2.483140081167221E-1   7.688156962394714E-1  -1.921820454299450E-2   8.439556695520878E-4  -1.918049901723862E-2   7.487405091524124E-4  -7.447238564491272E-1   5.933612585067749E-1  
 6.888888888888888E8    -2.234861254692078E-1   7.643138170242310E-1  -2.002890780568123E-2   1.703009940683842E-3  -1.995670422911644E-2   1.527820131741464E-3  -7.352020740509033E-1   6.030691862106323E-1  
 6.912912912912912E8    -1.995714455842972E-1   7.585207819938660E-1  -2.088480442762375E-2   2.688894048333168E-3  -2.084110677242279E-2   2.449905499815941E-3  -7.258988618850708E-1   6.125572919845581E-1  
 6.936936936936936E8    -1.758767366409302E-1   7.512767314910889E-1  -2.158481627702713E-2   3.908704966306686E-3  -2.159876003861427E-2   3.735676640644670E-3  -7.166055440902710E-1   6.222293972969055E-1  
 6.960960960960960E8    -1.508343815803528E-1   7.414358854293823E-1  -2.224461175501347E-2   4.943931940943003E-3  -2.226754091680050E-2   4.870499949902296E-3  -7.073069810867310E-1   6.316476464271545E-1  
 6.984984984984984E8    -1.270668506622315E-1   7.288161516189575E-1  -2.283637970685959E-2   6.077774334698916E-3  -2.278663590550423E-2   6.269269622862339E-3  -6.948559284210205E-1   6.435627937316895E-1  
 7.009009009009008E8    -1.038730219006538E-1   7.139671444892883E-1  -2.335365302860737E-2   7.270367816090584E-3  -2.314280159771442E-2   7.653853390365839E-3  -6.824924945831299E-1   6.543794274330139E-1  
 7.033033033033032E8    -8.214329928159714E-2   6.972337961196899E-1  -2.360753715038300E-2   8.333548903465271E-3  -2.346536517143250E-2   8.720547892153263E-3  -6.719934940338135E-1   6.628006100654602E-1  
 7.057057057057056E8    -6.097464263439179E-2   6.772332191467285E-1  -2.392266131937504E-2   9.286724030971527E-3  -2.387330122292042E-2   9.390517137944698E-3  -6.639048457145691E-1   6.683704853057861E-1  
 7.081081081081080E8    -4.085779562592506E-2   6.565151214599609E-1  -2.440230920910835E-2   1.025152672082186E-2  -2.453945204615593E-2   1.013284549117088E-2  -6.551735997200012E-1   6.745670437812805E-1  
 7.105105105105104E8    -2.319381199777126E-2   6.338068842887878E-1  -2.506734989583492E-2   1.109756249934435E-2  -2.527791075408459E-2   1.078459713608027E-2  -6.451703310012817E-1   6.818050742149353E-1  
 7.129129129129129E8    -9.490100666880608E-3   6.081911921501160E-1  -2.576874755322933E-2   1.183691248297691E-2  -2.603386156260967E-2   1.152092218399048E-2  -6.333962082862854E-1   6.900787353515625E-1  
 7.153153153153153E8    -4.233355866745114E-4   5.810489058494568E-1  -2.692160196602345E-2   1.241689361631870E-2  -2.710448019206524E-2   1.205789204686880E-2  -6.201105117797852E-1   6.988216042518616E-1  
 7.177177177177178E8     4.599852953106165E-3   5.545468330383301E-1  -2.862690389156342E-2   1.271855458617210E-2  -2.867845818400383E-2   1.259770337492228E-2  -6.054511666297913E-1   7.079912424087524E-1  
 7.201201201201202E8     7.114132866263390E-3   5.310143232345581E-1  -3.108267672359943E-2   1.325588859617710E-2  -3.100010566413403E-2   1.301236543804407E-2  -5.907254815101624E-1   7.159782052040100E-1  
 7.225225225225226E8     7.867617532610893E-3   5.110870599746704E-1  -3.471510857343674E-2   1.414893846958876E-2  -3.472584486007690E-2   1.400955487042666E-2  -5.746256113052368E-1   7.240363359451294E-1  
 7.249249249249250E8     1.054341997951269E-2   4.935684800148010E-1  -3.987136483192444E-2   1.688885502517223E-2  -3.991216421127319E-2   1.617405191063881E-2  -5.606369972229004E-1   7.288669347763062E-1  
 7.273273273273274E8     1.664163544774056E-2   4.766143858432770E-1  -4.516954720020294E-2   2.201339788734913E-2  -4.556718096137047E-2   2.103955857455730E-2  -5.470566153526306E-1   7.330145835876465E-1  
 7.297297297297298E8     2.404639497399330E-2   4.562509357929230E-1  -4.988658428192139E-2   2.942776866257191E-2  -5.031081661581993E-2   2.874014712870121E-2  -5.329644083976746E-1   7.371746301651001E-1  
 7.321321321321322E8     2.988564595580101E-2   4.305420219898224E-1  -5.270735546946526E-2   3.884306177496910E-2  -5.274633318185806E-2   3.900425508618355E-2  -5.194529294967651E-1   7.412509918212891E-1  
 7.345345345345346E8     3.217777609825134E-2   4.018617570400238E-1  -5.257804691791534E-2   4.945889860391617E-2  -5.225816369056702E-2   4.998886957764626E-2  -5.068863034248352E-1   7.459337711334229E-1  
 7.369369369369370E8     2.926779724657536E-2   3.699286878108978E-1  -4.972769320011139E-2   5.978305265307427E-2  -4.905596375465393E-2   6.045571714639664E-2  -4.941350221633911E-1   7.514802813529968E-1  
 7.393393393393394E8     2.080945111811161E-2   3.366241157054901E-1  -4.494433104991913E-2   6.960202008485794E-2  -4.435298219323158E-2   6.989766657352448E-2  -4.809031188488007E-1   7.571579813957214E-1  
 7.417417417417418E8     6.157841067761183E-3   3.048870563507080E-1  -3.819342330098152E-2   7.836371660232544E-2  -3.810364753007889E-2   7.823342829942703E-2  -4.680828154087067E-1   7.623831629753113E-1  
 7.441441441441442E8    -1.200073026120663E-2   2.755622863769531E-1  -3.002290241420269E-2   8.572546392679215E-2  -3.063544817268848E-2   8.538131415843964E-2  -4.552232921123505E-1   7.672324180603027E-1  
 7.465465465465466E8    -3.576298803091049E-2   2.498863339424133E-1  -2.151692844927311E-2   9.158932417631149E-2  -2.228375151753426E-2   9.142826497554779E-2  -4.397125840187073E-1   7.736657261848450E-1  
 7.489489489489490E8    -6.379467248916626E-2   2.278687357902527E-1  -1.235842797905207E-2   9.625204652547836E-2  -1.327847875654697E-2   9.624906629323959E-2  -4.256702959537506E-1   7.791375517845154E-1  
 7.513513513513514E8    -9.328693896532059E-2   2.109303772449493E-1  -3.020808799192309E-3   9.948433935642242E-2  -3.953448962420225E-3   9.953295439481735E-2  -4.106398820877075E-1   7.843995690345764E-1  
 7.537537537537538E8    -1.231532469391823E-1   1.989125460386276E-1   6.272376980632544E-3   1.018313616514206E-1   5.449365824460983E-3   1.023100316524506E-1  -3.940075337886810E-1   7.896519899368286E-1  
 7.561561561561562E8    -1.538371741771698E-1   1.911462098360062E-1   1.589206419885159E-2   1.036020889878273E-1   1.551976706832647E-2   1.038300395011902E-1  -3.762960433959961E-1   7.933210134506226E-1  
 7.585585585585586E8    -1.830274909734726E-1   1.894779205322266E-1   2.555323950946331E-2   1.041828691959381E-1   2.573207020759583E-2   1.038918420672417E-1  -3.553272485733032E-1   7.991473674774170E-1  
 7.609609609609610E8    -2.124768048524857E-1   1.901265084743500E-1   3.532731905579567E-2   1.036861315369606E-1   3.531341254711151E-2   1.030359119176865E-1  -3.355360329151154E-1   8.038719892501831E-1  
 7.633633633633634E8    -2.429994046688080E-1   1.924678385257721E-1   4.502661526203156E-2   1.024900153279305E-1   4.442701116204262E-2   1.018725782632828E-1  -3.160261511802673E-1   8.073548078536987E-1  
 7.657657657657658E8    -2.744524478912354E-1   1.990374177694321E-1   5.489758774638176E-2   1.003243401646614E-1   5.390692874789238E-2   1.002127975225449E-1  -2.970079779624939E-1   8.095600605010986E-1  
 7.681681681681682E8    -3.049165606498718E-1   2.114961445331574E-1   6.417915970087051E-2   9.695657342672348E-2   6.335716694593430E-2   9.756567329168320E-2  -2.784168720245361E-1   8.112916946411133E-1  
 7.705705705705706E8    -3.318652212619782E-1   2.301760166883469E-1   7.273115217685700E-2   9.281324595212936E-2   7.209824025630951E-2   9.369665384292603E-2  -2.590078115463257E-1   8.119098544120789E-1  
 7.729729729729730E8    -3.523695468902588E-1   2.522507309913635E-1   8.090687543153763E-2   8.766366541385651E-2   8.050531148910523E-2   8.929634839296341E-2  -2.369937002658844E-1   8.140969276428223E-1  
 7.753753753753754E8    -3.668344020843506E-1   2.733400166034699E-1   8.865002542734146E-2   8.262465149164200E-2   8.867266774177551E-2   8.412054181098938E-2  -2.115780562162399E-1   8.150683045387268E-1  
 7.777777777777778E8    -3.770698010921478E-1   2.935670316219330E-1   9.639716893434525E-2   7.707477360963821E-2   9.626935422420502E-2   7.794363051652908E-2  -1.832849532365799E-1   8.128561377525330E-1  
 7.801801801801802E8    -3.843025267124176E-1   3.126582801342011E-1   1.037723794579506E-1   7.088366150856018E-2   1.029523983597755E-1   7.108092308044434E-2  -1.538363993167877E-1   8.061180114746094E-1  
 7.825825825825826E8    -3.879530727863312E-1   3.320938050746918E-1   1.102154925465584E-1   6.365845352411270E-2   1.097576022148132E-1   6.358821690082550E-2  -1.244445517659187E-1   8.006359934806824E-1  
 7.849849849849850E8    -3.909755647182465E-1   3.498567938804627E-1   1.157415583729744E-1   5.607867240905762E-2   1.150785163044930E-1   5.631169676780701E-2  -9.794000536203384E-2   7.926418781280518E-1  
 7.873873873873874E8    -3.944446742534638E-1   3.648015856742859E-1   1.213808581233025E-1   4.929494857788086E-2   1.205383390188217E-1   4.992022737860680E-2  -7.173363864421845E-2   7.836568951606751E-1  
 7.897897897897898E8    -3.997909426689148E-1   3.805493414402008E-1   1.275881528854370E-1   4.208178073167801E-2   1.270559430122376E-1   4.275809973478317E-2  -4.436464235186577E-2   7.748762965202332E-1  
 7.921921921921922E8    -4.025175273418427E-1   3.995516300201416E-1   1.339415162801743E-1   3.282550349831581E-2   1.340941190719605E-1   3.372408077120781E-2  -1.610206626355648E-2   7.656454443931580E-1  
 7.945945945945946E8    -4.036907553672791E-1   4.178098142147064E-1   1.391409188508987E-1   2.240443788468838E-2   1.389493048191071E-1   2.381727844476700E-2   1.310039497911930E-2   7.513234615325928E-1  
 7.969969969969970E8    -4.022289216518402E-1   4.339155256748200E-1   1.430394053459168E-1   1.137975975871086E-2   1.431313455104828E-1   1.300423964858055E-2   4.341201484203339E-2   7.347676157951355E-1  
 7.993993993993994E8    -3.998282551765442E-1   4.487045705318451E-1   1.456110328435898E-1  -1.008210601867177E-4   1.458042860031128E-1   1.140393200330436E-3   7.447115331888199E-2   7.149013280868530E-1  
 8.018018018018018E8    -3.967722952365875E-1   4.607570469379425E-1   1.470258682966232E-1  -1.115840580314398E-2   1.471958011388779E-1  -1.071446202695370E-2   1.055910363793373E-1   6.910808682441711E-1  
 8.042042042042042E8    -3.941287398338318E-1   4.730073213577271E-1   1.485568881034851E-1  -2.199159748852253E-2   1.482472717761993E-1  -2.179021015763283E-2   1.346115320920944E-1   6.635664701461792E-1  
 8.066066066066066E8    -3.900440931320190E-1   4.862986803054810E-1   1.490747481584549E-1  -3.403998538851738E-2   1.491406112909317E-1  -3.392373770475388E-2   1.634334772825241E-1   6.329349875450134E-1  
 8.090090090090090E8    -3.861220180988312E-1   4.991643726825714E-1   1.485131680965424E-1  -4.695422202348709E-2   1.486747413873673E-1  -4.690831899642944E-2   1.897929906845093E-1   5.982866287231445E-1  
 8.114114114114114E8    -3.813160359859467E-1   5.108838081359863E-1   1.462330222129822E-1  -6.044907122850418E-2   1.466107070446014E-1  -6.050707027316093E-2   2.135807871818543E-1   5.602268576622009E-1  
 8.138138138138138E8    -3.769057989120483E-1   5.198842883110046E-1   1.418728232383728E-1  -7.382094860076904E-2   1.425928324460983E-1  -7.392986118793488E-2   2.342472225427628E-1   5.192316770553589E-1  
 8.162162162162162E8    -3.747657537460327E-1   5.289618372917175E-1   1.360547244548798E-1  -8.616409450769424E-2   1.366793513298035E-1  -8.638725429773331E-2   2.528242766857147E-1   4.755518436431885E-1  
 8.186186186186186E8    -3.734408915042877E-1   5.395351648330689E-1   1.296026110649109E-1  -9.780271351337433E-2   1.301744580268860E-1  -9.791041910648346E-2   2.681327462196350E-1   4.288153350353241E-1  
 8.210210210210210E8    -3.695974051952362E-1   5.484455823898315E-1   1.219443976879120E-1  -1.098962277173996E-1   1.219975948333740E-1  -1.095884814858437E-1   2.780840694904327E-1   3.796546757221222E-1  
 8.234234234234234E8    -3.666666150093079E-1   5.573710203170776E-1   1.114837601780891E-1  -1.204875633120537E-1   1.116371303796768E-1  -1.199986860156059E-1   2.828667759895325E-1   3.262634575366974E-1  
