#  HZ   S   RI   R     50.00 
! Rohde & Schwarz ZVB8 2Ports - Version 2.81 - 1145.1010k08 SN: 100113
! Date: 2016-05-17 22:38:05
! Measurements: S11 S21 S12 S22 
! 
 6.000000000000000E8    -7.838630676269531E-1   5.082617998123169E-1  -1.737475744448602E-3  -2.647912828251720E-3  -1.704670721665025E-3  -2.705350518226624E-3  -9.249981641769409E-1   2.810264229774475E-1  
 6.024024024024024E8    -7.746655941009522E-1   5.191887021064758E-1  -1.760414219461381E-3  -2.691261470317841E-3  -1.739568309858441E-3  -2.779888221994042E-3  -9.201485514640808E-1   2.930105626583099E-1  
 6.048048048048048E8    -7.646504640579224E-1   5.306276679039002E-1  -1.787822344340384E-3  -2.740119583904743E-3  -1.721774809993804E-3  -2.799045294523239E-3  -9.154621362686157E-1   3.048419654369354E-1  
 6.072072072072072E8    -7.539736628532410E-1   5.426683425903320E-1  -1.733656390570104E-3  -2.921318868175149E-3  -1.755699515342712E-3  -2.800943329930306E-3  -9.105944037437439E-1   3.161844015121460E-1  
 6.096096096096096E8    -7.428150177001953E-1   5.548574328422546E-1  -1.743896282278001E-3  -2.994273090735078E-3  -1.769609167240560E-3  -2.966869622468948E-3  -9.055604934692383E-1   3.282316029071808E-1  
 6.120120120120120E8    -7.332338690757752E-1   5.643731355667114E-1  -1.643894589506090E-3  -3.209792543202639E-3  -1.716976519674063E-3  -3.179690334945917E-3  -9.011021256446838E-1   3.379551172256470E-1  
 6.144144144144144E8    -7.229241132736206E-1   5.749059915542603E-1  -1.516242162324488E-3  -3.434580517932773E-3  -1.487223315052688E-3  -3.449038136750460E-3  -8.961710333824158E-1   3.490520417690277E-1  
 6.168168168168168E8    -7.111915946006775E-1   5.854039192199707E-1  -1.441008644178510E-3  -3.745032008737326E-3  -1.495023374445736E-3  -3.786608576774597E-3  -8.907855749130249E-1   3.603990674018860E-1  
 6.192192192192192E8    -6.998870372772217E-1   5.952872037887573E-1  -1.383092952892184E-3  -4.203615710139275E-3  -1.304191304370761E-3  -4.236281849443913E-3  -8.848080039024353E-1   3.721775412559509E-1  
 6.216216216216216E8    -6.878238916397095E-1   6.047829389572144E-1  -1.309877494350076E-3  -4.710132256150246E-3  -1.274596666917205E-3  -4.772789310663939E-3  -8.785330057144165E-1   3.836875557899475E-1  
 6.240240240240240E8    -6.757819652557373E-1   6.136566996574402E-1  -1.352185616269708E-3  -5.668089259415865E-3  -1.284553320147097E-3  -5.535030737519264E-3  -8.721199035644531E-1   3.945575058460236E-1  
 6.264264264264264E8    -6.642519235610962E-1   6.225445270538330E-1  -1.557015348225832E-3  -6.603050045669079E-3  -1.508552115410566E-3  -6.568219047039747E-3  -8.653461337089539E-1   4.078471958637238E-1  
 6.288288288288288E8    -6.531193256378174E-1   6.306828856468201E-1  -2.115542767569423E-3  -7.772420998662710E-3  -2.108929678797722E-3  -7.746982853859663E-3  -8.583786487579346E-1   4.195075929164887E-1  
 6.312312312312312E8    -6.431851387023926E-1   6.388378739356995E-1  -3.099185880273581E-3  -8.884610608220100E-3  -3.125480376183987E-3  -8.845033124089241E-3  -8.513555526733398E-1   4.302502870559692E-1  
 6.336336336336336E8    -6.330453157424927E-1   6.478270888328552E-1  -4.386301152408123E-3  -9.756960906088352E-3  -4.321915097534657E-3  -9.802494198083878E-3  -8.444834351539612E-1   4.398362338542938E-1  
 6.360360360360360E8    -6.227965354919434E-1   6.573439836502075E-1  -5.863768979907036E-3  -1.047165505588055E-2  -5.899423267692328E-3  -1.041745673865080E-2  -8.379107713699341E-1   4.495247304439545E-1  
 6.384384384384384E8    -6.110695600509644E-1   6.673524975776672E-1  -7.660592906177044E-3  -1.081241853535175E-2  -7.561102043837309E-3  -1.091096363961697E-2  -8.308371305465698E-1   4.602135419845581E-1  
 6.408408408408408E8    -5.989959836006165E-1   6.770436763763428E-1  -9.293673560023308E-3  -1.082357484847307E-2  -9.233559481799603E-3  -1.087492331862450E-2  -8.234973549842835E-1   4.710095226764679E-1  
 6.432432432432432E8    -5.857999324798584E-1   6.870957016944885E-1  -1.090050395578146E-2  -1.061699073761702E-2  -1.085234805941582E-2  -1.073146611452103E-2  -8.156974315643311E-1   4.815778136253357E-1  
 6.456456456456456E8    -5.715318322181702E-1   6.964751482009888E-1  -1.253737509250641E-2  -1.028361730277538E-2  -1.249870192259550E-2  -1.027747150510550E-2  -8.075721263885498E-1   4.918332695960999E-1  
 6.480480480480480E8    -5.560103654861450E-1   7.053024768829346E-1  -1.392740942537785E-2  -9.651220403611660E-3  -1.385243423283100E-2  -9.727803990244865E-3  -7.986713051795960E-1   5.025883316993713E-1  
 6.504504504504504E8    -5.393849611282349E-1   7.151083350181580E-1  -1.530948653817177E-2  -9.067064151167870E-3  -1.518469117581844E-2  -9.056981652975082E-3  -7.857177257537842E-1   5.139859318733215E-1  
 6.528528528528528E8    -5.221204757690430E-1   7.237238287925720E-1  -1.653770916163921E-2  -8.400327526032925E-3  -1.644012890756130E-2  -8.477269671857357E-3  -7.733058333396912E-1   5.274246931076050E-1  
 6.552552552552552E8    -5.049369931221008E-1   7.314304709434509E-1  -1.778698340058327E-2  -7.829608395695686E-3  -1.772238872945309E-2  -7.870958186686039E-3  -7.635619640350342E-1   5.411643385887146E-1  
 6.576576576576576E8    -4.869113266468048E-1   7.380626797676086E-1  -1.911515556275845E-2  -7.178002502769232E-3  -1.908750459551811E-2  -7.296447176486254E-3  -7.561839818954468E-1   5.521837472915649E-1  
 6.600600600600600E8    -4.667375683784485E-1   7.440827488899231E-1  -2.060949988663197E-2  -6.424146704375744E-3  -2.052852138876915E-2  -6.464685779064894E-3  -7.472780346870422E-1   5.601039528846741E-1  
 6.624624624624624E8    -4.477479457855225E-1   7.503342628479004E-1  -2.197903394699097E-2  -5.437772721052170E-3  -2.194440923631191E-2  -5.603102501481772E-3  -7.351181507110596E-1   5.715833902359009E-1  
 6.648648648648648E8    -4.277853965759277E-1   7.555798888206482E-1  -2.338246256113052E-2  -4.459814168512821E-3  -2.328142151236534E-2  -4.648468922823668E-3  -7.230214476585388E-1   5.827125906944275E-1  
 6.672672672672672E8    -4.074784219264984E-1   7.597853541374207E-1  -2.492684498429298E-2  -3.455942030996084E-3  -2.474711090326309E-2  -3.585405647754669E-3  -7.101878523826599E-1   5.936872363090515E-1  
 6.696696696696696E8    -3.862174153327942E-1   7.630734443664551E-1  -2.647633850574493E-2  -2.260599983856082E-3  -2.635324932634831E-2  -2.328353701159358E-3  -6.967744827270508E-1   6.045227646827698E-1  
 6.720720720720720E8    -3.635494410991669E-1   7.655445933341980E-1  -2.803339064121246E-2  -8.742162608541548E-4  -2.807340212166309E-2  -1.028725295327604E-3  -6.829294562339783E-1   6.150867938995361E-1  
 6.744744744744744E8    -3.405123054981232E-1   7.667871713638306E-1  -2.961366623640060E-2   7.348950603045523E-4  -2.969737537205219E-2   6.487387581728399E-4  -6.671161055564880E-1   6.262685656547546E-1  
 6.768768768768768E8    -3.174707293510437E-1   7.666140198707581E-1  -3.114739991724491E-2   2.616185229271650E-3  -3.123899921774864E-2   2.553728874772787E-3  -6.504502296447754E-1   6.370500326156616E-1  
 6.792792792792792E8    -2.940756380558014E-1   7.650275826454163E-1  -3.261511772871018E-2   4.647406283766031E-3  -3.263522684574127E-2   4.588764160871506E-3  -6.334452629089356E-1   6.472767591476440E-1  
 6.816816816816816E8    -2.699021697044373E-1   7.623810172080994E-1  -3.390693292021751E-2   6.790180690586567E-3  -3.394551575183868E-2   6.740943528711796E-3  -6.157487630844116E-1   6.576628088951111E-1  
 6.840840840840840E8    -2.447340041399002E-1   7.579463720321655E-1  -3.534447774291039E-2   8.957765065133572E-3  -3.535731136798859E-2   8.855095133185387E-3  -5.974596738815308E-1   6.676511764526367E-1  
 6.864864864864864E8    -2.195493578910828E-1   7.517459392547607E-1  -3.681907430291176E-2   1.155231613665819E-2  -3.694912791252136E-2   1.139601599425077E-2  -5.770905017852783E-1   6.771258115768433E-1  
 6.888888888888888E8    -1.943221092224121E-1   7.437472939491272E-1  -3.839108720421791E-2   1.451498456299305E-2  -3.841444477438927E-2   1.407477911561728E-2  -5.548756718635559E-1   6.867498159408569E-1  
 6.912912912912912E8    -1.697012931108475E-1   7.341599464416504E-1  -3.987863287329674E-2   1.785609498620033E-2  -3.993568941950798E-2   1.740692928433418E-2  -5.313747525215149E-1   6.958312988281250E-1  
 6.936936936936936E8    -1.454949378967285E-1   7.221543788909912E-1  -4.105173051357269E-2   2.181486412882805E-2  -4.107688367366791E-2   2.138303220272064E-2  -5.068756341934204E-1   7.037136554718018E-1  
 6.960960960960960E8    -1.213210076093674E-1   7.083056569099426E-1  -4.166334494948387E-2   2.571837045252323E-2  -4.167668893933296E-2   2.558376453816891E-2  -4.809845983982086E-1   7.110984325408936E-1  
 6.984984984984984E8    -9.914185851812363E-2   6.918384432792664E-1  -4.213562235236168E-2   2.977795898914337E-2  -4.175212979316711E-2   3.016420453786850E-2  -4.504339993000031E-1   7.188187837600708E-1  
 7.009009009009008E8    -7.897867262363434E-2   6.746271252632141E-1  -4.203510656952858E-2   3.377760574221611E-2  -4.141028597950935E-2   3.461081907153130E-2  -4.201390147209168E-1   7.241237163543701E-1  
 7.033033033033032E8    -5.917479470372200E-2   6.550991535186768E-1  -4.163144901394844E-2   3.778817504644394E-2  -4.093913361430168E-2   3.851261362433434E-2  -3.905893564224243E-1   7.268404364585877E-1  
 7.057057057057056E8    -3.973443061113358E-2   6.310579180717468E-1  -4.138969257473946E-2   4.178821295499802E-2  -4.100510105490685E-2   4.200948774814606E-2  -3.608824312686920E-1   7.259290814399719E-1  
 7.081081081081080E8    -2.217536605894566E-2   6.036348938941956E-1  -4.110011830925942E-2   4.643484577536583E-2  -4.132115840911865E-2   4.610391333699226E-2  -3.274784386157990E-1   7.229785323143005E-1  
 7.105105105105104E8    -9.266724810004234E-3   5.750186443328857E-1  -4.014554619789124E-2   5.131675302982330E-2  -4.103717207908630E-2   5.047929286956787E-2  -2.922147214412689E-1   7.173788547515869E-1  
 7.129129129129129E8    -1.632738625630736E-3   5.461094379425049E-1  -3.944295644760132E-2   5.575575307011604E-2  -4.065104946494103E-2   5.507091805338860E-2  -2.534478306770325E-1   7.081568837165833E-1  
 7.153153153153153E8     1.124964328482747E-3   5.174444913864136E-1  -3.944854438304901E-2   6.010726466774941E-2  -4.042883217334747E-2   5.971946939826012E-2  -2.124885320663452E-1   6.940159201622009E-1  
 7.177177177177178E8     2.118532866006717E-4   4.899419844150543E-1  -4.052018374204636E-2   6.510358303785324E-2  -4.086193442344666E-2   6.525932997465134E-2  -1.702540516853333E-1   6.738473176956177E-1  
 7.201201201201202E8    -2.739368937909603E-3   4.674863219261169E-1  -4.268189892172813E-2   7.169192284345627E-2  -4.283606261014938E-2   7.192084193229675E-2  -1.316390037536621E-1   6.475468277931213E-1  
 7.225225225225226E8    -7.619445212185383E-3   4.481836855411530E-1  -4.548247903585434E-2   8.147657662630081E-2  -4.536513239145279E-2   8.177433907985687E-2  -9.598942101001740E-2   6.140133738517761E-1  
 7.249249249249250E8    -1.109581906348467E-2   4.299657940864563E-1  -4.661634191870689E-2   9.670431166887283E-2  -4.775903001427651E-2   9.596844017505646E-2  -6.858351081609726E-2   5.745963454246521E-1  
 7.273273273273274E8    -1.206717733293772E-2   4.124737679958344E-1  -4.315993934869766E-2   1.165847033262253E-1  -4.557832702994347E-2   1.153822466731072E-1  -4.861934483051300E-2   5.321308970451355E-1  
 7.297297297297298E8    -1.322503667324781E-2   3.906315267086029E-1  -3.280745819211006E-2   1.387823969125748E-1  -3.553466871380806E-2   1.377373486757278E-1  -3.507168591022492E-2   4.903531372547150E-1  
 7.321321321321322E8    -1.782683841884136E-2   3.660159111022949E-1  -1.497645117342472E-2   1.593976616859436E-1  -1.560314744710922E-2   1.589857190847397E-1  -2.646784670650959E-2   4.517945349216461E-1  
 7.345345345345346E8    -2.684735506772995E-2   3.418743908405304E-1   1.069615967571735E-2   1.747516244649887E-1   1.104647759348154E-2   1.745596826076508E-1  -1.959983445703983E-2   4.189354181289673E-1  
 7.369369369369370E8    -3.808356449007988E-2   3.205462992191315E-1   3.996150568127632E-2   1.832016557455063E-1   4.128796607255936E-2   1.827345490455627E-1  -9.699840098619461E-3   3.860420286655426E-1  
 7.393393393393394E8    -5.218082666397095E-2   2.994796335697174E-1   7.129672914743424E-2   1.858364045619965E-1   7.337725907564163E-2   1.850782632827759E-1   1.125529641285539E-3   3.494840860366821E-1  
 7.417417417417418E8    -6.638384610414505E-2   2.827732563018799E-1   1.040529757738113E-1   1.813410967588425E-1   1.061426624655724E-1   1.803740561008453E-1   9.879981167614460E-3   3.084614872932434E-1  
 7.441441441441442E8    -8.206223696470261E-2   2.656024098396301E-1   1.367796361446381E-1   1.693648397922516E-1   1.375082135200501E-1   1.689880192279816E-1   1.477169804275036E-2   2.643558084964752E-1  
 7.465465465465466E8    -1.020801737904549E-1   2.501781880855560E-1   1.662563383579254E-1   1.505219340324402E-1   1.661112904548645E-1   1.509494781494141E-1   1.629842817783356E-2   2.202710062265396E-1  
 7.489489489489490E8    -1.236568167805672E-1   2.363662570714951E-1   1.907133907079697E-1   1.261678487062454E-1   1.901296675205231E-1   1.276073455810547E-1   1.184767112135887E-2   1.727798283100128E-1  
 7.513513513513514E8    -1.458542346954346E-1   2.242983728647232E-1   2.098360210657120E-1   9.790851920843124E-2   2.090379893779755E-1   1.006519049406052E-1   3.157293424010277E-3   1.238187476992607E-1  
 7.537537537537538E8    -1.682807952165604E-1   2.149267941713333E-1   2.243554741144180E-1   6.699162721633911E-2   2.240176945924759E-1   7.053450495004654E-2  -1.357045955955982E-2   6.920571625232697E-2  
 7.561561561561562E8    -1.913629919290543E-1   2.075761854648590E-1   2.335703372955322E-1   3.367643803358078E-2   2.333188951015472E-1   3.613430261611939E-2  -3.921935334801674E-2   1.323486119508743E-2  
 7.585585585585586E8    -2.132717519998550E-1   2.034313380718231E-1   2.352642714977264E-1  -3.443128662183881E-5   2.346080988645554E-1   1.237703254446387E-3  -7.446990907192230E-2  -3.811432048678398E-2  
 7.609609609609610E8    -2.371041476726532E-1   1.999398618936539E-1   2.311492860317230E-1  -3.167261183261871E-2   2.298672944307327E-1  -3.138037398457527E-2  -1.206381991505623E-1  -8.312041312456131E-2  
 7.633633633633634E8    -2.636722922325134E-1   1.981427222490311E-1   2.221097201108933E-1  -6.170212104916573E-2   2.201991826295853E-1  -6.202931702136993E-2  -1.746266335248947E-1  -1.198584586381912E-1  
 7.657657657657658E8    -2.941213250160217E-1   2.001397311687470E-1   2.076192349195480E-1  -8.948203176259995E-2   2.061546891927719E-1  -8.931725472211838E-2  -2.326617687940598E-1  -1.480539888143539E-1  
 7.681681681681682E8    -3.254359364509583E-1   2.087254077196121E-1   1.887657940387726E-1  -1.129520684480667E-1   1.884105801582336E-1  -1.129755824804306E-1  -2.938925325870514E-1  -1.682009547948837E-1  
 7.705705705705706E8    -3.538980782032013E-1   2.255224734544754E-1   1.671230792999268E-1  -1.316657513380051E-1   1.681672781705856E-1  -1.305717825889587E-1  -3.497808575630188E-1  -1.773116737604141E-1  
 7.729729729729730E8    -3.751319050788879E-1   2.457417398691177E-1   1.436045616865158E-1  -1.453541964292526E-1   1.466331183910370E-1  -1.442047804594040E-1  -4.077024459838867E-1  -1.784227937459946E-1  
 7.753753753753754E8    -3.912933170795441E-1   2.643498182296753E-1   1.207488849759102E-1  -1.542511731386185E-1   1.238652244210243E-1  -1.535410434007645E-1  -4.650171101093292E-1  -1.698961555957794E-1  
 7.777777777777778E8    -4.052473306655884E-1   2.817337512969971E-1   9.879519045352936E-2  -1.596964150667191E-1   1.016268655657768E-1  -1.592198610305786E-1  -5.169962644577026E-1  -1.529829055070877E-1  
 7.801801801801802E8    -4.179557263851166E-1   2.996102869510651E-1   7.763024419546127E-2  -1.621183007955551E-1   7.959685474634171E-2  -1.610541045665741E-1  -5.629593133926392E-1  -1.311250030994415E-1  
 7.825825825825826E8    -4.262745082378388E-1   3.179183304309845E-1   5.842634662985802E-2  -1.609836369752884E-1   5.906037241220474E-2  -1.606427878141403E-1  -6.051620244979858E-1  -1.059758141636848E-1  
 7.849849849849850E8    -4.345563650131226E-1   3.364975452423096E-1   4.146227613091469E-2  -1.574596315622330E-1   4.156611859798431E-2  -1.566953957080841E-1  -6.418149471282959E-1  -7.889424264431000E-2  
 7.873873873873874E8    -4.430111944675446E-1   3.545728623867035E-1   2.720918506383896E-2  -1.530529260635376E-1   2.711451798677445E-2  -1.515252441167831E-1  -6.732322573661804E-1  -5.068990215659142E-2  
 7.897897897897898E8    -4.515489637851715E-1   3.742045164108276E-1   1.448011118918657E-2  -1.484586000442505E-1   1.428626757115126E-2  -1.470930427312851E-1  -7.005562186241150E-1  -2.171804010868073E-2  
 7.921921921921922E8    -4.575430750846863E-1   3.979828953742981E-1   1.933617750182748E-3  -1.432060748338699E-1   2.202939940616489E-3  -1.427933424711227E-1  -7.243632674217224E-1   6.648789625614882E-3  
 7.945945945945946E8    -4.613799750804901E-1   4.218224585056305E-1  -9.701221249997616E-3  -1.368008106946945E-1  -8.689637295901775E-3  -1.365418136119843E-1  -7.426701784133911E-1   3.667196258902550E-2  
 7.969969969969970E8    -4.621404111385346E-1   4.448970258235931E-1  -1.974612660706043E-2  -1.294674575328827E-1  -1.822889782488346E-2  -1.297739893198013E-1  -7.582877278327942E-1   6.607515364885330E-2  
 7.993993993993994E8    -4.597727060317993E-1   4.668043553829193E-1  -2.817936241626740E-2  -1.216014027595520E-1  -2.700907923281193E-2  -1.223604604601860E-1  -7.715803384780884E-1   9.686332941055298E-2  
 8.018018018018018E8    -4.549933969974518E-1   4.860736727714539E-1  -3.489932417869568E-2  -1.135244071483612E-1  -3.436004742980003E-2  -1.142249479889870E-1  -7.817671895027161E-1   1.271912306547165E-1  
 8.042042042042042E8    -4.502291977405548E-1   5.043542981147766E-1  -4.032037779688835E-2  -1.061184927821159E-1  -3.981969505548477E-2  -1.067215576767921E-1  -7.900274991989136E-1   1.545978337526321E-1  
 8.066066066066066E8    -4.429183006286621E-1   5.227115154266357E-1  -4.529586806893349E-2  -9.907937049865723E-2  -4.509377852082253E-2  -9.946624189615250E-2  -7.957257628440857E-1   1.830012351274490E-1  
 8.090090090090090E8    -4.353675246238709E-1   5.383095145225525E-1  -4.952172562479973E-2  -9.211424738168716E-2  -4.931750893592835E-2  -9.216582775115967E-2  -7.996543645858765E-1   2.098789364099503E-1  
 8.114114114114114E8    -4.273170232772827E-1   5.530547499656677E-1  -5.303694307804108E-2  -8.523663133382797E-2  -5.292511358857155E-2  -8.518808335065842E-2  -8.020071983337402E-1   2.347757965326309E-1  
 8.138138138138138E8    -4.189714789390564E-1   5.655499100685120E-1  -5.595648661255837E-2  -7.832646369934082E-2  -5.591462180018425E-2  -7.831729948520660E-2  -8.028782010078430E-1   2.571481466293335E-1  
 8.162162162162162E8    -4.119356572628021E-1   5.774968266487122E-1  -5.802244693040848E-2  -7.128926366567612E-2  -5.796422809362412E-2  -7.149375230073929E-2  -8.035035133361816E-1   2.782296836376190E-1  
 8.186186186186186E8    -4.062083959579468E-1   5.899373888969421E-1  -5.914558470249176E-2  -6.480005383491516E-2  -5.907752364873886E-2  -6.520928442478180E-2  -8.034241795539856E-1   3.006382584571838E-1  
 8.210210210210210E8    -3.980831801891327E-1   6.025384664535523E-1  -6.035920977592468E-2  -5.863250792026520E-2  -6.023069843649864E-2  -5.890341103076935E-2  -8.020493388175964E-1   3.232788741588593E-1  
 8.234234234234234E8    -3.901883363723755E-1   6.119199991226196E-1  -6.073575094342232E-2  -5.231077596545219E-2  -6.055119261145592E-2  -5.238417163491249E-2  -7.997102737426758E-1   3.443829417228699E-1  
