#  HZ   S   RI   R     50.00 
! Rohde & Schwarz ZVB8 2Ports - Version 2.81 - 1145.1010k08 SN: 100113
! Date: 2016-05-17 22:38:09
! Measurements: S11 S21 S12 S22 
! 
 6.000000000000000E8    -7.839094400405884E-1   5.081159472465515E-1  -1.854543341323733E-3  -2.844362054020166E-3  -1.883762655779719E-3  -2.847103634849191E-3  -9.219043254852295E-1   2.868484854698181E-1  
 6.024024024024024E8    -7.744643688201904E-1   5.190319418907166E-1  -1.858542673289776E-3  -2.876682206988335E-3  -1.850156928412616E-3  -2.842116402462125E-3  -9.167293906211853E-1   2.990241944789887E-1  
 6.048048048048048E8    -7.646413445472717E-1   5.304868817329407E-1  -1.905636629089713E-3  -2.995250979438424E-3  -1.871156273409724E-3  -2.955876756459475E-3  -9.115757346153259E-1   3.113010525703430E-1  
 6.072072072072072E8    -7.540310621261597E-1   5.425084829330444E-1  -1.880226307548583E-3  -3.073606872931123E-3  -1.817786134779453E-3  -3.088347148150206E-3  -9.066686034202576E-1   3.230605721473694E-1  
 6.096096096096096E8    -7.423750162124634E-1   5.547112822532654E-1  -1.930013881064951E-3  -3.299788339063525E-3  -1.919342554174364E-3  -3.267874009907246E-3  -9.013479948043823E-1   3.350786566734314E-1  
 6.120120120120120E8    -7.329345941543579E-1   5.639476776123047E-1  -1.965536968782544E-3  -3.418207168579102E-3  -1.883835298940539E-3  -3.345219651237130E-3  -8.963823318481445E-1   3.447735905647278E-1  
 6.144144144144144E8    -7.224195003509522E-1   5.745711326599121E-1  -1.876421389169991E-3  -3.624332137405872E-3  -1.802227692678571E-3  -3.571821143850684E-3  -8.911441564559937E-1   3.562839925289154E-1  
 6.168168168168168E8    -7.111397385597229E-1   5.848759412765503E-1  -1.687447889707983E-3  -3.956136293709278E-3  -1.750234165228903E-3  -4.000622779130936E-3  -8.854184746742249E-1   3.680724799633026E-1  
 6.192192192192192E8    -6.997612714767456E-1   5.947738885879517E-1  -1.687065814621747E-3  -4.516162443906069E-3  -1.620975788682699E-3  -4.449100233614445E-3  -8.789747953414917E-1   3.801498115062714E-1  
 6.216216216216216E8    -6.881338357925415E-1   6.041657328605652E-1  -1.689991913735867E-3  -5.007672589272261E-3  -1.646570279262960E-3  -5.053539294749498E-3  -8.721359968185425E-1   3.918761014938355E-1  
 6.240240240240240E8    -6.758736371994019E-1   6.130451560020447E-1  -1.657762448303402E-3  -5.862879566848278E-3  -1.701177330687642E-3  -5.912583786994219E-3  -8.650103807449341E-1   4.033331573009491E-1  
 6.264264264264264E8    -6.646617650985718E-1   6.217954158782959E-1  -1.986032351851463E-3  -6.917696446180344E-3  -1.976790605112910E-3  -6.891902536153793E-3  -8.576222658157349E-1   4.166060686111450E-1  
 6.288288288288288E8    -6.538421511650085E-1   6.302568912506104E-1  -2.612988697364926E-3  -8.057746104896069E-3  -2.606575842946768E-3  -8.129113353788853E-3  -8.502306342124939E-1   4.286375939846039E-1  
 6.312312312312312E8    -6.435893177986145E-1   6.384805440902710E-1  -3.621973795816302E-3  -9.170243516564369E-3  -3.623611992225051E-3  -9.194678626954556E-3  -8.426815867424011E-1   4.394432306289673E-1  
 6.336336336336336E8    -6.337898373603821E-1   6.475096344947815E-1  -5.006324965506792E-3  -1.005080901086330E-2  -4.945741966366768E-3  -9.986604563891888E-3  -8.354098200798035E-1   4.494111835956574E-1  
 6.360360360360360E8    -6.232223510742188E-1   6.573261022567749E-1  -6.497296039015055E-3  -1.074630115181208E-2  -6.444069556891918E-3  -1.073208637535572E-2  -8.278571367263794E-1   4.590976536273956E-1  
 6.384384384384384E8    -6.117181181907654E-1   6.669194698333740E-1  -8.302741684019566E-3  -1.115641184151173E-2  -8.194127120077610E-3  -1.115270797163248E-2  -8.202868700027466E-1   4.703908562660217E-1  
 6.408408408408408E8    -5.994140505790710E-1   6.770051121711731E-1  -1.003490108996630E-2  -1.118279434740543E-2  -9.996545501053333E-3  -1.120512001216412E-2  -8.119648098945618E-1   4.817024767398834E-1  
 6.432432432432432E8    -5.858570933341980E-1   6.868483424186707E-1  -1.174219138920307E-2  -1.100246887654066E-2  -1.171650085598230E-2  -1.099757757037878E-2  -8.031020760536194E-1   4.924626648426056E-1  
 6.456456456456456E8    -5.714632272720337E-1   6.961044073104858E-1  -1.353351213037968E-2  -1.059991307556629E-2  -1.344647165387869E-2  -1.063848566263914E-2  -7.940346598625183E-1   5.029977560043335E-1  
 6.480480480480480E8    -5.565961003303528E-1   7.050943970680237E-1  -1.510091871023178E-2  -9.931792505085468E-3  -1.501833926886320E-2  -9.964820928871632E-3  -7.842966914176941E-1   5.142112374305725E-1  
 6.504504504504504E8    -5.402070283889771E-1   7.148858904838562E-1  -1.650059781968594E-2  -9.299946017563343E-3  -1.647977903485298E-2  -9.300289675593376E-3  -7.701864838600159E-1   5.259202718734741E-1  
 6.528528528528528E8    -5.231407880783081E-1   7.236554026603699E-1  -1.792611554265022E-2  -8.540743030607700E-3  -1.794089376926422E-2  -8.589377626776695E-3  -7.568539977073669E-1   5.395933985710144E-1  
 6.552552552552552E8    -5.056620836257935E-1   7.314345240592957E-1  -1.935094222426415E-2  -7.792675402015448E-3  -1.933748647570610E-2  -7.869786582887173E-3  -7.456365823745728E-1   5.535902380943298E-1  
 6.576576576576576E8    -4.870887398719788E-1   7.382314205169678E-1  -2.078612148761749E-2  -7.043282035738230E-3  -2.069555968046188E-2  -7.141811773180962E-3  -7.367826104164124E-1   5.650619268417358E-1  
 6.600600600600600E8    -4.667056500911713E-1   7.444667816162109E-1  -2.230178937315941E-2  -6.165612488985062E-3  -2.222674340009689E-2  -6.298123393207789E-3  -7.262075543403626E-1   5.732532739639282E-1  
 6.624624624624624E8    -4.472869038581848E-1   7.504355311393738E-1  -2.378827892243862E-2  -5.125398281961680E-3  -2.373025752604008E-2  -5.266658496111631E-3  -7.125642895698547E-1   5.850931406021118E-1  
 6.648648648648648E8    -4.280825555324554E-1   7.557258605957031E-1  -2.541179582476616E-2  -4.151112865656614E-3  -2.534761466085911E-2  -4.275177139788866E-3  -6.987508535385132E-1   5.966203808784485E-1  
 6.672672672672672E8    -4.080497026443481E-1   7.598932981491089E-1  -2.715043723583221E-2  -2.905648667365313E-3  -2.718031033873558E-2  -3.080126363784075E-3  -6.835925579071045E-1   6.079964637756348E-1  
 6.696696696696696E8    -3.868148922920227E-1   7.632243633270264E-1  -2.899735420942307E-2  -1.473657321184874E-3  -2.896378561854363E-2  -1.567856408655644E-3  -6.678538322448731E-1   6.188752651214600E-1  
 6.720720720720720E8    -3.640219569206238E-1   7.655039429664612E-1  -3.082036599516869E-2   1.373507984681055E-4  -3.079544380307198E-2   4.490944047574885E-5  -6.516116857528687E-1   6.297508478164673E-1  
 6.744744744744744E8    -3.409562706947327E-1   7.663702368736267E-1  -3.255157172679901E-2   2.163270954042673E-3  -3.253412619233131E-2   2.133442088961601E-3  -6.324160099029541E-1   6.410744786262512E-1  
 6.768768768768768E8    -3.176699578762054E-1   7.664502859115601E-1  -3.418873623013496E-2   4.464182071387768E-3  -3.422772511839867E-2   4.396409727632999E-3  -6.129733324050903E-1   6.511496901512146E-1  
 6.792792792792792E8    -2.941580116748810E-1   7.649039030075073E-1  -3.567975386977196E-2   6.872992962598801E-3  -3.572069481015205E-2   6.790552288293839E-3  -5.927548408508301E-1   6.610303521156311E-1  
 6.816816816816816E8    -2.696573138237000E-1   7.618565559387207E-1  -3.719554841518402E-2   9.483305737376213E-3  -3.715353086590767E-2   9.281623177230358E-3  -5.717960000038147E-1   6.705024242401123E-1  
 6.840840840840840E8    -2.452158480882645E-1   7.575455904006958E-1  -3.863800689578056E-2   1.215546205639839E-2  -3.867172077298164E-2   1.208424568176270E-2  -5.491546988487244E-1   6.799319982528687E-1  
 6.864864864864864E8    -2.210557460784912E-1   7.523086667060852E-1  -4.014649987220764E-2   1.515372376888990E-2  -4.011628031730652E-2   1.490710489451885E-2  -5.250121951103210E-1   6.879754066467285E-1  
 6.888888888888888E8    -1.959430128335953E-1   7.450183629989624E-1  -4.180361330509186E-2   1.853206753730774E-2  -4.182378947734833E-2   1.825802400708199E-2  -4.979616999626160E-1   6.962509155273438E-1  
 6.912912912912912E8    -1.706611216068268E-1   7.357829213142395E-1  -4.332924261689186E-2   2.270455099642277E-2  -4.344347491860390E-2   2.220417559146881E-2  -4.692254662513733E-1   7.028008103370667E-1  
 6.936936936936936E8    -1.459612250328064E-1   7.243874073028565E-1  -4.442055895924568E-2   2.740124613046646E-2  -4.454336315393448E-2   2.693818882107735E-2  -4.390029907226563E-1   7.078746557235718E-1  
 6.960960960960960E8    -1.211475282907486E-1   7.106902003288269E-1  -4.491132497787476E-2   3.220105171203613E-2  -4.498364403843880E-2   3.197780251502991E-2  -4.073843359947205E-1   7.116494774818420E-1  
 6.984984984984984E8    -9.830631315708160E-2   6.938456296920776E-1  -4.520751163363457E-2   3.716907650232315E-2  -4.479497671127319E-2   3.753912448883057E-2  -3.705387413501740E-1   7.143493294715881E-1  
 7.009009009009008E8    -7.704304158687592E-2   6.752973794937134E-1  -4.480157420039177E-2   4.233932495117188E-2  -4.402766004204750E-2   4.302425310015678E-2  -3.330646753311157E-1   7.138740420341492E-1  
 7.033033033033032E8    -5.686015635728836E-2   6.557412743568420E-1  -4.383453726768494E-2   4.741064459085465E-2  -4.298893362283707E-2   4.821501672267914E-2  -2.954018115997315E-1   7.093311548233032E-1  
 7.057057057057056E8    -3.726167604327202E-2   6.327682137489319E-1  -4.273677989840508E-2   5.252208188176155E-2  -4.237563908100128E-2   5.327948927879334E-2  -2.577672302722931E-1   6.997601389884949E-1  
 7.081081081081080E8    -1.854670234024525E-2   6.050177216529846E-1  -4.117102548480034E-2   5.832396820187569E-2  -4.152187332510948E-2   5.833926796913147E-2  -2.195406556129456E-1   6.867879033088684E-1  
 7.105105105105104E8    -4.611968994140625E-3   5.748291015625000E-1  -3.929644450545311E-2   6.433889269828796E-2  -4.042973741889000E-2   6.352229416370392E-2  -1.787570714950562E-1   6.690505146980286E-1  
 7.129129129129129E8     2.712621819227934E-3   5.426540374755859E-1  -3.742787614464760E-2   7.040839642286301E-2  -3.898381441831589E-2   6.939951330423355E-2  -1.350856274366379E-1   6.440426707267761E-1  
 7.153153153153153E8     2.950280904769898E-3   5.112179517745972E-1  -3.539901971817017E-2   7.661404460668564E-2  -3.658844903111458E-2   7.579099386930466E-2  -9.115078300237656E-2   6.111322641372681E-1  
 7.177177177177178E8    -1.003734767436981E-3   4.832896590232849E-1  -3.389334306120873E-2   8.293847739696503E-2  -3.468983247876167E-2   8.241371065378189E-2  -4.971032217144966E-2   5.690783858299255E-1  
 7.201201201201202E8    -6.612082477658987E-3   4.606698453426361E-1  -3.336716443300247E-2   9.059280157089233E-2  -3.394016623497009E-2   9.036296606063843E-2  -1.506498362869024E-2   5.175172090530396E-1  
 7.225225225225226E8    -1.405224390327931E-2   4.410031735897064E-1  -3.312364220619202E-2   1.019871830940247E-1  -3.344421833753586E-2   1.018015518784523E-1   8.985595777630806E-3   4.597585797309876E-1  
 7.249249249249250E8    -1.861836574971676E-2   4.268305003643036E-1  -2.989669516682625E-2   1.183912009000778E-1  -3.117998875677586E-2   1.180851384997368E-1   1.888579130172730E-2   3.992232382297516E-1  
 7.273273273273274E8    -2.076855674386025E-2   4.117943644523621E-1  -2.011872269213200E-2   1.385566741228104E-1  -2.222201600670815E-2   1.382426023483276E-1   1.681164279580116E-2   3.414189517498016E-1  
 7.297297297297298E8    -2.184572070837021E-2   3.955160081386566E-1  -2.573404693976045E-3   1.587153673171997E-1  -3.817515214905143E-3   1.588165611028671E-1   7.818792946636677E-3   2.904937863349915E-1  
 7.321321321321322E8    -2.391118742525578E-2   3.759187757968903E-1   2.271988242864609E-2   1.749552339315414E-1   2.373740263283253E-2   1.748761236667633E-1  -3.665249096229672E-3   2.481023222208023E-1  
 7.345345345345346E8    -2.932651899755001E-2   3.544955551624298E-1   5.511146411299706E-2   1.835841089487076E-1   5.593521893024445E-2   1.832374483346939E-1  -1.504697930067778E-2   2.109010517597199E-1  
 7.369369369369370E8    -3.683730214834213E-2   3.326549232006073E-1   9.022285044193268E-2   1.836640983819962E-1   9.083447605371475E-2   1.829800754785538E-1  -2.609129063785076E-2   1.713653951883316E-1  
 7.393393393393394E8    -4.731461405754089E-2   3.100849986076355E-1   1.264682114124298E-1   1.747450679540634E-1   1.267902702093124E-1   1.741523146629334E-1  -3.946525231003761E-2   1.298706978559494E-1  
 7.417417417417418E8    -6.025054305791855E-2   2.895768284797669E-1   1.601856350898743E-1   1.558284461498261E-1   1.597856879234314E-1   1.559494137763977E-1  -5.710608139634132E-2   8.708811551332474E-2  
 7.441441441441442E8    -7.457109540700913E-2   2.694579362869263E-1   1.877963840961456E-1   1.297924369573593E-1   1.868001669645309E-1   1.309145390987396E-1  -8.040664345026016E-2   4.407005384564400E-2  
 7.465465465465466E8    -9.204862266778946E-2   2.513482570648193E-1   2.080527693033218E-1   1.004009395837784E-1   2.076032459735870E-1   1.012782678008080E-1  -1.073656231164932E-1   5.187494214624167E-3  
 7.489489489489490E8    -1.123240813612938E-1   2.343802005052567E-1   2.219726145267487E-1   6.839263439178467E-2   2.219842821359634E-1   6.858876347541809E-2  -1.404433548450470E-1  -3.216038644313812E-2  
 7.513513513513514E8    -1.358463168144226E-1   2.202270179986954E-1   2.286501377820969E-1   3.396021574735642E-2   2.287914305925369E-1   3.392435237765312E-2  -1.782313734292984E-1  -6.707003712654114E-2  
 7.537537537537538E8    -1.596715301275253E-1   2.091939598321915E-1   2.286612689495087E-1   2.644043524924200E-5   2.291729450225830E-1   8.663069456815720E-4  -2.193021178245544E-1  -9.762636572122574E-2  
 7.561561561561562E8    -1.847871541976929E-1   2.009026259183884E-1   2.233016192913055E-1  -3.216433897614479E-2   2.234694957733154E-1  -3.113479539752007E-2  -2.654074430465698E-1  -1.244382858276367E-1  
 7.585585585585586E8    -2.107606977224350E-1   1.971576809883118E-1   2.120162397623062E-1  -6.162821128964424E-2   2.117941826581955E-1  -6.036317348480225E-2  -3.170590102672577E-1  -1.426962763071060E-1  
 7.609609609609610E8    -2.368922382593155E-1   1.945710778236389E-1   1.966752558946610E-1  -8.705167472362518E-2   1.963455229997635E-1  -8.525685966014862E-2  -3.723545968532562E-1  -1.521588116884232E-1  
 7.633633633633634E8    -2.645249068737030E-1   1.927050799131393E-1   1.786697804927826E-1  -1.087608411908150E-1   1.787025481462479E-1  -1.065848991274834E-1  -4.275223910808563E-1  -1.532706767320633E-1  
 7.657657657657658E8    -2.954131960868835E-1   1.941018700599670E-1   1.584238111972809E-1  -1.261713802814484E-1   1.588063985109329E-1  -1.243727132678032E-1  -4.814667403697968E-1  -1.481393277645111E-1  
 7.681681681681682E8    -3.280636668205261E-1   2.018108665943146E-1   1.367304176092148E-1  -1.387020051479340E-1   1.372586637735367E-1  -1.379020810127258E-1  -5.317490696907044E-1  -1.385002285242081E-1  
 7.705705705705706E8    -3.562499284744263E-1   2.176810950040817E-1   1.151031255722046E-1  -1.465296000242233E-1   1.151285320520401E-1  -1.459500044584274E-1  -5.762423872947693E-1  -1.231348812580109E-1  
 7.729729729729730E8    -3.782660365104675E-1   2.376757562160492E-1   9.380653500556946E-2  -1.503518521785736E-1   9.449461102485657E-2  -1.500585079193115E-1  -6.177632212638855E-1  -1.031121239066124E-1  
 7.753753753753754E8    -3.970223367214203E-1   2.584147751331329E-1   7.436867058277130E-2  -1.514429599046707E-1   7.553664594888687E-2  -1.514483839273453E-1  -6.543148756027222E-1  -7.769004255533218E-2  
 7.777777777777778E8    -4.120282828807831E-1   2.791510522365570E-1   5.666227638721466E-2  -1.505720168352127E-1   5.787143856287003E-2  -1.504880785942078E-1  -6.852056384086609E-1  -4.815753921866417E-2  
 7.801801801801802E8    -4.231694936752319E-1   2.991138994693756E-1   4.043992981314659E-2  -1.480163335800171E-1   4.159730672836304E-2  -1.474554091691971E-1  -7.096079587936401E-1  -1.787811145186424E-2  
 7.825825825825826E8    -4.316391646862030E-1   3.197598159313202E-1   2.556749805808067E-2  -1.432530283927918E-1   2.664334699511528E-2  -1.432741284370422E-1  -7.327756881713867E-1   1.340061239898205E-2  
 7.849849849849850E8    -4.399393200874329E-1   3.404696285724640E-1   1.303716655820608E-2  -1.375357657670975E-1   1.433768868446350E-2  -1.374940723180771E-1  -7.510470151901245E-1   4.263899475336075E-2  
 7.873873873873874E8    -4.462754726409912E-1   3.592703044414520E-1   3.095868974924088E-3  -1.321408003568649E-1   3.952756989747286E-3  -1.314204335212708E-1  -7.667078375816345E-1   7.114101201295853E-2  
 7.897897897897898E8    -4.531509876251221E-1   3.778645098209381E-1  -5.840783473104239E-3  -1.270655244588852E-1  -5.406256299465895E-3  -1.261522471904755E-1  -7.806502580642700E-1   9.906201809644699E-2  
 7.921921921921922E8    -4.585802257061005E-1   3.996235728263855E-1  -1.488378457725048E-2  -1.215358003973961E-1  -1.445435453206301E-2  -1.211717352271080E-1  -7.931309938430786E-1   1.259676665067673E-1  
 7.945945945945946E8    -4.621912539005280E-1   4.224661886692047E-1  -2.330601587891579E-2  -1.152928695082665E-1  -2.252606116235256E-2  -1.146932691335678E-1  -8.003693222999573E-1   1.528832465410233E-1  
 7.969969969969970E8    -4.627045691013336E-1   4.454243183135986E-1  -3.046992793679237E-2  -1.079496070742607E-1  -2.958052046597004E-2  -1.078099086880684E-1  -8.063871264457703E-1   1.789184063673019E-1  
 7.993993993993994E8    -4.598647952079773E-1   4.659912884235382E-1  -3.603968769311905E-2  -1.002456992864609E-1  -3.535520657896996E-2  -1.002984493970871E-1  -8.108519911766052E-1   2.050544768571854E-1  
 8.018018018018018E8    -4.558936655521393E-1   4.848404228687286E-1  -3.986721485853195E-2  -9.292864799499512E-2  -3.975960612297058E-2  -9.306675940752029E-2  -8.134858608245850E-1   2.303940653800964E-1  
 8.042042042042042E8    -4.516237974166870E-1   5.037404894828796E-1  -4.283434525132179E-2  -8.654264360666275E-2  -4.259086027741432E-2  -8.682755380868912E-2  -8.153732419013977E-1   2.522864937782288E-1  
 8.066066066066066E8    -4.449064433574677E-1   5.225446224212647E-1  -4.571470618247986E-2  -8.075465261936188E-2  -4.555542394518852E-2  -8.118652552366257E-2  -8.153375983238220E-1   2.764384448528290E-1  
 8.090090090090090E8    -4.372032582759857E-1   5.402483344078064E-1  -4.837090894579887E-2  -7.510590553283691E-2  -4.825164750218391E-2  -7.578147202730179E-2  -8.141440749168396E-1   2.990725934505463E-1  
 8.114114114114114E8    -4.284796416759491E-1   5.558534264564514E-1  -5.069118365645409E-2  -6.958890706300736E-2  -5.070157349109650E-2  -7.020267099142075E-2  -8.120689988136292E-1   3.204014897346497E-1  
 8.138138138138138E8    -4.201001226902008E-1   5.692818164825440E-1  -5.292920023202896E-2  -6.406105309724808E-2  -5.281715840101242E-2  -6.447520107030869E-2  -8.096405267715454E-1   3.397870957851410E-1  
 8.162162162162162E8    -4.125111699104309E-1   5.805102586746216E-1  -5.431128293275833E-2  -5.855175480246544E-2  -5.425900220870972E-2  -5.885400623083115E-2  -8.069532513618469E-1   3.582391440868378E-1  
 8.186186186186186E8    -4.061813950538635E-1   5.919349789619446E-1  -5.505378544330597E-2  -5.360501632094383E-2  -5.492841452360153E-2  -5.356243625283241E-2  -8.041310906410217E-1   3.772945106029511E-1  
 8.210210210210210E8    -3.979080319404602E-1   6.032119989395142E-1  -5.578028783202171E-2  -4.853956028819084E-2  -5.561987683176994E-2  -4.871036857366562E-2  -8.001626729965210E-1   3.945510089397430E-1  
 8.234234234234234E8    -3.900456726551056E-1   6.136228442192078E-1  -5.586285889148712E-2  -4.336359351873398E-2  -5.584582313895226E-2  -4.380709677934647E-2  -7.958899736404419E-1   4.119654595851898E-1  
