#  HZ   S   RI   R     50.00 
! Rohde & Schwarz ZVB8 2Ports - Version 2.81 - 1145.1010k08 SN: 100113
! Date: 2016-05-17 22:37:14
! Measurements: S11 S21 S12 S22 
! 
 6.000000000000000E8    -8.027510046958923E-1   4.925097227096558E-1  -8.050395990721881E-4  -1.671020872890949E-3  -8.172129746526480E-4  -1.589224091731012E-3  -9.439764022827148E-1   2.409014403820038E-1  
 6.024024024024024E8    -7.947648167610169E-1   5.030430555343628E-1  -8.094132645055652E-4  -1.639343914575875E-3  -7.410321268253028E-4  -1.645726268179715E-3  -9.405332207679749E-1   2.514832317829132E-1  
 6.048048048048048E8    -7.857849001884460E-1   5.142194628715515E-1  -7.771753007546067E-4  -1.734858495183289E-3  -7.766279159113765E-4  -1.687595038674772E-3  -9.372845292091370E-1   2.624968588352203E-1  
 6.072072072072072E8    -7.763330936431885E-1   5.262277126312256E-1  -7.751405355520546E-4  -1.733581768348813E-3  -7.011983543634415E-4  -1.716088037937880E-3  -9.337500929832459E-1   2.721668183803558E-1  
 6.096096096096096E8    -7.665641903877258E-1   5.383949875831604E-1  -7.073336164467037E-4  -1.799825695343316E-3  -6.188728730194271E-4  -1.815006369724870E-3  -9.304716587066650E-1   2.829008400440216E-1  
 6.120120120120120E8    -7.587984204292297E-1   5.475972294807434E-1  -7.252909126691520E-4  -1.883732271380723E-3  -6.557489396072924E-4  -1.926845987327397E-3  -9.274623990058899E-1   2.909953296184540E-1  
 6.144144144144144E8    -7.497545480728149E-1   5.583674311637878E-1  -5.954361404292285E-4  -1.994274323806167E-3  -5.449651507660747E-4  -1.888041617348790E-3  -9.243865013122559E-1   3.006396293640137E-1  
 6.168168168168168E8    -7.403589487075806E-1   5.686235427856445E-1  -6.011431687511504E-4  -2.162125194445252E-3  -4.343684995546937E-4  -2.148023340851069E-3  -9.210716485977173E-1   3.103277981281281E-1  
 6.192192192192192E8    -7.302848100662231E-1   5.788576006889343E-1  -4.091673763468862E-4  -2.317761071026325E-3  -3.540149482432753E-4  -2.448010956868529E-3  -9.170757532119751E-1   3.207736015319824E-1  
 6.216216216216216E8    -7.205376625061035E-1   5.889175534248352E-1  -2.585808397270739E-4  -2.653744071722031E-3  -2.830285229720175E-4  -2.670513000339270E-3  -9.133284091949463E-1   3.304968774318695E-1  
 6.240240240240240E8    -7.096707224845886E-1   5.982695221900940E-1  -2.340048522455618E-4  -3.091232152655721E-3  -1.999892556341365E-4  -3.094332059845328E-3  -9.089761972427368E-1   3.398445844650269E-1  
 6.264264264264264E8    -6.997489929199219E-1   6.078025698661804E-1  -2.706898085307330E-4  -3.675095504149795E-3  -2.309513947693631E-4  -3.654498839750886E-3  -9.048084616661072E-1   3.515202105045319E-1  
 6.288288288288288E8    -6.902295947074890E-1   6.164588928222656E-1  -4.553564358502626E-4  -4.277601838111877E-3  -4.441014607436955E-4  -4.280611872673035E-3  -9.005785584449768E-1   3.617413341999054E-1  
 6.312312312312312E8    -6.813867092132568E-1   6.249800920486450E-1  -8.819501381367445E-4  -4.822419956326485E-3  -8.106608875095844E-4  -4.841323010623455E-3  -8.963392376899719E-1   3.709136247634888E-1  
 6.336336336336336E8    -6.729850769042969E-1   6.337590217590332E-1  -1.367636257782579E-3  -5.431169643998146E-3  -1.335545675829053E-3  -5.372324492782354E-3  -8.922359347343445E-1   3.791605234146118E-1  
 6.360360360360360E8    -6.640908718109131E-1   6.431742906570435E-1  -2.110111294314265E-3  -5.836468189954758E-3  -2.030186355113983E-3  -5.804755724966526E-3  -8.883461356163025E-1   3.866836726665497E-1  
 6.384384384384384E8    -6.545053124427795E-1   6.526118516921997E-1  -2.853236161172390E-3  -5.985287949442864E-3  -2.849785843864083E-3  -6.017226725816727E-3  -8.843860626220703E-1   3.960044682025909E-1  
 6.408408408408408E8    -6.442772746086121E-1   6.623374819755554E-1  -3.676702966913581E-3  -6.063808221369982E-3  -3.653130494058132E-3  -6.151294801384211E-3  -8.802654743194580E-1   4.051485359668732E-1  
 6.432432432432432E8    -6.334978938102722E-1   6.721625924110413E-1  -4.292624071240425E-3  -6.071973126381636E-3  -4.336258396506310E-3  -6.062654312700033E-3  -8.758901357650757E-1   4.137268364429474E-1  
 6.456456456456456E8    -6.219934225082398E-1   6.813706755638123E-1  -4.944840446114540E-3  -5.883445497602224E-3  -4.987270571291447E-3  -5.875737871974707E-3  -8.709049224853516E-1   4.223514497280121E-1  
 6.480480480480480E8    -6.102551221847534E-1   6.900755167007446E-1  -5.535614676773548E-3  -5.656358320266008E-3  -5.474361125379801E-3  -5.721107590943575E-3  -8.658981323242188E-1   4.309841692447662E-1  
 6.504504504504504E8    -5.973409414291382E-1   7.003325819969177E-1  -6.035191472619772E-3  -5.439256317913532E-3  -5.988824181258678E-3  -5.467944312840700E-3  -8.572734594345093E-1   4.403953552246094E-1  
 6.528528528528528E8    -5.840122699737549E-1   7.098484039306641E-1  -6.481432821601629E-3  -5.282294470816851E-3  -6.464880891144276E-3  -5.274340044707060E-3  -8.496388196945190E-1   4.517417848110199E-1  
 6.552552552552552E8    -5.706305503845215E-1   7.183866500854492E-1  -6.974036339670420E-3  -5.158364772796631E-3  -6.974305957555771E-3  -5.145207978785038E-3  -8.444802165031433E-1   4.631038010120392E-1  
 6.576576576576576E8    -5.566331744194031E-1   7.264590859413147E-1  -7.430246565490961E-3  -4.954929463565350E-3  -7.421441376209259E-3  -4.995448980480433E-3  -8.422130346298218E-1   4.720442295074463E-1  
 6.600600600600600E8    -5.409643054008484E-1   7.343567609786987E-1  -7.937275804579258E-3  -4.769774153828621E-3  -7.906819693744183E-3  -4.793570376932621E-3  -8.390278220176697E-1   4.774985611438751E-1  
 6.624624624624624E8    -5.262203216552734E-1   7.424314022064209E-1  -8.464830927550793E-3  -4.516541492193937E-3  -8.389099501073360E-3  -4.586695693433285E-3  -8.329344391822815E-1   4.870844781398773E-1  
 6.648648648648648E8    -5.116189718246460E-1   7.495664358139038E-1  -8.887624368071556E-3  -4.243801347911358E-3  -8.839706890285015E-3  -4.295918159186840E-3  -8.269197344779968E-1   4.959620535373688E-1  
 6.672672672672672E8    -4.970157146453857E-1   7.566149234771729E-1  -9.337843395769596E-3  -4.057417158037424E-3  -9.295347146689892E-3  -4.081051796674728E-3  -8.208174109458923E-1   5.049651861190796E-1  
 6.696696696696696E8    -4.812468290328980E-1   7.632374763488770E-1  -9.699781425297260E-3  -3.716130275279284E-3  -9.760804474353790E-3  -3.767489921301603E-3  -8.148820996284485E-1   5.132293701171875E-1  
 6.720720720720720E8    -4.647076725959778E-1   7.696222066879273E-1  -1.020059455186129E-2  -3.590077627450228E-3  -1.014644186943770E-2  -3.508230671286583E-3  -8.092851638793945E-1   5.216987133026123E-1  
 6.744744744744744E8    -4.476895332336426E-1   7.752637863159180E-1  -1.064565498381853E-2  -3.259615274146199E-3  -1.061401516199112E-2  -3.244403284043074E-3  -8.022576570510864E-1   5.310126543045044E-1  
 6.768768768768768E8    -4.301755726337433E-1   7.806116938591003E-1  -1.110933348536491E-2  -2.872888464480639E-3  -1.106319762766361E-2  -2.879080595448613E-3  -7.953849434852600E-1   5.400766730308533E-1  
 6.792792792792792E8    -4.126050472259522E-1   7.850048542022705E-1  -1.146323885768652E-2  -2.549248980358243E-3  -1.146452967077494E-2  -2.545932540670037E-3  -7.884541749954224E-1   5.489636659622192E-1  
 6.816816816816816E8    -3.940688371658325E-1   7.890043258666992E-1  -1.191319525241852E-2  -2.187307225540280E-3  -1.189047284424305E-2  -2.280643209815025E-3  -7.812203764915466E-1   5.577241778373718E-1  
 6.840840840840840E8    -3.759072721004486E-1   7.924068570137024E-1  -1.233243290334940E-2  -1.988940639421344E-3  -1.232510432600975E-2  -2.009487478062511E-3  -7.740566730499268E-1   5.668776035308838E-1  
 6.864864864864864E8    -3.565033674240112E-1   7.958766222000122E-1  -1.275630295276642E-2  -1.714701764285564E-3  -1.279499009251595E-2  -1.714818063192070E-3  -7.662191390991211E-1   5.756546258926392E-1  
 6.888888888888888E8    -3.374269604682922E-1   7.988005280494690E-1  -1.332039479166269E-2  -1.249373541213572E-3  -1.323896273970604E-2  -1.450680545531213E-3  -7.579774856567383E-1   5.848019123077393E-1  
 6.912912912912912E8    -3.178720772266388E-1   8.009656071662903E-1  -1.385650224983692E-2  -9.224820532836020E-4  -1.382151432335377E-2  -1.037437235936523E-3  -7.498346567153931E-1   5.941844582557678E-1  
 6.936936936936936E8    -2.983148396015167E-1   8.026551008224487E-1  -1.439138595014811E-2  -4.439238109625876E-4  -1.431898493319750E-2  -5.313575966283679E-4  -7.418730258941650E-1   6.032245159149170E-1  
 6.960960960960960E8    -2.777653634548187E-1   8.032829165458679E-1  -1.482726726680994E-2  -2.616663186927326E-5  -1.487801503390074E-2  -1.841598532337230E-5  -7.338021397590637E-1   6.126265525817871E-1  
 6.984984984984984E8    -2.575655579566956E-1   8.029352426528931E-1  -1.528185978531838E-2   3.285559650976211E-4  -1.533418335020542E-2   5.122156580910087E-4  -7.229359745979309E-1   6.244416236877441E-1  
 7.009009009009008E8    -2.372340708971024E-1   8.007359504699707E-1  -1.565827615559101E-2   8.158683194778860E-4  -1.567714288830757E-2   1.046548597514629E-3  -7.122672200202942E-1   6.349115371704102E-1  
 7.033033033033032E8    -2.164406180381775E-1   7.973589301109314E-1  -1.596724800765514E-2   1.115755876526237E-3  -1.591714285314083E-2   1.375891384668648E-3  -7.033094167709351E-1   6.431082487106323E-1  
 7.057057057057056E8    -1.952013969421387E-1   7.921271920204163E-1  -1.638407073915005E-2   1.392457867041230E-3  -1.638467796146870E-2   1.565836952067912E-3  -6.968073248863220E-1   6.482840776443481E-1  
 7.081081081081080E8    -1.731600761413574E-1   7.857022285461426E-1  -1.684943772852421E-2   1.639563706703484E-3  -1.688615418970585E-2   1.563780009746552E-3  -6.897767782211304E-1   6.542589664459229E-1  
 7.105105105105104E8    -1.519536823034287E-1   7.785437107086182E-1  -1.735329441726208E-2   1.892735832370818E-3  -1.743655838072300E-2   1.597769674845040E-3  -6.818270683288574E-1   6.611147522926331E-1  
 7.129129129129129E8    -1.330635994672775E-1   7.698468565940857E-1  -1.798715442419052E-2   1.947286538779736E-3  -1.805406622588635E-2   1.545793726108968E-3  -6.724504232406616E-1   6.691901087760925E-1  
 7.153153153153153E8    -1.162000522017479E-1   7.594408392906189E-1  -1.877974160015583E-2   1.718222512863576E-3  -1.876010932028294E-2   1.509660040028393E-3  -6.613306999206543E-1   6.780607700347900E-1  
 7.177177177177178E8    -1.002422422170639E-1   7.485329508781433E-1  -1.984676904976368E-2   1.259639277122915E-3  -1.985811255872250E-2   1.175571116618812E-3  -6.493319272994995E-1   6.870925426483154E-1  
 7.201201201201202E8    -8.441240340471268E-2   7.379410862922669E-1  -2.141095884144306E-2   5.875900969840586E-4  -2.141117677092552E-2   5.741674685850740E-4  -6.371922492980957E-1   6.957539319992065E-1  
 7.225225225225226E8    -7.105974107980728E-2   7.282325625419617E-1  -2.395147085189819E-2  -8.876229549059644E-5  -2.398031763732433E-2  -1.503690873505548E-4  -6.237265467643738E-1   7.046059966087341E-1  
 7.249249249249250E8    -5.720236897468567E-2   7.199270129203796E-1  -2.762810699641705E-2   1.691243414825294E-5  -2.759297564625740E-2  -3.500019083730876E-4  -6.124559640884399E-1   7.103886008262634E-1  
 7.273273273273274E8    -4.206363111734390E-2   7.135279774665833E-1  -3.200627118349075E-2   1.437128870747984E-3  -3.194221854209900E-2   7.573679322376847E-4  -6.011715531349182E-1   7.159292697906494E-1  
 7.297297297297298E8    -2.488570660352707E-2   7.065134644508362E-1  -3.639902547001839E-2   3.949820529669523E-3  -3.645877540111542E-2   3.372565843164921E-3  -5.899320840835571E-1   7.211640477180481E-1  
 7.321321321321322E8    -6.551831029355526E-3   6.966130137443543E-1  -4.056574404239655E-2   7.638722658157349E-3  -4.053139314055443E-2   7.645954843610525E-3  -5.785543918609619E-1   7.271421551704407E-1  
 7.345345345345346E8     1.248672418296337E-2   6.842756867408752E-1  -4.371562600135803E-2   1.263632066547871E-2  -4.370328783988953E-2   1.294635608792305E-2  -5.675879120826721E-1   7.332772016525269E-1  
 7.369369369369370E8     3.181739151477814E-2   6.686228513717651E-1  -4.579012468457222E-2   1.813853904604912E-2  -4.564094543457031E-2   1.861419714987278E-2  -5.565621852874756E-1   7.401137948036194E-1  
 7.393393393393394E8     5.095222592353821E-2   6.495769023895264E-1  -4.720788076519966E-2   2.401199005544186E-2  -4.695784673094750E-2   2.444372139871121E-2  -5.455023646354675E-1   7.467421889305115E-1  
 7.417417417417418E8     6.820610910654068E-2   6.272199153900147E-1  -4.757204651832581E-2   3.047799505293369E-2  -4.740313068032265E-2   3.059934638440609E-2  -5.344598889350891E-1   7.529417276382446E-1  
 7.441441441441442E8     8.359417319297791E-2   6.025210022926331E-1  -4.675684869289398E-2   3.687969967722893E-2  -4.690959677100182E-2   3.664477542042732E-2  -5.238903164863586E-1   7.584253549575806E-1  
 7.465465465465466E8     9.434395283460617E-2   5.769433379173279E-1  -4.554552957415581E-2   4.270273447036743E-2  -4.572901502251625E-2   4.236103594303131E-2  -5.105491876602173E-1   7.655169963836670E-1  
 7.489489489489490E8     1.020649746060371E-1   5.491437911987305E-1  -4.374663531780243E-2   4.842478036880493E-2  -4.419290274381638E-2   4.808937013149262E-2  -4.988464713096619E-1   7.717207074165344E-1  
 7.513513513513514E8     1.066840291023254E-1   5.206244587898254E-1  -4.156073182821274E-2   5.395053327083588E-2  -4.215042665600777E-2   5.365788936614990E-2  -4.872128367424011E-1   7.771933674812317E-1  
 7.537537537537538E8     1.099341735243797E-1   4.920268654823303E-1  -3.904581069946289E-2   5.954233929514885E-2  -3.973602131009102E-2   5.936299264431000E-2  -4.735180437564850E-1   7.831705808639526E-1  
 7.561561561561562E8     1.109134852886200E-1   4.627312719821930E-1  -3.607369214296341E-2   6.540077924728394E-2  -3.653950244188309E-2   6.522519141435623E-2  -4.593768715858460E-1   7.875355482101440E-1  
 7.585585585585586E8     1.084485426545143E-1   4.355108737945557E-1  -3.227590397000313E-2   7.101063430309296E-2  -3.231063112616539E-2   7.078137993812561E-2  -4.430535137653351E-1   7.941131591796875E-1  
 7.609609609609610E8     1.036326959729195E-1   4.075388610363007E-1  -2.802432514727116E-2   7.630622386932373E-2  -2.802141755819321E-2   7.595159113407135E-2  -4.272773861885071E-1   8.001773357391357E-1  
 7.633633633633634E8     9.575843811035156E-2   3.780176341533661E-1  -2.349807322025299E-2   8.194918185472488E-2  -2.356879226863384E-2   8.154448121786118E-2  -4.127452671527863E-1   8.049235939979553E-1  
 7.657657657657658E8     8.173809200525284E-2   3.475690782070160E-1  -1.765106618404388E-2   8.775141835212708E-2  -1.799174211919308E-2   8.753342926502228E-2  -3.991266787052155E-1   8.086199760437012E-1  
 7.681681681681682E8     6.056154146790505E-2   3.199841380119324E-1  -1.061957795172930E-2   9.307345002889633E-2  -1.118648611009121E-2   9.319651871919632E-2  -3.870148360729218E-1   8.116879463195801E-1  
 7.705705705705706E8     3.355795890092850E-2   3.006314039230347E-1  -2.408077241852880E-3   9.742658585309982E-2  -3.081029513850808E-3   9.761497378349304E-2  -3.740589022636414E-1   8.145258426666260E-1  
 7.729729729729730E8     7.326672319322825E-3   2.882457971572876E-1   6.778567563742399E-3   1.001033931970596E-1   5.851583555340767E-3   1.008972451090813E-1  -3.597832322120667E-1   8.193234205245972E-1  
 7.753753753753754E8    -1.664356514811516E-2   2.790693044662476E-1   1.573660410940647E-2   1.017013564705849E-1   1.494455710053444E-2   1.027126386761665E-1  -3.423134982585907E-1   8.245063424110413E-1  
 7.777777777777778E8    -4.031800478696823E-2   2.716930508613586E-1   2.502132207155228E-2   1.025087311863899E-1   2.417984604835510E-2   1.032577604055405E-1  -3.219085037708283E-1   8.275055289268494E-1  
 7.801801801801802E8    -6.315332651138306E-2   2.676870524883270E-1   3.428231552243233E-2   1.025630533695221E-1   3.329402208328247E-2   1.025072634220123E-1  -3.006228208541870E-1   8.271236419677734E-1  
 7.825825825825826E8    -8.444590121507645E-2   2.676517665386200E-1   4.319219291210175E-2   1.010632142424583E-1   4.256956651806831E-2   1.011186316609383E-1  -2.795808613300324E-1   8.288319706916809E-1  
 7.849849849849850E8    -1.030523031949997E-1   2.706746459007263E-1   5.140652135014534E-2   9.898548573255539E-2   5.054356902837753E-2   9.910048544406891E-2  -2.620732486248016E-1   8.285170793533325E-1  
 7.873873873873874E8    -1.186619326472282E-1   2.738888263702393E-1   5.900594592094421E-2   9.721423685550690E-2   5.808278173208237E-2   9.714981168508530E-2  -2.451196014881134E-1   8.284198641777039E-1  
 7.897897897897898E8    -1.337755322456360E-1   2.753401398658752E-1   6.723248213529587E-2   9.572958201169968E-2   6.660813838243485E-2   9.560643881559372E-2  -2.278695255517960E-1   8.304240703582764E-1  
 7.921921921921922E8    -1.504267007112503E-1   2.799367606639862E-1   7.652945071458817E-2   9.277232736349106E-2   7.634839415550232E-2   9.301105141639710E-2  -2.097112685441971E-1   8.336251378059387E-1  
 7.945945945945946E8    -1.672661155462265E-1   2.881034910678864E-1   8.555669337511063E-2   8.807554095983505E-2   8.493733406066895E-2   8.855788409709930E-2  -1.897296607494354E-1   8.330826759338379E-1  
 7.969969969969970E8    -1.813071519136429E-1   2.968090176582336E-1   9.350831806659699E-2   8.255317807197571E-2   9.276055544614792E-2   8.330573141574860E-2  -1.682152897119522E-1   8.325789570808411E-1  
 7.993993993993994E8    -1.944030970335007E-1   3.060231506824493E-1   1.007358208298683E-1   7.652815431356430E-2   1.001406759023666E-1   7.737318426370621E-2  -1.452335566282272E-1   8.313101530075073E-1  
 8.018018018018018E8    -2.051373124122620E-1   3.157422542572022E-1   1.071202084422112E-1   7.025919854640961E-2   1.070260405540466E-1   7.078951597213745E-2  -1.213398352265358E-1   8.283212780952454E-1  
 8.042042042042042E8    -2.147462815046310E-1   3.260460495948792E-1   1.136717423796654E-1   6.435340642929077E-2   1.134676933288574E-1   6.472606211900711E-2  -9.817521274089813E-2   8.237552642822266E-1  
 8.066066066066066E8    -2.218958437442780E-1   3.374523222446442E-1   1.203868538141251E-1   5.735966563224793E-2   1.203582286834717E-1   5.775080248713493E-2  -7.352306693792343E-2   8.183838725090027E-1  
 8.090090090090090E8    -2.279935181140900E-1   3.491899669170380E-1   1.268288791179657E-1   4.941550269722939E-2   1.270274817943573E-1   4.965220764279366E-2  -4.868384450674057E-2   8.116713762283325E-1  
 8.114114114114114E8    -2.316192090511322E-1   3.611561655998230E-1   1.323852241039276E-1   4.016987234354019E-2   1.327858120203018E-1   4.019599035382271E-2  -2.380140312016010E-2   8.032286167144775E-1  
 8.138138138138138E8    -2.325660139322281E-1   3.701805174350739E-1   1.367095261812210E-1   3.022710420191288E-2   1.370828747749329E-1   3.017513081431389E-2   7.209539180621505E-4   7.937066555023193E-1  
 8.162162162162162E8    -2.356611490249634E-1   3.764217793941498E-1   1.397786736488342E-1   2.073365636169910E-2   1.399890631437302E-1   2.073558792471886E-2   2.570195123553276E-2   7.831934690475464E-1  
 8.186186186186186E8    -2.410186529159546E-1   3.844717741012573E-1   1.423569023609161E-1   1.131865661591291E-2   1.427102684974670E-1   1.156564615666866E-2   5.219567939639092E-2   7.715155482292175E-1  
 8.210210210210210E8    -2.440087646245956E-1   3.937725722789764E-1   1.446245163679123E-1   1.031659892760217E-3   1.447741985321045E-1   1.558924093842506E-3   7.861363142728806E-2   7.576462626457214E-1  
 8.234234234234234E8    -2.448848783969879E-1   3.991133272647858E-1   1.456158906221390E-1  -9.195296093821526E-3   1.456679701805115E-1  -8.756242692470551E-3   1.055198833346367E-1   7.411899566650391E-1  
