#  HZ   S   RI   R     50.00 
! Rohde & Schwarz ZVB8 2Ports - Version 2.81 - 1145.1010k08 SN: 100113
! Date: 2016-05-17 22:36:52
! Measurements: S11 S21 S12 S22 
! 
 6.000000000000000E8    -8.159265518188477E-1   4.798161983489990E-1  -5.678318557329476E-4  -1.340669812634587E-3  -5.161161534488201E-4  -1.323164091445506E-3  -9.476959109306335E-1   2.309098094701767E-1  
 6.024024024024024E8    -8.083565235137940E-1   4.899184703826904E-1  -5.212689866311848E-4  -1.358035253360868E-3  -4.603734996635467E-4  -1.339138369075954E-3  -9.447239041328430E-1   2.415398359298706E-1  
 6.048048048048048E8    -8.005671501159668E-1   5.012825131416321E-1  -5.404687835834920E-4  -1.319168717600405E-3  -4.537173954304308E-4  -1.368208788335323E-3  -9.414812922477722E-1   2.521046996116638E-1  
 6.072072072072072E8    -7.921742200851440E-1   5.130097866058350E-1  -5.701262853108347E-4  -1.375746913254261E-3  -5.201549502089620E-4  -1.302515389397740E-3  -9.385800361633301E-1   2.620580196380615E-1  
 6.096096096096096E8    -7.830988764762878E-1   5.249285697937012E-1  -4.397100128699094E-4  -1.418977160938084E-3  -4.636930243577808E-4  -1.418685773387551E-3  -9.351705908775330E-1   2.720310389995575E-1  
 6.120120120120120E8    -7.762183547019959E-1   5.341240167617798E-1  -4.100945952814072E-4  -1.480094739235938E-3  -4.735520342364907E-4  -1.456649624742568E-3  -9.325148463249207E-1   2.797443568706513E-1  
 6.144144144144144E8    -7.684459686279297E-1   5.443645715713501E-1  -3.172435099259019E-4  -1.483559142798185E-3  -3.822850121650845E-4  -1.557023962959647E-3  -9.298439025878906E-1   2.888839542865753E-1  
 6.168168168168168E8    -7.597516775131226E-1   5.552129745483398E-1  -2.775170432869345E-4  -1.621885807253420E-3  -2.400556404609233E-4  -1.672548940405250E-3  -9.268836975097656E-1   2.988779246807098E-1  
 6.192192192192192E8    -7.510387301445007E-1   5.653750896453857E-1  -1.428311516065151E-4  -1.811908674426377E-3  -1.655172673054040E-4  -1.761464518494904E-3  -9.233731031417847E-1   3.083605170249939E-1  
 6.216216216216216E8    -7.418739199638367E-1   5.751483440399170E-1  -8.678523590788245E-5  -2.068880945444107E-3  -7.000431651249528E-5  -2.032267395406961E-3  -9.195299148559570E-1   3.180093765258789E-1  
 6.240240240240240E8    -7.322143316268921E-1   5.851068496704102E-1   1.914624408527743E-5  -2.298849867656827E-3  -4.868269752478227E-5  -2.348558278754354E-3  -9.159318804740906E-1   3.272695839405060E-1  
 6.264264264264264E8    -7.236136794090271E-1   5.944328308105469E-1   2.217330620624125E-5  -2.732899505645037E-3   1.673452425166033E-5  -2.670695539563894E-3  -9.121407866477966E-1   3.384147286415100E-1  
 6.288288288288288E8    -7.146596312522888E-1   6.037536859512329E-1  -1.482880470575765E-4  -3.222239436581731E-3  -6.390603812178597E-5  -3.200485836714506E-3  -9.082367420196533E-1   3.483684659004211E-1  
 6.312312312312312E8    -7.065164446830750E-1   6.124377250671387E-1  -2.981722936965525E-4  -3.627841128036380E-3  -3.978702879976481E-4  -3.693085629492998E-3  -9.042838215827942E-1   3.575041890144348E-1  
 6.336336336336336E8    -6.988931298255920E-1   6.210600733757019E-1  -7.328441715799272E-4  -4.040461033582687E-3  -7.178459200076759E-4  -4.069025162607431E-3  -9.005095362663269E-1   3.655909299850464E-1  
 6.360360360360360E8    -6.910037994384766E-1   6.303604245185852E-1  -1.212705392390490E-3  -4.398671910166740E-3  -1.191183226183057E-3  -4.332278855144978E-3  -8.971124291419983E-1   3.730058670043945E-1  
 6.384384384384384E8    -6.823217272758484E-1   6.396460533142090E-1  -1.739854924380779E-3  -4.577045328915119E-3  -1.635667053051293E-3  -4.577341489493847E-3  -8.936865925788879E-1   3.820032477378845E-1  
 6.408408408408408E8    -6.732846498489380E-1   6.491957902908325E-1  -2.256701001897454E-3  -4.668743815273047E-3  -2.245697891339660E-3  -4.682092461735010E-3  -8.898190259933472E-1   3.908679187297821E-1  
 6.432432432432432E8    -6.636271476745606E-1   6.582533121109009E-1  -2.750668674707413E-3  -4.603978246450424E-3  -2.794246654957533E-3  -4.710931796580553E-3  -8.856753110885620E-1   3.991581201553345E-1  
 6.456456456456456E8    -6.539089083671570E-1   6.670903563499451E-1  -3.239966230466962E-3  -4.619685001671314E-3  -3.232481423765421E-3  -4.624648019671440E-3  -8.812940120697022E-1   4.073168933391571E-1  
 6.480480480480480E8    -6.440120339393616E-1   6.758916378021240E-1  -3.632907988503575E-3  -4.476294852793217E-3  -3.660052781924605E-3  -4.550023004412651E-3  -8.769217729568481E-1   4.155286252498627E-1  
 6.504504504504504E8    -6.327738761901856E-1   6.857836842536926E-1  -4.070618655532599E-3  -4.357869736850262E-3  -3.964350093156099E-3  -4.335230216383934E-3  -8.687947988510132E-1   4.244141280651093E-1  
 6.528528528528528E8    -6.214797496795654E-1   6.953270435333252E-1  -4.315054044127464E-3  -4.193747416138649E-3  -4.266584292054176E-3  -4.219696391373873E-3  -8.617533445358276E-1   4.353968501091003E-1  
 6.552552552552552E8    -6.102563142776489E-1   7.041119933128357E-1  -4.576974548399448E-3  -4.051428753882647E-3  -4.582014866173267E-3  -4.092281684279442E-3  -8.571665883064270E-1   4.465728104114533E-1  
 6.576576576576576E8    -5.985352396965027E-1   7.120707035064697E-1  -4.844696260988712E-3  -3.963754512369633E-3  -4.851966630667448E-3  -3.986189141869545E-3  -8.553549647331238E-1   4.549269080162048E-1  
 6.600600600600600E8    -5.852049589157105E-1   7.205468416213989E-1  -5.201668944209814E-3  -3.858630778267980E-3  -5.136861000210047E-3  -3.876717295497656E-3  -8.526170253753662E-1   4.603724777698517E-1  
 6.624624624624624E8    -5.731893777847290E-1   7.288143038749695E-1  -5.428345408290625E-3  -3.756884019821882E-3  -5.446217954158783E-3  -3.783064195886254E-3  -8.474600911140442E-1   4.694256484508514E-1  
 6.648648648648648E8    -5.612080693244934E-1   7.369771003723145E-1  -5.719233769923449E-3  -3.664455143734813E-3  -5.702286958694458E-3  -3.658467670902610E-3  -8.420161604881287E-1   4.782310724258423E-1  
 6.672672672672672E8    -5.488708019256592E-1   7.445937395095825E-1  -6.064337678253651E-3  -3.531408729031682E-3  -6.040959153324366E-3  -3.534356597810984E-3  -8.367347717285156E-1   4.864476621150971E-1  
 6.696696696696696E8    -5.362036228179932E-1   7.519415616989136E-1  -6.372182630002499E-3  -3.420491470023990E-3  -6.322159431874752E-3  -3.431621938943863E-3  -8.316285610198975E-1   4.944387674331665E-1  
 6.720720720720720E8    -5.225690007209778E-1   7.594002485275269E-1  -6.692925468087196E-3  -3.272268222644925E-3  -6.654931697994471E-3  -3.263739403337240E-3  -8.266462087631226E-1   5.024698972702026E-1  
 6.744744744744744E8    -5.084523558616638E-1   7.664007544517517E-1  -6.910680793225765E-3  -3.047047648578882E-3  -6.973695475608110E-3  -3.084034426137805E-3  -8.206794261932373E-1   5.112871527671814E-1  
 6.768768768768768E8    -4.943786561489105E-1   7.731097936630249E-1  -7.195978891104460E-3  -2.870653290301561E-3  -7.196229416877031E-3  -2.859034342691302E-3  -8.143460750579834E-1   5.199426412582398E-1  
 6.792792792792792E8    -4.799093604087830E-1   7.792997956275940E-1  -7.418278604745865E-3  -2.756996080279350E-3  -7.385892793536186E-3  -2.766987308859825E-3  -8.082124590873718E-1   5.285071730613709E-1  
 6.816816816816816E8    -4.650747776031494E-1   7.849788069725037E-1  -7.758725900202990E-3  -2.534042811021209E-3  -7.701174821704626E-3  -2.546518109738827E-3  -8.021612763404846E-1   5.368399620056152E-1  
 6.840840840840840E8    -4.499410688877106E-1   7.905606627464294E-1  -7.971110753715038E-3  -2.351264003664255E-3  -7.898492738604546E-3  -2.360278274863958E-3  -7.958700060844421E-1   5.457042455673218E-1  
 6.864864864864864E8    -4.342752397060394E-1   7.963176369667053E-1  -8.174036629498005E-3  -2.205365104600787E-3  -8.172050118446350E-3  -2.219309564679861E-3  -7.891914844512940E-1   5.538933873176575E-1  
 6.888888888888888E8    -4.186277389526367E-1   8.018614649772644E-1  -8.418941870331764E-3  -1.949028228409588E-3  -8.413800038397312E-3  -2.153571695089340E-3  -7.819499969482422E-1   5.625048875808716E-1  
 6.912912912912912E8    -4.034422039985657E-1   8.071006536483765E-1  -8.705269545316696E-3  -1.850884058512747E-3  -8.631573989987373E-3  -1.911010476760566E-3  -7.749915719032288E-1   5.716222524642944E-1  
 6.936936936936936E8    -3.879936635494232E-1   8.122349381446838E-1  -9.000987745821476E-3  -1.796559081412852E-3  -8.897414430975914E-3  -1.765208668075502E-3  -7.683333754539490E-1   5.803341269493103E-1  
 6.960960960960960E8    -3.715866506099701E-1   8.173320293426514E-1  -9.286788292229176E-3  -1.646542339585722E-3  -9.254705160856247E-3  -1.572108478285372E-3  -7.614369392395020E-1   5.893358588218689E-1  
 6.984984984984984E8    -3.556674718856812E-1   8.208521008491516E-1  -9.525923058390617E-3  -1.493261195719242E-3  -9.565770626068115E-3  -1.390815363265574E-3  -7.521237134933472E-1   6.008605957031250E-1  
 7.009009009009008E8    -3.395097851753235E-1   8.238448500633240E-1  -9.757143445312977E-3  -1.261900062672794E-3  -9.841037914156914E-3  -1.106241252273321E-3  -7.427993416786194E-1   6.111681461334229E-1  
 7.033033033033032E8    -3.227940201759338E-1   8.258127570152283E-1  -9.952531196177006E-3  -1.068501849658787E-3  -9.921034798026085E-3  -9.130571852438152E-4  -7.352714538574219E-1   6.189256310462952E-1  
 7.057057057057056E8    -3.058167695999146E-1   8.271527290344238E-1  -9.975631721317768E-3  -1.018231385387480E-3  -1.003847364336252E-2  -9.675464825704694E-4  -7.304291725158691E-1   6.235321164131165E-1  
 7.081081081081080E8    -2.869528532028198E-1   8.280884623527527E-1  -1.020694058388472E-2  -1.083104754798114E-3  -1.028341799974442E-2  -1.212454983033240E-3  -7.247728109359741E-1   6.290066838264465E-1  
 7.105105105105104E8    -2.683672904968262E-1   8.290414214134216E-1  -1.047666557133198E-2  -1.080542220734060E-3  -1.044187601655722E-2  -1.311396015807986E-3  -7.184864878654480E-1   6.354327797889710E-1  
 7.129129129129129E8    -2.515052556991577E-1   8.286836743354797E-1  -1.069667190313339E-2  -1.326801255345345E-3  -1.065540593117476E-2  -1.536560477688909E-3  -7.111065983772278E-1   6.430159807205200E-1  
 7.153153153153153E8    -2.355737239122391E-1   8.268964290618897E-1  -1.099295448511839E-2  -1.642069197259843E-3  -1.095625851303339E-2  -1.782808802090585E-3  -7.018862962722778E-1   6.517129540443420E-1  
 7.177177177177178E8    -2.203195244073868E-1   8.248550891876221E-1  -1.137522049248219E-2  -2.213994041085243E-3  -1.141104940325022E-2  -2.260714536532760E-3  -6.919515728950501E-1   6.608441472053528E-1  
 7.201201201201202E8    -2.039448618888855E-1   8.232111334800720E-1  -1.206710096448660E-2  -3.068409161642194E-3  -1.209528651088476E-2  -3.077091416344047E-3  -6.822423934936523E-1   6.693845391273499E-1  
 7.225225225225226E8    -1.895119994878769E-1   8.212438821792603E-1  -1.330670062452555E-2  -4.082626197487116E-3  -1.331780757755041E-2  -4.052267409861088E-3  -6.713386774063110E-1   6.785175204277039E-1  
 7.249249249249250E8    -1.747621595859528E-1   8.199968338012695E-1  -1.538279186934233E-2  -4.823267925530672E-3  -1.532686315476894E-2  -4.918450955301523E-3  -6.621752381324768E-1   6.847061514854431E-1  
 7.273273273273274E8    -1.599542051553726E-1   8.200796246528626E-1  -1.795550249516964E-2  -5.009339656680822E-3  -1.782677695155144E-2  -5.311878398060799E-3  -6.535047292709351E-1   6.904190778732300E-1  
 7.297297297297298E8    -1.450881361961365E-1   8.206745982170105E-1  -2.077854983508587E-2  -4.570019431412220E-3  -2.066493593156338E-2  -4.824101924896240E-3  -6.447054147720337E-1   6.964916586875916E-1  
 7.321321321321322E8    -1.294661164283752E-1   8.203081488609314E-1  -2.357368357479572E-2  -3.519991179928184E-3  -2.354819700121880E-2  -3.548254258930683E-3  -6.353884935379028E-1   7.030116915702820E-1  
 7.345345345345346E8    -1.119828075170517E-1   8.189831972122192E-1  -2.611405588686466E-2  -1.693738973699510E-3  -2.613415010273457E-2  -1.563505851663649E-3  -6.267287135124207E-1   7.102681398391724E-1  
 7.369369369369370E8    -9.300070255994797E-2   8.164224624633789E-1  -2.826559171080589E-2   5.678104935213924E-4  -2.819344773888588E-2   8.715100120753050E-4  -6.172535419464111E-1   7.177780270576477E-1  
 7.393393393393394E8    -7.347491383552551E-2   8.123034834861755E-1  -3.002201579511166E-2   3.142868401482701E-3  -2.995904162526131E-2   3.320418065413833E-3  -6.081665754318237E-1   7.247382998466492E-1  
 7.417417417417418E8    -5.402736365795136E-2   8.062880635261536E-1  -3.137059137225151E-2   5.902636796236038E-3  -3.136903420090675E-2   6.047493778169155E-3  -5.992687940597534E-1   7.314089536666870E-1  
 7.441441441441442E8    -3.429985418915749E-2   7.988903522491455E-1  -3.238759934902191E-2   8.817360736429691E-3  -3.236611559987068E-2   8.715605363249779E-3  -5.910931229591370E-1   7.371088266372681E-1  
 7.465465465465466E8    -1.761401817202568E-2   7.915457487106323E-1  -3.309134393930435E-2   1.157459057867527E-2  -3.319097682833672E-2   1.144127361476421E-2  -5.802418589591980E-1   7.445755600929260E-1  
 7.489489489489490E8    -9.221663931384683E-4   7.829564213752747E-1  -3.366587683558464E-2   1.431397534906864E-2  -3.379075601696968E-2   1.416064985096455E-2  -5.713442564010620E-1   7.509012818336487E-1  
 7.513513513513514E8     1.702399924397469E-2   7.724166512489319E-1  -3.409277647733688E-2   1.710673049092293E-2  -3.432860597968102E-2   1.696268282830715E-2  -5.622667074203491E-1   7.571679353713989E-1  
 7.537537537537538E8     3.605036064982414E-2   7.603183984756470E-1  -3.433886542916298E-2   2.015242353081703E-2  -3.459322080016136E-2   1.992189511656761E-2  -5.522007346153259E-1   7.634565830230713E-1  
 7.561561561561562E8     5.466257035732269E-2   7.464306950569153E-1  -3.443145379424095E-2   2.314433269202709E-2  -3.449553996324539E-2   2.295227907598019E-2  -5.412503480911255E-1   7.686180472373962E-1  
 7.585585585585586E8     7.109069824218750E-2   7.320839762687683E-1  -3.428772464394569E-2   2.606053836643696E-2  -3.418886289000511E-2   2.585837803781033E-2  -5.278744697570801E-1   7.761512398719788E-1  
 7.609609609609610E8     8.604998141527176E-2   7.170121669769287E-1  -3.411705791950226E-2   2.904821746051312E-2  -3.389727324247360E-2   2.877094596624374E-2  -5.156742930412293E-1   7.833319902420044E-1  
 7.633633633633634E8     1.003502905368805E-1   7.015110850334168E-1  -3.397133573889732E-2   3.215870261192322E-2  -3.381478041410446E-2   3.188399970531464E-2  -5.044531822204590E-1   7.893599867820740E-1  
 7.657657657657658E8     1.151501238346100E-1   6.851086616516113E-1  -3.371418267488480E-2   3.553831577301025E-2  -3.380425646901131E-2   3.513271734118462E-2  -4.948120713233948E-1   7.945237755775452E-1  
 7.681681681681682E8     1.290448307991028E-1   6.661096215248108E-1  -3.329351916909218E-2   3.903549164533615E-2  -3.352069854736328E-2   3.895526379346848E-2  -4.860709905624390E-1   7.986001968383789E-1  
 7.705705705705706E8     1.385429501533508E-1   6.464702486991882E-1  -3.242349624633789E-2   4.309627413749695E-2  -3.291497379541397E-2   4.294532164931297E-2  -4.768278002738953E-1   8.023414015769959E-1  
 7.729729729729730E8     1.466488391160965E-1   6.247797012329102E-1  -3.093406185507774E-2   4.721638187766075E-2  -3.159546107053757E-2   4.726309701800346E-2  -4.669259786605835E-1   8.085565567016602E-1  
 7.753753753753754E8     1.519457399845123E-1   6.020690202713013E-1  -2.884060889482498E-2   5.137718841433525E-2  -2.961596101522446E-2   5.153959617018700E-2  -4.539884924888611E-1   8.151088953018189E-1  
 7.777777777777778E8     1.540106087923050E-1   5.795266032218933E-1  -2.632526494562626E-2   5.542741343379021E-2  -2.694998309016228E-2   5.556460097432137E-2  -4.382975995540619E-1   8.200542926788330E-1  
 7.801801801801802E8     1.537229567766190E-1   5.586423873901367E-1  -2.320961467921734E-2   5.938570946455002E-2  -2.365143038332462E-2   5.905669182538986E-2  -4.208579361438751E-1   8.220469951629639E-1  
 7.825825825825826E8     1.524989306926727E-1   5.392697453498840E-1  -1.990914158523083E-2   6.281776726245880E-2  -2.012295089662075E-2   6.267450749874115E-2  -4.045079946517944E-1   8.262989521026611E-1  
 7.849849849849850E8     1.501248180866242E-1   5.226923823356628E-1  -1.623522862792015E-2   6.607674062252045E-2  -1.649174094200134E-2   6.570515781641007E-2  -3.921955227851868E-1   8.279349803924561E-1  
 7.873873873873874E8     1.477080881595612E-1   5.089659094810486E-1  -1.245533954352140E-2   6.909415870904923E-2  -1.284073665738106E-2   6.854572147130966E-2  -3.815025091171265E-1   8.298569321632385E-1  
 7.897897897897898E8     1.487842649221420E-1   4.951092898845673E-1  -8.641282096505165E-3   7.197635620832443E-2  -9.043967351317406E-3   7.160402089357376E-2  -3.706362843513489E-1   8.340967893600464E-1  
 7.921921921921922E8     1.502279490232468E-1   4.786002933979034E-1  -4.337792284786701E-3   7.518105208873749E-2  -4.735869821161032E-3   7.520908862352371E-2  -3.596612215042114E-1   8.406030535697937E-1  
 7.945945945945946E8     1.473715305328369E-1   4.625633656978607E-1   7.413157727569342E-4   7.820499688386917E-2   7.479721534764394E-5   7.813909649848938E-2  -3.466805815696716E-1   8.431757092475891E-1  
 7.969969969969970E8     1.418235301971436E-1   4.456862211227417E-1   6.368495058268309E-3   8.063507080078125E-2   5.606385413557291E-3   8.068383485078812E-2  -3.326995968818665E-1   8.466039299964905E-1  
 7.993993993993994E8     1.335146278142929E-1   4.297316968441010E-1   1.247292850166559E-2   8.235353231430054E-2   1.191432215273380E-2   8.264627307653427E-2  -3.179713785648346E-1   8.502005338668823E-1  
 8.018018018018018E8     1.240757778286934E-1   4.153092205524445E-1   1.838966086506844E-2   8.323867619037628E-2   1.822315528988838E-2   8.352815359830856E-2  -3.027538955211639E-1   8.533095717430115E-1  
 8.042042042042042E8     1.134295910596848E-1   4.030856788158417E-1   2.425166405737400E-2   8.411787450313568E-2   2.414755336940289E-2   8.438605070114136E-2  -2.893493771553040E-1   8.553544878959656E-1  
 8.066066066066066E8     1.018419265747070E-1   3.940694630146027E-1   3.083766996860504E-2   8.453989773988724E-2   3.076570667326450E-2   8.481156080961227E-2  -2.734068334102631E-1   8.584824800491333E-1  
 8.090090090090090E8     9.018456935882568E-2   3.878734111785889E-1   3.774175047874451E-2   8.402111381292343E-2   3.756382688879967E-2   8.429432660341263E-2  -2.577288150787354E-1   8.601950407028198E-1  
 8.114114114114114E8     8.004219084978104E-2   3.845193684101105E-1   4.424480348825455E-2   8.270835876464844E-2   4.424060136079788E-2   8.308061957359314E-2  -2.428104877471924E-1   8.617475628852844E-1  
 8.138138138138138E8     7.298782467842102E-2   3.822093904018402E-1   5.060572922229767E-2   8.083070814609528E-2   5.058052390813828E-2   8.106753230094910E-2  -2.275204807519913E-1   8.630225062370300E-1  
 8.162162162162162E8     6.841729581356049E-2   3.783642947673798E-1   5.633129552006722E-2   7.848626375198364E-2   5.640346929430962E-2   7.879133522510529E-2  -2.122948169708252E-1   8.645195960998535E-1  
 8.186186186186186E8     6.107008084654808E-2   3.736958801746368E-1   6.184116005897522E-2   7.638663053512573E-2   6.172440573573113E-2   7.648605108261108E-2  -1.963381171226502E-1   8.661369085311890E-1  
 8.210210210210210E8     5.417877063155174E-2   3.708961009979248E-1   6.762963533401489E-2   7.351978123188019E-2   6.743169575929642E-2   7.369548827409744E-2  -1.792207807302475E-1   8.672693371772766E-1  
 8.234234234234234E8     5.037846043705940E-2   3.675180673599243E-1   7.297340035438538E-2   7.011778652667999E-2   7.282141596078873E-2   7.042621821165085E-2  -1.616309434175491E-1   8.679822087287903E-1  
