#  HZ   S   RI   R     50.00 
! Rohde & Schwarz ZVB8 2Ports - Version 2.81 - 1145.1010k08 SN: 100113
! Date: 2016-05-17 22:38:12
! Measurements: S11 S21 S12 S22 
! 
 6.000000000000000E8    -7.840049862861633E-1   5.082457661628723E-1  -1.949822297319770E-3  -2.959784120321274E-3  -2.022719942033291E-3  -2.979251556098461E-3  -9.180894494056702E-1   2.934282720088959E-1  
 6.024024024024024E8    -7.746701836585999E-1   5.191088318824768E-1  -1.997958868741989E-3  -2.991643967106938E-3  -1.961466856300831E-3  -2.976624062284827E-3  -9.124715328216553E-1   3.060084581375122E-1  
 6.048048048048048E8    -7.649237513542175E-1   5.304426550865173E-1  -1.998216612264514E-3  -3.119826549664140E-3  -2.008540788665414E-3  -3.079702612012625E-3  -9.075105786323547E-1   3.182981014251709E-1  
 6.072072072072072E8    -7.538475394248962E-1   5.425294041633606E-1  -2.037576399743557E-3  -3.271933179348707E-3  -1.985899638384581E-3  -3.291008295491338E-3  -9.019281268119812E-1   3.305654823780060E-1  
 6.096096096096096E8    -7.421507239341736E-1   5.550293326377869E-1  -2.011194126680493E-3  -3.323181066662073E-3  -1.976551720872521E-3  -3.372447099536657E-3  -8.960530757904053E-1   3.429020643234253E-1  
 6.120120120120120E8    -7.330768108367920E-1   5.642672777175903E-1  -2.047122688964009E-3  -3.594264620915055E-3  -1.980074448511004E-3  -3.632600419223309E-3  -8.906833529472351E-1   3.529007732868195E-1  
 6.144144144144144E8    -7.223905324935913E-1   5.745990276336670E-1  -1.972076715901494E-3  -3.877119626849890E-3  -1.893869484774768E-3  -3.831071080639958E-3  -8.852579593658447E-1   3.648536801338196E-1  
 6.168168168168168E8    -7.115408182144165E-1   5.849016308784485E-1  -1.954739913344383E-3  -4.210912622511387E-3  -1.946832984685898E-3  -4.245411604642868E-3  -8.790593147277832E-1   3.764832317829132E-1  
 6.192192192192192E8    -6.997522115707398E-1   5.947040915489197E-1  -1.832610578276217E-3  -4.716609604656696E-3  -1.854719943366945E-3  -4.738999065011740E-3  -8.721870779991150E-1   3.885658979415894E-1  
 6.216216216216216E8    -6.881040334701538E-1   6.041718125343323E-1  -1.793802483007312E-3  -5.449483636766672E-3  -1.779037760570645E-3  -5.327865015715361E-3  -8.650368452072144E-1   4.006978273391724E-1  
 6.240240240240240E8    -6.760200262069702E-1   6.131045222282410E-1  -1.921163988299668E-3  -6.301919929683209E-3  -1.866261009126902E-3  -6.310599390417337E-3  -8.573465347290039E-1   4.123432934284210E-1  
 6.264264264264264E8    -6.646109819412231E-1   6.219899058341980E-1  -2.328135771676898E-3  -7.470537442713976E-3  -2.212055027484894E-3  -7.312953472137451E-3  -8.492925167083740E-1   4.260535836219788E-1  
 6.288288288288288E8    -6.535090208053589E-1   6.303834319114685E-1  -3.033505985513330E-3  -8.602167479693890E-3  -2.945978427305818E-3  -8.639600127935410E-3  -8.407588005065918E-1   4.385166764259338E-1  
 6.312312312312312E8    -6.432638168334961E-1   6.386410593986511E-1  -4.114838317036629E-3  -9.759298525750637E-3  -4.067328292876482E-3  -9.738224558532238E-3  -8.322551250457764E-1   4.498255550861359E-1  
 6.336336336336336E8    -6.334872245788574E-1   6.476693153381348E-1  -5.609113723039627E-3  -1.069672964513302E-2  -5.559375043958426E-3  -1.064029056578875E-2  -8.238572478294373E-1   4.602914452552795E-1  
 6.360360360360360E8    -6.229037046432495E-1   6.572731137275696E-1  -7.283864542841911E-3  -1.141638588160276E-2  -7.267396897077560E-3  -1.141192950308323E-2  -8.159705400466919E-1   4.702546000480652E-1  
 6.384384384384384E8    -6.113913655281067E-1   6.669970154762268E-1  -9.177839383482933E-3  -1.178677380084992E-2  -9.163883514702320E-3  -1.185163483023644E-2  -8.074162006378174E-1   4.817827939987183E-1  
 6.408408408408408E8    -5.993423461914063E-1   6.768628358840942E-1  -1.126154139637947E-2  -1.181083638221026E-2  -1.118832174688578E-2  -1.184957940131426E-2  -7.981381416320801E-1   4.934808611869812E-1  
 6.432432432432432E8    -5.858930349349976E-1   6.868228912353516E-1  -1.317151822149754E-2  -1.157289464026690E-2  -1.310731284320355E-2  -1.160666625946760E-2  -7.882441282272339E-1   5.045612454414368E-1  
 6.456456456456456E8    -5.714037418365479E-1   6.961894631385803E-1  -1.516137458384037E-2  -1.104664243757725E-2  -1.505204848945141E-2  -1.104461308568716E-2  -7.777110338211060E-1   5.155495405197144E-1  
 6.480480480480480E8    -5.561274290084839E-1   7.049729824066162E-1  -1.680989749729633E-2  -1.022125128656626E-2  -1.673836633563042E-2  -1.027119625359774E-2  -7.665973305702210E-1   5.269821882247925E-1  
 6.504504504504504E8    -5.399192571640015E-1   7.144462466239929E-1  -1.832986436784267E-2  -9.360453113913536E-3  -1.830000802874565E-2  -9.342253208160400E-3  -7.511940002441406E-1   5.388517975807190E-1  
 6.528528528528528E8    -5.230023860931397E-1   7.234503626823425E-1  -1.985811628401279E-2  -8.481253869831562E-3  -1.981354691088200E-2  -8.536004461348057E-3  -7.362936139106751E-1   5.529209971427918E-1  
 6.552552552552552E8    -5.054496526718140E-1   7.311527729034424E-1  -2.137836813926697E-2  -7.614320144057274E-3  -2.124894037842751E-2  -7.682347670197487E-3  -7.239789962768555E-1   5.670325756072998E-1  
 6.576576576576576E8    -4.872008562088013E-1   7.376514077186585E-1  -2.287955954670906E-2  -6.797082722187042E-3  -2.278671413660049E-2  -6.857252214103937E-3  -7.132880091667175E-1   5.787713527679443E-1  
 6.600600600600600E8    -4.668905436992645E-1   7.438224554061890E-1  -2.459821477532387E-2  -5.712619982659817E-3  -2.445249259471893E-2  -5.816572345793247E-3  -7.010018825531006E-1   5.871127843856812E-1  
 6.624624624624624E8    -4.475252926349640E-1   7.498272657394409E-1  -2.622735127806664E-2  -4.518127068877220E-3  -2.609519101679325E-2  -4.607412964105606E-3  -6.848597526550293E-1   5.992206335067749E-1  
 6.648648648648648E8    -4.285987317562103E-1   7.552253603935242E-1  -2.795487828552723E-2  -3.319482086226344E-3  -2.791229635477066E-2  -3.525428241118789E-3  -6.678631305694580E-1   6.110801100730896E-1  
 6.672672672672672E8    -4.085623323917389E-1   7.596421837806702E-1  -2.982366830110550E-2  -1.988435164093971E-3  -2.996447682380676E-2  -2.082743449136615E-3  -6.499918103218079E-1   6.224156022071838E-1  
 6.696696696696696E8    -3.874917924404144E-1   7.629880905151367E-1  -3.190638870000839E-2  -2.627950452733785E-4  -3.193831816315651E-2  -2.944547450169921E-4  -6.312571763992310E-1   6.332746148109436E-1  
 6.720720720720720E8    -3.646527528762817E-1   7.654591798782349E-1  -3.393258154392242E-2   1.784730935469270E-3  -3.397497907280922E-2   1.632137456908822E-3  -6.120312809944153E-1   6.438634991645813E-1  
 6.744744744744744E8    -3.417132496833801E-1   7.666726112365723E-1  -3.589955717325211E-2   4.288326483219862E-3  -3.588755801320076E-2   4.150331951677799E-3  -5.899055600166321E-1   6.542676091194153E-1  
 6.768768768768768E8    -3.183581829071045E-1   7.666993141174316E-1  -3.762035071849823E-2   6.956031080335379E-3  -3.767323866486549E-2   6.896460894495249E-3  -5.662395358085632E-1   6.638545393943787E-1  
 6.792792792792792E8    -2.942523658275604E-1   7.648975253105164E-1  -3.941734507679939E-2   9.977251291275024E-3  -3.938052803277969E-2   9.895211085677147E-3  -5.418876409530640E-1   6.724492311477661E-1  
 6.816816816816816E8    -2.699424028396606E-1   7.617679834365845E-1  -4.100744053721428E-2   1.327538583427668E-2  -4.091909900307655E-2   1.307674404233694E-2  -5.159615278244019E-1   6.807060241699219E-1  
 6.840840840840840E8    -2.461551129817963E-1   7.578588724136353E-1  -4.235633462667465E-2   1.665102876722813E-2  -4.234054312109947E-2   1.652489788830280E-2  -4.880533516407013E-1   6.879560351371765E-1  
 6.864864864864864E8    -2.208719998598099E-1   7.522807717323303E-1  -4.382565990090370E-2   2.030524238944054E-2  -4.380632191896439E-2   2.002999372780323E-2  -4.574860632419586E-1   6.936559081077576E-1  
 6.888888888888888E8    -1.953189224004746E-1   7.451424598693848E-1  -4.539478570222855E-2   2.447761222720146E-2  -4.564733430743218E-2   2.404366061091423E-2  -4.239152967929840E-1   6.981396079063416E-1  
 6.912912912912912E8    -1.700910031795502E-1   7.355295419692993E-1  -4.708165302872658E-2   2.954882569611073E-2  -4.725236818194389E-2   2.908930554986000E-2  -3.880415558815002E-1   7.003815174102783E-1  
 6.936936936936936E8    -1.453467011451721E-1   7.236933708190918E-1  -4.786029830574989E-2   3.541392460465431E-2  -4.804609343409538E-2   3.511060401797295E-2  -3.504278659820557E-1   6.996362805366516E-1  
 6.960960960960960E8    -1.210856437683106E-1   7.097997069358826E-1  -4.800992459058762E-2   4.156208783388138E-2  -4.805306345224381E-2   4.136706143617630E-2  -3.115198910236359E-1   6.960286498069763E-1  
 6.984984984984984E8    -9.897954016923904E-2   6.932852268218994E-1  -4.756797850131989E-2   4.807962104678154E-2  -4.698887094855309E-2   4.841455817222595E-2  -2.677917778491974E-1   6.893655657768250E-1  
 7.009009009009008E8    -7.782638072967529E-2   6.743521690368652E-1  -4.612463712692261E-2   5.482010915875435E-2  -4.508527740836144E-2   5.537680536508560E-2  -2.234333902597427E-1   6.775159239768982E-1  
 7.033033033033032E8    -5.785129591822624E-2   6.542702317237854E-1  -4.359365999698639E-2   6.145304813981056E-2  -4.260386154055595E-2   6.181152537465096E-2  -1.795560568571091E-1   6.599734425544739E-1  
 7.057057057057056E8    -3.853775188326836E-2   6.307146549224854E-1  -4.068588092923164E-2   6.803373992443085E-2  -4.023004323244095E-2   6.811232864856720E-2  -1.359412670135498E-1   6.340084075927734E-1  
 7.081081081081080E8    -2.141720801591873E-2   6.049592494964600E-1  -3.703976795077324E-2   7.482491433620453E-2  -3.728923201560974E-2   7.482796907424927E-2  -9.116353094577789E-2   6.003035902976990E-1  
 7.105105105105104E8    -7.387823890894651E-3   5.754718780517578E-1  -3.256387636065483E-2   8.173348754644394E-2  -3.384005650877953E-2   8.137275278568268E-2  -4.757988825440407E-2   5.580442547798157E-1  
 7.129129129129129E8     3.145055088680238E-4   5.438127517700195E-1  -2.769644372165203E-2   8.861573040485382E-2  -2.918539196252823E-2   8.843045681715012E-2  -7.386879995465279E-3   5.056405663490295E-1  
 7.153153153153153E8     6.589360418729484E-4   5.125606060028076E-1  -2.192639745771885E-2   9.513411670923233E-2  -2.297675609588623E-2   9.517754614353180E-2   2.570448257029057E-2   4.432990550994873E-1  
 7.177177177177178E8    -3.214122261852026E-3   4.853495657444000E-1  -1.641593128442764E-2   1.010531112551689E-1  -1.696547865867615E-2   1.010624393820763E-1   4.663946479558945E-2   3.743413984775543E-1  
 7.201201201201202E8    -9.303455241024494E-3   4.617035388946533E-1  -1.155158504843712E-2   1.081397980451584E-1  -1.218733377754688E-2   1.079881414771080E-1   5.265522375702858E-2   3.013551533222199E-1  
 7.225225225225226E8    -1.711263693869114E-2   4.438174664974213E-1  -6.579705979675055E-3   1.181705072522163E-1  -7.134813349694014E-3   1.180655136704445E-1   4.229607805609703E-2   2.280684709548950E-1  
 7.249249249249250E8    -2.226826548576355E-2   4.305787384510040E-1   2.390201436355710E-3   1.324541568756104E-1   6.550124962814152E-4   1.322927623987198E-1   1.577556692063808E-2   1.614335030317307E-1  
 7.273273273273274E8    -2.442504651844502E-2   4.186627566814423E-1   1.889595389366150E-2   1.482202261686325E-1   1.620984822511673E-2   1.485881507396698E-1  -2.131337672472000E-2   1.065289601683617E-1  
 7.297297297297298E8    -2.477506920695305E-2   4.036526083946228E-1   4.346781224012375E-2   1.609484851360321E-1   4.104850813746452E-2   1.615597158670425E-1  -6.200962141156197E-2   6.369818001985550E-2  
 7.321321321321322E8    -2.506140060722828E-2   3.847526311874390E-1   7.225809991359711E-2   1.675086319446564E-1   7.297714799642563E-2   1.670110821723938E-1  -1.009340286254883E-1   3.106564469635487E-2  
 7.345345345345346E8    -2.762813679873943E-2   3.644418418407440E-1   1.050904318690300E-1   1.645215451717377E-1   1.063085049390793E-1   1.632529646158218E-1  -1.347183436155319E-1   5.858516786247492E-3  
 7.369369369369370E8    -3.157207742333412E-2   3.430883288383484E-1   1.369548439979553E-1   1.526159793138504E-1   1.384686231613159E-1   1.504559069871903E-1  -1.664473861455917E-1  -1.994841173291206E-2  
 7.393393393393394E8    -3.794024512171745E-2   3.198362886905670E-1   1.668398976325989E-1   1.324754208326340E-1   1.675010174512863E-1   1.307891458272934E-1  -1.976665854454041E-1  -4.421590268611908E-2  
 7.417417417417418E8    -4.711554199457169E-2   2.959931194782257E-1   1.912015974521637E-1   1.039405018091202E-1   1.911134421825409E-1   1.037390157580376E-1  -2.324248850345612E-1  -6.825000792741776E-2  
 7.441441441441442E8    -5.839442461729050E-2   2.717176973819733E-1   2.070179432630539E-1   7.150961458683014E-2   2.066072523593903E-1   7.288947701454163E-2  -2.701669931411743E-1  -9.026804566383362E-2  
 7.465465465465466E8    -7.487800717353821E-2   2.494778186082840E-1   2.146272957324982E-1   3.888893872499466E-2   2.147518694400787E-1   3.994723036885262E-2  -3.109042942523956E-1  -1.072422564029694E-1  
 7.489489489489490E8    -9.734169393777847E-2   2.278801053762436E-1   2.157044112682343E-1   6.544275209307671E-3   2.161854654550552E-1   7.502865046262741E-3  -3.553693890571594E-1  -1.201594248414040E-1  
 7.513513513513514E8    -1.241104453802109E-1   2.099555432796478E-1   2.104288786649704E-1  -2.433747053146362E-2   2.110914587974548E-1  -2.330414764583111E-2  -4.011416733264923E-1  -1.283337175846100E-1  
 7.537537537537538E8    -1.521026343107224E-1   1.963348239660263E-1   2.003274112939835E-1  -5.233008414506912E-2   2.013654410839081E-1  -5.049992352724075E-2  -4.482756257057190E-1  -1.315622031688690E-1  
 7.561561561561562E8    -1.813400387763977E-1   1.863646954298019E-1   1.868251115083695E-1  -7.667002826929092E-2   1.871514916419983E-1  -7.526037842035294E-2  -4.946391582489014E-1  -1.302512437105179E-1  
 7.585585585585586E8    -2.110619246959686E-1   1.821458935737610E-1   1.695724427700043E-1  -9.676022082567215E-2   1.691368967294693E-1  -9.582839906215668E-2  -5.396623611450195E-1  -1.201365590095520E-1  
 7.609609609609610E8    -2.403346151113510E-1   1.804257482290268E-1   1.515324264764786E-1  -1.122452318668366E-1   1.502202600240707E-1  -1.113882586359978E-1  -5.826725363731384E-1  -1.042045429348946E-1  
 7.633633633633634E8    -2.689779698848724E-1   1.798921376466751E-1   1.327438205480576E-1  -1.245568245649338E-1   1.319033652544022E-1  -1.234142705798149E-1  -6.198706030845642E-1  -8.552607148885727E-2  
 7.657657657657658E8    -3.013793826103210E-1   1.831544190645218E-1   1.130898445844650E-1  -1.334854066371918E-1   1.128264814615250E-1  -1.324299275875092E-1  -6.552549004554749E-1  -6.447444856166840E-2  
 7.681681681681682E8    -3.345305323600769E-1   1.933308690786362E-1   9.359238296747208E-2  -1.384907811880112E-1   9.390373528003693E-2  -1.383847296237946E-1  -6.861784458160400E-1  -4.447586461901665E-2  
 7.705705705705706E8    -3.664201498031616E-1   2.126028090715408E-1   7.462394982576370E-2  -1.404289305210114E-1   7.588939368724823E-2  -1.400898844003677E-1  -7.135432958602905E-1  -2.053669467568398E-2  
 7.729729729729730E8    -3.904967606067658E-1   2.359860837459564E-1   5.733321607112885E-2  -1.393994539976120E-1   5.933351814746857E-2  -1.395322978496552E-1  -7.389724850654602E-1   6.065729539841414E-3  
 7.753753753753754E8    -4.082631468772888E-1   2.592984735965729E-1   4.244820401072502E-2  -1.369431465864182E-1   4.445995390415192E-2  -1.373952925205231E-1  -7.603294849395752E-1   3.543539717793465E-2  
 7.777777777777778E8    -4.218890964984894E-1   2.820813953876495E-1   2.921155281364918E-2  -1.336523145437241E-1   3.066525608301163E-2  -1.338688284158707E-1  -7.763525247573853E-1   6.651648133993149E-2  
 7.801801801801802E8    -4.319763481616974E-1   3.028902411460877E-1   1.750091277062893E-2  -1.296491324901581E-1   1.814978197216988E-2  -1.288454979658127E-1  -7.870017290115356E-1   9.695711731910706E-2  
 7.825825825825826E8    -4.382124841213226E-1   3.235240876674652E-1   6.818261463195086E-3  -1.244120374321938E-1   7.158348802477121E-3  -1.239546090364456E-1  -7.968570590019226E-1   1.256870031356812E-1  
 7.849849849849850E8    -4.441265463829041E-1   3.437190651893616E-1  -2.197069581598043E-3  -1.185995265841484E-1  -1.781026716344059E-3  -1.182485818862915E-1  -8.037489652633667E-1   1.506242603063583E-1  
 7.873873873873874E8    -4.495941698551178E-1   3.630427122116089E-1  -9.660933166742325E-3  -1.130908802151680E-1  -9.165192022919655E-3  -1.125818639993668E-1  -8.096275329589844E-1   1.740964055061340E-1  
 7.897897897897898E8    -4.556507766246796E-1   3.831599056720734E-1  -1.661369949579239E-2  -1.078185439109802E-1  -1.577813364565373E-2  -1.076289787888527E-1  -8.157206773757935E-1   1.980043798685074E-1  
 7.921921921921922E8    -4.600844085216522E-1   4.053742289543152E-1  -2.335356175899506E-2  -1.023791655898094E-1  -2.255519665777683E-2  -1.028485447168350E-1  -8.219302296638489E-1   2.212804555892944E-1  
 7.945945945945946E8    -4.633039534091950E-1   4.285666942596436E-1  -2.958908863365650E-2  -9.640932083129883E-2  -2.843068167567253E-2  -9.681605547666550E-2  -8.232194781303406E-1   2.443156242370606E-1  
 7.969969969969970E8    -4.629197716712952E-1   4.510545730590820E-1  -3.445857390761375E-2  -8.994472026824951E-2  -3.354478254914284E-2  -9.028917551040649E-2  -8.240230083465576E-1   2.667180299758911E-1  
 7.993993993993994E8    -4.594817757606506E-1   4.709583818912506E-1  -3.819661587476730E-2  -8.372768759727478E-2  -3.756443783640862E-2  -8.381815999746323E-2  -8.239771723747253E-1   2.892117202281952E-1  
 8.018018018018018E8    -4.542481303215027E-1   4.882348179817200E-1  -4.069970920681953E-2  -7.759091258049011E-2  -4.061106964945793E-2  -7.746266573667526E-2  -8.226394057273865E-1   3.108148276805878E-1  
 8.042042042042042E8    -4.494604170322418E-1   5.050916075706482E-1  -4.260351136326790E-2  -7.220215350389481E-2  -4.240367934107781E-2  -7.206766307353973E-2  -8.211592435836792E-1   3.292620778083801E-1  
 8.066066066066066E8    -4.430843591690064E-1   5.235452055931091E-1  -4.443541169166565E-2  -6.713125854730606E-2  -4.428311064839363E-2  -6.733175367116928E-2  -8.183442354202271E-1   3.496685922145844E-1  
 8.090090090090090E8    -4.362176954746246E-1   5.406848192214966E-1  -4.601828753948212E-2  -6.242611631751061E-2  -4.589563980698586E-2  -6.297254562377930E-2  -8.146829605102539E-1   3.681864440441132E-1  
 8.114114114114114E8    -4.280384778976440E-1   5.563259124755859E-1  -4.755743592977524E-2  -5.798278748989105E-2  -4.757864400744438E-2  -5.849224701523781E-2  -8.105676770210266E-1   3.860842585563660E-1  
 8.138138138138138E8    -4.194979071617127E-1   5.696085095405579E-1  -4.906503483653069E-2  -5.344873294234276E-2  -4.901890456676483E-2  -5.394471809267998E-2  -8.059747815132141E-1   4.025309979915619E-1  
 8.162162162162162E8    -4.127377867698669E-1   5.809484124183655E-1  -5.002487450838089E-2  -4.894226044416428E-2  -5.005666613578796E-2  -4.929488152265549E-2  -8.017163872718811E-1   4.182769060134888E-1  
 8.186186186186186E8    -4.064886271953583E-1   5.925713181495667E-1  -5.075519904494286E-2  -4.517384991049767E-2  -5.059229210019112E-2  -4.502226784825325E-2  -7.973719835281372E-1   4.346374869346619E-1  
 8.210210210210210E8    -3.978156745433807E-1   6.054103970527649E-1  -5.136061087250710E-2  -4.067863523960114E-2  -5.132560804486275E-2  -4.096915945410729E-2  -7.918885946273804E-1   4.502472281455994E-1  
 8.234234234234234E8    -3.895294666290283E-1   6.151767373085022E-1  -5.149546265602112E-2  -3.617589920759201E-2  -5.149787664413452E-2  -3.643960505723953E-2  -7.863959074020386E-1   4.650376141071320E-1  
