#  HZ   S   RI   R     50.00 
! Rohde & Schwarz ZVB8 2Ports - Version 2.81 - 1145.1010k08 SN: 100113
! Date: 2016-05-17 22:37:47
! Measurements: S11 S21 S12 S22 
! 
 6.000000000000000E8    -7.839245796203613E-1   5.087360739707947E-1  -1.272580004297197E-3  -2.391151385381818E-3  -1.326195430010557E-3  -2.393315779045224E-3  -9.347786903381348E-1   2.617205977439880E-1  
 6.024024024024024E8    -7.742722630500794E-1   5.194780826568604E-1  -1.355175627395511E-3  -2.459999872371554E-3  -1.358298002742231E-3  -2.424711128696799E-3  -9.307895302772522E-1   2.730396687984467E-1  
 6.048048048048048E8    -7.648605108261108E-1   5.310419201850891E-1  -1.381480484269559E-3  -2.523576375097036E-3  -1.407277537509799E-3  -2.464670687913895E-3  -9.269510507583618E-1   2.840438485145569E-1  
 6.072072072072072E8    -7.539199590682983E-1   5.431281328201294E-1  -1.450328039936721E-3  -2.510003512725234E-3  -1.503280014730990E-3  -2.543943002820015E-3  -9.228180050849915E-1   2.949594557285309E-1  
 6.096096096096096E8    -7.424571514129639E-1   5.551048517227173E-1  -1.394779654219747E-3  -2.571169752627611E-3  -1.452936907298863E-3  -2.507974393665791E-3  -9.185904264450073E-1   3.058979511260986E-1  
 6.120120120120120E8    -7.326779365539551E-1   5.647813081741333E-1  -1.371852704323828E-3  -2.628395101055503E-3  -1.300954609178007E-3  -2.703129546716809E-3  -9.148986935615540E-1   3.147105872631073E-1  
 6.144144144144144E8    -7.224940657615662E-1   5.752292871475220E-1  -1.247540931217372E-3  -2.923013176769018E-3  -1.119478372856975E-3  -2.899231854826212E-3  -9.112325906753540E-1   3.250610828399658E-1  
 6.168168168168168E8    -7.111100554466248E-1   5.855880379676819E-1  -1.024134922772646E-3  -3.234518691897392E-3  -1.043733675032854E-3  -3.176575293764472E-3  -9.071067571640015E-1   3.356545865535736E-1  
 6.192192192192192E8    -6.995130181312561E-1   5.953288078308106E-1  -1.077164663001895E-3  -3.572552697733045E-3  -1.002386561594904E-3  -3.556617302820087E-3  -9.025209546089172E-1   3.464763164520264E-1  
 6.216216216216216E8    -6.873791217803955E-1   6.046301126480103E-1  -1.006005913950503E-3  -4.135935101658106E-3  -9.715987253002822E-4  -4.024459049105644E-3  -8.975642919540405E-1   3.569335341453552E-1  
 6.240240240240240E8    -6.752535104751587E-1   6.136599183082581E-1  -1.049643731676042E-3  -4.718235693871975E-3  -1.079751527868211E-3  -4.749608691781759E-3  -8.923369050025940E-1   3.671152591705322E-1  
 6.264264264264264E8    -6.639928221702576E-1   6.220366358757019E-1  -1.219165045768023E-3  -5.485988687723875E-3  -1.252155052497983E-3  -5.496199708431959E-3  -8.870941400527954E-1   3.794076740741730E-1  
 6.288288288288288E8    -6.533128023147583E-1   6.303100585937500E-1  -1.664649578742683E-3  -6.362313870340586E-3  -1.627148943953216E-3  -6.374463438987732E-3  -8.814371228218079E-1   3.903057575225830E-1  
 6.312312312312312E8    -6.431512832641602E-1   6.386249661445618E-1  -2.396076219156385E-3  -7.270960137248039E-3  -2.350651891902089E-3  -7.217363920062780E-3  -8.761245012283325E-1   4.003913998603821E-1  
 6.336336336336336E8    -6.333273053169251E-1   6.471661329269409E-1  -3.337576286867261E-3  -7.922608405351639E-3  -3.352643456310034E-3  -7.893135771155357E-3  -8.707522153854370E-1   4.093560278415680E-1  
 6.360360360360360E8    -6.230305433273315E-1   6.567608118057251E-1  -4.524833988398314E-3  -8.444207720458508E-3  -4.499144386500120E-3  -8.410091511905193E-3  -8.655425310134888E-1   4.179856777191162E-1  
 6.384384384384384E8    -6.117004156112671E-1   6.665245890617371E-1  -5.753404460847378E-3  -8.610893040895462E-3  -5.648590158671141E-3  -8.708306588232517E-3  -8.607119917869568E-1   4.280265271663666E-1  
 6.408408408408408E8    -5.993918180465698E-1   6.764902472496033E-1  -7.045513950288296E-3  -8.689990267157555E-3  -6.911920849233866E-3  -8.688344620168209E-3  -8.550736308097839E-1   4.377704560756683E-1  
 6.432432432432432E8    -5.862157940864563E-1   6.865953803062439E-1  -8.197436109185219E-3  -8.612568490207195E-3  -8.176373317837715E-3  -8.592443540692329E-3  -8.490947484970093E-1   4.473852515220642E-1  
 6.456456456456456E8    -5.718718767166138E-1   6.960802078247070E-1  -9.380014613270760E-3  -8.227795362472534E-3  -9.313756600022316E-3  -8.269291371107101E-3  -8.431959748268127E-1   4.566827714443207E-1  
 6.480480480480480E8    -5.568125844001770E-1   7.050491571426392E-1  -1.037109270691872E-2  -7.823523133993149E-3  -1.030148193240166E-2  -7.865831255912781E-3  -8.364849686622620E-1   4.659852981567383E-1  
 6.504504504504504E8    -5.404832959175110E-1   7.148642539978027E-1  -1.125678699463606E-2  -7.435724604874849E-3  -1.111317425966263E-2  -7.401157636195421E-3  -8.263089656829834E-1   4.764177799224854E-1  
 6.528528528528528E8    -5.231974720954895E-1   7.237085700035095E-1  -1.209079846739769E-2  -6.967288441956043E-3  -1.204663980752230E-2  -6.961920764297247E-3  -8.169727325439453E-1   4.886797368526459E-1  
 6.552552552552552E8    -5.059183835983276E-1   7.311480641365051E-1  -1.289137918502092E-2  -6.598795764148235E-3  -1.280607935041189E-2  -6.615404505282641E-3  -8.103832602500916E-1   5.011807680130005E-1  
 6.576576576576576E8    -4.876716732978821E-1   7.379617691040039E-1  -1.379605382680893E-2  -6.199141498655081E-3  -1.370599213987589E-2  -6.292347796261311E-3  -8.059445619583130E-1   5.110298991203308E-1  
 6.600600600600600E8    -4.673393368721008E-1   7.444021105766296E-1  -1.475101895630360E-2  -5.753043107688427E-3  -1.469784229993820E-2  -5.758617073297501E-3  -8.005501627922058E-1   5.177187919616699E-1  
 6.624624624624624E8    -4.478329122066498E-1   7.505807876586914E-1  -1.568529568612576E-2  -5.230599548667669E-3  -1.557910721749067E-2  -5.249821580946446E-3  -7.923788428306580E-1   5.281571745872498E-1  
 6.648648648648648E8    -4.291677176952362E-1   7.557314038276672E-1  -1.656329073011875E-2  -4.702730104327202E-3  -1.644998788833618E-2  -4.709536675363779E-3  -7.843508124351502E-1   5.379383563995361E-1  
 6.672672672672672E8    -4.092684984207153E-1   7.602026462554932E-1  -1.758036948740482E-2  -4.155138973146677E-3  -1.756656914949417E-2  -4.203955177217722E-3  -7.759964466094971E-1   5.477576255798340E-1  
 6.696696696696696E8    -3.880932927131653E-1   7.637704610824585E-1  -1.863948442041874E-2  -3.494709962978959E-3  -1.857437752187252E-2  -3.509541274979711E-3  -7.674471139907837E-1   5.575355887413025E-1  
 6.720720720720720E8    -3.657919764518738E-1   7.667516469955444E-1  -1.967765577137470E-2  -2.746135694906116E-3  -1.969843171536923E-2  -2.791580976918340E-3  -7.591436505317688E-1   5.671150088310242E-1  
 6.744744744744744E8    -3.427085280418396E-1   7.681566476821899E-1  -2.077302336692810E-2  -1.906583551317453E-3  -2.073192223906517E-2  -1.912638312205672E-3  -7.490952014923096E-1   5.777339339256287E-1  
 6.768768768768768E8    -3.189729452133179E-1   7.685472369194031E-1  -2.188492193818092E-2  -8.420519297942519E-4  -2.178485877811909E-2  -8.420305093750358E-4  -7.391209602355957E-1   5.877676606178284E-1  
 6.792792792792792E8    -2.949462234973908E-1   7.672930955886841E-1  -2.281470224261284E-2   3.242999373469502E-4  -2.279172092676163E-2   1.996929495362565E-4  -7.287213802337647E-1   5.977373719215393E-1  
 6.816816816816816E8    -2.702839672565460E-1   7.651979923248291E-1  -2.372811920940876E-2   1.359551097266376E-3  -2.364922314882278E-2   1.295289723202586E-3  -7.181391716003418E-1   6.077501773834229E-1  
 6.840840840840840E8    -2.457925826311112E-1   7.613825201988220E-1  -2.474345825612545E-2   2.415543422102928E-3  -2.471868135035038E-2   2.334232907742262E-3  -7.075697183609009E-1   6.175590157508850E-1  
 6.864864864864864E8    -2.193031311035156E-1   7.559127807617188E-1  -2.581926994025707E-2   3.692939644679427E-3  -2.588626742362976E-2   3.577183000743389E-3  -6.954821348190308E-1   6.273677349090576E-1  
 6.888888888888888E8    -1.928616166114807E-1   7.481762170791626E-1  -2.707454375922680E-2   5.207260139286518E-3  -2.704873681068420E-2   4.917100537568331E-3  -6.829712986946106E-1   6.374843716621399E-1  
 6.912912912912912E8    -1.673344671726227E-1   7.383066415786743E-1  -2.829673141241074E-2   6.939364597201347E-3  -2.829259820282459E-2   6.676195655018091E-3  -6.702349781990051E-1   6.478792428970337E-1  
 6.936936936936936E8    -1.422007083892822E-1   7.260375022888184E-1  -2.934471890330315E-2   9.001335129141808E-3  -2.929201908409596E-2   8.688250556588173E-3  -6.572080850601196E-1   6.577407717704773E-1  
 6.960960960960960E8    -1.173559352755547E-1   7.115694880485535E-1  -3.013708069920540E-2   1.100090891122818E-2  -3.008941933512688E-2   1.095916703343391E-2  -6.438978910446167E-1   6.677567362785339E-1  
 6.984984984984984E8    -9.456510841846466E-2   6.945376396179199E-1  -3.078750707209110E-2   1.311849337071180E-2  -3.062632679939270E-2   1.330609433352947E-2  -6.270142197608948E-1   6.800534725189209E-1  
 7.009009009009008E8    -7.364569604396820E-2   6.759170889854431E-1  -3.122406080365181E-2   1.517632883042097E-2  -3.094129264354706E-2   1.571639999747276E-2  -6.102989315986633E-1   6.905695199966431E-1  
 7.033033033033032E8    -5.401821061968803E-2   6.556799411773682E-1  -3.144615516066551E-2   1.708004064857960E-2  -3.117435239255428E-2   1.765860244631767E-2  -5.948786139488220E-1   6.992860436439514E-1  
 7.057057057057056E8    -3.528299182653427E-2   6.312496066093445E-1  -3.175037354230881E-2   1.889298483729363E-2  -3.161020949482918E-2   1.920147985219955E-2  -5.821428894996643E-1   7.051964402198792E-1  
 7.081081081081080E8    -1.834392361342907E-2   6.039588451385498E-1  -3.214090317487717E-2   2.089990861713886E-2  -3.231148794293404E-2   2.069938741624355E-2  -5.678735971450806E-1   7.115442752838135E-1  
 7.105105105105104E8    -5.484746303409338E-3   5.759541392326355E-1  -3.259547427296639E-2   2.294630743563175E-2  -3.302160277962685E-2   2.235355414450169E-2  -5.522491931915283E-1   7.185225486755371E-1  
 7.129129129129129E8     2.724104560911655E-3   5.470578670501709E-1  -3.335045278072357E-2   2.479222230613232E-2  -3.378453478217125E-2   2.395924367010593E-2  -5.344192981719971E-1   7.258691191673279E-1  
 7.153153153153153E8     6.030387245118618E-3   5.184879899024963E-1  -3.455664217472076E-2   2.626704797148705E-2  -3.485248610377312E-2   2.561090886592865E-2  -5.138491392135620E-1   7.333134412765503E-1  
 7.177177177177178E8     6.057400722056627E-3   4.903525114059448E-1  -3.652956709265709E-2   2.772270143032074E-2  -3.671762719750404E-2   2.738422900438309E-2  -4.914542734622955E-1   7.400068044662476E-1  
 7.201201201201202E8     3.266276558861136E-3   4.651244282722473E-1  -3.962370380759239E-2   2.974968589842320E-2  -3.975155577063561E-2   2.946647442877293E-2  -4.683558046817780E-1   7.452971935272217E-1  
 7.225225225225226E8    -1.181488740257919E-3   4.447790980339050E-1  -4.428746178746223E-2   3.290719538927078E-2  -4.430981725454330E-2   3.271356225013733E-2  -4.441729485988617E-1   7.488624453544617E-1  
 7.249249249249250E8    -3.788079833611846E-3   4.274702966213226E-1  -5.011153221130371E-2   3.884990140795708E-2  -5.051349103450775E-2   3.826015070080757E-2  -4.220751225948334E-1   7.484217882156372E-1  
 7.273273273273274E8    -2.823855727910996E-3   4.112186729907990E-1  -5.555614829063416E-2   4.855087399482727E-2  -5.638328567147255E-2   4.774878919124603E-2  -4.013229608535767E-1   7.466872334480286E-1  
 7.297297297297298E8    -8.566017495468259E-4   3.889454603195190E-1  -5.890202894806862E-2   6.196581572294235E-2  -5.981764569878578E-2   6.141855195164681E-2  -3.809560239315033E-1   7.440487146377564E-1  
 7.321321321321322E8    -2.209840808063746E-3   3.611919879913330E-1  -5.834267288446426E-2   7.757517695426941E-2  -5.822856351733208E-2   7.784223556518555E-2  -3.619852960109711E-1   7.416140437126160E-1  
 7.345345345345346E8    -9.335229173302651E-3   3.315120637416840E-1  -5.228268355131149E-2   9.342782199382782E-2  -5.191921070218086E-2   9.373635798692703E-2  -3.440972864627838E-1   7.402608394622803E-1  
 7.369369369369370E8    -2.165192924439907E-2   3.017031848430634E-1  -4.227506369352341E-2   1.071825176477432E-1  -4.170010983943939E-2   1.073086410760880E-1  -3.263204097747803E-1   7.405190467834473E-1  
 7.393393393393394E8    -3.937658295035362E-2   2.722797989845276E-1  -2.997313253581524E-2   1.190930381417275E-1  -2.940935268998146E-2   1.189451366662979E-1  -3.074587583541870E-1   7.412552237510681E-1  
 7.417417417417418E8    -6.375619769096375E-2   2.468713819980621E-1  -1.496822480112314E-2   1.286191642284393E-1  -1.496518775820732E-2   1.283705234527588E-1  -2.871437072753906E-1   7.412235140800476E-1  
 7.441441441441442E8    -8.932644128799439E-2   2.271810322999954E-1   1.310713123530150E-3   1.351227313280106E-1   4.904933739453554E-4   1.349746137857437E-1  -2.652172148227692E-1   7.404183745384216E-1  
 7.465465465465466E8    -1.176071912050247E-1   2.132733762264252E-1   1.725978031754494E-2   1.390148401260376E-1   1.685611158609390E-2   1.390960961580277E-1  -2.404370307922363E-1   7.401588559150696E-1  
 7.489489489489490E8    -1.478114873170853E-1   2.036282569169998E-1   3.359938040375710E-2   1.404947191476822E-1   3.328755870461464E-2   1.407489776611328E-1  -2.158624976873398E-1   7.378499507904053E-1  
 7.513513513513514E8    -1.784885972738266E-1   1.976004242897034E-1   4.986017197370529E-2   1.397361308336258E-1   4.928155243396759E-2   1.404172927141190E-1  -1.898514032363892E-1   7.341164350509644E-1  
 7.537537537537538E8    -2.080562412738800E-1   1.953331381082535E-1   6.591966748237610E-2   1.378880292177200E-1   6.507287174463272E-2   1.390797495841980E-1  -1.608058512210846E-1   7.282571792602539E-1  
 7.561561561561562E8    -2.365749031305313E-1   1.972666531801224E-1   8.248080313205719E-2   1.345765292644501E-1   8.188748359680176E-2   1.354538500308991E-1  -1.298853158950806E-1   7.191684246063232E-1  
 7.585585585585586E8    -2.633354067802429E-1   2.048204243183136E-1   9.877652674913406E-2   1.288220733404160E-1   9.822066873311997E-2   1.289917826652527E-1  -9.619436413049698E-2   7.095990180969238E-1  
 7.609609609609610E8    -2.860285639762878E-1   2.130340337753296E-1   1.143586188554764E-1   1.215609908103943E-1   1.135028153657913E-1   1.211236566305161E-1  -6.297048926353455E-2   6.964637041091919E-1  
 7.633633633633634E8    -3.071303069591522E-1   2.213578373193741E-1   1.297480165958405E-1   1.128367260098457E-1   1.285526603460312E-1   1.120655983686447E-1  -3.047180362045765E-2   6.797501444816589E-1  
 7.657657657657658E8    -3.311314582824707E-1   2.328094244003296E-1   1.445381343364716E-1   1.011839658021927E-1   1.433408856391907E-1   1.010328978300095E-1   1.821542973630130E-3   6.580987572669983E-1  
 7.681681681681682E8    -3.539471626281738E-1   2.484700381755829E-1   1.576181054115295E-1   8.745471388101578E-2   1.570167541503906E-1   8.844575285911560E-2   3.382728993892670E-2   6.317078471183777E-1  
 7.705705705705706E8    -3.726709485054016E-1   2.682482004165649E-1   1.687577515840530E-1   7.245722413063049E-2   1.683252453804016E-1   7.388966530561447E-2   6.554806977510452E-2   6.017434000968933E-1  
 7.729729729729730E8    -3.853234946727753E-1   2.893334031105042E-1   1.781294345855713E-1   5.589300394058228E-2   1.787402182817459E-1   5.819709599018097E-2   9.806007146835327E-2   5.669366121292114E-1  
 7.753753753753754E8    -3.943910896778107E-1   3.084417879581451E-1   1.861760616302490E-1   3.867267817258835E-2   1.874627918004990E-1   4.072039946913719E-2   1.287684589624405E-1   5.261728763580322E-1  
 7.777777777777778E8    -4.010703861713409E-1   3.261587023735046E-1   1.931401938199997E-1   1.921821944415569E-2   1.940285116434097E-1   2.098909206688404E-2   1.565098315477371E-1   4.780705869197846E-1  
 7.801801801801802E8    -4.056265056133270E-1   3.425244987010956E-1   1.976293772459030E-1  -1.699411775916815E-3   1.973592489957809E-1  -1.776052667992190E-4   1.792182773351669E-1   4.234738647937775E-1  
 7.825825825825826E8    -4.050404131412506E-1   3.567003905773163E-1   1.989202201366425E-1  -2.281236834824085E-2   1.985655426979065E-1  -2.269957214593887E-2   1.967366486787796E-1   3.660814464092255E-1  
 7.849849849849850E8    -4.066289663314819E-1   3.703906536102295E-1   1.966963112354279E-1  -4.455535858869553E-2   1.962727606296539E-1  -4.427640512585640E-2   2.051418274641037E-1   3.035078644752502E-1  
 7.873873873873874E8    -4.100818634033203E-1   3.822712600231171E-1   1.920702606439591E-1  -6.494820117950440E-2   1.916457712650299E-1  -6.431200355291367E-2   2.048242241144180E-1   2.388198971748352E-1  
 7.897897897897898E8    -4.152946472167969E-1   3.953790962696075E-1   1.860457956790924E-1  -8.530577272176743E-2   1.859187632799149E-1  -8.428703248500824E-2   1.962847709655762E-1   1.745693832635880E-1  
 7.921921921921922E8    -4.188214838504791E-1   4.109849035739899E-1   1.767480522394180E-1  -1.062988787889481E-1   1.774990707635880E-1  -1.056216806173325E-1   1.777963489294052E-1   1.094822138547897E-1  
 7.945945945945946E8    -4.223404526710510E-1   4.266407489776611E-1   1.637440472841263E-1  -1.260253041982651E-1   1.649647206068039E-1  -1.243872195482254E-1   1.503712832927704E-1   4.772054404020309E-2  
 7.969969969969970E8    -4.246777892112732E-1   4.421513676643372E-1   1.474571526050568E-1  -1.433230638504028E-1   1.492452174425125E-1  -1.415061205625534E-1   1.147607713937759E-1  -9.998926892876625E-3  
 7.993993993993994E8    -4.249364435672760E-1   4.567101299762726E-1   1.282946467399597E-1  -1.573979556560516E-1   1.300551891326904E-1  -1.561907827854157E-1   6.806790828704834E-2  -6.534051895141602E-2  
 8.018018018018018E8    -4.248255789279938E-1   4.701321125030518E-1   1.079772636294365E-1  -1.668548434972763E-1   1.091147065162659E-1  -1.665313094854355E-1   1.342978328466415E-2  -1.127046197652817E-1  
 8.042042042042042E8    -4.250298142433167E-1   4.838306903839111E-1   8.945821225643158E-2  -1.732741594314575E-1   8.930967748165131E-2  -1.731635779142380E-1  -4.684560745954514E-2  -1.510437577962875E-1  
 8.066066066066066E8    -4.232948124408722E-1   4.991126656532288E-1   6.993843615055084E-2  -1.779287159442902E-1   6.923786550760269E-2  -1.777959316968918E-1  -1.106702759861946E-1  -1.781555563211441E-1  
 8.090090090090090E8    -4.208643734455109E-1   5.147963762283325E-1   5.009625107049942E-2  -1.797688156366348E-1   4.889475926756859E-2  -1.796268522739410E-1  -1.765075325965881E-1  -1.949830949306488E-1  
 8.114114114114114E8    -4.171333312988281E-1   5.298256874084473E-1   3.006120584905148E-2  -1.787029355764389E-1   3.002449870109558E-2  -1.788209676742554E-1  -2.380962520837784E-1  -2.016259282827377E-1  
 8.138138138138138E8    -4.137982726097107E-1   5.434249043464661E-1   1.154020987451077E-2  -1.747550219297409E-1   1.207553315907717E-2  -1.751613914966583E-1  -2.962585389614105E-1  -2.005546689033508E-1  
 8.162162162162162E8    -4.108577072620392E-1   5.572177767753601E-1  -5.260354373604059E-3  -1.687494963407517E-1  -4.507821053266525E-3  -1.693764775991440E-1  -3.522085845470429E-1  -1.945077925920487E-1  
 8.186186186186186E8    -4.074749946594238E-1   5.714077949523926E-1  -2.021857164800167E-2  -1.610715240240097E-1  -1.942785643041134E-2  -1.617798209190369E-1  -4.061264693737030E-1  -1.820929646492004E-1  
 8.210210210210210E8    -4.017114043235779E-1   5.830833911895752E-1  -3.356421366333962E-2  -1.521134823560715E-1  -3.318108618259430E-2  -1.522645652294159E-1  -4.571425318717957E-1  -1.629065722227097E-1  
 8.234234234234234E8    -3.966710567474365E-1   5.947372317314148E-1  -4.448533430695534E-2  -1.410186588764191E-1  -4.428925365209580E-2  -1.409812569618225E-1  -5.021927952766419E-1  -1.401811242103577E-1  
