#  HZ   S   DB   R     50.00 
! Rohde & Schwarz ZVB8 2Ports - Version 2.81 - 1145.1010k08 SN: 100113
! Date: 2014-04-03 01:54:19
! Measurements: S11 S21 S12 S22 
! 
 5.000000000000000E8    -3.571629331255909E-2   1.170123308624767E2  -7.032712438740934E1  -1.382175342871310E2  -7.288558072487325E1  -1.516660210590942E2  -6.050098294674493   1.161840407805465E2  
 5.010000000000000E8    -3.355670674935760E-2   1.171797711985292E2  -7.166522473025746E1  -1.595920831826441E2  -7.334626064451186E1  -1.645710281430397E2  -6.265432896049732   1.146029320624040E2  
 5.020000000000000E8    -3.689868884713283E-2   1.174241179277378E2  -7.279827034072648E1  -1.481147126888419E2  -7.148673392878747E1  -1.483567401203725E2  -6.493974968215913   1.131554998757013E2  
 5.030000000000000E8    -3.814902994459151E-2   1.176483254010585E2  -7.645742651513615E1  -1.507982282626125E2  -7.258423739986378E1  -1.473553576934821E2  -6.739232144034446   1.118606995288145E2  
 5.040000000000000E8    -3.630684473416998E-2   1.179063842497840E2  -7.192800728111453E1  -1.469172239356497E2  -7.186703158743168E1  -1.542805869835669E2  -6.987630272849817   1.106696932111035E2  
 5.050000000000000E8    -3.396965829636350E-2   1.180776734399253E2  -7.451981109853745E1  -1.591781708079895E2  -7.289452523709296E1  -1.651990219898682E2  -7.243970501039584   1.096946119500934E2  
 5.060000000000000E8    -3.473285765947787E-2   1.181891563340063E2  -7.148511848651430E1  -1.596272570073122E2  -7.247315788732949E1  -1.659598063789411E2  -7.502403285939129   1.088746091487128E2  
 5.070000000000000E8    -3.077542902319594E-2   1.184402770338986E2  -7.187702042747995E1  -1.661051880807515E2  -7.368465460415719E1  -1.633024949119419E2  -7.755409174088626   1.081231186259393E2  
 5.080000000000000E8    -3.910045331513242E-2   1.187188242540902E2  -7.322017644494972E1   1.725488709374504E2  -7.258900475309001E1  -1.712842635324150E2  -7.988733401366097   1.075284495538432E2  
 5.090000000000000E8    -3.958175652476809E-2   1.188795253272363E2  -7.304688672025135E1  -1.779368620723919E2  -7.656965375748032E1  -1.664406139028350E2  -8.212342947096376   1.070894915110539E2  
 5.100000000000000E8    -4.141334548932926E-2   1.190454183219393E2  -7.232330589868438E1   1.775564558921091E2  -7.268872947705795E1   1.799100866905828E2  -8.414433870639160   1.067552330845764E2  
 5.110000000000000E8    -4.887284290933252E-2   1.193328827895184E2  -7.390461892400900E1   1.624554721471203E2  -7.283922613386966E1   1.767306901951340E2  -8.573716588510409   1.064097112914497E2  
 5.120000000000000E8    -4.531910624437519E-2   1.194910020288487E2  -7.235883804904937E1   1.657452459814045E2  -7.168844269119377E1   1.605199347976586E2  -8.712537316369394   1.058037302807286E2  
 5.130000000000000E8    -3.992216514143844E-2   1.197619713867840E2  -7.573345724585614E1   1.619751473820804E2  -7.371343450467286E1   1.624657463474319E2  -8.834134311435708   1.051355610040615E2  
 5.140000000000000E8    -4.618146037156821E-2   1.198912543886364E2  -7.538172797450685E1   1.595962568917193E2  -7.336247464450578E1   1.571706113752725E2  -8.953125526761053   1.041665671814855E2  
 5.150000000000000E8    -5.438077138226866E-2   1.201438802206772E2  -7.543287669389429E1   1.322060518221142E2  -7.825368462091888E1   1.778864380585533E2  -9.073586938526287   1.030274324261338E2  
 5.160000000000000E8    -5.318347501217816E-2   1.204696271799155E2  -7.628057751337755E1   1.775978906969462E2  -7.755022641733204E1  -1.679511390694484E2  -9.229645589845376   1.015699166596849E2  
 5.170000000000000E8    -4.474515233196553E-2   1.205609935038428E2  -7.503596310136999E1   1.587854581662271E2  -8.011017515952709E1   1.572107882306136E2  -9.426346240813478   1.000639311435148E2  
 5.180000000000000E8    -5.345529665537538E-2   1.208390561299891E2  -7.638093542093519E1   1.537157071235239E2  -7.959550369863938E1   1.422024864492125E2  -9.657768314185100   9.848046338455978E1  
 5.190000000000000E8    -4.562845653527112E-2   1.210312007443222E2  -8.014297011020885E1   1.671861782298305E2  -7.898178609021943E1   1.792542980791116E2  -9.928145769941567   9.689893632196933E1  
 5.200000000000000E8    -4.815727951376270E-2   1.212251988294395E2  -7.939134698207050E1   1.735034000255731E2  -7.717204822337993E1   1.668004292359396E2  -1.023453174578567E1   9.543894339153512E1  
 5.210000000000000E8    -4.713652956969158E-2   1.214269593709962E2  -7.597524669634895E1   1.505053081836457E2  -8.023722863237143E1   1.533607457835996E2  -1.056715715132761E1   9.414521961326187E1  
 5.220000000000000E8    -4.777287862650701E-2   1.216377105743146E2  -7.637536397722806E1   1.620302598748264E2  -7.618425715171865E1   1.757289342611992E2  -1.091808846198950E1   9.296393642310832E1  
 5.230000000000000E8    -5.995433685592463E-2   1.218053576083536E2  -7.875899838885816E1   1.754324440741448E2  -7.432779748223733E1   1.612093746896234E2  -1.132102149416566E1   9.197255245992147E1  
 5.240000000000000E8    -5.144814560313931E-2   1.220007724525501E2  -7.551990371658040E1   1.565862402556202E2  -7.777205730807582E1   1.559814499896083E2  -1.170428816743631E1   9.138604304691974E1  
 5.250000000000000E8    -5.463970796133792E-2   1.222787218729312E2  -7.468301018465382E1   1.441976137255213E2  -7.678896780754700E1   1.618164868800573E2  -1.209357851988044E1   9.069177442371201E1  
 5.260000000000000E8    -5.331488752804997E-2   1.224860734487017E2  -7.617275781064970E1   1.368215698221559E2  -7.422005972469002E1   1.649111343682738E2  -1.248159937035990E1   9.047834860540682E1  
 5.270000000000000E8    -4.686917643357185E-2   1.227149075223019E2  -7.486462353825004E1   1.496998998884018E2  -7.553701910560895E1   1.348261801609685E2  -1.283802600971950E1   9.044723411884668E1  
 5.280000000000000E8    -5.532264708462371E-2   1.229815265345639E2  -8.329181177258775E1   1.192232307295808E2  -7.550161042401278E1   1.310747505852981E2  -1.312424613322728E1   9.043753372287152E1  
 5.290000000000000E8    -6.082953477538622E-2   1.231016563564517E2  -7.633432490921545E1   1.541236824104128E2  -8.147664611665543E1   1.474098150015404E2  -1.337078614417338E1   9.009965265613207E1  
 5.300000000000000E8    -5.274412234117366E-2   1.233001935509444E2  -7.759962522771400E1   1.498481495510816E2  -7.482233609366371E1   1.409323190701824E2  -1.361428383930066E1   8.930325019574619E1  
 5.310000000000000E8    -5.644116041503310E-2   1.235135761693077E2  -7.898096166751606E1   1.581089729888891E2  -7.679839113468928E1   1.561866851474078E2  -1.387348043535189E1   8.798202344508195E1  
 5.320000000000000E8    -5.055965682878386E-2   1.236971216881633E2  -7.613835748789177E1   1.423083428818577E2  -7.977534944630379E1   1.367233962774361E2  -1.420647116880839E1   8.607812456214239E1  
 5.330000000000000E8    -5.646651135705074E-2   1.239331821070896E2  -8.109141404572542E1   1.465617638222219E2  -7.525346598044368E1   1.318862602079158E2  -1.468766975289886E1   8.375444302619600E1  
 5.340000000000000E8    -6.046727590994195E-2   1.242184116845501E2  -7.945575181148907E1   1.099318575706171E2  -7.536817656528845E1   1.494016060406241E2  -1.539012395320005E1   8.175280883417472E1  
 5.350000000000000E8    -4.979053371924173E-2   1.244301957382161E2  -7.928641019475815E1   1.367910063635829E2  -8.115758985905967E1   1.345104013058377E2  -1.628700176265092E1   8.070319386521221E1  
 5.360000000000000E8    -6.712787041510639E-2   1.246513431856175E2  -7.647681020287126E1   1.434096646183774E2  -7.760428879272885E1   1.262904814218253E2  -1.729000059941028E1   8.161868179218791E1  
 5.370000000000000E8    -5.731254775402348E-2   1.247263317699985E2  -7.965342844790187E1   1.461965167833457E2  -7.800630165188794E1   1.244953379606149E2  -1.824889774796148E1   8.453078333449479E1  
 5.380000000000000E8    -5.260942321212717E-2   1.250003117741331E2  -8.220555865090179E1   1.230992301118433E2  -7.905923185928660E1   1.341554778091188E2  -1.897718059122571E1   8.960805419966370E1  
 5.390000000000000E8    -4.735470550455442E-2   1.252510876837633E2  -8.013061058553888E1   1.276114902803294E2  -7.628197938629474E1   1.463100494336883E2  -1.926528536222463E1   9.529948620532139E1  
 5.400000000000000E8    -5.529380382191636E-2   1.254584693785013E2  -7.916664935170395E1   1.180085855797928E2  -7.965457417829138E1   1.167491023759081E2  -1.917796095206322E1   9.971073487359904E1  
 5.410000000000000E8    -6.162336922669269E-2   1.257576939036927E2  -8.058302002171170E1   1.396322288510702E2  -7.670432970601085E1   1.227365655633833E2  -1.894343576244714E1   1.019820511668283E2  
 5.420000000000000E8    -5.715589314182194E-2   1.258911026364253E2  -8.301291640856455E1   1.148347988439995E2  -7.912370055312485E1   1.320264800117828E2  -1.878241173833713E1   1.021487868311147E2  
 5.430000000000000E8    -5.142899462070200E-2   1.260805260838116E2  -7.997600319242832E1   1.335921488540889E2  -7.862127326627463E1   1.100889868455775E2  -1.878598712860834E1   1.012212504552353E2  
 5.440000000000000E8    -5.523585632100923E-2   1.263462005133335E2  -7.881062851602641E1   1.050412724961777E2  -8.035807235562643E1   1.384857688676162E2  -1.895955176242052E1   9.987516343750268E1  
 5.450000000000000E8    -6.473158217901014E-2   1.265775227828061E2  -7.766872317323897E1   1.071125355900743E2  -8.235078312149125E1   1.186779275506476E2  -1.931136677501844E1   9.830332251268216E1  
 5.460000000000000E8    -4.951583062838853E-2   1.267681429510091E2  -7.986223364193172E1   1.129493064535157E2  -7.423485674989890E1   1.123266768143414E2  -1.988005867644578E1   9.723367360916673E1  
 5.470000000000000E8    -6.108852350594601E-2   1.269658341211931E2  -7.678833351540696E1   1.250307605631387E2  -7.666460971239319E1   1.215563827958042E2  -2.057435010673295E1   9.687569127295687E1  
 5.480000000000000E8    -5.201652435837399E-2   1.272128767181686E2  -7.803138389094933E1   9.963221123760025E1  -7.838907980387091E1   9.901377641624950E1  -2.144174259278096E1   9.741212424433901E1  
 5.490000000000000E8    -5.542217010746871E-2   1.274988761019177E2  -7.933571595789837E1   1.097651960790108E2  -7.911030470269141E1   1.133707009897305E2  -2.248671606618152E1   1.001853667000902E2  
 5.500000000000000E8    -5.728835638840193E-2   1.276483898329874E2  -7.794745836677049E1   1.039899193006211E2  -7.667475092225965E1   1.030424858437937E2  -2.345113538848635E1   1.065656204137230E2  
 5.510000000000000E8    -5.464526961671904E-2   1.279139512576078E2  -7.677710209978868E1   7.536889920855118E1  -7.871390951983248E1   9.747363501956717E1  -2.394133981585333E1   1.160270373501811E2  
 5.520000000000000E8    -5.371138818650326E-2   1.281232859847225E2  -7.513117285656654E1   8.673019287061710E1  -7.375721785104653E1   1.049256725764765E2  -2.364600473220798E1   1.258593595841349E2  
 5.530000000000000E8    -5.433531335839611E-2   1.283219111806330E2  -7.768745730725833E1   9.549068658972104E1  -7.418375588413765E1   1.333246064636020E2  -2.270937303142360E1   1.317082334992824E2  
 5.540000000000000E8    -4.668393598271364E-2   1.285811713786957E2  -8.417972599754306E1   1.132526020614711E2  -7.182375467689326E1   9.753758949330732E1  -2.180190866245484E1   1.335105176579081E2  
 5.550000000000000E8    -5.839574230658348E-2   1.288074123885878E2  -7.692376928010089E1   9.387742603088719E1  -7.926610439993280E1   1.034387393617315E2  -2.110242419965572E1   1.329113880614833E2  
 5.560000000000000E8    -5.540983205781747E-2   1.290675577428501E2  -7.552136853663258E1   8.139478370270660E1  -7.535823197012365E1   8.646375583885013E1  -2.062537359962520E1   1.315255370196587E2  
 5.570000000000000E8    -5.630461636921946E-2   1.293406041795962E2  -7.570185202182225E1   6.438417796126906E1  -7.522160823838944E1   7.494218461487387E1  -2.027925983887429E1   1.294245677582932E2  
 5.580000000000000E8    -5.798097652715475E-2   1.295467112816057E2  -7.487501652691043E1   6.547624709381547E1  -7.685141245631257E1   8.816459859119929E1  -2.003502322556990E1   1.266610040671513E2  
 5.590000000000000E8    -5.106955220859107E-2   1.297880375551561E2  -7.734779859860622E1   7.968500215155463E1  -7.562617011488133E1   6.979105809743459E1  -1.994785425703563E1   1.234677968994056E2  
 5.600000000000000E8    -5.386104302747525E-2   1.300474465717775E2  -7.612100400149490E1   2.930968486045540E1  -7.909078776436697E1   4.917234390992826E1  -1.999860465018793E1   1.196188636075520E2  
 5.610000000000000E8    -4.731165301372509E-2   1.302858600932631E2  -7.520002147067562E1   4.264729428086562E1  -7.691243997513115E1   5.221476558417683E1  -2.025297913576558E1   1.156490133396957E2  
 5.620000000000000E8    -6.334334267949336E-2   1.305971932558871E2  -7.941084204074090E1   4.497287048235908E1  -7.748063506191429E1   1.653065845263987E1  -2.067431259201803E1   1.117410497532796E2  
 5.630000000000000E8    -4.829076342509350E-2   1.308161963804477E2  -7.930842607942257E1   4.237949404392042E1  -7.823619367317883E1   2.599254666324637E1  -2.127963399322552E1   1.080899203680699E2  
 5.640000000000000E8    -4.221532681563235E-2   1.310225496954451E2  -7.792933907229237E1   2.464916210950055E1  -7.570479030048591E1   3.708303678777343E1  -2.201239232507901E1   1.043967408408956E2  
 5.650000000000000E8    -5.732879216173559E-2   1.313211451372714E2  -7.735487836737119E1   2.059965222708134E1  -7.627838087077691E1   4.471772856270123E1  -2.301010983534571E1   1.006313779414948E2  
 5.660000000000000E8    -5.220787316527147E-2   1.314786547415404E2  -8.039444574306505E1   5.110122986106114E1  -7.832854294561946E1   5.496771375578226E1  -2.440746624902398E1   9.733500560511489E1  
 5.670000000000000E8    -5.996187576060254E-2   1.318042923091595E2  -7.699056202060716E1   1.106653620945299  -7.750574064488345E1   3.688503976835716E1  -2.629856740849656E1   9.584186714912786E1  
 5.680000000000000E8    -4.922158205854098E-2   1.320406034458156E2  -7.513096987961283E1   3.037792110722492E1  -7.725480978243560E1   2.669752519019434E1  -2.875250743163028E1   9.763883924529318E1  
 5.690000000000000E8    -5.037471046638174E-2   1.322006685608705E2  -7.507728535617787E1   3.322460952086732E1  -7.948428454903429E1   1.613173425645734E1  -3.178445553475112E1   1.068100468586058E2  
 5.700000000000000E8    -4.678987512213901E-2   1.325364318032371E2  -7.851670566552015E1   1.554421380285961E1  -7.832978693997139E1   2.967329871735922E1  -3.473721253294102E1   1.314583640738906E2  
 5.710000000000000E8    -4.824360717097820E-2   1.327723872387626E2  -7.655545812985275E1   1.547121391226529E1  -8.026066367123734E1   1.947289752600550E1  -3.425115891336677E1   1.662880577603342E2  
 5.720000000000000E8    -4.756552115316592E-2   1.330488919816520E2  -8.027757290073966E1   1.116387798398155E1  -7.491911071943804E1  -6.690027884771457  -3.157674502597919E1  -1.735149702438398E2  
 5.730000000000000E8    -5.283201850209354E-2   1.332635070279918E2  -7.578009233387324E1   2.677538799275643  -8.128087255289437E1  -4.553212124370126E1  -2.895248048307912E1  -1.652165315938567E2  
 5.740000000000000E8    -4.116198466085409E-2   1.335592085719122E2  -8.208879463271121E1  -4.544812037756496E1  -7.894072923911665E1  -5.688023188050694  -2.684094626291191E1  -1.621817374329247E2  
 5.750000000000000E8    -4.798463325295618E-2   1.338358943548316E2  -7.690690202581342E1  -3.507826086822239E1  -7.712459359863006E1  -2.364986420821395E1  -2.517405646019760E1  -1.620584726678824E2  
 5.760000000000000E8    -4.762951666016355E-2   1.339959547280509E2  -8.545535692042047E1  -1.578693913820847E1  -7.579002302219878E1  -2.331959924977631E1  -2.395335927611809E1  -1.634245402198491E2  
 5.770000000000000E8    -4.428180863316383E-2   1.342737599867258E2  -7.806073135165183E1  -3.187806833659326E1  -8.471389461689499E1  -4.139590050074285E1  -2.306199627927323E1  -1.647154300098451E2  
 5.780000000000000E8    -5.171777093144748E-2   1.345570091807108E2  -7.557513865475464E1  -1.816571922372367E1  -8.055597804497737E1  -5.421869018211102E1  -2.228595072280605E1  -1.650954369566616E2  
 5.790000000000000E8    -4.987649943935226E-2   1.347792900222794E2  -8.071588618520060E1  -3.109232373409657E1  -8.499944807403311E1  -6.893249603296501E1  -2.151030720500993E1  -1.653267748465085E2  
 5.800000000000000E8    -4.696890302942553E-2   1.350337450971286E2  -8.645730078701909E1  -8.448561458669953E1  -8.060802688365126E1  -5.290249101949078E1  -2.064655002932721E1  -1.661800949215649E2  
 5.810000000000000E8    -4.678362494382361E-2   1.353193776933038E2  -8.013810027671106E1  -1.699294775458388E1  -8.002377169723768E1  -1.924499478672422E1  -1.987595514847587E1  -1.680321927128920E2  
 5.820000000000000E8    -5.380814292409376E-2   1.355339370937090E2  -7.731455254284732E1  -3.479090689122567E1  -8.664429847421508E1  -3.452180824939823  -1.919860052841160E1  -1.704867643527987E2  
 5.830000000000000E8    -4.667576303097068E-2   1.358054877910982E2  -7.925945848344686E1   1.833299689740490E-1  -7.758215582877935E1  -5.095016374444128E1  -1.860885607418844E1  -1.734832321909940E2  
 5.840000000000000E8    -5.008712906013992E-2   1.360796026712461E2  -7.621209786129265E1  -5.682421960027651E1  -7.980337163160776E1  -7.244703677085799E1  -1.818319108744412E1  -1.768377360849540E2  
 5.850000000000000E8    -4.627384301176129E-2   1.363208249551006E2  -7.871147461675011E1  -1.883697871287769E1  -7.725138275015462E1  -7.403818912788530E1  -1.790468070421552E1   1.797837037928915E2  
 5.860000000000000E8    -4.740909417729437E-2   1.366459259440682E2  -8.004690492733211E1  -4.226081760766203E1  -8.740139211166418E1  -1.117276908207139E2  -1.779210440960895E1   1.768389389961898E2  
 5.870000000000000E8    -5.365800850495600E-2   1.369153298518868E2  -8.350372217842467E1  -8.526982473201100E1  -8.397367207194434E1  -5.496002222365109E1  -1.779882508869212E1   1.744301505242017E2  
 5.880000000000000E8    -4.509568484855209E-2   1.371037750249500E2  -7.807282632677506E1  -6.553933699522928E1  -7.831811194525052E1  -9.012634078717311E1  -1.784133828432012E1   1.732765082960139E2  
 5.890000000000000E8    -4.991143221642728E-2   1.374069842778972E2  -8.339933066817756E1  -5.664307068623113E1  -7.879374769817576E1  -7.474837281800836E1  -1.785510583956711E1   1.729453277442005E2  
 5.900000000000000E8    -5.140676275065167E-2   1.376317799177441E2  -7.653969078322695E1  -9.549127055148807E1  -8.466125051989199E1  -7.430353755829931E1  -1.779903995453762E1   1.729581828585299E2  
 5.910000000000000E8    -4.833727654735799E-2   1.379294009922658E2  -7.597206153463755E1  -8.313374736594253E1  -8.517956543029203E1  -7.829326659951042E1  -1.766079495109977E1   1.733465965593145E2  
 5.920000000000000E8    -4.614948592565908E-2   1.381438771403060E2  -8.092129485064743E1  -7.971612713037743E1  -7.973017689136312E1  -9.477029325811540E1  -1.743117535312142E1   1.737018353141662E2  
 5.930000000000000E8    -5.130203570138422E-2   1.384071349997405E2  -8.245951098580710E1  -7.873756544443459E1  -8.188393466511228E1  -8.831773756506374E1  -1.713258040126933E1   1.737459955421374E2  
 5.940000000000000E8    -6.044998764216753E-2   1.386512807078401E2  -7.906298912319200E1  -9.903650900412285E1  -7.873983638929332E1  -1.078534378267235E2  -1.678966236919480E1   1.732966281300836E2  
 5.950000000000000E8    -4.872841416561112E-2   1.389271021591368E2  -7.764741510034699E1  -1.133671152832683E2  -7.968617438512382E1  -1.073985599982708E2  -1.644424311159077E1   1.723885884106188E2  
 5.960000000000000E8    -4.725200494599850E-2   1.391697011537791E2  -7.772965324740275E1  -1.268824703288212E2  -7.854151795908675E1  -1.121343705928066E2  -1.612299153947506E1   1.710330187335407E2  
