#  HZ   S   RI   R     50.00 
! Rohde & Schwarz ZVB8 2Ports - Version 2.81 - 1145.1010k08 SN: 100113
! Date: 2016-05-12 03:15:51
! Measurements: S11 S21 S12 S22 
! 
 6.000000000000000E8    -8.590782880783081E-1   3.760254979133606E-1  -1.981454406632111E-4  -1.616381807252765E-3  -1.885394449345768E-4  -1.637923181988299E-3  -9.569625854492188E-1   1.829874068498612E-1  
 6.024024024024024E8    -8.521770834922791E-1   3.880753517150879E-1  -9.064318874152377E-5  -1.660143723711371E-3  -8.415183401666582E-5  -1.700290711596608E-3  -9.543153643608093E-1   1.941403746604919E-1  
 6.048048048048048E8    -8.450680375099182E-1   4.008248150348663E-1  -1.895230234367773E-4  -1.676427316851914E-3  -1.080743895727210E-4  -1.804266008548439E-3  -9.513952136039734E-1   2.049388885498047E-1  
 6.072072072072072E8    -8.371954560279846E-1   4.145868420600891E-1  -1.672238140599802E-4  -1.804531319066882E-3  -1.382956543238834E-4  -1.903450232930481E-3  -9.488406777381897E-1   2.155054211616516E-1  
 6.096096096096096E8    -8.286696672439575E-1   4.288610517978668E-1  -7.223246939247474E-5  -1.888263272121549E-3  -7.442192872986198E-5  -1.874167472124100E-3  -9.455538392066956E-1   2.261032015085220E-1  
 6.120120120120120E8    -8.218915462493897E-1   4.399078488349915E-1  -2.893189594033174E-5  -1.884045545011759E-3  -3.830847344943322E-5  -2.010283991694450E-3  -9.430887103080750E-1   2.346787601709366E-1  
 6.144144144144144E8    -8.140230774879456E-1   4.512167870998383E-1  -4.473263004456385E-7  -2.053706208243966E-3  -1.356537268293323E-5  -2.024867339059711E-3  -9.408661723136902E-1   2.439973056316376E-1  
 6.168168168168168E8    -8.055950403213501E-1   4.626062214374542E-1   1.983015245059505E-4  -2.203301293775439E-3   1.550683082314208E-4  -2.229308709502220E-3  -9.382049441337585E-1   2.537238597869873E-1  
 6.192192192192192E8    -7.969365119934082E-1   4.739215970039368E-1   2.167924540117383E-4  -2.385103609412909E-3   2.869483723770827E-4  -2.323700813576579E-3  -9.354615807533264E-1   2.641543745994568E-1  
 6.216216216216216E8    -7.882276773452759E-1   4.848700761795044E-1   4.382563638500869E-4  -2.608681563287973E-3   4.709881031885743E-4  -2.622802508994937E-3  -9.321207404136658E-1   2.749622166156769E-1  
 6.240240240240240E8    -7.794204950332642E-1   4.952515661716461E-1   5.625290214084089E-4  -2.995439572259784E-3   4.945624968968332E-4  -3.002332989126444E-3  -9.285684823989868E-1   2.858317494392395E-1  
 6.264264264264264E8    -7.712365984916687E-1   5.062431097030640E-1   5.530451308004558E-4  -3.493177471682429E-3   5.904944264329970E-4  -3.553920891135931E-3  -9.242145419120789E-1   2.985355556011200E-1  
 6.288288288288288E8    -7.629057765007019E-1   5.174198150634766E-1   4.604050191119313E-4  -4.002773202955723E-3   4.648773756343871E-4  -4.021571483463049E-3  -9.200925230979919E-1   3.095060288906097E-1  
 6.312312312312312E8    -7.546644806861877E-1   5.287353396415710E-1   2.573707315605134E-4  -4.567768424749374E-3   3.155412268824875E-4  -4.555958323180676E-3  -9.158049225807190E-1   3.194824159145355E-1  
 6.336336336336336E8    -7.464907169342041E-1   5.398450493812561E-1  -4.848416574532166E-5  -5.117448978126049E-3  -7.398316665785387E-5  -5.120573565363884E-3  -9.121956229209900E-1   3.278873860836029E-1  
 6.360360360360360E8    -7.376355528831482E-1   5.508378744125366E-1  -3.943793708458543E-4  -5.656486377120018E-3  -4.287872579880059E-4  -5.620704963803291E-3  -9.090034961700440E-1   3.354209959506989E-1  
 6.384384384384384E8    -7.290261983871460E-1   5.617945790290833E-1  -1.012901193462312E-3  -6.124778185039759E-3  -1.000631251372397E-3  -6.105039268732071E-3  -9.053041934967041E-1   3.455328941345215E-1  
 6.408408408408408E8    -7.200537323951721E-1   5.732471942901611E-1  -1.740770763717592E-3  -6.465688347816467E-3  -1.725745154544711E-3  -6.412727758288384E-3  -9.009969234466553E-1   3.557544052600861E-1  
 6.432432432432432E8    -7.106230854988098E-1   5.847015976905823E-1  -2.527796430513263E-3  -6.609406322240830E-3  -2.473403234034777E-3  -6.526636891067028E-3  -8.967595100402832E-1   3.655185401439667E-1  
 6.456456456456456E8    -7.005531787872315E-1   5.962170958518982E-1  -3.185279434546828E-3  -6.585877854377031E-3  -3.169262548908591E-3  -6.582597736269236E-3  -8.920273184776306E-1   3.751642107963562E-1  
 6.480480480480480E8    -6.899953484535217E-1   6.073708534240723E-1  -3.840629942715168E-3  -6.581912748515606E-3  -3.841653466224670E-3  -6.493599619716406E-3  -8.873578310012817E-1   3.842610120773315E-1  
 6.504504504504504E8    -6.786655187606812E-1   6.183325052261353E-1  -4.357398487627506E-3  -6.423407699912787E-3  -4.303906578570604E-3  -6.391206756234169E-3  -8.802340030670166E-1   3.966294825077057E-1  
 6.528528528528528E8    -6.674840450286865E-1   6.291785240173340E-1  -4.793088417500258E-3  -6.313641089946032E-3  -4.914275370538235E-3  -6.289116572588682E-3  -8.749259710311890E-1   4.086454808712006E-1  
 6.552552552552552E8    -6.558901667594910E-1   6.390740871429443E-1  -5.347193218767643E-3  -6.134540308266878E-3  -5.357368849217892E-3  -6.080323364585638E-3  -8.713499903678894E-1   4.190024733543396E-1  
 6.576576576576576E8    -6.437901854515076E-1   6.486256122589111E-1  -5.768359638750553E-3  -5.976954009383917E-3  -5.785764660686255E-3  -6.012160331010819E-3  -8.681228160858154E-1   4.273564815521240E-1  
 6.600600600600600E8    -6.302617788314819E-1   6.588776707649231E-1  -6.207623519003391E-3  -5.821265745908022E-3  -6.216383539140225E-3  -5.844090133905411E-3  -8.634724020957947E-1   4.351708590984345E-1  
 6.624624624624624E8    -6.170811057090759E-1   6.686747670173645E-1  -6.681429687887430E-3  -5.702486727386713E-3  -6.707536987960339E-3  -5.701560061424971E-3  -8.574734330177307E-1   4.459527134895325E-1  
 6.648648648648648E8    -6.040005087852478E-1   6.780678033828735E-1  -7.119767833501101E-3  -5.453065969049931E-3  -7.107062265276909E-3  -5.451318342238665E-3  -8.517260551452637E-1   4.563751518726349E-1  
 6.672672672672672E8    -5.903355479240418E-1   6.870772838592529E-1  -7.466608658432961E-3  -5.246167536824942E-3  -7.491585798561573E-3  -5.242991261184216E-3  -8.457502722740173E-1   4.661350846290588E-1  
 6.696696696696696E8    -5.761392116546631E-1   6.960334181785584E-1  -7.862031459808350E-3  -4.998207092285156E-3  -7.884208112955093E-3  -4.987462423741818E-3  -8.399033546447754E-1   4.755035340785980E-1  
 6.720720720720720E8    -5.605464577674866E-1   7.046428918838501E-1  -8.207490667700768E-3  -4.832301754504442E-3  -8.245441131293774E-3  -4.780580289661884E-3  -8.341624736785889E-1   4.844770729541779E-1  
 6.744744744744744E8    -5.456420183181763E-1   7.132135629653931E-1  -8.625387214124203E-3  -4.609005525708199E-3  -8.592338301241398E-3  -4.620925523340702E-3  -8.281698822975159E-1   4.945167601108551E-1  
 6.768768768768768E8    -5.303390026092529E-1   7.211024165153503E-1  -8.963109925389290E-3  -4.358641337603331E-3  -8.951631374657154E-3  -4.417788702994585E-3  -8.215711116790772E-1   5.039919614791870E-1  
 6.792792792792792E8    -5.146563053131104E-1   7.286030054092407E-1  -9.345768019556999E-3  -4.212188534438610E-3  -9.346584789454937E-3  -4.191701300442219E-3  -8.154706358909607E-1   5.133838653564453E-1  
 6.816816816816816E8    -4.981723725795746E-1   7.354535460472107E-1  -9.778923355042934E-3  -3.975541796535254E-3  -9.724997915327549E-3  -3.972284495830536E-3  -8.088675141334534E-1   5.230948925018311E-1  
 6.840840840840840E8    -4.812378287315369E-1   7.417836785316467E-1  -1.014495547860861E-2  -3.678022418171167E-3  -1.011603605002165E-2  -3.752026008442044E-3  -8.023690581321716E-1   5.325983166694641E-1  
 6.864864864864864E8    -4.639655649662018E-1   7.474077343940735E-1  -1.045854296535254E-2  -3.449796233326197E-3  -1.052029617130756E-2  -3.407150274142623E-3  -7.951307892799377E-1   5.413754582405090E-1  
 6.888888888888888E8    -4.468540251255035E-1   7.529277205467224E-1  -1.086574047803879E-2  -3.063618671149015E-3  -1.073363982141018E-2  -3.189779119566083E-3  -7.876845002174377E-1   5.509120821952820E-1  
 6.912912912912912E8    -4.294970035552979E-1   7.575108408927918E-1  -1.121899951249361E-2  -2.834458136931062E-3  -1.126618776470423E-2  -2.955617848783732E-3  -7.803231477737427E-1   5.602383017539978E-1  
 6.936936936936936E8    -4.122226834297180E-1   7.624092698097229E-1  -1.156518608331680E-2  -2.511953935027123E-3  -1.146507356315851E-2  -2.556677674874663E-3  -7.729826569557190E-1   5.694842338562012E-1  
 6.960960960960960E8    -3.935735225677490E-1   7.661892771720886E-1  -1.187616772949696E-2  -2.213052473962307E-3  -1.192555855959654E-2  -2.174276160076261E-3  -7.660807371139526E-1   5.790258049964905E-1  
 6.984984984984984E8    -3.759547770023346E-1   7.689715027809143E-1  -1.226127706468105E-2  -1.800756901502609E-3  -1.219305023550987E-2  -1.667273463681340E-3  -7.560211420059204E-1   5.914177298545837E-1  
 7.009009009009008E8    -3.579083681106567E-1   7.703173160552979E-1  -1.229420211166143E-2  -1.312003354541957E-3  -1.229782588779926E-2  -1.103159622289240E-3  -7.463065385818481E-1   6.022943258285523E-1  
 7.033033033033032E8    -3.395040631294251E-1   7.707915902137756E-1  -1.230445411056280E-2  -9.690824663266540E-4  -1.230178400874138E-2  -7.376117282547057E-4  -7.384397983551025E-1   6.108268499374390E-1  
 7.057057057057056E8    -3.220058679580689E-1   7.701271772384644E-1  -1.212512515485287E-2  -6.689364672638476E-4  -1.219295896589756E-2  -5.425033741630614E-4  -7.331193089485169E-1   6.159480810165405E-1  
 7.081081081081080E8    -3.028432130813599E-1   7.698447704315186E-1  -1.187886018306017E-2  -6.447312771342695E-4  -1.185671612620354E-2  -6.635566242039204E-4  -7.270556688308716E-1   6.219103336334229E-1  
 7.105105105105104E8    -2.845235466957092E-1   7.692756652832031E-1  -1.161083951592445E-2  -9.736064821481705E-4  -1.175159588456154E-2  -1.049448153935373E-3  -7.206466197967529E-1   6.288015842437744E-1  
 7.129129129129129E8    -2.678208947181702E-1   7.670533061027527E-1  -1.158521417528391E-2  -1.647680066525936E-3  -1.154173258692026E-2  -1.725206617265940E-3  -7.124951481819153E-1   6.368995904922485E-1  
 7.153153153153153E8    -2.524410188198090E-1   7.638530135154724E-1  -1.170419994741678E-2  -2.584645058959723E-3  -1.168440375477076E-2  -2.690011635422707E-3  -7.029983401298523E-1   6.457421779632568E-1  
 7.177177177177178E8    -2.373638451099396E-1   7.604067325592041E-1  -1.236284431070089E-2  -4.005162976682186E-3  -1.235806383192539E-2  -3.950304817408323E-3  -6.926149129867554E-1   6.556037664413452E-1  
 7.201201201201202E8    -2.219294160604477E-1   7.570516467094421E-1  -1.350510306656361E-2  -5.403369199484587E-3  -1.360333245247603E-2  -5.409322679042816E-3  -6.826827526092529E-1   6.644147038459778E-1  
 7.225225225225226E8    -2.083882540464401E-1   7.549749612808228E-1  -1.546029653400183E-2  -6.922979373484850E-3  -1.541530620306730E-2  -6.826075259596109E-3  -6.717126965522766E-1   6.736817955970764E-1  
 7.249249249249250E8    -1.939933598041534E-1   7.540930509567261E-1  -1.830956339836121E-2  -7.821127772331238E-3  -1.817480288445950E-2  -8.060149848461151E-3  -6.629021763801575E-1   6.798710823059082E-1  
 7.273273273273274E8    -1.795857846736908E-1   7.541881203651428E-1  -2.186182141304016E-2  -8.029120042920113E-3  -2.163806371390820E-2  -8.379329927265644E-3  -6.542140841484070E-1   6.856440901756287E-1  
 7.297297297297298E8    -1.647269278764725E-1   7.549010515213013E-1  -2.563428878784180E-2  -7.401635404676199E-3  -2.548773027956486E-2  -7.765742484480143E-3  -6.454362869262695E-1   6.919469833374023E-1  
 7.321321321321322E8    -1.483342945575714E-1   7.548357248306274E-1  -2.924441546201706E-2  -5.987049080431461E-3  -2.919669076800346E-2  -6.002178881317377E-3  -6.363825201988220E-1   6.990601420402527E-1  
 7.345345345345346E8    -1.297157853841782E-1   7.534705996513367E-1  -3.263327106833458E-2  -3.713788464665413E-3  -3.259493410587311E-2  -3.456763224676251E-3  -6.269351243972778E-1   7.066391110420227E-1  
 7.369369369369370E8    -1.093361526727676E-1   7.496488094329834E-1  -3.556600958108902E-2  -6.367779569700360E-4  -3.557304292917252E-2  -2.202367468271405E-4  -6.172878146171570E-1   7.142407894134522E-1  
 7.393393393393394E8    -8.919843286275864E-2   7.434611320495606E-1  -3.791388124227524E-2   3.060691058635712E-3  -3.774645924568176E-2   3.524344647303224E-3  -6.072517037391663E-1   7.214710116386414E-1  
 7.417417417417418E8    -7.028818130493164E-2   7.357138395309448E-1  -3.951772302389145E-2   6.991483271121979E-3  -3.937602788209915E-2   7.184844929724932E-3  -5.979413986206055E-1   7.283017635345459E-1  
 7.441441441441442E8    -5.152219906449318E-2   7.275130152702332E-1  -4.049355909228325E-2   1.100629288703203E-2  -4.057296365499497E-2   1.102845091372728E-2  -5.887854099273682E-1   7.345050573348999E-1  
 7.465465465465466E8    -3.549703210592270E-2   7.194761633872986E-1  -4.104351624846458E-2   1.489444356411696E-2  -4.112534597516060E-2   1.487916894257069E-2  -5.777805447578430E-1   7.420578598976135E-1  
 7.489489489489490E8    -1.973764225840569E-2   7.093973755836487E-1  -4.119642078876495E-2   1.872903108596802E-2  -4.126043245196343E-2   1.875908672809601E-2  -5.681481957435608E-1   7.486854195594788E-1  
 7.513513513513514E8    -4.042310174554586E-3   6.988785266876221E-1  -4.075521603226662E-2   2.249079756438732E-2  -4.088911414146423E-2   2.242278121411800E-2  -5.584655404090881E-1   7.552545666694641E-1  
 7.537537537537538E8     1.366992574185133E-2   6.883661746978760E-1  -4.019001498818398E-2   2.580155432224274E-2  -4.041995853185654E-2   2.564550749957562E-2  -5.475625991821289E-1   7.618064880371094E-1  
 7.561561561561562E8     3.251139819622040E-2   6.758926510810852E-1  -3.998894616961479E-2   2.910253219306469E-2  -3.999284282326698E-2   2.903106249868870E-2  -5.358167290687561E-1   7.671466469764710E-1  
 7.585585585585586E8     4.969906806945801E-2   6.622065305709839E-1  -3.959223628044128E-2   3.267049044370651E-2  -3.939549252390862E-2   3.257388249039650E-2  -5.223036408424377E-1   7.748640775680542E-1  
 7.609609609609610E8     6.537810713052750E-2   6.469036936759949E-1  -3.890049085021019E-2   3.631139546632767E-2  -3.847322613000870E-2   3.607397526502609E-2  -5.094501972198486E-1   7.818594574928284E-1  
 7.633633633633634E8     7.991082966327667E-2   6.307266354560852E-1  -3.787528723478317E-2   4.015182703733444E-2  -3.755455836653709E-2   3.983120247721672E-2  -4.978270232677460E-1   7.883132100105286E-1  
 7.657657657657658E8     9.395656734704971E-2   6.142110824584961E-1  -3.671386465430260E-2   4.409622773528099E-2  -3.658499941229820E-2   4.371423646807671E-2  -4.881537854671478E-1   7.933261394500732E-1  
 7.681681681681682E8     1.077456772327423E-1   5.965732336044312E-1  -3.513247519731522E-2   4.811184108257294E-2  -3.501698747277260E-2   4.813109338283539E-2  -4.800130128860474E-1   7.974258661270142E-1  
 7.705705705705706E8     1.174771711230278E-1   5.793492197990418E-1  -3.287066146731377E-2   5.214567482471466E-2  -3.301017731428146E-2   5.228492245078087E-2  -4.715293645858765E-1   8.023980259895325E-1  
 7.729729729729730E8     1.277822107076645E-1   5.599832534790039E-1  -2.993941120803356E-2   5.588834732770920E-2  -3.028894402086735E-2   5.637781322002411E-2  -4.620846509933472E-1   8.098236918449402E-1  
 7.753753753753754E8     1.368181258440018E-1   5.392691493034363E-1  -2.665472030639648E-2   5.932262539863586E-2  -2.695216797292233E-2   5.991300567984581E-2  -4.497000277042389E-1   8.172934651374817E-1  
 7.777777777777778E8     1.443812847137451E-1   5.171871781349182E-1  -2.335363999009132E-2   6.244567781686783E-2  -2.339198440313339E-2   6.295650452375412E-2  -4.357618391513825E-1   8.221755623817444E-1  
 7.801801801801802E8     1.497032195329666E-1   4.940994083881378E-1  -1.988531276583672E-2   6.544314324855804E-2  -1.965646818280220E-2   6.529360264539719E-2  -4.205564856529236E-1   8.238006234169006E-1  
 7.825825825825826E8     1.532085388898850E-1   4.705332219600678E-1  -1.629437878727913E-2   6.800398975610733E-2  -1.596664823591709E-2   6.778162717819214E-2  -4.049148559570313E-1   8.270979523658752E-1  
 7.849849849849850E8     1.544721871614456E-1   4.469617009162903E-1  -1.224911212921143E-2   7.084061950445175E-2  -1.230351720005274E-2   7.047313451766968E-2  -3.929761946201325E-1   8.291235566139221E-1  
 7.873873873873874E8     1.529700905084610E-1   4.240454733371735E-1  -7.632894441485405E-3   7.341247051954269E-2  -7.799621205776930E-3   7.278978824615479E-2  -3.817832171916962E-1   8.322447538375855E-1  
 7.897897897897898E8     1.501920521259308E-1   4.021402597427368E-1  -2.679757541045547E-3   7.523256540298462E-2  -2.721002325415611E-3   7.480689138174057E-2  -3.698079288005829E-1   8.380525112152100E-1  
 7.921921921921922E8     1.474203020334244E-1   3.808878660202026E-1   2.517450600862503E-3   7.650925219058991E-2   2.567044459283352E-3   7.640610635280609E-2  -3.573548793792725E-1   8.453477621078491E-1  
 7.945945945945946E8     1.430904418230057E-1   3.625651895999908E-1   7.788277231156826E-3   7.690291106700897E-2   7.582663092762232E-3   7.690207660198212E-2  -3.444710373878479E-1   8.489527106285095E-1  
 7.969969969969970E8     1.376228183507919E-1   3.429130315780640E-1   1.259311567991972E-2   7.659825682640076E-2   1.238227821886540E-2   7.664159685373306E-2  -3.306119740009308E-1   8.532161712646484E-1  
 7.993993993993994E8     1.305305361747742E-1   3.216219842433929E-1   1.657470315694809E-2   7.589618861675263E-2   1.650456339120865E-2   7.618473470211029E-2  -3.167073726654053E-1   8.576704859733582E-1  
 8.018018018018018E8     1.194506064057350E-1   2.979815900325775E-1   1.975014992058277E-2   7.556828111410141E-2   1.993504911661148E-2   7.581367343664169E-2  -3.015877604484558E-1   8.617833256721497E-1  
 8.042042042042042E8     1.039922535419464E-1   2.770380675792694E-1   2.308119833469391E-2   7.586568593978882E-2   2.310574799776077E-2   7.599101960659027E-2  -2.879056334495544E-1   8.648141026496887E-1  
 8.066066066066066E8     8.484347164630890E-2   2.603110969066620E-1   2.640363760292530E-2   7.641404867172241E-2   2.655913867056370E-2   7.649585604667664E-2  -2.715864479541779E-1   8.685844540596008E-1  
 8.090090090090090E8     6.314823776483536E-2   2.476108074188232E-1   3.035154566168785E-2   7.744592428207398E-2   3.049641102552414E-2   7.749617844820023E-2  -2.558315694332123E-1   8.714130520820618E-1  
 8.114114114114114E8     4.184475541114807E-2   2.402229458093643E-1   3.504162654280663E-2   7.824106514453888E-2   3.521496802568436E-2   7.831849157810211E-2  -2.406932860612869E-1   8.733520507812500E-1  
 8.138138138138138E8     2.294200100004673E-2   2.364985644817352E-1   4.020096734166145E-2   7.858008146286011E-2   4.030936211347580E-2   7.856496423482895E-2  -2.254253774881363E-1   8.752056360244751E-1  
 8.162162162162162E8     6.613537203520536E-3   2.329747974872589E-1   4.532767459750176E-2   7.843586057424545E-2   4.538944736123085E-2   7.832754403352737E-2  -2.101523429155350E-1   8.769702911376953E-1  
 8.186186186186186E8    -1.146796811372042E-2   2.300083041191101E-1   5.050757527351379E-2   7.828443497419357E-2   5.055850371718407E-2   7.815393805503845E-2  -1.941896378993988E-1   8.787634968757629E-1  
 8.210210210210210E8    -3.036565892398357E-2   2.299176901578903E-1   5.656532570719719E-2   7.775451242923737E-2   5.659864097833633E-2   7.776897400617600E-2  -1.773927062749863E-1   8.796842694282532E-1  
 8.234234234234234E8    -4.768144339323044E-2   2.321569472551346E-1   6.280484050512314E-2   7.625485956668854E-2   6.283505260944367E-2   7.626730203628540E-2  -1.605142056941986E-1   8.803801536560059E-1  
