#  HZ   S   RI   R     50.00 
! Rohde & Schwarz ZVB8 2Ports - Version 2.81 - 1145.1010k08 SN: 100113
! Date: 2016-05-12 03:16:21
! Measurements: S11 S21 S12 S22 
! 
 6.000000000000000E8    -8.188272118568420E-1   4.146549403667450E-1  -5.179955624043942E-4  -2.485611010342836E-3  -5.434541380964220E-4  -2.421717857941985E-3  -9.515038132667542E-1   1.990506649017334E-1  
 6.024024024024024E8    -8.093755841255188E-1   4.272709190845490E-1  -5.354580353014171E-4  -2.554844366386533E-3  -5.450540338642895E-4  -2.642483217641711E-3  -9.484273195266724E-1   2.104554027318955E-1  
 6.048048048048048E8    -7.996027469635010E-1   4.403798282146454E-1  -5.856979405507445E-4  -2.691159257665277E-3  -6.076917052268982E-4  -2.744487021118403E-3  -9.452624917030335E-1   2.219549566507340E-1  
 6.072072072072072E8    -7.889158129692078E-1   4.543827176094055E-1  -5.642071482725442E-4  -2.865046262741089E-3  -5.829755682498217E-4  -2.872824668884277E-3  -9.420524835586548E-1   2.327455878257752E-1  
 6.096096096096096E8    -7.771385312080383E-1   4.685018956661224E-1  -5.433742771856487E-4  -2.946016611531377E-3  -5.751115386374295E-4  -2.952535636723042E-3  -9.387294650077820E-1   2.439615130424500E-1  
 6.120120120120120E8    -7.671424746513367E-1   4.801188707351685E-1  -5.318724433891475E-4  -3.174283541738987E-3  -4.896993050351739E-4  -3.098644083365798E-3  -9.355409145355225E-1   2.525802552700043E-1  
 6.144144144144144E8    -7.560131549835205E-1   4.913529455661774E-1  -5.427113501355052E-4  -3.364143660292029E-3  -4.674131341744214E-4  -3.310110885649920E-3  -9.331057667732239E-1   2.626413702964783E-1  
 6.168168168168168E8    -7.440845966339111E-1   5.029259324073792E-1  -3.827422333415598E-4  -3.522418439388275E-3  -3.989038523286581E-4  -3.565622493624687E-3  -9.300228953361511E-1   2.732076048851013E-1  
 6.192192192192192E8    -7.318717241287231E-1   5.133236050605774E-1  -2.140543656423688E-4  -3.939379006624222E-3  -2.290362026542425E-4  -3.902873722836375E-3  -9.266052842140198E-1   2.838479280471802E-1  
 6.216216216216216E8    -7.192451953887940E-1   5.231114029884338E-1  -8.986460306914523E-5  -4.348015412688255E-3  -1.223024300998077E-4  -4.327506758272648E-3  -9.228615164756775E-1   2.950802445411682E-1  
 6.240240240240240E8    -7.074189186096191E-1   5.325281620025635E-1  -3.240255318814889E-5  -5.003165919333696E-3  -4.372993862489238E-5  -5.029407329857349E-3  -9.184531569480896E-1   3.065734505653381E-1  
 6.264264264264264E8    -6.961637735366821E-1   5.430197119712830E-1  -6.304327689576894E-5  -5.841441452503204E-3  -6.143505743239075E-5  -5.831211339682341E-3  -9.135529994964600E-1   3.198112845420837E-1  
 6.288288288288288E8    -6.851081848144531E-1   5.531159639358521E-1  -3.915253619197756E-4  -6.688764784485102E-3  -3.384710871614516E-4  -6.718843709677458E-3  -9.086471796035767E-1   3.310740590095520E-1  
 6.312312312312312E8    -6.739755272865295E-1   5.634477734565735E-1  -9.089929517358542E-4  -7.650683633983135E-3  -8.742473437450826E-4  -7.660038303583860E-3  -9.039724469184876E-1   3.414714038372040E-1  
 6.336336336336336E8    -6.624161601066589E-1   5.739016532897949E-1  -1.656085951253772E-3  -8.531745523214340E-3  -1.672363374382258E-3  -8.588469587266445E-3  -8.994459509849548E-1   3.503674864768982E-1  
 6.360360360360360E8    -6.506978869438171E-1   5.849384069442749E-1  -2.617902355268598E-3  -9.362277574837208E-3  -2.630937378853560E-3  -9.312434121966362E-3  -8.955747485160828E-1   3.582633137702942E-1  
 6.384384384384384E8    -6.385695934295654E-1   5.963678359985352E-1  -3.897945163771510E-3  -1.002748869359493E-2  -3.866390790790319E-3  -9.973645210266113E-3  -8.912563920021057E-1   3.691263794898987E-1  
 6.408408408408408E8    -6.253006458282471E-1   6.080862879753113E-1  -5.337187554687262E-3  -1.037799566984177E-2  -5.295590031892061E-3  -1.035061571747065E-2  -8.863251209259033E-1   3.796641826629639E-1  
 6.432432432432432E8    -6.110209226608276E-1   6.200024485588074E-1  -6.692495197057724E-3  -1.039524096995592E-2  -6.684473715722561E-3  -1.042610872536898E-2  -8.814291357994080E-1   3.899785280227661E-1  
 6.456456456456456E8    -5.958661437034607E-1   6.313821673393250E-1  -7.907098159193993E-3  -1.022007409483194E-2  -7.959843613207340E-3  -1.023349724709988E-2  -8.759381771087647E-1   4.000488221645355E-1  
 6.480480480480480E8    -5.791231393814087E-1   6.426650881767273E-1  -9.126976132392883E-3  -9.973580949008465E-3  -9.072281420230866E-3  -9.997133165597916E-3  -8.704217076301575E-1   4.098703265190125E-1  
 6.504504504504504E8    -5.609214901924133E-1   6.533249616622925E-1  -1.025787368416786E-2  -9.629562497138977E-3  -1.019821781665087E-2  -9.630529209971428E-3  -8.624474406242371E-1   4.224382638931274E-1  
 6.528528528528528E8    -5.422461628913879E-1   6.628516912460327E-1  -1.137868221849203E-2  -9.224776178598404E-3  -1.129688881337643E-2  -9.163653478026390E-3  -8.564450740814209E-1   4.348989725112915E-1  
 6.552552552552552E8    -5.227296352386475E-1   6.714881658554077E-1  -1.234998926520348E-2  -8.711810223758221E-3  -1.228735223412514E-2  -8.751350454986095E-3  -8.517499566078186E-1   4.461076557636261E-1  
 6.576576576576576E8    -5.021370053291321E-1   6.788420081138611E-1  -1.327269989997149E-2  -8.202068507671356E-3  -1.322520244866610E-2  -8.274271152913570E-3  -8.476515412330627E-1   4.549936652183533E-1  
 6.600600600600600E8    -4.795052409172058E-1   6.857927441596985E-1  -1.422854047268629E-2  -7.786587346345186E-3  -1.416825596243143E-2  -7.830452173948288E-3  -8.420372009277344E-1   4.631982743740082E-1  
 6.624624624624624E8    -4.570511877536774E-1   6.921662688255310E-1  -1.525715366005898E-2  -7.217932492494583E-3  -1.526427082717419E-2  -7.213753182440996E-3  -8.350916504859924E-1   4.745797812938690E-1  
 6.648648648648648E8    -4.349046349525452E-1   6.968097686767578E-1  -1.628138870000839E-2  -6.484745535999537E-3  -1.632750406861305E-2  -6.604664027690888E-3  -8.282303214073181E-1   4.853404164314270E-1  
 6.672672672672672E8    -4.112098515033722E-1   7.002105116844177E-1  -1.719731092453003E-2  -5.727156996726990E-3  -1.722734980285168E-2  -5.716255865991116E-3  -8.212571740150452E-1   4.959089159965515E-1  
 6.696696696696696E8    -3.861060440540314E-1   7.025366425514221E-1  -1.807538606226444E-2  -4.938103724271059E-3  -1.808418892323971E-2  -4.935668781399727E-3  -8.141359686851502E-1   5.057764649391174E-1  
 6.720720720720720E8    -3.597442507743835E-1   7.028723359107971E-1  -1.905080862343311E-2  -4.171920940279961E-3  -1.901056058704853E-2  -4.205564968287945E-3  -8.071337342262268E-1   5.154132246971130E-1  
 6.744744744744744E8    -3.335824608802795E-1   7.021432518959045E-1  -1.997240446507931E-2  -3.259576391428709E-3  -1.991878077387810E-2  -3.244866151362658E-3  -7.993244528770447E-1   5.260083675384522E-1  
 6.768768768768768E8    -3.073228001594544E-1   6.991928219795227E-1  -2.083412930369377E-2  -2.205238677561283E-3  -2.077931538224220E-2  -2.219860209152103E-3  -7.918013930320740E-1   5.359400510787964E-1  
 6.792792792792792E8    -2.810026705265045E-1   6.940714716911316E-1  -2.165362797677517E-2  -1.083798822946847E-3  -2.162465639412403E-2  -1.103410031646490E-3  -7.842687964439392E-1   5.459405183792114E-1  
 6.816816816816816E8    -2.543970644474030E-1   6.869860887527466E-1  -2.241958491504192E-2   4.663427534978837E-5  -2.242675796151161E-2  -2.449416206218302E-5  -7.764425873756409E-1   5.561827421188355E-1  
 6.840840840840840E8    -2.277576476335526E-1   6.774883866310120E-1  -2.326097339391708E-2   1.346848323009908E-3  -2.320654876530170E-2   1.313332351855934E-3  -7.682278752326965E-1   5.662664175033569E-1  
 6.864864864864864E8    -2.023654729127884E-1   6.654838919639587E-1  -2.384185977280140E-2   2.821225672960281E-3  -2.382498793303967E-2   2.754793968051672E-3  -7.597051858901978E-1   5.755181312561035E-1  
 6.888888888888888E8    -1.772401332855225E-1   6.511739492416382E-1  -2.431716397404671E-2   4.336775746196508E-3  -2.431517653167248E-2   4.068824462592602E-3  -7.505851984024048E-1   5.851253867149353E-1  
 6.912912912912912E8    -1.541116833686829E-1   6.348380446434021E-1  -2.485429868102074E-2   5.819567013531923E-3  -2.482073567807674E-2   5.625911522656679E-3  -7.414360046386719E-1   5.951467156410217E-1  
 6.936936936936936E8    -1.317180693149567E-1   6.168831586837769E-1  -2.512161247432232E-2   7.449883501976728E-3  -2.508655935525894E-2   7.316514849662781E-3  -7.322191596031189E-1   6.049038171768189E-1  
 6.960960960960960E8    -1.101584807038307E-1   5.965046286582947E-1  -2.528568916022778E-2   9.009574539959431E-3  -2.528792247176170E-2   9.017662145197392E-3  -7.232650518417358E-1   6.148995161056519E-1  
 6.984984984984984E8    -9.265965223312378E-2   5.744327306747437E-1  -2.526089362800121E-2   1.070931460708380E-2  -2.510949596762657E-2   1.100034080445766E-2  -7.111530900001526E-1   6.275038719177246E-1  
 7.009009009009008E8    -7.802825421094894E-2   5.504096746444702E-1  -2.477947063744068E-2   1.215628907084465E-2  -2.456075511872768E-2   1.275560352951288E-2  -6.993568539619446E-1   6.392459273338318E-1  
 7.033033033033032E8    -6.642879545688629E-2   5.253311395645142E-1  -2.406844496726990E-2   1.343958731740713E-2  -2.377808280289173E-2   1.394664868712425E-2  -6.894866824150085E-1   6.477482914924622E-1  
 7.057057057057056E8    -5.672957748174667E-2   5.001431703567505E-1  -2.312218211591244E-2   1.438309624791145E-2  -2.296291664242744E-2   1.460873708128929E-2  -6.819012165069580E-1   6.536421179771423E-1  
 7.081081081081080E8    -4.748453572392464E-2   4.741330742835999E-1  -2.229864150285721E-2   1.468465290963650E-2  -2.233438193798065E-2   1.460933778434992E-2  -6.735544204711914E-1   6.602929830551148E-1  
 7.105105105105104E8    -4.230238497257233E-2   4.473154842853546E-1  -2.194485813379288E-2   1.459677610546351E-2  -2.214311063289642E-2   1.439181342720985E-2  -6.644573807716370E-1   6.678121685981751E-1  
 7.129129129129129E8    -4.231804236769676E-2   4.202316999435425E-1  -2.199655026197434E-2   1.412438601255417E-2  -2.223782241344452E-2   1.376759260892868E-2  -6.538504958152771E-1   6.760274171829224E-1  
 7.153153153153153E8    -4.698589444160461E-2   3.964737951755524E-1  -2.289896830916405E-2   1.302775181829929E-2  -2.300388738512993E-2   1.286716014146805E-2  -6.410632729530335E-1   6.854801774024963E-1  
 7.177177177177178E8    -5.393082648515701E-2   3.766245245933533E-1  -2.510400675237179E-2   1.179238036274910E-2  -2.515005506575108E-2   1.195439416915178E-2  -6.273521184921265E-1   6.948796510696411E-1  
 7.201201201201202E8    -6.103912368416786E-2   3.613888919353485E-1  -2.869829349219799E-2   1.138778682798147E-2  -2.864578738808632E-2   1.153232902288437E-2  -6.136922240257263E-1   7.033414840698242E-1  
 7.225225225225226E8    -6.564784049987793E-2   3.507108688354492E-1  -3.345669433474541E-2   1.234313752502203E-2  -3.343653678894043E-2   1.239238493144512E-2  -5.994002819061279E-1   7.116701006889343E-1  
 7.249249249249250E8    -6.508497148752213E-2   3.399046361446381E-1  -3.904800862073898E-2   1.540215313434601E-2  -3.917093575000763E-2   1.491244975477457E-2  -5.867961049079895E-1   7.170650362968445E-1  
 7.273273273273274E8    -6.167346611618996E-2   3.262473940849304E-1  -4.452397301793098E-2   2.097352780401707E-2  -4.495651647448540E-2   1.992126740515232E-2  -5.749258399009705E-1   7.215670347213745E-1  
 7.297297297297298E8    -5.738298594951630E-2   3.073632717132568E-1  -4.893434047698975E-2   2.862231805920601E-2  -4.932474717497826E-2   2.775933779776096E-2  -5.630227327346802E-1   7.264555096626282E-1  
 7.321321321321322E8    -5.543641746044159E-2   2.824722826480866E-1  -5.129332840442658E-2   3.784644231200218E-2  -5.145984888076782E-2   3.768961504101753E-2  -5.512801408767700E-1   7.316365242004395E-1  
 7.345345345345346E8    -5.971249192953110E-2   2.537078261375427E-1  -5.105063691735268E-2   4.818237945437431E-2  -5.080926045775414E-2   4.835246503353119E-2  -5.399760007858276E-1   7.376324534416199E-1  
 7.369369369369370E8    -7.153989374637604E-2   2.255977243185043E-1  -4.782767966389656E-2   5.808801576495171E-2  -4.719613492488861E-2   5.857766792178154E-2  -5.278150439262390E-1   7.436376214027405E-1  
 7.393393393393394E8    -9.031177312135696E-2   2.026876658201218E-1  -4.239659383893013E-2   6.676957011222839E-2  -4.159100726246834E-2   6.724769622087479E-2  -5.159481167793274E-1   7.502371072769165E-1  
 7.417417417417418E8    -1.099304780364037E-1   1.861358880996704E-1  -3.606216236948967E-2   7.390809804201126E-2  -3.536620363593102E-2   7.424751669168472E-2  -5.041692256927490E-1   7.564428448677063E-1  
 7.441441441441442E8    -1.282744407653809E-1   1.709587872028351E-1  -2.882408164441586E-2   8.034177869558334E-2  -2.867674082517624E-2   8.045537024736404E-2  -4.921559095382690E-1   7.620135545730591E-1  
 7.465465465465466E8    -1.492585241794586E-1   1.563053131103516E-1  -2.078574523329735E-2   8.562004566192627E-2  -2.093967795372009E-2   8.571633696556091E-2  -4.784414768218994E-1   7.687767148017883E-1  
 7.489489489489490E8    -1.737555414438248E-1   1.439816504716873E-1  -1.201763842254877E-2   8.948443084955216E-2  -1.238883286714554E-2   8.957858383655548E-2  -4.658792018890381E-1   7.751042246818543E-1  
 7.513513513513514E8    -1.978648155927658E-1   1.371171027421951E-1  -2.952957293018699E-3   9.155109524726868E-2  -3.451658645644784E-3   9.176270663738251E-2  -4.531847238540649E-1   7.810567021369934E-1  
 7.537537537537538E8    -2.182672172784805E-1   1.315546780824661E-1   5.211641080677509E-3   9.253003448247910E-2   4.611297976225615E-3   9.274420142173767E-2  -4.383362829685211E-1   7.872035503387451E-1  
 7.561561561561562E8    -2.400422245264053E-1   1.252955496311188E-1   1.298346836119890E-2   9.353535622358322E-2   1.274100225418806E-2   9.359824657440186E-2  -4.234642982482910E-1   7.922170758247376E-1  
 7.585585585585586E8    -2.633480727672577E-1   1.235902234911919E-1   2.130147814750671E-2   9.389851242303848E-2   2.119178511202335E-2   9.348164498806000E-2  -4.061904847621918E-1   7.993440628051758E-1  
 7.609609609609610E8    -2.870511710643768E-1   1.240374743938446E-1   2.953348681330681E-2   9.312134981155396E-2   2.951669506728649E-2   9.246709942817688E-2  -3.890389204025269E-1   8.063862919807434E-1  
 7.633633633633634E8    -3.107128143310547E-1   1.267858892679215E-1   3.756561875343323E-2   9.170743077993393E-2   3.726778179407120E-2   9.088125824928284E-2  -3.729504048824310E-1   8.122727870941162E-1  
 7.657657657657658E8    -3.348366320133209E-1   1.324474364519119E-1   4.538698494434357E-2   8.965817093849182E-2   4.507704824209213E-2   8.909533917903900E-2  -3.580707609653473E-1   8.168510794639587E-1  
 7.681681681681682E8    -3.578837215900421E-1   1.402573734521866E-1   5.295236781239510E-2   8.677468448877335E-2   5.306569859385490E-2   8.674050122499466E-2  -3.437937796115875E-1   8.205404877662659E-1  
 7.705705705705706E8    -3.803799152374268E-1   1.514367312192917E-1   6.028854846954346E-2   8.282330632209778E-2   6.034078449010849E-2   8.319160342216492E-2  -3.289525508880615E-1   8.252114057540894E-1  
 7.729729729729730E8    -4.001774489879608E-1   1.647398471832275E-1   6.681648641824722E-2   7.779614627361298E-2   6.728712469339371E-2   7.886837422847748E-2  -3.126025497913361E-1   8.318155407905579E-1  
 7.753753753753754E8    -4.179588854312897E-1   1.787071526050568E-1   7.268538326025009E-2   7.267561554908752E-2   7.345882803201675E-2   7.370258867740631E-2  -2.929296791553497E-1   8.376497030258179E-1  
 7.777777777777778E8    -4.336834847927094E-1   1.927817761898041E-1   7.794886827468872E-2   6.719986349344254E-2   7.860181480646133E-2   6.785259395837784E-2  -2.709437608718872E-1   8.401306867599487E-1  
 7.801801801801802E8    -4.475829899311066E-1   2.065398544073105E-1   8.258109539747238E-2   6.184688210487366E-2   8.259732276201248E-2   6.179149076342583E-2  -2.487594932317734E-1   8.386838436126709E-1  
 7.825825825825826E8    -4.604149460792542E-1   2.229523062705994E-1   8.642175793647766E-2   5.640732869505882E-2   8.645749092102051E-2   5.602192878723145E-2  -2.252300381660461E-1   8.383540511131287E-1  
 7.849849849849850E8    -4.723916947841644E-1   2.411267906427383E-1   9.031652659177780E-2   5.080660060048103E-2   8.997479826211929E-2   5.057004094123840E-2  -2.051528096199036E-1   8.367990255355835E-1  
 7.873873873873874E8    -4.824214875698090E-1   2.609818577766419E-1   9.396337717771530E-2   4.471135139465332E-2   9.318555891513825E-2   4.446509107947350E-2  -1.851182878017426E-1   8.361397385597229E-1  
 7.897897897897898E8    -4.892571270465851E-1   2.816626131534576E-1   9.678804874420166E-2   3.839756920933723E-2   9.633195400238037E-2   3.834652155637741E-2  -1.637454628944397E-1   8.369250297546387E-1  
 7.921921921921922E8    -4.928269684314728E-1   3.020487129688263E-1   9.905992448329926E-2   3.162353113293648E-2   9.903002530336380E-2   3.178197145462036E-2  -1.408849358558655E-1   8.382200598716736E-1  
 7.945945945945946E8    -4.975310564041138E-1   3.211411535739899E-1   1.003796681761742E-1   2.469791471958160E-2   1.003199890255928E-1   2.510055899620056E-2  -1.182904765009880E-1   8.352589011192322E-1  
 7.969969969969970E8    -5.011447072029114E-1   3.386214673519135E-1   1.005555167794228E-1   1.811470650136471E-2   1.006715148687363E-1   1.859250664710999E-2  -9.501526504755020E-2   8.321156501770020E-1  
 7.993993993993994E8    -5.052680969238281E-1   3.550086319446564E-1   9.957434237003326E-2   1.236572954803705E-2   9.988649189472199E-2   1.281054876744747E-2  -7.092145085334778E-2   8.284342288970947E-1  
 8.018018018018018E8    -5.090820789337158E-1   3.731620311737061E-1   9.829749912023544E-2   8.408165536820889E-3   9.852332621812820E-2   8.540275506675243E-3  -4.513041302561760E-2   8.232266306877136E-1  
 8.042042042042042E8    -5.104696750640869E-1   3.946654200553894E-1   9.804075211286545E-2   5.605863872915506E-3   9.812362492084503E-2   5.579949822276831E-3  -2.014563791453838E-2   8.170862197875977E-1  
 8.066066066066066E8    -5.081469416618347E-1   4.154695868492127E-1   9.862776845693588E-2   3.136350074782968E-3   9.882947802543640E-2   2.850183052942157E-3   7.356212940067053E-3   8.094952702522278E-1  
 8.090090090090090E8    -5.036401748657227E-1   4.360626637935638E-1   1.006319224834442E-1   3.324731078464538E-4   1.007806137204170E-1  -1.448727653041715E-5   3.465471416711807E-2   8.002424240112305E-1  
 8.114114114114114E8    -4.972471594810486E-1   4.544287323951721E-1   1.033973619341850E-1  -3.634428838267922E-3   1.034403368830681E-1  -4.012531135231257E-3   6.158255785703659E-2   7.884263396263123E-1  
 8.138138138138138E8    -4.906392395496368E-1   4.701665043830872E-1   1.059590950608254E-1  -8.795339614152908E-3   1.059898957610130E-1  -8.914376609027386E-3   8.831901103258133E-2   7.750050425529480E-1  
 8.162162162162162E8    -4.851149618625641E-1   4.847378432750702E-1   1.079539358615875E-1  -1.452702470123768E-2   1.079390421509743E-1  -1.460892148315907E-2   1.156833916902542E-1   7.595527172088623E-1  
 8.186186186186186E8    -4.802727699279785E-1   5.001238584518433E-1   1.096863970160484E-1  -2.035454474389553E-2   1.096395552158356E-1  -2.028799802064896E-2   1.428799033164978E-1   7.425464987754822E-1  
 8.210210210210210E8    -4.739041328430176E-1   5.146059989929199E-1   1.114374771714211E-1  -2.680530212819576E-2   1.113914400339127E-1  -2.688870392739773E-2   1.709595322608948E-1   7.216147780418396E-1  
 8.234234234234234E8    -4.662063121795654E-1   5.292733907699585E-1   1.126453578472138E-1  -3.396786004304886E-2   1.126534044742584E-1  -3.411449119448662E-2   1.982983201742172E-1   6.988903284072876E-1  
