#  HZ   S   RI   R     50.00 
! Rohde & Schwarz ZVB8 2Ports - Version 2.81 - 1145.1010k08 SN: 100113
! Date: 2016-05-12 03:15:43
! Measurements: S11 S21 S12 S22 
! 
 6.000000000000000E8    -8.642848730087280E-1   3.699116706848145E-1  -8.156033436534926E-5  -1.402032328769565E-3  -8.709229587111622E-5  -1.347766607068479E-3  -9.578967094421387E-1   1.796234101057053E-1  
 6.024024024024024E8    -8.581058382987976E-1   3.815829753875732E-1  -2.355920150876045E-5  -1.417967025190592E-3  -8.565902680857107E-5  -1.483242027461529E-3  -9.551349878311157E-1   1.903428882360458E-1  
 6.048048048048048E8    -8.512786030769348E-1   3.945313692092896E-1   2.111880803568056E-6  -1.587799866683781E-3  -7.934051973279566E-5  -1.506980275735259E-3  -9.529036879539490E-1   2.009179443120956E-1  
 6.072072072072072E8    -8.437499403953552E-1   4.085864722728729E-1  -2.938219586212654E-5  -1.592364278621972E-3   2.759430390142370E-5  -1.602625241503120E-3  -9.499732851982117E-1   2.114745676517487E-1  
 6.096096096096096E8    -8.352810144424439E-1   4.221446812152863E-1   7.670743070775643E-5  -1.605367055162787E-3  -1.808363805366753E-7  -1.722947461530566E-3  -9.469657540321350E-1   2.224388420581818E-1  
 6.120120120120120E8    -8.289986252784729E-1   4.335761964321137E-1   9.634914749767631E-5  -1.731500262394548E-3   1.078986460925080E-4  -1.736295176669955E-3  -9.443478584289551E-1   2.306473702192307E-1  
 6.144144144144144E8    -8.215058445930481E-1   4.446379244327545E-1   1.775788696249947E-4  -1.858157222159207E-3   2.215171989519149E-4  -1.872230670414865E-3  -9.425877332687378E-1   2.401216477155685E-1  
 6.168168168168168E8    -8.133895993232727E-1   4.563536345958710E-1   2.957069082185626E-4  -2.004168927669525E-3   2.584913454484195E-4  -2.004110952839255E-3  -9.398806095123291E-1   2.498086988925934E-1  
 6.192192192192192E8    -8.050934076309204E-1   4.676525890827179E-1   3.239115467295051E-4  -2.180585172027350E-3   3.353929496370256E-4  -2.156869508326054E-3  -9.372269511222839E-1   2.600536942481995E-1  
 6.216216216216216E8    -7.966187000274658E-1   4.783631861209869E-1   4.679983539972454E-4  -2.368603833019733E-3   4.886653041467071E-4  -2.420143224298954E-3  -9.340239763259888E-1   2.708101570606232E-1  
 6.240240240240240E8    -7.879590988159180E-1   4.889445006847382E-1   6.044181645847857E-4  -2.731154439970851E-3   6.258791545405984E-4  -2.739836694672704E-3  -9.306002855300903E-1   2.816209495067596E-1  
 6.264264264264264E8    -7.800160050392151E-1   4.998592138290405E-1   7.253835210576654E-4  -3.132608719170094E-3   7.154531776905060E-4  -3.183724358677864E-3  -9.260826706886292E-1   2.943445742130280E-1  
 6.288288288288288E8    -7.721549272537231E-1   5.109992623329163E-1   6.244915421120822E-4  -3.603689139708877E-3   6.814077496528626E-4  -3.711195662617683E-3  -9.221753478050232E-1   3.053124547004700E-1  
 6.312312312312312E8    -7.643960714340210E-1   5.216732025146484E-1   4.741501470562071E-4  -4.203509073704481E-3   4.943796666339040E-4  -4.186115227639675E-3  -9.178838133811951E-1   3.152872920036316E-1  
 6.336336336336336E8    -7.565468549728394E-1   5.325402617454529E-1   1.328230282524601E-4  -4.723730962723494E-3   1.380008034175262E-4  -4.747268743813038E-3  -9.143512248992920E-1   3.235433995723724E-1  
 6.360360360360360E8    -7.487430572509766E-1   5.434479713439941E-1  -2.515966480132192E-4  -5.225209053605795E-3  -2.462286502122879E-4  -5.120289977639914E-3  -9.111793637275696E-1   3.312936127185822E-1  
 6.384384384384384E8    -7.405899763107300E-1   5.546898245811462E-1  -7.695588283240795E-4  -5.677290726453066E-3  -8.067062590271235E-4  -5.575844552367926E-3  -9.075822830200195E-1   3.413519859313965E-1  
 6.408408408408408E8    -7.320110201835632E-1   5.660178661346436E-1  -1.426636823453009E-3  -5.969668272882700E-3  -1.425610971637070E-3  -5.905219819396734E-3  -9.034668207168579E-1   3.513480424880981E-1  
 6.432432432432432E8    -7.230773568153381E-1   5.773605108261108E-1  -2.108580432832241E-3  -6.008790805935860E-3  -2.107041887938976E-3  -6.064380984753370E-3  -8.992558121681213E-1   3.609420359134674E-1  
 6.456456456456456E8    -7.137262225151062E-1   5.888465642929077E-1  -2.680758014321327E-3  -6.065173540264368E-3  -2.654326846823096E-3  -6.072457879781723E-3  -8.946910500526428E-1   3.704528808593750E-1  
 6.480480480480480E8    -7.037859559059143E-1   6.000365018844605E-1  -3.229212248697877E-3  -5.964626558125019E-3  -3.219548612833023E-3  -5.991275887936354E-3  -8.900065422058106E-1   3.795968294143677E-1  
 6.504504504504504E8    -6.932193636894226E-1   6.109855771064758E-1  -3.740520216524601E-3  -5.922327749431133E-3  -3.765875706449151E-3  -5.915290676057339E-3  -8.832005262374878E-1   3.916803002357483E-1  
 6.528528528528528E8    -6.827314496040344E-1   6.218266487121582E-1  -4.212161991745234E-3  -5.801547318696976E-3  -4.203849472105503E-3  -5.853490438312292E-3  -8.780528903007507E-1   4.034738242626190E-1  
 6.552552552552552E8    -6.718086600303650E-1   6.318270564079285E-1  -4.624481778591871E-3  -5.714593920856714E-3  -4.598280880600214E-3  -5.714541766792536E-3  -8.744593262672424E-1   4.139367341995239E-1  
 6.576576576576576E8    -6.605759859085083E-1   6.411752104759216E-1  -5.060262512415648E-3  -5.541334860026836E-3  -5.026117898523808E-3  -5.528737325221300E-3  -8.714562058448792E-1   4.222845137119293E-1  
 6.600600600600600E8    -6.478654146194458E-1   6.515501141548157E-1  -5.440277513116598E-3  -5.367939360439777E-3  -5.419143475592136E-3  -5.404050461947918E-3  -8.670380115509033E-1   4.297251999378204E-1  
 6.624624624624624E8    -6.357330679893494E-1   6.613627672195435E-1  -5.903464742004871E-3  -5.241178441792727E-3  -5.880079697817564E-3  -5.252388305962086E-3  -8.614639043807983E-1   4.403288662433624E-1  
 6.648648648648648E8    -6.235468387603760E-1   6.708918809890747E-1  -6.235612556338310E-3  -4.979407880455256E-3  -6.264745257794857E-3  -5.040020216256380E-3  -8.558518290519714E-1   4.506465196609497E-1  
 6.672672672672672E8    -6.108119487762451E-1   6.799368858337402E-1  -6.588032003492117E-3  -4.746968857944012E-3  -6.530150305479765E-3  -4.810931161046028E-3  -8.502370119094849E-1   4.605060517787933E-1  
 6.696696696696696E8    -5.977206230163574E-1   6.888452172279358E-1  -6.853845436125994E-3  -4.622676875442267E-3  -6.851891987025738E-3  -4.537735600024462E-3  -8.444340229034424E-1   4.695429801940918E-1  
 6.720720720720720E8    -5.837658643722534E-1   6.977726221084595E-1  -7.165707647800446E-3  -4.365080967545509E-3  -7.100109476596117E-3  -4.417323973029852E-3  -8.390562534332275E-1   4.786981940269470E-1  
 6.744744744744744E8    -5.700525045394898E-1   7.066106796264648E-1  -7.383103948086500E-3  -4.194772802293301E-3  -7.371516432613134E-3  -4.208027385175228E-3  -8.328668475151062E-1   4.886648058891296E-1  
 6.768768768768768E8    -5.562560558319092E-1   7.152323126792908E-1  -7.703116629272699E-3  -4.090631380677223E-3  -7.631379179656506E-3  -3.983504604548216E-3  -8.267039656639099E-1   4.978940486907959E-1  
 6.792792792792792E8    -5.419166088104248E-1   7.231869101524353E-1  -7.956051267683506E-3  -3.850138513371348E-3  -7.912353612482548E-3  -3.851900110021234E-3  -8.206008076667786E-1   5.073036551475525E-1  
 6.816816816816816E8    -5.271925926208496E-1   7.306105494499207E-1  -8.230053819715977E-3  -3.679237561300397E-3  -8.242749609053135E-3  -3.663090523332357E-3  -8.147370815277100E-1   5.166515111923218E-1  
 6.840840840840840E8    -5.115271806716919E-1   7.377690672874451E-1  -8.528837934136391E-3  -3.517545061185956E-3  -8.530181832611561E-3  -3.486687317490578E-3  -8.082665801048279E-1   5.261400938034058E-1  
 6.864864864864864E8    -4.955837726593018E-1   7.446811199188232E-1  -8.783454075455666E-3  -3.241319674998522E-3  -8.740795776247978E-3  -3.240183694288135E-3  -8.013639450073242E-1   5.350953936576843E-1  
 6.888888888888888E8    -4.796273410320282E-1   7.513386011123657E-1  -9.048442356288433E-3  -3.042737720534205E-3  -9.016007184982300E-3  -3.141158027574420E-3  -7.938846349716187E-1   5.442476868629456E-1  
 6.912912912912912E8    -4.635552763938904E-1   7.571280598640442E-1  -9.310415014624596E-3  -2.945649903267622E-3  -9.284785948693752E-3  -2.963395323604345E-3  -7.870462536811829E-1   5.536782741546631E-1  
 6.936936936936936E8    -4.475077986717224E-1   7.625371217727661E-1  -9.633488953113556E-3  -2.665693871676922E-3  -9.569011628627777E-3  -2.740190131589770E-3  -7.800445556640625E-1   5.627299547195435E-1  
 6.960960960960960E8    -4.305846095085144E-1   7.675923109054565E-1  -9.905572049319744E-3  -2.469977131113410E-3  -9.828598238527775E-3  -2.426892751827836E-3  -7.732832431793213E-1   5.721304416656494E-1  
 6.984984984984984E8    -4.146011173725128E-1   7.716434001922607E-1  -1.006314903497696E-2  -2.160554518923163E-3  -1.002435013651848E-2  -2.038648119196296E-3  -7.634211778640747E-1   5.845452547073364E-1  
 7.009009009009008E8    -3.981782793998718E-1   7.749476432800293E-1  -1.010504458099604E-2  -1.912823645398021E-3  -1.005061902105808E-2  -1.690640929155052E-3  -7.541239261627197E-1   5.956913828849793E-1  
 7.033033033033032E8    -3.815481662750244E-1   7.776539325714111E-1  -1.006585266441107E-2  -1.747368369251490E-3  -1.012553367763758E-2  -1.523401821032167E-3  -7.465409636497498E-1   6.035881042480469E-1  
 7.057057057057056E8    -3.644259572029114E-1   7.792368531227112E-1  -9.886322543025017E-3  -1.582906814292073E-3  -1.002268958836794E-2  -1.510751433670521E-3  -7.416343688964844E-1   6.086609959602356E-1  
 7.081081081081080E8    -3.458423018455505E-1   7.813767790794373E-1  -9.759763255715370E-3  -1.628015073947609E-3  -9.780619293451309E-3  -1.655652653425932E-3  -7.359350919723511E-1   6.144809722900391E-1  
 7.105105105105104E8    -3.287921547889710E-1   7.830677628517151E-1  -9.590794332325459E-3  -1.927827252075076E-3  -9.670823812484741E-3  -2.044579014182091E-3  -7.297079563140869E-1   6.215969324111939E-1  
 7.129129129129129E8    -3.129646480083466E-1   7.833667397499085E-1  -9.638477116823196E-3  -2.492843894287944E-3  -9.604710154235363E-3  -2.648797584697604E-3  -7.219385504722595E-1   6.292213201522827E-1  
 7.153153153153153E8    -2.978039085865021E-1   7.827163934707642E-1  -9.605896659195423E-3  -3.334779758006334E-3  -9.645068086683750E-3  -3.395892446860671E-3  -7.129713892936707E-1   6.383908390998840E-1  
 7.177177177177178E8    -2.821888923645020E-1   7.816798090934753E-1  -9.997156448662281E-3  -4.553137812763453E-3  -1.001796592026949E-2  -4.567106254398823E-3  -7.030498385429382E-1   6.477558612823486E-1  
 7.201201201201202E8    -2.665349841117859E-1   7.804093956947327E-1  -1.081208325922489E-2  -5.952165927737951E-3  -1.081330515444279E-2  -5.899714305996895E-3  -6.934407353401184E-1   6.563005447387695E-1  
 7.225225225225226E8    -2.526629269123077E-1   7.800508737564087E-1  -1.245671883225441E-2  -7.523963693529367E-3  -1.248921081423760E-2  -7.513451855629683E-3  -6.830723285675049E-1   6.657298803329468E-1  
 7.249249249249250E8    -2.386939227581024E-1   7.807619571685791E-1  -1.497136708348990E-2  -8.600478060543537E-3  -1.485438272356987E-2  -8.825552649796009E-3  -6.749446988105774E-1   6.719324588775635E-1  
 7.273273273273274E8    -2.248944044113159E-1   7.828512191772461E-1  -1.818087138235569E-2  -9.084710851311684E-3  -1.793557964265347E-2  -9.403097443282604E-3  -6.669515371322632E-1   6.779016852378845E-1  
 7.297297297297298E8    -2.109365761280060E-1   7.853100895881653E-1  -2.146789990365505E-2  -8.751104585826397E-3  -2.125176973640919E-2  -9.050057269632816E-3  -6.587867140769959E-1   6.843674182891846E-1  
 7.321321321321322E8    -1.958065479993820E-1   7.875642776489258E-1  -2.470891922712326E-2  -7.599744945764542E-3  -2.454889193177223E-2  -7.583591621369124E-3  -6.502676606178284E-1   6.915499567985535E-1  
 7.345345345345346E8    -1.781029403209686E-1   7.890748977661133E-1  -2.741498686373234E-2  -5.674635991454125E-3  -2.743767574429512E-2  -5.507723428308964E-3  -6.417355537414551E-1   6.994785070419312E-1  
 7.369369369369370E8    -1.585324406623840E-1   7.884373068809509E-1  -2.974758297204971E-2  -3.379636676982045E-3  -2.982541173696518E-2  -3.056569024920464E-3  -6.322248578071594E-1   7.072423696517944E-1  
 7.393393393393394E8    -1.387877911329269E-1   7.861021161079407E-1  -3.157253935933113E-2  -7.596180075779557E-4  -3.154340386390686E-2  -4.272770602256060E-4  -6.227893233299255E-1   7.149322628974915E-1  
 7.417417417417418E8    -1.195934489369392E-1   7.820329070091248E-1  -3.306154534220696E-2   1.762035302817822E-3  -3.308003768324852E-2   1.969176577404141E-3  -6.135720014572144E-1   7.219563126564026E-1  
 7.441441441441442E8    -1.004095003008843E-1   7.771881818771362E-1  -3.449235856533051E-2   4.528542980551720E-3  -3.454610705375671E-2   4.490269348025322E-3  -6.047347784042358E-1   7.281591296195984E-1  
 7.465465465465466E8    -8.424052596092224E-2   7.725352048873901E-1  -3.567976504564285E-2   7.382238283753395E-3  -3.572082892060280E-2   7.356751244515181E-3  -5.941247940063477E-1   7.359878420829773E-1  
 7.489489489489490E8    -6.781945377588272E-2   7.663815021514893E-1  -3.663643449544907E-2   1.045296620577574E-2  -3.668046742677689E-2   1.046762987971306E-2  -5.846601128578186E-1   7.427260875701904E-1  
 7.513513513513514E8    -5.110619962215424E-2   7.589513659477234E-1  -3.712829202413559E-2   1.373639702796936E-2  -3.720036149024963E-2   1.364095043390989E-2  -5.754106640815735E-1   7.490745782852173E-1  
 7.537537537537538E8    -3.301013261079788E-2   7.517712116241455E-1  -3.709171712398529E-2   1.690760254859924E-2  -3.721419349312782E-2   1.678688637912273E-2  -5.648932456970215E-1   7.555936574935913E-1  
 7.561561561561562E8    -1.437614113092423E-2   7.436879277229309E-1  -3.704217821359634E-2   1.982125081121922E-2  -3.701807558536530E-2   1.972022093832493E-2  -5.542246699333191E-1   7.610981464385986E-1  
 7.585585585585586E8     3.447735914960504E-3   7.349712252616882E-1  -3.693960607051849E-2   2.270003780722618E-2  -3.679928556084633E-2   2.264918945729733E-2  -5.410801172256470E-1   7.687590122222900E-1  
 7.609609609609610E8     2.041192352771759E-2   7.247874140739441E-1  -3.675088286399841E-2   2.564786374568939E-2  -3.637617081403732E-2   2.555791102349758E-2  -5.285501480102539E-1   7.760541439056397E-1  
 7.633633633633634E8     3.655659779906273E-2   7.144156694412231E-1  -3.623116761445999E-2   2.872014604508877E-2  -3.599642589688301E-2   2.846283651888371E-2  -5.178340673446655E-1   7.825860381126404E-1  
 7.657657657657658E8     5.318897962570190E-2   7.037877440452576E-1  -3.572658076882362E-2   3.185347840189934E-2  -3.558852896094322E-2   3.160806000232697E-2  -5.090394020080566E-1   7.876664400100708E-1  
 7.681681681681682E8     6.986151635646820E-2   6.923449039459229E-1  -3.492728993296623E-2   3.498225659132004E-2  -3.491472080349922E-2   3.499466925859451E-2  -5.017720460891724E-1   7.919049263000488E-1  
 7.705705705705706E8     8.379215002059937E-2   6.816367506980896E-1  -3.368816524744034E-2   3.813932090997696E-2  -3.387606889009476E-2   3.814816847443581E-2  -4.934886097908020E-1   7.970957756042481E-1  
 7.729729729729730E8     9.959010779857636E-2   6.683477759361267E-1  -3.220460191369057E-2   4.099940508604050E-2  -3.262986242771149E-2   4.120774567127228E-2  -4.850033521652222E-1   8.050175905227661E-1  
 7.753753753753754E8     1.152275800704956E-1   6.527074575424194E-1  -3.080099821090698E-2   4.375977814197540E-2  -3.128266334533691E-2   4.420024529099464E-2  -4.735151529312134E-1   8.126500844955444E-1  
 7.777777777777778E8     1.293389946222305E-1   6.342005729675293E-1  -2.951325662434101E-2   4.687980934977531E-2  -2.967680804431438E-2   4.723767936229706E-2  -4.593753814697266E-1   8.179198503494263E-1  
 7.801801801801802E8     1.414221972227097E-1   6.140943169593811E-1  -2.783759124577045E-2   5.031970143318176E-2  -2.773024700582027E-2   5.028107762336731E-2  -4.446049034595490E-1   8.193597793579102E-1  
 7.825825825825826E8     1.503046303987503E-1   5.930511355400085E-1  -2.560294046998024E-2   5.360745266079903E-2  -2.529305592179298E-2   5.354066938161850E-2  -4.299243688583374E-1   8.227750658988953E-1  
 7.849849849849850E8     1.573429107666016E-1   5.731303691864014E-1  -2.277649566531181E-2   5.718347430229187E-2  -2.263392321765423E-2   5.684572085738182E-2  -4.182801544666290E-1   8.246777057647705E-1  
 7.873873873873874E8     1.628696471452713E-1   5.545523762702942E-1  -1.911830902099609E-2   6.019096076488495E-2  -1.915922202169895E-2   5.962424352765083E-2  -4.082527756690979E-1   8.279711604118347E-1  
 7.897897897897898E8     1.690884083509445E-1   5.363698005676270E-1  -1.537622418254614E-2   6.246183440089226E-2  -1.531073730438948E-2   6.198287755250931E-2  -3.971909582614899E-1   8.340567350387573E-1  
 7.921921921921922E8     1.766156256198883E-1   5.169621706008911E-1  -1.157405879348517E-2   6.423253566026688E-2  -1.156966574490070E-2   6.412763893604279E-2  -3.859624564647675E-1   8.413228988647461E-1  
 7.945945945945946E8     1.813849657773972E-1   4.997332394123077E-1  -7.736579980701208E-3   6.581821292638779E-2  -7.935649715363979E-3   6.566554307937622E-2  -3.738178312778473E-1   8.455684185028076E-1  
 7.969969969969970E8     1.851463615894318E-1   4.809472262859345E-1  -4.011290147900581E-3   6.678703427314758E-2  -4.267452750355005E-3   6.678504496812820E-2  -3.612598180770874E-1   8.499029874801636E-1  
 7.993993993993994E8     1.877364963293076E-1   4.600120484828949E-1  -5.919798859395087E-4   6.748649477958679E-2  -8.190235821530223E-4   6.769300997257233E-2  -3.482101857662201E-1   8.545699119567871E-1  
 8.018018018018018E8     1.875785738229752E-1   4.365963339805603E-1   2.488766796886921E-3   6.822133064270020E-2   2.554071368649602E-3   6.836952269077301E-2  -3.343240320682526E-1   8.587139248847961E-1  
 8.042042042042042E8     1.846845149993897E-1   4.138209521770477E-1   5.503503140062094E-3   6.915199756622315E-2   5.595097783952951E-3   6.922835856676102E-2  -3.218047916889191E-1   8.622933626174927E-1  
 8.066066066066066E8     1.782368570566177E-1   3.931517899036408E-1   8.424660190939903E-3   6.995730847120285E-2   8.554211817681789E-3   7.005262374877930E-2  -3.071129918098450E-1   8.668615221977234E-1  
 8.090090090090090E8     1.688875406980515E-1   3.736332952976227E-1   1.132404059171677E-2   7.130309194326401E-2   1.134221628308296E-2   7.143880426883698E-2  -2.928394973278046E-1   8.702343702316284E-1  
 8.114114114114114E8     1.577105969190598E-1   3.570503890514374E-1   1.464881096035242E-2   7.289294153451920E-2   1.480156648904085E-2   7.299933582544327E-2  -2.787540555000305E-1   8.730748891830444E-1  
 8.138138138138138E8     1.460384577512741E-1   3.437525928020477E-1   1.855158433318138E-2   7.445386797189713E-2   1.872822456061840E-2   7.445170730352402E-2  -2.646391689777374E-1   8.756512999534607E-1  
 8.162162162162162E8     1.357859969139099E-1   3.319993615150452E-1   2.280287630856037E-2   7.574918121099472E-2   2.289427630603313E-2   7.573681324720383E-2  -2.505386173725128E-1   8.779463768005371E-1  
 8.186186186186186E8     1.245751529932022E-1   3.203767240047455E-1   2.726526185870171E-2   7.705456018447876E-2   2.727787941694260E-2   7.694508880376816E-2  -2.362967431545258E-1   8.800334930419922E-1  
 8.210210210210210E8     1.108777523040772E-1   3.093883991241455E-1   3.248562663793564E-2   7.814376056194305E-2   3.250081092119217E-2   7.810153067111969E-2  -2.211401015520096E-1   8.814664483070374E-1  
 8.234234234234234E8     9.675315022468567E-2   3.013449013233185E-1   3.830421343445778E-2   7.834668457508087E-2   3.826609998941422E-2   7.836250960826874E-2  -2.059682607650757E-1   8.829832673072815E-1  
