#  HZ   S   RI   R     50.00 
! Rohde & Schwarz ZVB8 2Ports - Version 2.81 - 1145.1010k08 SN: 100113
! Date: 2016-05-12 03:16:43
! Measurements: S11 S21 S12 S22 
! 
 6.000000000000000E8    -7.863912582397461E-1   4.384507536888123E-1  -1.049609505571425E-3  -3.369540208950639E-3  -9.940681047737598E-4  -3.263816470280290E-3  -9.460509419441223E-1   2.138956487178803E-1  
 6.024024024024024E8    -7.747092247009277E-1   4.512198567390442E-1  -1.149379182606936E-3  -3.522625425830483E-3  -1.028524129651487E-3  -3.385133575648069E-3  -9.428079128265381E-1   2.257907539606094E-1  
 6.048048048048048E8    -7.621231079101563E-1   4.645282328128815E-1  -1.127323135733604E-3  -3.632176900282502E-3  -1.202358631417155E-3  -3.633904736489058E-3  -9.392470121383667E-1   2.370965629816055E-1  
 6.072072072072072E8    -7.485514283180237E-1   4.779932498931885E-1  -1.270003616809845E-3  -3.879122436046600E-3  -1.174669712781906E-3  -3.820975543931127E-3  -9.353435635566711E-1   2.488748282194138E-1  
 6.096096096096096E8    -7.336865663528442E-1   4.920803010463715E-1  -1.293594948947430E-3  -4.033501259982586E-3  -1.289747073315084E-3  -4.033575765788555E-3  -9.313097000122070E-1   2.604647874832153E-1  
 6.120120120120120E8    -7.209308743476868E-1   5.026612281799316E-1  -1.306749065406621E-3  -4.288861528038979E-3  -1.336366753093898E-3  -4.246754571795464E-3  -9.281075000762940E-1   2.695489823818207E-1  
 6.144144144144144E8    -7.068085670471191E-1   5.127476453781128E-1  -1.243040547706187E-3  -4.514562897384167E-3  -1.227062195539475E-3  -4.559180233627558E-3  -9.248659014701843E-1   2.798843681812286E-1  
 6.168168168168168E8    -6.919257044792175E-1   5.226321816444397E-1  -1.223611063323915E-3  -4.876950755715370E-3  -1.262634410522878E-3  -4.962327424436808E-3  -9.215839505195618E-1   2.909007668495178E-1  
 6.192192192192192E8    -6.772058606147766E-1   5.316954851150513E-1  -1.196843688376248E-3  -5.394933279603720E-3  -1.138344639912248E-3  -5.369423422962427E-3  -9.175877571105957E-1   3.021005392074585E-1  
 6.216216216216216E8    -6.620395183563232E-1   5.404797196388245E-1  -1.150393742136657E-3  -6.088801193982363E-3  -1.158398459665477E-3  -6.108931265771389E-3  -9.132828116416931E-1   3.138436675071716E-1  
 6.240240240240240E8    -6.474490165710449E-1   5.480758547782898E-1  -1.303637283854187E-3  -6.924745626747608E-3  -1.305004232563078E-3  -6.876085884869099E-3  -9.082820415496826E-1   3.256800770759583E-1  
 6.264264264264264E8    -6.338787078857422E-1   5.565928220748901E-1  -1.588545041158795E-3  -7.936174049973488E-3  -1.623541349545121E-3  -7.832717150449753E-3  -9.024260044097900E-1   3.390209376811981E-1  
 6.288288288288288E8    -6.205337643623352E-1   5.654698610305786E-1  -2.229342469945550E-3  -9.041349403560162E-3  -2.223355695605278E-3  -8.993573486804962E-3  -8.970329165458679E-1   3.512347340583801E-1  
 6.312312312312312E8    -6.072245240211487E-1   5.749677419662476E-1  -3.091976977884769E-3  -1.015215925872326E-2  -3.109734971076250E-3  -1.007294654846191E-2  -8.916305899620056E-1   3.621074855327606E-1  
 6.336336336336336E8    -5.926094055175781E-1   5.848148465156555E-1  -4.233077168464661E-3  -1.116729062050581E-2  -4.309362731873989E-3  -1.117399707436562E-2  -8.863924741744995E-1   3.711570203304291E-1  
 6.360360360360360E8    -5.768427848815918E-1   5.949881672859192E-1  -5.733661819249392E-3  -1.208811067044735E-2  -5.750976968556643E-3  -1.207443419843912E-2  -8.821085095405579E-1   3.796388208866119E-1  
 6.384384384384384E8    -5.602863430976868E-1   6.050756573677063E-1  -7.542887236922979E-3  -1.279128063470125E-2  -7.629019673913717E-3  -1.281536929309368E-2  -8.770453333854675E-1   3.909291625022888E-1  
 6.408408408408408E8    -5.427879095077515E-1   6.154863834381104E-1  -9.706633165478706E-3  -1.316446904093027E-2  -9.727756492793560E-3  -1.312634442001581E-2  -8.711904287338257E-1   4.020561575889587E-1  
 6.432432432432432E8    -5.230332016944885E-1   6.259379386901856E-1  -1.193036511540413E-2  -1.296655181795359E-2  -1.182292867451906E-2  -1.288683898746967E-2  -8.652346730232239E-1   4.126815199851990E-1  
 6.456456456456456E8    -5.014273524284363E-1   6.354386210441589E-1  -1.383997872471809E-2  -1.248530950397253E-2  -1.386053487658501E-2  -1.242123078554869E-2  -8.587908744812012E-1   4.233932793140411E-1  
 6.480480480480480E8    -4.783379733562470E-1   6.432733535766602E-1  -1.568493433296681E-2  -1.176040340214968E-2  -1.570856198668480E-2  -1.175627484917641E-2  -8.524155616760254E-1   4.338714778423309E-1  
 6.504504504504504E8    -4.534187614917755E-1   6.494568586349487E-1  -1.742976717650890E-2  -1.102241966873407E-2  -1.745983399450779E-2  -1.093537360429764E-2  -8.433980941772461E-1   4.468391239643097E-1  
 6.528528528528528E8    -4.277487695217133E-1   6.542776823043823E-1  -1.905881240963936E-2  -9.973962791264057E-3  -1.906649209558964E-2  -9.999502450227737E-3  -8.361262083053589E-1   4.599178731441498E-1  
 6.552552552552552E8    -4.005484282970429E-1   6.567122340202332E-1  -2.072447538375855E-2  -8.969330228865147E-3  -2.066664025187492E-2  -8.933961391448975E-3  -8.305637836456299E-1   4.713522493839264E-1  
 6.576576576576576E8    -3.725381791591644E-1   6.568264365196228E-1  -2.228539623320103E-2  -7.711105979979038E-3  -2.218291163444519E-2  -7.728312630206347E-3  -8.250504136085510E-1   4.810311496257782E-1  
 6.600600600600600E8    -3.420148789882660E-1   6.549888849258423E-1  -2.375434339046478E-2  -6.386100314557552E-3  -2.373510599136353E-2  -6.407870445400477E-3  -8.184376358985901E-1   4.895753860473633E-1  
 6.624624624624624E8    -3.119098246097565E-1   6.507243514060974E-1  -2.529322914779186E-2  -4.865286406129599E-3  -2.519308030605316E-2  -4.957982804626226E-3  -8.101117610931397E-1   5.014812350273132E-1  
 6.648648648648648E8    -2.833455502986908E-1   6.445537805557251E-1  -2.663667127490044E-2  -3.202704479917884E-3  -2.663928829133511E-2  -3.315791254863143E-3  -8.019192218780518E-1   5.130375027656555E-1  
 6.672672672672672E8    -2.531692385673523E-1   6.350969672203064E-1  -2.788567543029785E-2  -1.424446585588157E-3  -2.796395495533943E-2  -1.466309069655836E-3  -7.933024168014526E-1   5.238666534423828E-1  
 6.696696696696696E8    -2.216316014528275E-1   6.219222545623779E-1  -2.912535145878792E-2   4.852993006352335E-4  -2.918820083141327E-2   4.183281853329390E-4  -7.849779725074768E-1   5.343641638755798E-1  
 6.720720720720720E8    -1.892838627099991E-1   6.046327352523804E-1  -3.034099005162716E-2   2.590337768197060E-3  -3.031394258141518E-2   2.564439084380865E-3  -7.764504551887512E-1   5.445400476455689E-1  
 6.744744744744744E8    -1.595394313335419E-1   5.829110145568848E-1  -3.148530796170235E-2   5.126941017806530E-3  -3.149509429931641E-2   5.032016895711422E-3  -7.672474384307861E-1   5.555535554885864E-1  
 6.768768768768768E8    -1.323628574609757E-1   5.572325587272644E-1  -3.230164945125580E-2   7.852911017835140E-3  -3.225135803222656E-2   7.809246424585581E-3  -7.580230236053467E-1   5.662636160850525E-1  
 6.792792792792792E8    -1.096783131361008E-1   5.291427969932556E-1  -3.254325687885284E-2   1.074355561286211E-2  -3.250803798437119E-2   1.061410270631313E-2  -7.485290765762329E-1   5.766015648841858E-1  
 6.816816816816816E8    -8.977410942316055E-2   4.994472563266754E-1  -3.258939832448959E-2   1.340547576546669E-2  -3.258184343576431E-2   1.337068993598223E-2  -7.387236952781677E-1   5.871664285659790E-1  
 6.840840840840840E8    -7.252986729145050E-2   4.662653207778931E-1  -3.239874169230461E-2   1.609761454164982E-2  -3.243413195014000E-2   1.615910977125168E-2  -7.287820577621460E-1   5.981010794639587E-1  
 6.864864864864864E8    -5.961731448769569E-2   4.303667843341827E-1  -3.187141194939613E-2   1.884371601045132E-2  -3.194685280323029E-2   1.873873360455036E-2  -7.180516719818115E-1   6.078627705574036E-1  
 6.888888888888888E8    -5.105325207114220E-2   3.931447565555573E-1  -3.144014626741409E-2   2.166621200740337E-2  -3.147558867931366E-2   2.119834534823895E-2  -7.066813111305237E-1   6.181550621986389E-1  
 6.912912912912912E8    -4.734515398740768E-2   3.542348146438599E-1  -3.058734349906445E-2   2.468151971697807E-2  -3.070660494267941E-2   2.418466843664646E-2  -6.952755451202393E-1   6.283178329467773E-1  
 6.936936936936936E8    -4.871273413300514E-2   3.159224987030029E-1  -2.927308529615402E-2   2.742753922939301E-2  -2.949292585253716E-2   2.721036225557327E-2  -6.838101744651794E-1   6.386154890060425E-1  
 6.960960960960960E8    -5.469645932316780E-2   2.778162658214569E-1  -2.774835191667080E-2   3.005385398864746E-2  -2.770789526402950E-2   2.997423894703388E-2  -6.718460917472839E-1   6.488462686538696E-1  
 6.984984984984984E8    -6.762675195932388E-2   2.422845363616943E-1  -2.583673037588596E-2   3.222770616412163E-2  -2.527627721428871E-2   3.261323645710945E-2  -6.566863059997559E-1   6.618206501007080E-1  
 7.009009009009008E8    -8.747695386409760E-2   2.089197933673859E-1  -2.345483750104904E-2   3.405031561851502E-2  -2.256883867084980E-2   3.458815068006516E-2  -6.419404745101929E-1   6.736592650413513E-1  
 7.033033033033032E8    -1.129826381802559E-1   1.810833662748337E-1  -2.090305835008621E-2   3.524148836731911E-2  -2.003680914640427E-2   3.549441695213318E-2  -6.287179589271545E-1   6.827168464660645E-1  
 7.057057057057056E8    -1.392237991094589E-1   1.599048376083374E-1  -1.817593723535538E-2   3.548389300704002E-2  -1.790623925626278E-2   3.558422625064850E-2  -6.181139349937439E-1   6.887003183364868E-1  
 7.081081081081080E8    -1.638590693473816E-1   1.430523693561554E-1  -1.623964495956898E-2   3.507813438773155E-2  -1.635820791125298E-2   3.500692173838615E-2  -6.059649586677551E-1   6.956536769866943E-1  
 7.105105105105104E8    -1.907329261302948E-1   1.296518892049789E-1  -1.521201618015766E-2   3.450753539800644E-2  -1.578890532255173E-2   3.422225266695023E-2  -5.931854248046875E-1   7.032705545425415E-1  
 7.129129129129129E8    -2.194678634405136E-1   1.205771267414093E-1  -1.517584174871445E-2   3.354663029313088E-2  -1.561007369309664E-2   3.332845866680145E-2  -5.778907537460327E-1   7.116845846176148E-1  
 7.153153153153153E8    -2.446233183145523E-1   1.176801025867462E-1  -1.664122007787228E-2   3.269623219966888E-2  -1.693948358297348E-2   3.262076154351234E-2  -5.607751607894898E-1   7.201246023178101E-1  
 7.177177177177178E8    -2.668093144893646E-1   1.192472204566002E-1  -1.955597661435604E-2   3.284682333469391E-2  -1.944365538656712E-2   3.281665593385696E-2  -5.421948432922363E-1   7.283664345741272E-1  
 7.201201201201202E8    -2.849977016448975E-1   1.231826543807983E-1  -2.346478775143623E-2   3.474771603941917E-2  -2.328177541494370E-2   3.478373959660530E-2  -5.235525369644165E-1   7.353779673576355E-1  
 7.225225225225226E8    -2.991870045661926E-1   1.264778524637222E-1  -2.769252844154835E-2   3.917109221220017E-2  -2.759598568081856E-2   3.910386562347412E-2  -5.038918256759644E-1   7.412493824958801E-1  
 7.249249249249250E8    -3.112919330596924E-1   1.268856823444367E-1  -3.086042962968350E-2   4.675832018256187E-2  -3.151988610625267E-2   4.621023312211037E-2  -4.868168532848358E-1   7.433340549468994E-1  
 7.273273273273274E8    -3.235880434513092E-1   1.240119338035584E-1  -3.150625154376030E-2   5.680617317557335E-2  -3.276502713561058E-2   5.603103339672089E-2  -4.708831012248993E-1   7.445765137672424E-1  
 7.297297297297298E8    -3.372371196746826E-1   1.171863824129105E-1  -2.909502759575844E-2   6.766083091497421E-2  -3.029614314436913E-2   6.713388115167618E-2  -4.561878442764282E-1   7.461180090904236E-1  
 7.321321321321322E8    -3.563898205757141E-1   1.087240427732468E-1  -2.378762699663639E-2   7.795795053243637E-2  -2.392684109508991E-2   7.793463021516800E-2  -4.414992928504944E-1   7.487050890922546E-1  
 7.345345345345346E8    -3.806886374950409E-1   1.050946190953255E-1  -1.506297662854195E-2   8.676800131797791E-2  -1.441428996622562E-2   8.696671575307846E-2  -4.274141490459442E-1   7.527796626091003E-1  
 7.369369369369370E8    -4.072566926479340E-1   1.077811941504479E-1  -4.157845862209797E-3   9.302193671464920E-2  -2.863796660676599E-3   9.300493448972702E-2  -4.123841226100922E-1   7.579565644264221E-1  
 7.393393393393394E8    -4.333531558513641E-1   1.183310672640801E-1   7.801514584571123E-3   9.597990661859512E-2   9.118294343352318E-3   9.570781886577606E-2  -3.966290950775147E-1   7.633917331695557E-1  
 7.417417417417418E8    -4.543342888355255E-1   1.319740265607834E-1   1.905771158635616E-2   9.675426781177521E-2   1.968671008944511E-2   9.656912833452225E-2  -3.806832432746887E-1   7.688727974891663E-1  
 7.441441441441442E8    -4.712830781936646E-1   1.456957161426544E-1   3.000677935779095E-2   9.603425860404968E-2   2.981995604932308E-2   9.621883183717728E-2  -3.634188771247864E-1   7.738512754440308E-1  
 7.465465465465466E8    -4.877187013626099E-1   1.586374938488007E-1   3.994997218251228E-2   9.401567280292511E-2   3.973020240664482E-2   9.422469884157181E-2  -3.432573974132538E-1   7.797541618347168E-1  
 7.489489489489490E8    -5.036602616310120E-1   1.721997708082199E-1   4.913568124175072E-2   9.095653891563416E-2   4.879947379231453E-2   9.141092002391815E-2  -3.235618174076080E-1   7.845717072486877E-1  
 7.513513513513514E8    -5.170205831527710E-1   1.871904134750366E-1   5.760481581091881E-2   8.725109696388245E-2   5.727652460336685E-2   8.776571601629257E-2  -3.027113378047943E-1   7.882735133171082E-1  
 7.537537537537538E8    -5.277795195579529E-1   2.015452980995178E-1   6.535557657480240E-2   8.293127268552780E-2   6.514917314052582E-2   8.354564756155014E-2  -2.798386812210083E-1   7.914174199104309E-1  
 7.561561561561562E8    -5.383948087692261E-1   2.157552689313889E-1   7.271756231784821E-2   7.887496799230576E-2   7.268644869327545E-2   7.866616547107697E-2  -2.554622292518616E-1   7.925532460212708E-1  
 7.585585585585586E8    -5.480563044548035E-1   2.336869835853577E-1   7.978604733943939E-2   7.397383451461792E-2   7.984981685876846E-2   7.317528128623962E-2  -2.281897068023682E-1   7.947056293487549E-1  
 7.609609609609610E8    -5.566207766532898E-1   2.523130476474762E-1   8.662057667970657E-2   6.820879876613617E-2   8.633574843406677E-2   6.727026402950287E-2  -2.009491622447968E-1   7.957543730735779E-1  
 7.633633633633634E8    -5.644940137863159E-1   2.703611254692078E-1   9.277088940143585E-2   6.192641705274582E-2   9.223387390375137E-2   6.147988513112068E-2  -1.740949749946594E-1   7.951171398162842E-1  
 7.657657657657658E8    -5.712092518806458E-1   2.886806726455689E-1   9.870170801877976E-2   5.580706521868706E-2   9.824255108833313E-2   5.568040534853935E-2  -1.474692821502686E-1   7.919387817382813E-1  
 7.681681681681682E8    -5.773334503173828E-1   3.069952726364136E-1   1.043939664959908E-1   4.883645847439766E-2   1.046022400259972E-1   4.898377880454063E-2  -1.215331703424454E-1   7.868378162384033E-1  
 7.705705705705706E8    -5.818215012550354E-1   3.257846534252167E-1   1.093191429972649E-1   4.079420864582062E-2   1.096731275320053E-1   4.127222672104836E-2  -9.503498673439026E-2   7.813980579376221E-1  
 7.729729729729730E8    -5.841682553291321E-1   3.445956408977509E-1   1.131192743778229E-1   3.177297487854958E-2   1.141643822193146E-1   3.254178911447525E-2  -6.555961072444916E-2   7.749131321907044E-1  
 7.753753753753754E8    -5.850173234939575E-1   3.614887893199921E-1   1.159492209553719E-1   2.291197702288628E-2   1.171776503324509E-1   2.329617366194725E-2  -3.394475206732750E-2   7.656478285789490E-1  
 7.777777777777778E8    -5.855987071990967E-1   3.775381743907929E-1   1.179437115788460E-1   1.416639983654022E-2   1.186386421322823E-1   1.420269347727299E-2  -7.638373645022512E-4   7.512509226799011E-1  
 7.801801801801802E8    -5.851795673370361E-1   3.924012482166290E-1   1.198399513959885E-1   5.905612837523222E-3   1.193878203630447E-1   5.493754521012306E-3   3.175954520702362E-2   7.318153381347656E-1  
 7.825825825825826E8    -5.830124616622925E-1   4.088810384273529E-1   1.205765679478645E-1  -2.744984114542604E-3   1.199063435196877E-1  -3.347468795254827E-3   6.490430235862732E-2   7.100805640220642E-1  
 7.849849849849850E8    -5.814440250396729E-1   4.263524711132050E-1   1.209916248917580E-1  -1.209047622978687E-2   1.203387826681137E-1  -1.184285059571266E-2   9.411513805389404E-2   6.861131191253662E-1  
 7.873873873873874E8    -5.792652368545532E-1   4.435513019561768E-1   1.205005869269371E-1  -2.140945568680763E-2   1.200274452567101E-1  -2.090207673609257E-2   1.222078651189804E-1   6.610534787178040E-1  
 7.897897897897898E8    -5.750741958618164E-1   4.605378210544586E-1   1.188456788659096E-1  -3.077228739857674E-2   1.186754554510117E-1  -3.068571537733078E-2   1.513142585754395E-1   6.333256363868713E-1  
 7.921921921921922E8    -5.691174268722534E-1   4.782287180423737E-1   1.160097122192383E-1  -4.007368534803391E-2   1.162048801779747E-1  -4.026376456022263E-2   1.795785874128342E-1   6.037803888320923E-1  
 7.945945945945946E8    -5.654217004776001E-1   4.947447478771210E-1   1.119041591882706E-1  -4.879056662321091E-2   1.121855303645134E-1  -4.866932332515717E-2   2.041228860616684E-1   5.702062845230103E-1  
 7.969969969969970E8    -5.616387128829956E-1   5.100322365760803E-1   1.070118248462677E-1  -5.597267672419548E-2   1.074452698230743E-1  -5.575408414006233E-2   2.276417762041092E-1   5.350173115730286E-1  
 7.993993993993994E8    -5.569935441017151E-1   5.241566896438599E-1   1.023420318961144E-1  -6.167905777692795E-2   1.024452373385429E-1  -6.139557436108589E-2   2.499155998229981E-1   4.972374737262726E-1  
 8.018018018018018E8    -5.509834289550781E-1   5.387419462203980E-1   9.819171577692032E-2  -6.649144738912582E-2   9.813654422760010E-2  -6.648849695920944E-2   2.719560563564301E-1   4.531993269920349E-1  
 8.042042042042042E8    -5.428826212882996E-1   5.557606220245361E-1   9.477593004703522E-2  -7.153350114822388E-2   9.473475813865662E-2  -7.151811569929123E-2   2.901555001735687E-1   4.044002890586853E-1  
 8.066066066066066E8    -5.337892174720764E-1   5.711663961410523E-1   9.168016910552979E-2  -7.662862539291382E-2   9.165957570075989E-2  -7.676322758197784E-2   3.041182458400726E-1   3.517580032348633E-1  
 8.090090090090090E8    -5.240132212638855E-1   5.843835473060608E-1   8.895704150199890E-2  -8.242629468441010E-2   8.873346447944641E-2  -8.277568966150284E-2   3.118425309658051E-1   2.951484620571137E-1  
 8.114114114114114E8    -5.147759318351746E-1   5.970010161399841E-1   8.561051636934280E-2  -8.933766931295395E-2   8.539330959320068E-2  -8.985897898674011E-2   3.130305707454681E-1   2.360662817955017E-1  
 8.138138138138138E8    -5.060980916023254E-1   6.086303591728210E-1   8.088769018650055E-2  -9.695464372634888E-2   8.067609369754791E-2  -9.747365862131119E-2   3.070709407329559E-1   1.748339831829071E-1  
 8.162162162162162E8    -4.979904294013977E-1   6.207035779953003E-1   7.482001930475235E-2  -1.042472496628761E-1   7.458388060331345E-2  -1.046036705374718E-1   2.933513820171356E-1   1.133688837289810E-1  
 8.186186186186186E8    -4.896717071533203E-1   6.331906914710999E-1   6.810412555932999E-2  -1.109309270977974E-1   6.774348765611649E-2  -1.113555505871773E-1   2.717271149158478E-1   5.240533500909805E-2  
 8.210210210210210E8    -4.800916612148285E-1   6.440171003341675E-1   6.026565283536911E-2  -1.179663538932800E-1   6.011072546243668E-2  -1.178161427378655E-1   2.428225725889206E-1  -4.261348862200975E-3  
 8.234234234234234E8    -4.701819419860840E-1   6.546718478202820E-1   5.085784941911697E-2  -1.241915225982666E-1   5.074864998459816E-2  -1.239346563816071E-1   2.040888071060181E-1  -5.926844105124474E-2  
