#  HZ   S   RI   R     50.00 
! Rohde & Schwarz ZVB8 2Ports - Version 2.81 - 1145.1010k08 SN: 100113
! Date: 2016-05-12 03:16:32
! Measurements: S11 S21 S12 S22 
! 
 6.000000000000000E8    -7.983477115631104E-1   4.307885468006134E-1  -8.538450347259641E-4  -2.879119478166103E-3  -8.664091001264751E-4  -2.872939221560955E-3  -9.490906000137329E-1   2.057506442070007E-1  
 6.024024024024024E8    -7.874163389205933E-1   4.432484209537506E-1  -8.522344287484884E-4  -3.053403692319989E-3  -8.636417333036661E-4  -3.062542527914047E-3  -9.458538293838501E-1   2.174801677465439E-1  
 6.048048048048048E8    -7.759445905685425E-1   4.566544890403748E-1  -9.048595675267279E-4  -3.095862455666065E-3  -9.439181303605437E-4  -3.150231204926968E-3  -9.427027702331543E-1   2.287245243787766E-1  
 6.072072072072072E8    -7.629093527793884E-1   4.705139696598053E-1  -9.155012085102499E-4  -3.339224494993687E-3  -1.021872623823583E-3  -3.317631082609296E-3  -9.392933249473572E-1   2.399040013551712E-1  
 6.096096096096096E8    -7.492366433143616E-1   4.842513501644135E-1  -1.017064787447453E-3  -3.515328979119659E-3  -9.779655374586582E-4  -3.530230838805437E-3  -9.355413913726807E-1   2.513233125209808E-1  
 6.120120120120120E8    -7.372707128524780E-1   4.959113299846649E-1  -9.104628115892410E-4  -3.640811191871762E-3  -9.282466489821672E-4  -3.669211408123374E-3  -9.322780370712280E-1   2.601834237575531E-1  
 6.144144144144144E8    -7.241593003273010E-1   5.066654682159424E-1  -8.983988082036376E-4  -3.943146672099829E-3  -8.510854095220566E-4  -3.921072464436293E-3  -9.295898675918579E-1   2.703218758106232E-1  
 6.168168168168168E8    -7.104991078376770E-1   5.169765353202820E-1  -7.920793723315001E-4  -4.249213729053736E-3  -7.414292194880545E-4  -4.301041830331087E-3  -9.264560341835022E-1   2.808469831943512E-1  
 6.192192192192192E8    -6.960877180099487E-1   5.266176462173462E-1  -7.306911866180599E-4  -4.744189791381359E-3  -6.355613004416227E-4  -4.611121490597725E-3  -9.227631688117981E-1   2.921062707901001E-1  
 6.216216216216216E8    -6.821672916412354E-1   5.353012084960938E-1  -6.507452926598489E-4  -5.256594624370337E-3  -5.844522966071963E-4  -5.218745674937964E-3  -9.187334775924683E-1   3.034278452396393E-1  
 6.240240240240240E8    -6.686558723449707E-1   5.435180664062500E-1  -6.360799307003617E-4  -6.045283284038305E-3  -6.965568754822016E-4  -6.064390763640404E-3  -9.142225980758667E-1   3.147737681865692E-1  
 6.264264264264264E8    -6.562646031379700E-1   5.528674125671387E-1  -8.945600129663944E-4  -6.972144357860088E-3  -8.776813629083335E-4  -6.921995896846056E-3  -9.088202714920044E-1   3.283618390560150E-1  
 6.288288288288288E8    -6.434332132339478E-1   5.623089671134949E-1  -1.345302909612656E-3  -7.933824323117733E-3  -1.296521164476872E-3  -7.922095246613026E-3  -9.035844206809998E-1   3.398918211460114E-1  
 6.312312312312312E8    -6.305381059646606E-1   5.722177028656006E-1  -2.028899267315865E-3  -8.985323831439018E-3  -1.989523181691766E-3  -8.949031122028828E-3  -8.985052108764648E-1   3.502916991710663E-1  
 6.336336336336336E8    -6.175001859664917E-1   5.823416709899902E-1  -2.994608366861939E-3  -9.898323565721512E-3  -3.040324430912733E-3  -9.920438751578331E-3  -8.939699530601502E-1   3.596702218055725E-1  
 6.360360360360360E8    -6.031290888786316E-1   5.929076075553894E-1  -4.215254448354244E-3  -1.088456064462662E-2  -4.191721789538860E-3  -1.081570237874985E-2  -8.900325894355774E-1   3.678356707096100E-1  
 6.384384384384384E8    -5.883659124374390E-1   6.036457419395447E-1  -5.801176186650991E-3  -1.155544538050890E-2  -5.751437507569790E-3  -1.156752184033394E-2  -8.850669860839844E-1   3.785351216793060E-1  
 6.408408408408408E8    -5.724542140960693E-1   6.146545410156250E-1  -7.500824984163046E-3  -1.189701445400715E-2  -7.533418945968151E-3  -1.190034952014685E-2  -8.800467252731323E-1   3.894656598567963E-1  
 6.432432432432432E8    -5.558751225471497E-1   6.256114840507507E-1  -9.325853548943996E-3  -1.185156684368849E-2  -9.318130090832710E-3  -1.184499450027943E-2  -8.745272755622864E-1   3.998326659202576E-1  
 6.456456456456456E8    -5.362183451652527E-1   6.364964842796326E-1  -1.095202844589949E-2  -1.156411506235600E-2  -1.100110728293657E-2  -1.153651345521212E-2  -8.686746358871460E-1   4.102161228656769E-1  
 6.480480480480480E8    -5.148349404335022E-1   6.461446881294251E-1  -1.249785907566547E-2  -1.108654681593180E-2  -1.244268752634525E-2  -1.108836475759745E-2  -8.628433942794800E-1   4.205257594585419E-1  
 6.504504504504504E8    -4.929580390453339E-1   6.547539234161377E-1  -1.400706451386213E-2  -1.053591445088387E-2  -1.397474389523268E-2  -1.049731206148863E-2  -8.546354770660400E-1   4.329687356948853E-1  
 6.528528528528528E8    -4.700634181499481E-1   6.620551943778992E-1  -1.536741387099028E-2  -9.812068194150925E-3  -1.537466142326593E-2  -9.836882352828980E-3  -8.479295372962952E-1   4.459841847419739E-1  
 6.552552552552552E8    -4.459164142608643E-1   6.672971844673157E-1  -1.673409156501293E-2  -9.059779345989227E-3  -1.672128401696682E-2  -9.056982584297657E-3  -8.428488373756409E-1   4.569885730743408E-1  
 6.576576576576576E8    -4.204339683055878E-1   6.707678437232971E-1  -1.805423013865948E-2  -8.226006291806698E-3  -1.800217479467392E-2  -8.243683725595474E-3  -8.382194638252258E-1   4.663125872612000E-1  
 6.600600600600600E8    -3.924998044967651E-1   6.732463836669922E-1  -1.926503516733646E-2  -7.379767019301653E-3  -1.926586218178272E-2  -7.400691509246826E-3  -8.321552872657776E-1   4.747605621814728E-1  
 6.624624624624624E8    -3.644303977489471E-1   6.739757657051086E-1  -2.054323256015778E-2  -6.329857278615236E-3  -2.052990347146988E-2  -6.395292468369007E-3  -8.247394561767578E-1   4.863020777702332E-1  
 6.648648648648648E8    -3.361184597015381E-1   6.722266077995300E-1  -2.188226580619812E-2  -5.235563963651657E-3  -2.185354381799698E-2  -5.310371052473784E-3  -8.171742558479309E-1   4.974750280380249E-1  
 6.672672672672672E8    -3.084331154823303E-1   6.686179637908936E-1  -2.302705496549606E-2  -3.952513448894024E-3  -2.308823168277741E-2  -3.949603997170925E-3  -8.096602559089661E-1   5.081009864807129E-1  
 6.696696696696696E8    -2.782341241836548E-1   6.621522903442383E-1  -2.418396808207035E-2  -2.595527097582817E-3  -2.424170821905136E-2  -2.643784508109093E-3  -8.020765185356140E-1   5.181511640548706E-1  
 6.720720720720720E8    -2.473337501287460E-1   6.525456309318543E-1  -2.537191100418568E-2  -1.160927466116846E-3  -2.535509318113327E-2  -1.132923294790089E-3  -7.945691347122192E-1   5.280200839042664E-1  
 6.744744744744744E8    -2.172026485204697E-1   6.401460170745850E-1  -2.654214389622212E-2   5.677465233020484E-4  -2.648884057998657E-2   5.114894011057913E-4  -7.862943410873413E-1   5.385950207710266E-1  
 6.768768768768768E8    -1.880674064159393E-1   6.244830489158630E-1  -2.752971835434437E-2   2.525476040318608E-3  -2.741918154060841E-2   2.404771745204926E-3  -7.780640721321106E-1   5.490057468414307E-1  
 6.792792792792792E8    -1.603590101003647E-1   6.047763228416443E-1  -2.822370082139969E-2   4.692212212830782E-3  -2.816428802907467E-2   4.510303493589163E-3  -7.695695161819458E-1   5.589828491210938E-1  
 6.816816816816816E8    -1.340512484312058E-1   5.822888016700745E-1  -2.881561592221260E-2   6.795953493565321E-3  -2.873265184462071E-2   6.697301752865315E-3  -7.609840631484985E-1   5.693435072898865E-1  
 6.840840840840840E8    -1.090265586972237E-1   5.558463931083679E-1  -2.915290184319019E-2   8.993206545710564E-3  -2.910387702286243E-2   8.873480372130871E-3  -7.521791458129883E-1   5.798557400703430E-1  
 6.864864864864864E8    -8.850626647472382E-2   5.280629396438599E-1  -2.928017824888229E-2   1.124999299645424E-2  -2.933913655579090E-2   1.110209524631500E-2  -7.425681948661804E-1   5.894128680229187E-1  
 6.888888888888888E8    -7.094274461269379E-2   4.984372258186340E-1  -2.936889231204987E-2   1.344460248947144E-2  -2.942198142409325E-2   1.326556317508221E-2  -7.326958179473877E-1   5.995821356773377E-1  
 6.912912912912912E8    -5.710623785853386E-2   4.662064015865326E-1  -2.926569059491158E-2   1.593109965324402E-2  -2.935432083904743E-2   1.573629491031170E-2  -7.224334478378296E-1   6.095936298370361E-1  
 6.936936936936936E8    -4.678468033671379E-2   4.309106171131134E-1  -2.885462343692780E-2   1.837818138301373E-2  -2.890693396329880E-2   1.829675398766995E-2  -7.127733826637268E-1   6.194675564765930E-1  
 6.960960960960960E8    -4.085965827107430E-2   3.941481113433838E-1  -2.811232767999172E-2   2.086234651505947E-2  -2.804618142545223E-2   2.088562399148941E-2  -7.026492357254028E-1   6.294408440589905E-1  
 6.984984984984984E8    -4.191826656460762E-2   3.569435477256775E-1  -2.686864882707596E-2   2.314123138785362E-2  -2.654658630490303E-2   2.340879663825035E-2  -6.893637776374817E-1   6.424628496170044E-1  
 7.009009009009008E8    -4.895791783928871E-2   3.212999999523163E-1  -2.518483065068722E-2   2.512040175497532E-2  -2.465626411139965E-2   2.544814534485340E-2  -6.765091419219971E-1   6.536700725555420E-1  
 7.033033033033032E8    -6.127460300922394E-2   2.892670631408691E-1  -2.310644835233688E-2   2.658033743500710E-2  -2.270410582423210E-2   2.682683244347572E-2  -6.652798652648926E-1   6.628784537315369E-1  
 7.057057057057056E8    -7.565847039222717E-2   2.626096010208130E-1  -2.098626643419266E-2   2.718755602836609E-2  -2.070910111069679E-2   2.727850154042244E-2  -6.565119624137878E-1   6.685916781425476E-1  
 7.081081081081080E8    -8.921938389539719E-2   2.383721768856049E-1  -1.926294900476933E-2   2.687267400324345E-2  -1.932426355779171E-2   2.672209776937962E-2  -6.467676162719727E-1   6.757933497428894E-1  
 7.105105105105104E8    -1.054844260215759E-1   2.172049283981323E-1  -1.865255832672119E-2   2.624945342540741E-2  -1.888900808990002E-2   2.604122273623943E-2  -6.365975141525269E-1   6.832979917526245E-1  
 7.129129129129129E8    -1.262847185134888E-1   1.979366540908814E-1  -1.877775788307190E-2   2.536913380026817E-2  -1.909454725682735E-2   2.525670453906059E-2  -6.240344047546387E-1   6.918250918388367E-1  
 7.153153153153153E8    -1.498331129550934E-1   1.827874630689621E-1  -2.003659494221211E-2   2.451983653008938E-2  -2.014965750277042E-2   2.448427490890026E-2  -6.094555258750916E-1   7.010331153869629E-1  
 7.177177177177178E8    -1.718751639127731E-1   1.731349229812622E-1  -2.259252406656742E-2   2.414353005588055E-2  -2.256859093904495E-2   2.414176240563393E-2  -5.941520333290100E-1   7.101008892059326E-1  
 7.201201201201202E8    -1.916563957929611E-1   1.672450900077820E-1  -2.628510259091854E-2   2.504704706370831E-2  -2.632654272019863E-2   2.506077103316784E-2  -5.784908533096314E-1   7.181797623634338E-1  
 7.225225225225226E8    -2.082009911537170E-1   1.647952347993851E-1  -3.086855448782444E-2   2.806340530514717E-2  -3.088116459548473E-2   2.795197814702988E-2  -5.621245503425598E-1   7.256348133087158E-1  
 7.249249249249250E8    -2.205886691808701E-1   1.629673987627029E-1  -3.510572388768196E-2   3.370221704244614E-2  -3.561135753989220E-2   3.317716345191002E-2  -5.476559400558472E-1   7.299611568450928E-1  
 7.273273273273274E8    -2.277927845716476E-1   1.585680544376373E-1  -3.822979703545570E-2   4.186922311782837E-2  -3.903964906930924E-2   4.103357344865799E-2  -5.345595479011536E-1   7.332677245140076E-1  
 7.297297297297298E8    -2.349962890148163E-1   1.478679180145264E-1  -3.904531151056290E-2   5.169697478413582E-2  -3.969338163733482E-2   5.118399858474731E-2  -5.215645432472229E-1   7.365894913673401E-1  
 7.321321321321322E8    -2.479785680770874E-1   1.319217681884766E-1  -3.700875118374825E-2   6.227352842688561E-2  -3.676492720842362E-2   6.223235651850700E-2  -5.086941719055176E-1   7.409762740135193E-1  
 7.345345345345346E8    -2.693021297454834E-1   1.173036321997643E-1  -3.117790259420872E-2   7.216449826955795E-2  -3.050393797457218E-2   7.234393805265427E-2  -4.964579045772553E-1   7.460688948631287E-1  
 7.369369369369370E8    -2.970621585845947E-1   1.078102067112923E-1  -2.276967093348503E-2   8.000504970550537E-2  -2.198987081646919E-2   8.030334115028381E-2  -4.836663901805878E-1   7.522087693214417E-1  
 7.393393393393394E8    -3.261575698852539E-1   1.067323163151741E-1  -1.303666830062866E-2   8.517735451459885E-2  -1.240077055990696E-2   8.542426675558090E-2  -4.706438183784485E-1   7.586489915847778E-1  
 7.417417417417418E8    -3.514097332954407E-1   1.103498265147209E-1  -3.567543812096119E-3   8.856724202632904E-2  -3.160356776788831E-3   8.870743960142136E-2  -4.572537839412689E-1   7.651282548904419E-1  
 7.441441441441442E8    -3.741517663002014E-1   1.153086051344872E-1   6.169330794364214E-3   9.076064079999924E-2   5.840203724801540E-3   9.086464345455170E-2  -4.439543783664703E-1   7.707082629203796E-1  
 7.465465465465466E8    -3.955692350864410E-1   1.212990283966065E-1   1.560840290039778E-2   9.163951873779297E-2   1.550369523465633E-2   9.179300069808960E-2  -4.278812408447266E-1   7.781798243522644E-1  
 7.489489489489490E8    -4.169368445873261E-1   1.297568529844284E-1   2.479510009288788E-2   9.123250842094421E-2   2.490094117820263E-2   9.111445397138596E-2  -4.129406511783600E-1   7.843243479728699E-1  
 7.513513513513514E8    -4.368240535259247E-1   1.416379511356354E-1   3.385297954082489E-2   8.922100067138672E-2   3.361447900533676E-2   8.920914679765701E-2  -3.970347344875336E-1   7.900179028511047E-1  
 7.537537537537538E8    -4.540518522262573E-1   1.537637710571289E-1   4.180984571576119E-2   8.614152669906616E-2   4.139246791601181E-2   8.648435026407242E-2  -3.794414103031158E-1   7.960468530654907E-1  
 7.561561561561562E8    -4.705754816532135E-1   1.662552654743195E-1   4.883935675024986E-2   8.338770270347595E-2   4.861905053257942E-2   8.357045799493790E-2  -3.607100844383240E-1   8.005240559577942E-1  
 7.585585585585586E8    -4.860024154186249E-1   1.827401816844940E-1   5.604976043105125E-2   8.007717132568359E-2   5.573065206408501E-2   7.991193979978561E-2  -3.396634459495544E-1   8.063647747039795E-1  
 7.609609609609610E8    -4.995265603065491E-1   1.991978883743286E-1   6.284734606742859E-2   7.599323987960815E-2   6.244562193751335E-2   7.564056664705277E-2  -3.184690773487091E-1   8.121055364608765E-1  
 7.633633633633634E8    -5.109627842903137E-1   2.143504619598389E-1   6.912484019994736E-2   7.165066897869110E-2   6.851234287023544E-2   7.113534212112427E-2  -2.977169454097748E-1   8.164095878601074E-1  
 7.657657657657658E8    -5.220747590065002E-1   2.299206405878067E-1   7.483166456222534E-2   6.709297746419907E-2   7.440008223056793E-2   6.658678501844406E-2  -2.786629796028137E-1   8.190670609474182E-1  
 7.681681681681682E8    -5.334673523902893E-1   2.472016066312790E-1   8.025636523962021E-2   6.189446896314621E-2   8.028788864612579E-2   6.169242411851883E-2  -2.602663934230804E-1   8.205988407135010E-1  
 7.705705705705706E8    -5.434482693672180E-1   2.662118673324585E-1   8.514866232872009E-2   5.612025037407875E-2   8.524595946073532E-2   5.614918097853661E-2  -2.409064471721649E-1   8.228653073310852E-1  
 7.729729729729730E8    -5.500926375389099E-1   2.858387231826782E-1   8.918752521276474E-2   4.943526908755302E-2   8.993143588304520E-2   5.012181401252747E-2  -2.195424437522888E-1   8.261585235595703E-1  
 7.753753753753754E8    -5.550547838211060E-1   3.044078052043915E-1   9.251749515533447E-2   4.276477918028832E-2   9.357931464910507E-2   4.349583387374878E-2  -1.947919875383377E-1   8.279167413711548E-1  
 7.777777777777778E8    -5.592073202133179E-1   3.212319910526276E-1   9.524456411600113E-2   3.639410808682442E-2   9.602335095405579E-2   3.675276413559914E-2  -1.679466813802719E-1   8.261302113533020E-1  
 7.801801801801802E8    -5.625198483467102E-1   3.380449712276459E-1   9.770578145980835E-2   3.034471161663532E-2   9.777934104204178E-2   3.038461692631245E-2  -1.408527493476868E-1   8.198527097702026E-1  
 7.825825825825826E8    -5.642182826995850E-1   3.558478653430939E-1   9.956778585910797E-2   2.424583956599236E-2   9.954003244638443E-2   2.402913942933083E-2  -1.125528141856194E-1   8.137105107307434E-1  
 7.849849849849850E8    -5.654365420341492E-1   3.740904331207275E-1   1.017935723066330E-1   1.769627071917057E-2   1.014260053634644E-1   1.788103207945824E-2  -8.736615628004074E-2   8.059496283531189E-1  
 7.873873873873874E8    -5.651698708534241E-1   3.925838470458984E-1   1.032388731837273E-1   1.073543075472117E-2   1.024970933794975E-1   1.093967910856009E-2  -6.232077628374100E-2   7.985366582870483E-1  
 7.897897897897898E8    -5.628644227981567E-1   4.105553030967712E-1   1.036709323525429E-1   3.870932385325432E-3   1.030525043606758E-1   3.820295678451657E-3  -3.611947968602181E-2   7.916505336761475E-1  
 7.921921921921922E8    -5.591616034507752E-1   4.282244741916657E-1   1.034848093986511E-1  -3.047008300200105E-3   1.031958386301994E-1  -3.318753559142351E-3  -8.362456224858761E-3   7.841026782989502E-1  
 7.945945945945946E8    -5.577698945999146E-1   4.458416998386383E-1   1.021949499845505E-1  -9.667645208537579E-3   1.018065065145493E-1  -9.429771453142166E-3   1.750390604138374E-2   7.727611660957336E-1  
 7.969969969969970E8    -5.560762286186218E-1   4.627403616905212E-1   1.001608967781067E-1  -1.518067531287670E-2   1.000847890973091E-1  -1.497971266508102E-2   4.502591118216515E-2   7.604806423187256E-1  
 7.993993993993994E8    -5.535209178924561E-1   4.799444973468781E-1   9.807116538286209E-2  -1.957452297210693E-2   9.824109822511673E-2  -1.924818195402622E-2   7.299164682626724E-2   7.467860579490662E-1  
 8.018018018018018E8    -5.493354201316834E-1   4.972490966320038E-1   9.672250598669052E-2  -2.285126782953739E-2   9.702769666910172E-2  -2.278769016265869E-2   1.031204834580421E-1   7.304752469062805E-1  
 8.042042042042042E8    -5.424849987030029E-1   5.166885256767273E-1   9.633199125528336E-2  -2.623661793768406E-2   9.677378833293915E-2  -2.624949999153614E-2   1.330185383558273E-1   7.113457918167114E-1  
 8.066066066066066E8    -5.336568355560303E-1   5.339969992637634E-1   9.666663408279419E-2  -2.979932725429535E-2   9.697197377681732E-2  -2.996805123984814E-2   1.636367291212082E-1   6.892330646514893E-1  
 8.090090090090090E8    -5.243021249771118E-1   5.488433837890625E-1   9.776218235492706E-2  -3.408129513263702E-2   9.791530668735504E-2  -3.458560630679131E-2   1.936778873205185E-1   6.627117395401001E-1  
 8.114114114114114E8    -5.144911408424377E-1   5.617532134056091E-1   9.902559965848923E-2  -3.953040018677712E-2   9.885150194168091E-2  -3.992015868425369E-2   2.214234918355942E-1   6.336597800254822E-1  
 8.138138138138138E8    -5.054091215133667E-1   5.740871429443359E-1   9.978545457124710E-2  -4.615377262234688E-2   9.951572120189667E-2  -4.641092568635941E-2   2.477710545063019E-1   6.008107066154480E-1  
 8.162162162162162E8    -4.974943399429321E-1   5.860106348991394E-1   9.939803928136826E-2  -5.319322273135185E-2   9.911165386438370E-2  -5.337514355778694E-2   2.724650204181671E-1   5.649935603141785E-1  
 8.186186186186186E8    -4.899277091026306E-1   5.992006659507752E-1   9.865418821573257E-2  -6.019561737775803E-2   9.853903204202652E-2  -6.005107611417770E-2   2.951177358627319E-1   5.262947678565979E-1  
 8.210210210210210E8    -4.805009961128235E-1   6.121705770492554E-1   9.763260930776596E-2  -6.796175241470337E-2   9.765141457319260E-2  -6.798139214515686E-2   3.158968091011047E-1   4.814093708992004E-1  
 8.234234234234234E8    -4.705560505390167E-1   6.231164932250977E-1   9.571049362421036E-2  -7.639142125844955E-2   9.570845216512680E-2  -7.665140926837921E-2   3.327271342277527E-1   4.338945150375366E-1  
