#  HZ   S   RI   R     50.00 
! Rohde & Schwarz ZVB8 2Ports - Version 2.81 - 1145.1010k08 SN: 100113
! Date: 2016-03-12 02:18:42
! Measurements: S11 S21 S12 S22 
! 
 6.000000000000000E8    -6.979424357414246E-1  -5.245734453201294E-1   6.632791366428137E-3   5.493866652250290E-2   7.743310183286667E-3   5.369939655065537E-2  -4.815718233585358E-1  -7.766046524047852E-1  
 6.024024024024024E8    -7.420532107353210E-1  -4.522393941879273E-1   1.173423323780298E-2   5.659071728587151E-2   1.261584926396608E-2   5.491971969604492E-2  -5.473887324333191E-1  -7.291227579116821E-1  
 6.048048048048048E8    -7.790547609329224E-1  -3.752511143684387E-1   1.717047952115536E-2   5.770345032215118E-2   1.788763888180256E-2   5.573522299528122E-2  -6.093342304229736E-1  -6.757039427757263E-1  
 6.072072072072072E8    -8.085649013519287E-1  -2.942251861095429E-1   2.292840555310249E-2   5.837348476052284E-2   2.334747277200222E-2   5.618465319275856E-2  -6.659873723983765E-1  -6.169248819351196E-1  
 6.096096096096096E8    -8.304585814476013E-1  -2.093858569860458E-1   2.892842516303062E-2   5.862427130341530E-2   2.900408394634724E-2   5.619593709707260E-2  -7.175013422966003E-1  -5.524311661720276E-1  
 6.120120120120120E8    -8.423098921775818E-1  -1.248314380645752E-1   3.529848530888557E-2   5.851478129625320E-2   3.483686968684197E-2   5.604172870516777E-2  -7.616216540336609E-1  -4.842401742935181E-1  
 6.144144144144144E8    -8.444777727127075E-1  -3.939126059412956E-2   4.222682118415833E-2   5.754222720861435E-2   4.105887934565544E-2   5.516145005822182E-2  -7.995822429656982E-1  -4.119127392768860E-1  
 6.168168168168168E8    -8.371356725692749E-1   4.604743048548698E-2   4.937268793582916E-2   5.563162267208099E-2   4.777938500046730E-2   5.339911952614784E-2  -8.308510780334473E-1  -3.357858359813690E-1  
 6.192192192192192E8    -8.209157586097717E-1   1.289393156766892E-1   5.655719339847565E-2   5.251689255237579E-2   5.433456599712372E-2   5.062431842088699E-2  -8.547567725181580E-1  -2.564739882946014E-1  
 6.216216216216216E8    -7.967285513877869E-1   2.092788070440292E-1   6.338687241077423E-2   4.839976504445076E-2   6.069802120327950E-2   4.694742709398270E-2  -8.716028928756714E-1  -1.743096560239792E-1  
 6.240240240240240E8    -7.647728323936462E-1   2.860799729824066E-1   6.957517564296722E-2   4.343019425868988E-2   6.654516607522965E-2   4.246998950839043E-2  -8.802680969238281E-1  -9.043704718351364E-2  
 6.264264264264264E8    -7.256038188934326E-1   3.588746488094330E-1   7.511427253484726E-2   3.804017230868340E-2   7.183222472667694E-2   3.752646222710609E-2  -8.808696269989014E-1  -7.146787829697132E-3  
 6.288288288288288E8    -6.797574162483215E-1   4.260725975036621E-1   8.017911761999130E-2   3.227617219090462E-2   7.666938751935959E-2   3.233777731657028E-2  -8.738532066345215E-1   7.489211857318878E-2  
 6.312312312312312E8    -6.282081604003906E-1   4.881627559661865E-1   8.477403223514557E-2   2.628180757164955E-2   8.122012764215469E-2   2.680139243602753E-2  -8.591189384460449E-1   1.559423953294754E-1  
 6.336336336336336E8    -5.711784958839417E-1   5.444216728210449E-1   8.909035474061966E-2   1.975161954760552E-2   8.558288216590881E-2   2.098230086266995E-2  -8.367990255355835E-1   2.351621240377426E-1  
 6.360360360360360E8    -5.093964338302612E-1   5.949747562408447E-1   9.310299158096314E-2   1.287777628749609E-2   8.987923711538315E-2   1.459811348468065E-2  -8.069199919700623E-1   3.117651939392090E-1  
 6.384384384384384E8    -4.419663846492767E-1   6.389430761337280E-1   9.682454913854599E-2   5.280678160488606E-3   9.371983259916306E-2   7.566086947917938E-3  -7.693020701408386E-1   3.850680887699127E-1  
 6.408408408408408E8    -3.700679838657379E-1   6.749301552772522E-1   9.968876838684082E-2  -3.253101371228695E-3   9.701513499021530E-2  -2.636323042679578E-4  -7.251108288764954E-1   4.541490972042084E-1  
 6.432432432432432E8    -2.956469058990479E-1   7.027335166931152E-1   1.014760881662369E-1  -1.215126924216747E-2   9.935314208269119E-2  -8.751849643886089E-3  -6.745111942291260E-1   5.191405415534973E-1  
 6.456456456456456E8    -2.194427400827408E-1   7.229193449020386E-1   1.020603924989700E-1  -2.086283639073372E-2   1.004816517233849E-1  -1.705723442137241E-2  -6.179956197738648E-1   5.791831612586975E-1  
 6.480480480480480E8    -1.421621888875961E-1   7.352890968322754E-1   1.021501272916794E-1  -2.884668484330177E-2   1.012937203049660E-1  -2.494663558900356E-2  -5.553081631660461E-1   6.340097784996033E-1  
 6.504504504504504E8    -6.331746280193329E-2   7.399189472198486E-1   1.024755612015724E-1  -3.652548044919968E-2   1.022773906588554E-1  -3.249621018767357E-2  -4.869163930416107E-1   6.828885674476624E-1  
 6.528528528528528E8     1.580603234469891E-2   7.347344756126404E-1   1.032935380935669E-1  -4.490594565868378E-2   1.036690771579742E-1  -4.070685803890228E-2  -4.129730463027954E-1   7.238321900367737E-1  
 6.552552552552552E8     9.262444078922272E-2   7.196934223175049E-1   1.036368086934090E-1  -5.430315062403679E-2   1.050353199243546E-1  -5.008229240775108E-2  -3.353869020938873E-1   7.565901875495911E-1  
 6.576576576576576E8     1.654818207025528E-1   6.953836679458618E-1   1.032459437847138E-1  -6.453057378530502E-2   1.055914685130119E-1  -6.032490357756615E-2  -2.553469240665436E-1   7.808060050010681E-1  
 6.600600600600600E8     2.336872816085815E-1   6.634894609451294E-1   1.019876971840859E-1  -7.571675628423691E-2   1.051615774631500E-1  -7.180765271186829E-2  -1.724787950515747E-1   7.962213754653931E-1  
 6.624624624624624E8     2.955279648303986E-1   6.247726678848267E-1   9.930359572172165E-2  -8.795024454593658E-2   1.033587008714676E-1  -8.446624875068665E-2  -8.885762095451355E-2   8.029985427856445E-1  
 6.648648648648648E8     3.508540093898773E-1   5.812892317771912E-1   9.468108415603638E-2  -1.003146618604660E-1   9.950165450572968E-2  -9.759688377380371E-2  -6.360520143061876E-3   8.008682131767273E-1  
 6.672672672672672E8     4.000892639160156E-1   5.343449711799622E-1   8.840568363666534E-2  -1.123184487223625E-1   9.356894344091415E-2  -1.105732098221779E-1   7.490409165620804E-2   7.903715372085571E-1  
 6.696696696696696E8     4.441075325012207E-1   4.841245412826538E-1   8.090637624263763E-2  -1.238172128796578E-1   8.627057820558548E-2  -1.231448948383331E-1   1.541617065668106E-1   7.721703052520752E-1  
 6.720720720720720E8     4.814822077751160E-1   4.299268126487732E-1   7.233180105686188E-2  -1.353628486394882E-1   7.746068388223648E-2  -1.359145045280457E-1   2.309799641370773E-1   7.453670501708984E-1  
 6.744744744744744E8     5.115144252777100E-1   3.740161955356598E-1   6.139905005693436E-2  -1.466733813285828E-1   6.627649813890457E-2  -1.483233422040939E-1   3.030147254467011E-1   7.110880613327026E-1  
 6.768768768768768E8     5.352862477302551E-1   3.178705871105194E-1   4.835322499275208E-2  -1.566807627677918E-1   5.280957743525505E-2  -1.594593524932861E-1   3.707033097743988E-1   6.704672574996948E-1  
 6.792792792792792E8     5.533025860786438E-1   2.622669935226440E-1   3.406390547752380E-2  -1.651308387517929E-1   3.764592856168747E-2  -1.685673296451569E-1   4.336199462413788E-1   6.238359808921814E-1  
 6.816816816816816E8     5.660971999168396E-1   2.070645093917847E-1   1.856723055243492E-2  -1.716424524784088E-1   2.104868926107884E-2  -1.758629828691483E-1   4.920836389064789E-1   5.714732408523560E-1  
 6.840840840840840E8     5.746827125549316E-1   1.527694910764694E-1   2.350771334022284E-3  -1.762439012527466E-1   3.469928633421660E-3  -1.808408647775650E-1   5.453302264213562E-1   5.131263732910156E-1  
 6.864864864864864E8     5.793716907501221E-1   9.875153750181198E-2  -1.402980182319880E-2  -1.789468079805374E-1  -1.402354706078768E-2  -1.836372464895248E-1   5.930659770965576E-1   4.488532543182373E-1  
 6.888888888888888E8     5.799069404602051E-1   4.451034590601921E-2  -3.054822050035000E-2  -1.805717945098877E-1  -3.156283497810364E-2  -1.849950850009918E-1   6.340546607971191E-1   3.786182105541229E-1  
 6.912912912912912E8     5.750231742858887E-1  -9.192071855068207E-3  -4.730452969670296E-2  -1.809645742177963E-1  -4.963875934481621E-2  -1.848902851343155E-1   6.670338511466980E-1   3.037521839141846E-1  
 6.936936936936936E8     5.647424459457398E-1  -6.104176491498947E-2  -6.413984298706055E-2  -1.801347732543945E-1  -6.837562471628189E-2  -1.830215603113174E-1   6.915774941444397E-1   2.249614894390106E-1  
 6.960960960960960E8     5.500010251998901E-1  -1.097502335906029E-1  -8.154334127902985E-2  -1.778989732265472E-1  -8.780817687511444E-2  -1.790580302476883E-1   7.062605023384094E-1   1.435815542936325E-1  
 6.984984984984984E8     5.331274867057800E-1  -1.553318947553635E-1  -9.943395853042603E-2  -1.734848022460938E-1  -1.074342206120491E-1  -1.723470091819763E-1   7.107449173927307E-1   6.112751364707947E-2  
 7.009009009009008E8     5.149762034416199E-1  -1.995872259140015E-1  -1.173010692000389E-1  -1.661555916070938E-1  -1.259561032056809E-1  -1.627598404884338E-1   7.055613994598389E-1  -1.994786784052849E-2  
 7.033033033033032E8     4.944172203540802E-1  -2.437934726476669E-1  -1.342366933822632E-1  -1.555605679750443E-1  -1.415800303220749E-1  -1.512780040502548E-1   6.914742588996887E-1  -9.813499450683594E-2  
 7.057057057057056E8     4.706085026264191E-1  -2.889344990253449E-1  -1.489412784576416E-1  -1.429107487201691E-1  -1.534986793994904E-1  -1.394945085048676E-1   6.688825488090515E-1  -1.724606454372406E-1  
 7.081081081081080E8     4.405224621295929E-1  -3.352995812892914E-1  -1.618984788656235E-1  -1.294849812984467E-1  -1.636729836463928E-1  -1.281373053789139E-1   6.369659304618835E-1  -2.443227618932724E-1  
 7.105105105105104E8     4.035024046897888E-1  -3.800604641437531E-1  -1.727374792098999E-1  -1.164442524313927E-1  -1.727734804153442E-1  -1.167821139097214E-1   5.957560539245606E-1  -3.112230002880096E-1  
 7.129129129129129E8     3.587915301322937E-1  -4.196920692920685E-1  -1.820534020662308E-1  -1.051369607448578E-1  -1.818636655807495E-1  -1.055978909134865E-1   5.455086827278137E-1  -3.729339241981506E-1  
 7.153153153153153E8     3.085733056068420E-1  -4.506846666336060E-1  -1.919074058532715E-1  -9.487380832433701E-2  -1.920015066862106E-1  -9.367883950471878E-2   4.871847331523895E-1  -4.272091984748840E-1  
 7.177177177177178E8     2.566543221473694E-1  -4.736317992210388E-1  -2.026655524969101E-1  -8.373451977968216E-2  -2.031087726354599E-1  -8.018274605274200E-2   4.225385487079620E-1  -4.737480878829956E-1  
 7.201201201201202E8     2.040009349584580E-1  -4.904878735542297E-1  -2.141569852828980E-1  -7.032687962055206E-2  -2.143279910087585E-1  -6.540957838296890E-2   3.533553481101990E-1  -5.105682015419006E-1  
 7.225225225225226E8     1.500108540058136E-1  -5.027400851249695E-1  -2.255564928054810E-1  -5.307094007730484E-2  -2.245906144380570E-1  -4.946675151586533E-2   2.823613882064819E-1  -5.366846919059753E-1  
 7.249249249249250E8     9.419467300176621E-2  -5.089960694313049E-1  -2.353903800249100E-1  -3.219088912010193E-2  -2.330215722322464E-1  -3.380019962787628E-2   2.117480188608170E-1  -5.522038340568543E-1  
 7.273273273273274E8     3.914100676774979E-2  -5.082820653915405E-1  -2.432790845632553E-1  -9.739271365106106E-3  -2.408015131950378E-1  -1.642626151442528E-2   1.409397870302200E-1  -5.586780309677124E-1  
 7.297297297297298E8    -1.302101463079453E-2  -5.014975070953369E-1  -2.487417310476303E-1   1.324801146984100E-2  -2.469516396522522E-1   3.974531311541796E-3   7.054156810045242E-2  -5.561480522155762E-1  
 7.321321321321322E8    -6.111675873398781E-2  -4.902471303939819E-1  -2.510231435298920E-1   3.551588952541351E-2  -2.501859962940216E-1   2.709267102181912E-2   1.293649082072079E-3  -5.447545647621155E-1  
 7.345345345345346E8    -1.077376306056976E-1  -4.764459729194641E-1  -2.507881522178650E-1   5.657422915101051E-2  -2.500617802143097E-1   5.094486847519875E-2  -6.507285684347153E-2  -5.242297649383545E-1  
 7.369369369369370E8    -1.541327983140945E-1  -4.578261971473694E-1  -2.488495707511902E-1   7.701926678419113E-2  -2.479966580867767E-1   7.437848299741745E-2  -1.277825087308884E-1  -4.954496026039124E-1  
 7.393393393393394E8    -1.992023587226868E-1  -4.342294335365295E-1  -2.454414367675781E-1   9.769313782453537E-2  -2.442861348390579E-1   9.728057682514191E-2  -1.853289902210236E-1  -4.584144651889801E-1  
 7.417417417417418E8    -2.425967156887054E-1  -4.052313864231110E-1  -2.408293038606644E-1   1.184880584478378E-1  -2.393822520971298E-1   1.192041710019112E-1  -2.360467314720154E-1  -4.139259159564972E-1  
 7.441441441441442E8    -2.825909852981567E-1  -3.693022429943085E-1  -2.352178990840912E-1   1.402297616004944E-1  -2.338354140520096E-1   1.412682533264160E-1  -2.784586548805237E-1  -3.620379269123077E-1  
 7.465465465465466E8    -3.161044418811798E-1  -3.272306323051453E-1  -2.275672405958176E-1   1.635890901088715E-1  -2.263478189706802E-1   1.645559519529343E-1  -3.100240528583527E-1  -3.054255247116089E-1  
 7.489489489489490E8    -3.412933945655823E-1  -2.817349731922150E-1  -2.162903398275375E-1   1.878211647272110E-1  -2.153699547052383E-1   1.884491145610809E-1  -3.302529156208038E-1  -2.474366575479507E-1  
 7.513513513513514E8    -3.584530353546143E-1  -2.360754311084747E-1  -2.005157470703125E-1   2.108069807291031E-1  -1.998289972543716E-1   2.114344090223312E-1  -3.410371840000153E-1  -1.894045621156693E-1  
 7.537537537537538E8    -3.703702688217163E-1  -1.913914233446121E-1  -1.813081502914429E-1   2.314922660589218E-1  -1.807687133550644E-1   2.320784926414490E-1  -3.419455289840698E-1  -1.327480822801590E-1  
 7.561561561561562E8    -3.773210048675537E-1  -1.482585668563843E-1  -1.608952134847641E-1   2.490824908018112E-1  -1.585580259561539E-1   2.495130896568298E-1  -3.345816731452942E-1  -8.101402968168259E-2  
 7.585585585585586E8    -3.804718255996704E-1  -1.069732531905174E-1  -1.392234414815903E-1   2.639952003955841E-1  -1.349898129701614E-1   2.637605369091034E-1  -3.218058943748474E-1  -3.358872979879379E-2  
 7.609609609609610E8    -3.798724114894867E-1  -6.588134169578552E-2  -1.165604069828987E-1   2.762959003448486E-1  -1.114397644996643E-1   2.747575044631958E-1  -3.043378889560700E-1   1.000861078500748E-2  
 7.633633633633634E8    -3.769252598285675E-1  -2.767219766974449E-2  -9.351661801338196E-2   2.862268388271332E-1  -8.865019679069519E-2   2.833802103996277E-1  -2.827206254005432E-1   4.943013936281204E-2  
 7.657657657657658E8    -3.707121014595032E-1   9.184047579765320E-3  -7.078152149915695E-2   2.950945496559143E-1  -6.674136221408844E-2   2.918261885643005E-1  -2.574548721313477E-1   8.491793274879456E-2  
 7.681681681681682E8    -3.628778159618378E-1   4.417423158884049E-2  -4.747416824102402E-2   3.027491271495819E-1  -4.354062676429749E-2   3.000676929950714E-1  -2.282375842332840E-1   1.171598434448242E-1  
 7.705705705705706E8    -3.530301153659821E-1   7.915555685758591E-2  -2.322046644985676E-2   3.082318305969238E-1  -1.836817897856236E-2   3.070731461048126E-1  -1.936243176460266E-1   1.454338282346726E-1  
 7.729729729729730E8    -3.397588133811951E-1   1.149877533316612E-1   2.773147774860263E-3   3.114892542362213E-1   8.262257091701031E-3   3.124951720237732E-1  -1.534984260797501E-1   1.661516577005386E-1  
 7.753753753753754E8    -3.222971558570862E-1   1.495331674814224E-1   2.945649251341820E-2   3.124476969242096E-1   3.656770288944244E-2   3.140766322612763E-1  -1.117296591401100E-1   1.763363182544708E-1  
 7.777777777777778E8    -3.007367849349976E-1   1.819309443235397E-1   5.585186183452606E-2   3.103727698326111E-1   6.439730525016785E-2   3.110406696796417E-1  -7.345037162303925E-2   1.778429597616196E-1  
 7.801801801801802E8    -2.763336002826691E-1   2.106548547744751E-1   8.106055855751038E-2   3.060617744922638E-1   9.031993150711060E-2   3.042705357074738E-1  -3.864033520221710E-2   1.746915429830551E-1  
 7.825825825825826E8    -2.504994273185730E-1   2.361737787723541E-1   1.051482930779457E-1   3.006227016448975E-1   1.134173721075058E-1   2.955377101898193E-1  -6.483464501798153E-3   1.677022129297257E-1  
 7.849849849849850E8    -2.240608036518097E-1   2.595510184764862E-1   1.291193515062332E-1   2.941242158412933E-1   1.343639940023422E-1   2.857687473297119E-1   2.324919588863850E-2   1.565966755151749E-1  
 7.873873873873874E8    -1.966361403465271E-1   2.811327278614044E-1   1.523358672857285E-1   2.865161001682282E-1   1.536270380020142E-1   2.751311957836151E-1   4.966156184673309E-2   1.427354961633682E-1  
 7.897897897897898E8    -1.675295233726502E-1   3.015507459640503E-1   1.754681617021561E-1   2.775260508060455E-1   1.729592531919479E-1   2.640800476074219E-1   7.449705898761749E-2   1.262230426073074E-1  
 7.921921921921922E8    -1.358027309179306E-1   3.213603496551514E-1   1.988026052713394E-1   2.661873102188110E-1   1.924552023410797E-1   2.524582743644714E-1   9.638994932174683E-2   1.058454960584641E-1  
 7.945945945945946E8    -1.001204326748848E-1   3.400093615055084E-1   2.211930602788925E-1   2.519437968730927E-1   2.119038403034210E-1   2.396065592765808E-1   1.140815168619156E-1   8.204388618469238E-2  
 7.969969969969970E8    -5.939079076051712E-2   3.563383519649506E-1   2.420333474874497E-1   2.358602583408356E-1   2.306649982929230E-1   2.253954410552979E-1   1.251564323902130E-1   5.659474804997444E-2  
 7.993993993993994E8    -1.324333064258099E-2   3.672223091125488E-1   2.608104944229126E-1   2.186107784509659E-1   2.484143227338791E-1   2.101121544837952E-1   1.310998946428299E-1   3.383319079875946E-2  
 8.018018018018018E8     3.721120581030846E-2   3.701812028884888E-1   2.789934575557709E-1   2.009027004241943E-1   2.658410072326660E-1   1.943497508764267E-1   1.363126188516617E-1   1.326459832489491E-2  
 8.042042042042042E8     8.987955749034882E-2   3.644781708717346E-1   2.975577712059021E-1   1.817048192024231E-1   2.836861014366150E-1   1.774804443120956E-1   1.410008221864700E-1  -8.016443811357021E-3  
 8.066066066066066E8     1.399750560522080E-1   3.490104377269745E-1   3.156428933143616E-1   1.606024950742722E-1   3.009912073612213E-1   1.590522676706314E-1   1.430446356534958E-1  -3.080162778496742E-2  
 8.090090090090090E8     1.854549795389175E-1   3.259952962398529E-1   3.326213359832764E-1   1.371856629848480E-1   3.177563250064850E-1   1.383150070905685E-1   1.412394791841507E-1  -5.364730954170227E-2  
 8.114114114114114E8     2.251226902008057E-1   2.975854277610779E-1   3.477417826652527E-1   1.112028732895851E-1   3.330320715904236E-1   1.151939406991005E-1   1.366109251976013E-1  -7.506118714809418E-2  
 8.138138138138138E8     2.594078183174133E-1   2.664917707443237E-1   3.607092499732971E-1   8.341933041810989E-2   3.467044234275818E-1   9.028313308954239E-2   1.294478923082352E-1  -9.540881216526032E-2  
 8.162162162162162E8     2.898421287536621E-1   2.334440946578980E-1   3.715562820434570E-1   5.345445871353149E-2   3.585206270217896E-1   6.313338875770569E-2   1.202588006854057E-1  -1.135092824697495E-1  
 8.186186186186186E8     3.173837363719940E-1   1.977311819791794E-1   3.790047764778137E-1   2.211059816181660E-2   3.677928745746613E-1   3.433773666620255E-2   1.108983382582665E-1  -1.299433559179306E-1  
 8.210210210210210E8     3.409628570079804E-1   1.587873995304108E-1   3.835597336292267E-1  -1.013278309255838E-2   3.747936487197876E-1   3.988141193985939E-3   1.010494083166122E-1  -1.463990062475205E-1  
 8.234234234234234E8     3.606157600879669E-1   1.164845526218414E-1   3.847310245037079E-1  -4.400291666388512E-2   3.787229955196381E-1  -2.799444273114204E-2   8.992062509059906E-2  -1.627739965915680E-1  
