#  HZ   S   RI   R     50.00 
! Rohde & Schwarz ZVB8 2Ports - Version 2.81 - 1145.1010k08 SN: 100113
! Date: 2016-03-12 03:03:34
! Measurements: S11 S21 S12 S22 
! 
 6.000000000000000E8    -6.991611123085022E-1  -5.260801315307617E-1   1.000526128336787E-3   7.160034775733948E-2   2.155753085389733E-3   7.055168598890305E-2  -5.516776442527771E-1  -7.098444104194641E-1  
 6.024024024024024E8    -7.433038353919983E-1  -4.528712630271912E-1   8.183174766600132E-3   7.566467672586441E-2   9.180644527077675E-3   7.423432916402817E-2  -6.136375665664673E-1  -6.512317657470703E-1  
 6.048048048048048E8    -7.798478603363037E-1  -3.749418556690216E-1   1.644475571811199E-2   7.875606417655945E-2   1.735582575201988E-2   7.700061798095703E-2  -6.696369647979736E-1  -5.866810679435730E-1  
 6.072072072072072E8    -8.082436323165894E-1  -2.930912673473358E-1   2.567673660814762E-2   8.051574975252152E-2   2.621786296367645E-2   7.856903970241547E-2  -7.190546989440918E-1  -5.176693797111511E-1  
 6.096096096096096E8    -8.286692500114441E-1  -2.091002911329269E-1   3.530419617891312E-2   8.087686449289322E-2   3.547060117125511E-2   7.870089262723923E-2  -7.617086768150330E-1  -4.428525269031525E-1  
 6.120120120120120E8    -8.402751088142395E-1  -1.262929290533066E-1   4.449797421693802E-2   8.021143823862076E-2   4.422383382916451E-2   7.790778577327728E-2  -7.962118387222290E-1  -3.654410243034363E-1  
 6.144144144144144E8    -8.433811664581299E-1  -4.236222803592682E-2   5.368005111813545E-2   7.844436913728714E-2   5.283715948462486E-2   7.635011523962021E-2  -8.233518004417419E-1  -2.843503057956696E-1  
 6.168168168168168E8    -8.380284905433655E-1   4.232091456651688E-2   6.280533969402313E-2   7.608868926763535E-2   6.132986396551132E-2   7.404977083206177E-2  -8.420481085777283E-1  -1.996523588895798E-1  
 6.192192192192192E8    -8.237339258193970E-1   1.262836605310440E-1   7.204265892505646E-2   7.305556535720825E-2   7.013750076293945E-2   7.129088044166565E-2  -8.516392111778259E-1  -1.121696680784226E-1  
 6.216216216216216E8    -8.004378676414490E-1   2.081987857818604E-1   8.153548836708069E-2   6.905300170183182E-2   7.922172546386719E-2   6.768219918012619E-2  -8.515494465827942E-1  -2.364769950509071E-2  
 6.240240240240240E8    -7.686918973922730E-1   2.869224250316620E-1   9.123793989419937E-2   6.394669413566589E-2   8.858569711446762E-2   6.293401867151260E-2  -8.415336608886719E-1   6.478428095579147E-2  
 6.264264264264264E8    -7.288284897804260E-1   3.611696958541870E-1   1.007049977779388E-1   5.750985443592072E-2   9.768301248550415E-2   5.685529112815857E-2  -8.223749399185181E-1   1.505143195390701E-1  
 6.288288288288288E8    -6.815871000289917E-1   4.301188588142395E-1   1.093542948365212E-1   4.999075084924698E-2   1.063002273440361E-1   4.982548579573631E-2  -7.943788766860962E-1   2.322628349065781E-1  
 6.312312312312312E8    -6.281782388687134E-1   4.925451874732971E-1   1.175792962312698E-1   4.162354767322540E-2   1.143996641039848E-1   4.183270037174225E-2  -7.578949928283691E-1   3.110561370849609E-1  
 6.336336336336336E8    -5.699729323387146E-1   5.483164787292481E-1   1.248220205307007E-1   3.274045512080193E-2   1.217947527766228E-1   3.337457403540611E-2  -7.136171460151672E-1   3.853419125080109E-1  
 6.360360360360360E8    -5.065641403198242E-1   5.984447598457336E-1   1.321508735418320E-1   2.343804761767387E-2   1.291735470294952E-1   2.447852678596973E-2  -6.602694988250732E-1   4.545584321022034E-1  
 6.384384384384384E8    -4.381509721279144E-1   6.411972045898438E-1   1.398904770612717E-1   1.281660422682762E-2   1.369829028844833E-1   1.426959969103336E-2  -5.984973311424255E-1   5.171571969985962E-1  
 6.408408408408408E8    -3.662641942501068E-1   6.756314635276794E-1   1.468928158283234E-1   6.289538578130305E-5   1.443204432725906E-1   1.898737158626318E-3  -5.298677682876587E-1   5.712167024612427E-1  
 6.432432432432432E8    -2.922451198101044E-1   7.024300694465637E-1   1.520977914333344E-1  -1.435462664812803E-2   1.497988551855087E-1  -1.213861722499132E-2  -4.557287395000458E-1   6.158421635627747E-1  
 6.456456456456456E8    -2.170850187540054E-1   7.222330570220947E-1   1.555469483137131E-1  -2.910746075212956E-2   1.534222513437271E-1  -2.681743539869785E-2  -3.777202367782593E-1   6.515295505523682E-1  
 6.480480480480480E8    -1.399745941162109E-1   7.350407242774963E-1   1.578016430139542E-1  -4.367703944444656E-2   1.559792608022690E-1  -4.110691323876381E-2  -2.964974939823151E-1   6.780900955200195E-1  
 6.504504504504504E8    -6.088136136531830E-2   7.392758727073669E-1   1.600931435823441E-1  -5.880008265376091E-2   1.586960256099701E-1  -5.613620579242706E-2  -2.120500653982163E-1   6.943917870521545E-1  
 6.528528528528528E8     1.882546022534370E-2   7.334117889404297E-1   1.616922169923782E-1  -7.592874765396118E-2   1.606916338205338E-1  -7.290690392255783E-2  -1.270336657762528E-1   6.989255547523499E-1  
 6.552552552552552E8     9.518475830554962E-2   7.174749374389648E-1   1.612958759069443E-1  -9.469110518693924E-2   1.607563644647598E-1  -9.138531982898712E-2  -4.408805817365646E-2   6.922355890274048E-1  
 6.576576576576576E8     1.666283011436462E-1   6.931143403053284E-1   1.586001664400101E-1  -1.141015887260437E-1   1.585824191570282E-1  -1.105793863534927E-1   3.599089011549950E-2   6.759410500526428E-1  
 6.600600600600600E8     2.343231290578842E-1   6.614767909049988E-1   1.535931974649429E-1  -1.341701745986939E-1   1.541541516780853E-1  -1.302928328514099E-1   1.129604205489159E-1   6.501138210296631E-1  
 6.624624624624624E8     2.962895631790161E-1   6.238861680030823E-1   1.468224078416824E-1  -1.546774655580521E-1   1.479682028293610E-1  -1.506545990705490E-1   1.852393448352814E-1   6.148160696029663E-1  
 6.648648648648648E8     3.526158928871155E-1   5.803918242454529E-1   1.376928538084030E-1  -1.759974062442780E-1   1.392696052789688E-1  -1.718740463256836E-1   2.504753470420837E-1   5.706435441970825E-1  
 6.672672672672672E8     4.028533399105072E-1   5.323305726051331E-1   1.256240159273148E-1  -1.978092640638351E-1   1.275725811719894E-1  -1.937009096145630E-1   3.080275952816010E-1   5.192320942878723E-1  
 6.696696696696696E8     4.465444982051849E-1   4.796448051929474E-1   1.103676632046700E-1  -2.197261899709702E-1   1.126375421881676E-1  -2.157316803932190E-1   3.559763133525848E-1   4.617461264133453E-1  
 6.720720720720720E8     4.817818403244019E-1   4.237257838249207E-1   9.109764546155930E-2  -2.416830211877823E-1   9.350118786096573E-2  -2.378769367933273E-1   3.941819071769714E-1   4.000551104545593E-1  
 6.744744744744744E8     5.086551308631897E-1   3.676576316356659E-1   6.640304625034332E-2  -2.620797157287598E-1   6.944724917411804E-2  -2.583804428577423E-1   4.215060472488403E-1   3.368400931358337E-1  
 6.768768768768768E8     5.296010375022888E-1   3.128677010536194E-1   3.755289688706398E-2  -2.791128158569336E-1   4.121825471520424E-2  -2.755994498729706E-1   4.401681125164032E-1   2.741049230098724E-1  
 6.792792792792792E8     5.451096296310425E-1   2.591155469417572E-1   5.313923116773367E-3  -2.929546236991882E-1   9.521816857159138E-3  -2.896545231342316E-1   4.500328004360199E-1   2.119333595037460E-1  
 6.816816816816816E8     5.557600855827332E-1   2.073646038770676E-1  -3.137282282114029E-2  -3.023096919059753E-1  -2.646706812083721E-2  -2.993527352809906E-1   4.514152407646179E-1   1.526613086462021E-1  
 6.840840840840840E8     5.636065006256104E-1   1.582244932651520E-1  -7.117670029401779E-2  -3.048184812068939E-1  -6.578391790390015E-2  -3.023820817470551E-1   4.475720822811127E-1   9.819254279136658E-2  
 6.864864864864864E8     5.702632665634155E-1   1.103101149201393E-1  -1.114808097481728E-1  -2.988884150981903E-1  -1.053794249892235E-1  -2.974128127098084E-1   4.410476982593536E-1   4.660427942872047E-2  
 6.888888888888888E8     5.765097141265869E-1   6.134613603353500E-2  -1.489894241094589E-1  -2.852569222450256E-1  -1.421675235033035E-1  -2.849243879318237E-1   4.332100749015808E-1  -5.230512470006943E-3  
 6.912912912912912E8     5.802903771400452E-1   8.812131360173225E-3  -1.804296672344208E-1  -2.681576013565064E-1  -1.737238466739655E-1  -2.685703337192535E-1   4.202578067779541E-1  -6.057131290435791E-2  
 6.936936936936936E8     5.776302218437195E-1  -4.610962420701981E-2  -2.089563012123108E-1  -2.505360841751099E-1  -2.031834125518799E-1  -2.512354850769043E-1   3.961659669876099E-1  -1.163308620452881E-1  
 6.960960960960960E8     5.688004493713379E-1  -1.005595177412033E-1  -2.364581823348999E-1  -2.308019548654556E-1  -2.323425114154816E-1  -2.312543541193008E-1   3.623223900794983E-1  -1.667271107435226E-1  
 6.984984984984984E8     5.548822879791260E-1  -1.544542759656906E-1  -2.622606158256531E-1  -2.082203030586243E-1  -2.598240375518799E-1  -2.076895087957382E-1   3.209283053874970E-1  -2.104396820068359E-1  
 7.009009009009008E8     5.349056720733643E-1  -2.077288925647736E-1  -2.866567969322205E-1  -1.821758300065994E-1  -2.853812575340271E-1  -1.815039664506912E-1   2.738718092441559E-1  -2.454579025506973E-1  
 7.033033033033032E8     5.088672041893005E-1  -2.584102451801300E-1  -3.095372319221497E-1  -1.509478539228439E-1  -3.077720701694489E-1  -1.528552919626236E-1   2.247215509414673E-1  -2.711566090583801E-1  
 7.057057057057056E8     4.779193103313446E-1  -3.060223162174225E-1  -3.273190259933472E-1  -1.146782115101814E-1  -3.253880739212036E-1  -1.219768524169922E-1   1.750164180994034E-1  -2.897668778896332E-1  
 7.081081081081080E8     4.413985311985016E-1  -3.518808186054230E-1  -3.396633565425873E-1  -7.566203176975250E-2  -3.381738662719727E-1  -8.954837173223496E-2   1.226760670542717E-1  -3.027064502239227E-1  
 7.105105105105104E8     3.996942937374115E-1  -3.927914798259735E-1  -3.455412387847900E-1  -3.699800744652748E-2  -3.467538058757782E-1  -5.515472963452339E-2   6.651617586612701E-2  -3.091124594211578E-1  
 7.129129129129129E8     3.546644151210785E-1  -4.282702207565308E-1  -3.459158837795258E-1  -1.467046909965575E-3  -3.507870435714722E-1  -2.013662643730640E-2   5.386472679674625E-3  -3.050144910812378E-1  
 7.153153153153153E8     3.064489662647247E-1  -4.583953320980072E-1  -3.437457978725433E-1   3.044119849801064E-2  -3.522112369537354E-1   1.557179912924767E-2  -5.579030513763428E-2  -2.855574190616608E-1  
 7.177177177177178E8     2.550531923770905E-1  -4.830174744129181E-1  -3.396334052085877E-1   6.141385063529015E-2  -3.508909940719605E-1   5.219314247369766E-2  -1.100994721055031E-1  -2.522465586662293E-1  
 7.201201201201202E8     1.998948305845261E-1  -5.021806359291077E-1  -3.332909345626831E-1   9.337750822305679E-2  -3.464416563510895E-1   8.888820558786392E-2  -1.539887934923172E-1  -2.089928835630417E-1  
 7.225225225225226E8     1.419127136468887E-1  -5.142050981521606E-1  -3.232102990150452E-1   1.272345334291458E-1  -3.389129042625427E-1   1.243976205587387E-1  -1.861423254013062E-1  -1.597393006086350E-1  
 7.249249249249250E8     8.347157388925552E-2  -5.182251334190369E-1  -3.078592717647553E-1   1.626933366060257E-1  -3.275420963764191E-1   1.575206965208054E-1  -2.062168419361115E-1  -1.081683412194252E-1  
 7.273273273273274E8     2.744167111814022E-2  -5.158870220184326E-1  -2.870060503482819E-1   1.957025229930878E-1  -3.106777071952820E-1   1.895936280488968E-1  -2.167081534862518E-1  -5.634552612900734E-2  
 7.297297297297298E8    -2.588270790874958E-2  -5.092815160751343E-1  -2.626002430915833E-1   2.226186841726303E-1  -2.876972854137421E-1   2.195878922939301E-1  -2.183182835578919E-1  -4.305818118155003E-3  
 7.321321321321322E8    -7.849677652120590E-2  -4.984710514545441E-1  -2.378360182046890E-1   2.418199181556702E-1  -2.602249383926392E-1   2.455612421035767E-1  -2.111192345619202E-1   4.733688011765480E-2  
 7.345345345345346E8    -1.315312534570694E-1  -4.815453886985779E-1  -2.151876837015152E-1   2.563208639621735E-1  -2.316149920225143E-1   2.669601738452911E-1  -1.938632428646088E-1   9.697860479354858E-2  
 7.369369369369370E8    -1.835827827453613E-1  -4.554093480110169E-1  -1.939181089401245E-1   2.693431377410889E-1  -2.028716206550598E-1   2.853050231933594E-1  -1.664122045040131E-1   1.418394595384598E-1  
 7.393393393393394E8    -2.302545458078384E-1  -4.208120107650757E-1  -1.723468005657196E-1   2.825379967689514E-1  -1.743980050086975E-1   3.014316856861115E-1  -1.308050453662872E-1   1.786504238843918E-1  
 7.417417417417418E8    -2.698474824428558E-1  -3.805711865425110E-1  -1.490913480520248E-1   2.952711582183838E-1  -1.450719386339188E-1   3.147440254688263E-1  -9.100899100303650E-2   2.057153880596161E-1  
 7.441441441441442E8    -3.020898401737213E-1  -3.359871208667755E-1  -1.241169422864914E-1   3.068345189094544E-1  -1.156210675835609E-1   3.253358602523804E-1  -5.019408464431763E-2   2.252770960330963E-1  
 7.465465465465466E8    -3.259309232234955E-1  -2.887903451919556E-1  -9.739814698696137E-2   3.168990314006805E-1  -8.570129424333572E-2   3.331241905689240E-1  -8.522346615791321E-3   2.388416379690170E-1  
 7.489489489489490E8    -3.410723209381104E-1  -2.407282888889313E-1  -6.902444362640381E-2   3.246766924858093E-1  -5.482446402311325E-2   3.380747437477112E-1   3.435354307293892E-2   2.469118088483810E-1  
 7.513513513513514E8    -3.474043011665344E-1  -1.947505176067352E-1  -3.891760483384132E-2   3.293003141880035E-1  -2.284197323024273E-2   3.394144177436829E-1   7.839212566614151E-2   2.489157766103745E-1  
 7.537537537537538E8    -3.478031754493713E-1  -1.537001430988312E-1  -7.488813251256943E-3   3.293782770633698E-1   9.796019643545151E-3   3.357659578323364E-1   1.237876638770104E-1   2.443030178546906E-1  
 7.561561561561562E8    -3.452546596527100E-1  -1.179124340415001E-1   2.172139659523964E-2   3.249730765819550E-1   4.109810665249825E-2   3.264524042606354E-1   1.693689227104187E-1   2.311161756515503E-1  
 7.585585585585586E8    -3.422584235668182E-1  -8.622653037309647E-2   4.844864457845688E-2   3.172289431095123E-1   6.844878196716309E-2   3.135452866554260E-1   2.118070572614670E-1   2.088952213525772E-1  
 7.609609609609610E8    -3.395735919475555E-1  -5.579864606261253E-2   7.247640192508698E-2   3.076337575912476E-1   9.128431975841522E-2   2.990669906139374E-1   2.483015209436417E-1   1.798185408115387E-1  
 7.633633633633634E8    -3.353712260723114E-1  -2.630495093762875E-2   9.421064704656601E-2   2.971448302268982E-1   1.105219572782517E-1   2.848331332206726E-1   2.780001759529114E-1   1.464481651782990E-1  
 7.657657657657658E8    -3.301334977149963E-1   1.023376011289656E-3   1.140402778983116E-1   2.859202623367310E-1   1.276521831750870E-1   2.714072763919830E-1   3.015265464782715E-1   1.113318875432015E-1  
 7.681681681681682E8    -3.263366520404816E-1   2.690240181982517E-2   1.317858695983887E-1   2.743299007415772E-1   1.433370411396027E-1   2.586040496826172E-1   3.202642500400543E-1   7.658423483371735E-2  
 7.705705705705706E8    -3.234238028526306E-1   5.541021376848221E-2   1.478867679834366E-1   2.624643146991730E-1   1.583055108785629E-1   2.461703568696976E-1   3.372960388660431E-1   4.199130088090897E-2  
 7.729729729729730E8    -3.169417381286621E-1   8.788358420133591E-2   1.632699370384216E-1   2.498730570077896E-1   1.724208891391754E-1   2.344158887863159E-1   3.535942733287811E-1   4.038433078676462E-3  
 7.753753753753754E8    -3.048749566078186E-1   1.205257177352905E-1   1.780218482017517E-1   2.378078252077103E-1   1.859048902988434E-1   2.219989448785782E-1   3.653782904148102E-1  -3.889582306146622E-2  
 7.777777777777778E8    -2.883291542530060E-1   1.500459611415863E-1   1.919378340244293E-1   2.256565541028976E-1   1.982139945030212E-1   2.087922841310501E-1   3.707046210765839E-1  -8.536829799413681E-2  
 7.801801801801802E8    -2.704844772815704E-1   1.752813905477524E-1   2.053444087505341E-1   2.138147950172424E-1   2.091337740421295E-1   1.955381035804749E-1   3.678675591945648E-1  -1.333005726337433E-1  
 7.825825825825826E8    -2.549242973327637E-1   1.988147944211960E-1   2.186486274003983E-1   2.018968015909195E-1   2.184966355562210E-1   1.823152899742127E-1   3.566694557666779E-1  -1.799161136150360E-1  
 7.849849849849850E8    -2.408432811498642E-1   2.256193459033966E-1   2.320081889629364E-1   1.901267617940903E-1   2.263419628143311E-1   1.701929569244385E-1   3.385801017284393E-1  -2.225797623395920E-1  
 7.873873873873874E8    -2.234701663255692E-1   2.572135329246521E-1   2.453269213438034E-1   1.791697591543198E-1   2.337023466825485E-1   1.590864062309265E-1   3.159134685993195E-1  -2.611434459686279E-1  
 7.897897897897898E8    -1.979766637086868E-1   2.918431758880615E-1   2.597950100898743E-1   1.681377887725830E-1   2.425028085708618E-1   1.489477902650833E-1   2.896636128425598E-1  -2.968736290931702E-1  
 7.921921921921922E8    -1.616691350936890E-1   3.247027695178986E-1   2.760032117366791E-1   1.552133262157440E-1   2.538914084434509E-1   1.389215886592865E-1   2.596831321716309E-1  -3.305502235889435E-1  
 7.945945945945946E8    -1.168777346611023E-1   3.505184352397919E-1   2.930027544498444E-1   1.393741369247437E-1   2.672805488109589E-1   1.274056285619736E-1   2.256691157817841E-1  -3.605644106864929E-1  
 7.969969969969970E8    -6.759537756443024E-2   3.680204749107361E-1   3.095508217811585E-1   1.202544197440147E-1   2.818194329738617E-1   1.131186038255692E-1   1.870866566896439E-1  -3.863995671272278E-1  
 7.993993993993994E8    -1.532541215419769E-2   3.775955438613892E-1   3.241251409053803E-1   9.886985272169113E-2   2.957890033721924E-1   9.651530534029007E-2   1.454684436321259E-1  -4.062725901603699E-1  
 8.018018018018018E8     3.934922069311142E-2   3.782436251640320E-1   3.378014266490936E-1   7.606912404298782E-2   3.096355795860291E-1   7.847250998020172E-2   1.017272472381592E-1  -4.200346171855927E-1  
 8.042042042042042E8     9.459722042083740E-2   3.692692518234253E-1   3.520558774471283E-1   5.038289353251457E-2   3.245483934879303E-1   5.818422138690949E-2   5.819313228130341E-2  -4.261875450611115E-1  
 8.066066066066066E8     1.456012129783630E-1   3.520595133304596E-1   3.645572662353516E-1   2.058460377156735E-2   3.387924730777741E-1   3.376868739724159E-2   1.720293797552586E-2  -4.252349138259888E-1  
 8.090090090090090E8     1.930620521306992E-1   3.279297947883606E-1   3.731835484504700E-1  -1.249382924288511E-2   3.502973318099976E-1   5.543601699173451E-3  -1.962863281369209E-2  -4.195312559604645E-1  
 8.114114114114114E8     2.356481552124023E-1   2.972100973129273E-1   3.775801360607147E-1  -4.772181063890457E-2   3.586665987968445E-1  -2.547622844576836E-2  -5.215575173497200E-2  -4.110761582851410E-1  
 8.138138138138138E8     2.724242508411408E-1   2.614680230617523E-1   3.774490654468536E-1  -8.479014039039612E-2   3.630615174770355E-1  -5.893386155366898E-2  -7.998897135257721E-2  -4.018852412700653E-1  
 8.162162162162162E8     3.027382194995880E-1   2.225476205348969E-1   3.721221387386322E-1  -1.226077377796173E-1   3.627932965755463E-1  -9.428004920482636E-2  -1.051639541983604E-1  -3.936846256256104E-1  
 8.186186186186186E8     3.275830745697022E-1   1.813011765480042E-1   3.608158826828003E-1  -1.597104519605637E-1   3.569711148738861E-1  -1.301079839468002E-1  -1.285345852375031E-1  -3.876309096813202E-1  
 8.210210210210210E8     3.465346395969391E-1   1.375941038131714E-1   3.441853821277618E-1  -1.945994496345520E-1   3.460797667503357E-1  -1.647345870733261E-1  -1.532076746225357E-1  -3.839473128318787E-1  
 8.234234234234234E8     3.602621555328369E-1   9.348334372043610E-2   3.231656849384308E-1  -2.265028953552246E-1   3.305090665817261E-1  -1.976937055587769E-1  -1.811446547508240E-1  -3.802674710750580E-1  
