#  HZ   S   RI   R     50.00 
! Rohde & Schwarz ZVB8 2Ports - Version 2.81 - 1145.1010k08 SN: 100113
! Date: 2016-05-17 22:36:41
! Measurements: S11 S21 S12 S22 
! 
 6.000000000000000E8    -8.210546970367432E-1   4.743179082870483E-1  -4.878366307821125E-4  -1.184622757136822E-3  -5.112821236252785E-4  -1.181483850814402E-3  -9.492365121841431E-1   2.278839796781540E-1  
 6.024024024024024E8    -8.137207627296448E-1   4.847726821899414E-1  -5.084628937765956E-4  -1.257622265256941E-3  -5.171516677364707E-4  -1.186043722555041E-3  -9.461204409599304E-1   2.382667958736420E-1  
 6.048048048048048E8    -8.059679269790649E-1   4.960288703441620E-1  -4.707182815764099E-4  -1.154253841377795E-3  -4.441836790647358E-4  -1.246214611455798E-3  -9.430105686187744E-1   2.487124353647232E-1  
 6.072072072072072E8    -7.975742220878601E-1   5.079566240310669E-1  -4.418665776029229E-4  -1.169009134173393E-3  -4.279874265193939E-4  -1.242735539563000E-3  -9.401443004608154E-1   2.583642899990082E-1  
 6.096096096096096E8    -7.890543341636658E-1   5.196233391761780E-1  -3.643495729193091E-4  -1.307011581957340E-3  -3.524151397868991E-4  -1.265303813852370E-3  -9.368178844451904E-1   2.684007883071899E-1  
 6.120120120120120E8    -7.824790477752686E-1   5.288104414939880E-1  -3.172817814629525E-4  -1.303559169173241E-3  -2.913865610025823E-4  -1.331432140432298E-3  -9.343076348304749E-1   2.764380574226379E-1  
 6.144144144144144E8    -7.751493453979492E-1   5.389192104339600E-1  -2.491863851901144E-4  -1.376193715259433E-3  -2.464524295646697E-4  -1.270160195417702E-3  -9.317209124565125E-1   2.854367196559906E-1  
 6.168168168168168E8    -7.670466899871826E-1   5.494964718818665E-1  -1.190822877106257E-4  -1.450210111215711E-3  -1.511884183855727E-4  -1.396543695591390E-3  -9.287531971931458E-1   2.947029769420624E-1  
 6.192192192192192E8    -7.585773468017578E-1   5.597861409187317E-1  -6.215823668753728E-5  -1.587204984389246E-3   2.090859379677568E-5  -1.555914757773280E-3  -9.255436658859253E-1   3.040419816970825E-1  
 6.216216216216216E8    -7.497095465660095E-1   5.698049664497376E-1   5.408395372796804E-5  -1.816612202674151E-3  -1.873618930403609E-5  -1.798917306587100E-3  -9.219138026237488E-1   3.131716847419739E-1  
 6.240240240240240E8    -7.407209873199463E-1   5.795939564704895E-1   1.124659393099137E-4  -2.159418072551489E-3   9.395673987455666E-5  -2.073276322335005E-3  -9.184314608573914E-1   3.226523101329804E-1  
 6.264264264264264E8    -7.319481968879700E-1   5.891520380973816E-1   1.107854841393419E-4  -2.417477080598474E-3   2.130020147887990E-4  -2.501216251403093E-3  -9.146578907966614E-1   3.338406980037689E-1  
 6.288288288288288E8    -7.235023379325867E-1   5.984009504318237E-1   3.285626371507533E-5  -2.885733731091023E-3   1.674562518019229E-4  -2.916350262239575E-3  -9.106587171554565E-1   3.435515463352203E-1  
 6.312312312312312E8    -7.157901525497437E-1   6.067796349525452E-1  -1.396551379002631E-4  -3.296895418316126E-3  -1.620568364160135E-4  -3.338856622576714E-3  -9.071300029754639E-1   3.526179492473602E-1  
 6.336336336336336E8    -7.084158658981323E-1   6.157170534133911E-1  -5.338854389265180E-4  -3.663387848064303E-3  -4.346579953562468E-4  -3.665412543341517E-3  -9.033343791961670E-1   3.607112169265747E-1  
 6.360360360360360E8    -7.005887031555176E-1   6.249104142189026E-1  -9.230081341229379E-4  -4.034331068396568E-3  -9.220405481755734E-4  -3.953814040869474E-3  -9.000703692436218E-1   3.681204020977020E-1  
 6.384384384384384E8    -6.922804713249207E-1   6.339976787567139E-1  -1.423770096153021E-3  -4.195375833660364E-3  -1.419938751496375E-3  -4.174646921455860E-3  -8.968843221664429E-1   3.769477009773254E-1  
 6.408408408408408E8    -6.834320425987244E-1   6.433003544807434E-1  -1.888628350570798E-3  -4.258417990058661E-3  -1.842203317210078E-3  -4.226641729474068E-3  -8.931728005409241E-1   3.855592310428619E-1  
 6.432432432432432E8    -6.745781898498535E-1   6.522818803787231E-1  -2.335865050554276E-3  -4.268792923539877E-3  -2.290701493620873E-3  -4.237513989210129E-3  -8.892524242401123E-1   3.939878046512604E-1  
 6.456456456456456E8    -6.653285026550293E-1   6.611527204513550E-1  -2.773100743070245E-3  -4.185268655419350E-3  -2.732670400291681E-3  -4.123493097722530E-3  -8.850204348564148E-1   4.021713137626648E-1  
 6.480480480480480E8    -6.557294130325317E-1   6.696701049804688E-1  -3.125604707747698E-3  -4.086018539965153E-3  -3.134632250294089E-3  -4.079900681972504E-3  -8.805155158042908E-1   4.101097583770752E-1  
 6.504504504504504E8    -6.452611684799194E-1   6.795617341995239E-1  -3.467903239652515E-3  -3.930358216166496E-3  -3.457818645983934E-3  -3.915555775165558E-3  -8.725573420524597E-1   4.190429449081421E-1  
 6.528528528528528E8    -6.346886157989502E-1   6.889808177947998E-1  -3.702258225530386E-3  -3.807696979492903E-3  -3.672301536425948E-3  -3.801944665610790E-3  -8.655344843864441E-1   4.300190508365631E-1  
 6.552552552552552E8    -6.241182088851929E-1   6.977695822715759E-1  -3.979106433689594E-3  -3.695349441841245E-3  -3.912333864718676E-3  -3.667631652206183E-3  -8.613591790199280E-1   4.409907758235931E-1  
 6.576576576576576E8    -6.131725311279297E-1   7.057811617851257E-1  -4.105994477868080E-3  -3.618462942540646E-3  -4.153775051236153E-3  -3.645064774900675E-3  -8.594487905502319E-1   4.492770433425903E-1  
 6.600600600600600E8    -6.007463932037354E-1   7.142597436904907E-1  -4.479780793190002E-3  -3.522879211232066E-3  -4.391008988022804E-3  -3.536167554557324E-3  -8.569731712341309E-1   4.547455012798309E-1  
 6.624624624624624E8    -5.891996622085571E-1   7.226996421813965E-1  -4.728445783257484E-3  -3.385428572073579E-3  -4.726790357381105E-3  -3.428920870646834E-3  -8.517165780067444E-1   4.634165167808533E-1  
 6.648648648648648E8    -5.780467987060547E-1   7.307242751121521E-1  -4.961625672876835E-3  -3.265607170760632E-3  -4.942079074680805E-3  -3.325093770399690E-3  -8.467573523521423E-1   4.721730649471283E-1  
 6.672672672672672E8    -5.666345357894898E-1   7.383899688720703E-1  -5.178400315344334E-3  -3.175952471792698E-3  -5.101688671857119E-3  -3.195865545421839E-3  -8.418685197830200E-1   4.802724719047546E-1  
 6.696696696696696E8    -5.547597408294678E-1   7.460693717002869E-1  -5.404660478234291E-3  -3.008621046319604E-3  -5.431051831692457E-3  -3.081325208768249E-3  -8.368220329284668E-1   4.880452156066895E-1  
 6.720720720720720E8    -5.422604084014893E-1   7.537071108818054E-1  -5.660433787852526E-3  -2.911987947300077E-3  -5.659538321197033E-3  -2.891270443797112E-3  -8.321040868759155E-1   4.960240125656128E-1  
 6.744744744744744E8    -5.292766690254211E-1   7.608506083488464E-1  -5.933861248195171E-3  -2.735622227191925E-3  -5.816462915390730E-3  -2.801418071612716E-3  -8.262652158737183E-1   5.047765970230103E-1  
 6.768768768768768E8    -5.158501267433167E-1   7.679377198219299E-1  -6.087905727326870E-3  -2.620567334815860E-3  -6.033416371792555E-3  -2.650461392477155E-3  -8.202649950981140E-1   5.132631659507752E-1  
 6.792792792792792E8    -5.023541450500488E-1   7.742804884910584E-1  -6.253909785300493E-3  -2.423787955194712E-3  -6.285941228270531E-3  -2.471914747729898E-3  -8.144698143005371E-1   5.214859843254089E-1  
 6.816816816816816E8    -4.887230992317200E-1   7.806326150894165E-1  -6.395020056515932E-3  -2.296626800671220E-3  -6.462886929512024E-3  -2.344177104532719E-3  -8.085267543792725E-1   5.299443006515503E-1  
 6.840840840840840E8    -4.744917154312134E-1   7.865614295005798E-1  -6.622953340411186E-3  -2.236144850030541E-3  -6.602320820093155E-3  -2.182827796787024E-3  -8.026758432388306E-1   5.385646820068359E-1  
 6.864864864864864E8    -4.600142240524292E-1   7.928228378295898E-1  -6.789151579141617E-3  -2.125492552295327E-3  -6.786281242966652E-3  -2.126431791111827E-3  -7.962462902069092E-1   5.466943383216858E-1  
 6.888888888888888E8    -4.456934034824371E-1   7.991291284561157E-1  -7.032996974885464E-3  -2.042408334091306E-3  -6.997042801231146E-3  -2.051818883046508E-3  -7.892127633094788E-1   5.552543997764587E-1  
 6.912912912912912E8    -4.313746094703674E-1   8.049123883247376E-1  -7.265001535415649E-3  -1.858558738604188E-3  -7.256065029650927E-3  -1.935708802193403E-3  -7.827660441398621E-1   5.639498829841614E-1  
 6.936936936936936E8    -4.173542261123657E-1   8.107289671897888E-1  -7.438260130584240E-3  -1.733776414766908E-3  -7.510653231292963E-3  -1.633903593756259E-3  -7.761176824569702E-1   5.726697444915772E-1  
 6.960960960960960E8    -4.023691415786743E-1   8.160805106163025E-1  -7.604157552123070E-3  -1.591024454683065E-3  -7.652563508599997E-3  -1.510189729742706E-3  -7.698583006858826E-1   5.812579989433289E-1  
 6.984984984984984E8    -3.879658579826355E-1   8.211085200309753E-1  -7.687254808843136E-3  -1.523309969343245E-3  -7.728750817477703E-3  -1.414164667949081E-3  -7.607882022857666E-1   5.927463769912720E-1  
 7.009009009009008E8    -3.734885156154633E-1   8.247669339179993E-1  -7.777499966323376E-3  -1.416351296938956E-3  -7.865430787205696E-3  -1.195723772980273E-3  -7.519114017486572E-1   6.030069589614868E-1  
 7.033033033033032E8    -3.580536544322968E-1   8.285681605339050E-1  -7.864440791308880E-3  -1.341006369329989E-3  -7.944314740598202E-3  -1.200297381728888E-3  -7.449541091918945E-1   6.107222437858582E-1  
 7.057057057057056E8    -3.422978818416596E-1   8.311229348182678E-1  -7.923966273665428E-3  -1.459049992263317E-3  -8.045111782848835E-3  -1.315537025220692E-3  -7.402210235595703E-1   6.152527928352356E-1  
 7.081081081081080E8    -3.248163163661957E-1   8.338609933853149E-1  -8.210169151425362E-3  -1.494746888056397E-3  -8.109995163977146E-3  -1.478092628531158E-3  -7.349059581756592E-1   6.202378273010254E-1  
 7.105105105105104E8    -3.073641657829285E-1   8.364752531051636E-1  -8.336796425282955E-3  -1.563390484079719E-3  -8.284311741590500E-3  -1.659961999394000E-3  -7.294306159019470E-1   6.267181038856506E-1  
 7.129129129129129E8    -2.917113006114960E-1   8.378028869628906E-1  -8.475069887936115E-3  -1.777469646185637E-3  -8.473686873912811E-3  -1.873009256087244E-3  -7.225362062454224E-1   6.342664361000061E-1  
 7.153153153153153E8    -2.769378721714020E-1   8.385486602783203E-1  -8.689247071743012E-3  -2.173584420233965E-3  -8.668201975524426E-3  -2.260831417515874E-3  -7.140049934387207E-1   6.427543759346008E-1  
 7.177177177177178E8    -2.619862258434296E-1   8.383965492248535E-1  -9.013534523546696E-3  -2.718589734286070E-3  -9.086919017136097E-3  -2.754764398559928E-3  -7.043063044548035E-1   6.516534686088562E-1  
 7.201201201201202E8    -2.465132772922516E-1   8.387940526008606E-1  -9.487602859735489E-3  -3.372392151504755E-3  -9.544031694531441E-3  -3.399514360353351E-3  -6.951639652252197E-1   6.602826714515686E-1  
 7.225225225225226E8    -2.325110435485840E-1   8.388687372207642E-1  -1.042265072464943E-2  -4.295139107853174E-3  -1.047542691230774E-2  -4.271823447197676E-3  -6.849468946456909E-1   6.693730354309082E-1  
 7.249249249249250E8    -2.182433158159256E-1   8.392999172210693E-1  -1.201330777257681E-2  -5.054135341197252E-3  -1.192606147378683E-2  -5.172381177544594E-3  -6.764146685600281E-1   6.756131649017334E-1  
 7.273273273273274E8    -2.037325352430344E-1   8.409169912338257E-1  -1.405349466949701E-2  -5.425637122243643E-3  -1.390753965824843E-2  -5.619743838906288E-3  -6.683763861656189E-1   6.816239356994629E-1  
 7.297297297297298E8    -1.899174153804779E-1   8.425575494766235E-1  -1.629927381873131E-2  -5.232265219092369E-3  -1.617562584578991E-2  -5.491240415722132E-3  -6.600235104560852E-1   6.877008080482483E-1  
 7.321321321321322E8    -1.761023700237274E-1   8.437755703926086E-1  -1.851354353129864E-2  -4.655716940760613E-3  -1.845671422779560E-2  -4.613882396370173E-3  -6.514877676963806E-1   6.941621899604797E-1  
 7.345345345345346E8    -1.606933325529099E-1   8.448663353919983E-1  -2.056735940277576E-2  -3.393836086615920E-3  -2.055608667433262E-2  -3.169788978993893E-3  -6.433840990066528E-1   7.013917565345764E-1  
 7.369369369369370E8    -1.434496045112610E-1   8.450002670288086E-1  -2.221705019474030E-2  -1.875429297797382E-3  -2.222964167594910E-2  -1.634935848414898E-3  -6.348453760147095E-1   7.087339162826538E-1  
 7.393393393393394E8    -1.257079094648361E-1   8.440322279930115E-1  -2.369879186153412E-2  -2.317769831279293E-4  -2.375487983226776E-2   2.744778248597868E-5  -6.263699531555176E-1   7.160491943359375E-1  
 7.417417417417418E8    -1.073611080646515E-1   8.420529365539551E-1  -2.498693391680718E-2   1.706751179881394E-3  -2.501320466399193E-2   1.794089446775615E-3  -6.182802319526672E-1   7.226101756095886E-1  
 7.441441441441442E8    -8.847305178642273E-2   8.387879133224487E-1  -2.595055103302002E-2   3.724246518686414E-3  -2.597106620669365E-2   3.672074526548386E-3  -6.104909777641296E-1   7.285956144332886E-1  
 7.465465465465466E8    -7.258294522762299E-2   8.355351090431213E-1  -2.675101161003113E-2   5.585478153079748E-3  -2.670234441757202E-2   5.520497448742390E-3  -6.004523634910584E-1   7.363423705101013E-1  
 7.489489489489490E8    -5.648766458034515E-2   8.310026526451111E-1  -2.739104256033897E-2   7.446425501257181E-3  -2.742392197251320E-2   7.341255433857441E-3  -5.922283530235291E-1   7.428394556045532E-1  
 7.513513513513514E8    -3.913940861821175E-2   8.255593776702881E-1  -2.793784439563751E-2   9.265064261853695E-3  -2.807418815791607E-2   9.112747386097908E-3  -5.839036703109741E-1   7.490848302841187E-1  
 7.537537537537538E8    -1.937783509492874E-2   8.187121748924255E-1  -2.855261974036694E-2   1.111058238893747E-2  -2.872790582478046E-2   1.087862066924572E-2  -5.744277238845825E-1   7.555984854698181E-1  
 7.561561561561562E8     6.477010319940746E-4   8.101416826248169E-1  -2.938059531152248E-2   1.308237947523594E-2  -2.941418625414372E-2   1.297694072127342E-2  -5.640447735786438E-1   7.609935402870178E-1  
 7.585585585585586E8     1.820444688200951E-2   8.005548715591431E-1  -3.000124171376228E-2   1.525376923382282E-2  -2.996540442109108E-2   1.521342433989048E-2  -5.514503717422485E-1   7.688198685646057E-1  
 7.609609609609610E8     3.444943949580193E-2   7.901731729507446E-1  -3.051869198679924E-2   1.766595803201199E-2  -3.033311851322651E-2   1.756936311721802E-2  -5.402174592018127E-1   7.758790850639343E-1  
 7.633633633633634E8     4.981264099478722E-2   7.799988389015198E-1  -3.082339093089104E-2   2.021807245910168E-2  -3.065619990229607E-2   1.993315853178501E-2  -5.297754406929016E-1   7.818815112113953E-1  
 7.657657657657658E8     6.565379351377487E-2   7.695842981338501E-1  -3.098327480256558E-2   2.270950563251972E-2  -3.103303909301758E-2   2.244236692786217E-2  -5.207959413528442E-1   7.870970368385315E-1  
 7.681681681681682E8     8.176528662443161E-2   7.582047581672669E-1  -3.123478032648563E-2   2.528453618288040E-2  -3.141210600733757E-2   2.514657005667687E-2  -5.134660005569458E-1   7.914423942565918E-1  
 7.705705705705706E8     9.497451037168503E-2   7.458456754684448E-1  -3.140116482973099E-2   2.825120277702808E-2  -3.168141469359398E-2   2.806652709841728E-2  -5.051735043525696E-1   7.952190041542053E-1  
 7.729729729729730E8     1.083825454115868E-1   7.313266396522522E-1  -3.101247549057007E-2   3.152394294738770E-2  -3.155275061726570E-2   3.157715126872063E-2  -4.960607588291168E-1   8.014148473739624E-1  
 7.753753753753754E8     1.204347535967827E-1   7.149733901023865E-1  -3.020868264138699E-2   3.484127297997475E-2  -3.080083429813385E-2   3.495988249778748E-2  -4.846111536026001E-1   8.084040284156799E-1  
 7.777777777777778E8     1.302104890346527E-1   6.976150870323181E-1  -2.914509736001492E-2   3.827718272805214E-2  -2.954524196684361E-2   3.821825981140137E-2  -4.697075188159943E-1   8.136439323425293E-1  
 7.801801801801802E8     1.374328732490540E-1   6.799063682556152E-1  -2.778253890573978E-2   4.165075719356537E-2  -2.788628824055195E-2   4.140840843319893E-2  -4.536603093147278E-1   8.160452246665955E-1  
 7.825825825825826E8     1.432631462812424E-1   6.637336611747742E-1  -2.585009858012199E-2   4.469722136855125E-2  -2.589506469666958E-2   4.467628896236420E-2  -4.378331303596497E-1   8.211230039596558E-1  
 7.849849849849850E8     1.486952155828476E-1   6.505419015884399E-1  -2.386621013283730E-2   4.767860472202301E-2  -2.399081178009510E-2   4.747690260410309E-2  -4.262737631797791E-1   8.230015039443970E-1  
 7.873873873873874E8     1.545305401086807E-1   6.389939785003662E-1  -2.201023511588574E-2   5.061135068535805E-2  -2.212607488036156E-2   5.015920475125313E-2  -4.165995121002197E-1   8.254070281982422E-1  
 7.897897897897898E8     1.636848896741867E-1   6.264137029647827E-1  -2.009465359151363E-2   5.379784107208252E-2  -2.016055211424828E-2   5.349617823958397E-2  -4.068955481052399E-1   8.300415873527527E-1  
 7.921921921921922E8     1.727672219276428E-1   6.112366914749146E-1  -1.717787049710751E-2   5.729690939188004E-2  -1.753652095794678E-2   5.723032727837563E-2  -3.977232277393341E-1   8.363807797431946E-1  
 7.945945945945946E8     1.779857873916626E-1   5.973001122474670E-1  -1.368237659335136E-2   6.030923128128052E-2  -1.422471180558205E-2   6.020080670714378E-2  -3.857867121696472E-1   8.399083018302918E-1  
 7.969969969969970E8     1.817178726196289E-1   5.818802714347839E-1  -1.005079597234726E-2   6.282198429107666E-2  -1.059333328157663E-2   6.271867454051971E-2  -3.736131489276886E-1   8.436993360519409E-1  
 7.993993993993994E8     1.838346570730209E-1   5.655042529106140E-1  -6.331773940473795E-3   6.496664136648178E-2  -6.744842510670424E-3   6.496748328208923E-2  -3.606582880020142E-1   8.477700948715210E-1  
 8.018018018018018E8     1.838718652725220E-1   5.490623712539673E-1  -2.717979485169053E-3   6.682543456554413E-2  -2.868948038667440E-3   6.693486869335175E-2  -3.470307290554047E-1   8.513938784599304E-1  
 8.042042042042042E8     1.827352643013001E-1   5.341612696647644E-1   1.121153705753386E-3   6.895045191049576E-2   9.616395109333098E-4   6.911350041627884E-2  -3.346275389194489E-1   8.541085124015808E-1  
 8.066066066066066E8     1.805263608694077E-1   5.212063193321228E-1   5.522312596440315E-3   7.094841450452805E-2   5.445641931146383E-3   7.104135304689407E-2  -3.202467560768127E-1   8.576584458351135E-1  
 8.090090090090090E8     1.774136275053024E-1   5.095818042755127E-1   1.055691204965115E-2   7.241858541965485E-2   1.048773713409901E-2   7.271669805049896E-2  -3.069961071014404E-1   8.602733612060547E-1  
 8.114114114114114E8     1.735168844461441E-1   5.004070401191711E-1   1.595952548086643E-2   7.334086298942566E-2   1.589978300035000E-2   7.352533191442490E-2  -2.937550842761993E-1   8.623366355895996E-1  
 8.138138138138138E8     1.721879839897156E-1   4.938345253467560E-1   2.146437764167786E-2   7.306467741727829E-2   2.129400335252285E-2   7.329745590686798E-2  -2.813144624233246E-1   8.646897077560425E-1  
 8.162162162162162E8     1.742955446243286E-1   4.859453141689301E-1   2.603700384497643E-2   7.228616625070572E-2   2.598244883120060E-2   7.250332832336426E-2  -2.684628069400787E-1   8.674068450927734E-1  
 8.186186186186186E8     1.742220669984818E-1   4.754241108894348E-1   3.015138022601605E-2   7.173688709735870E-2   3.001126088202000E-2   7.183524221181870E-2  -2.545045018196106E-1   8.704281449317932E-1  
 8.210210210210210E8     1.727977991104126E-1   4.659816920757294E-1   3.453684970736504E-2   7.092515379190445E-2   3.444772213697434E-2   7.100742310285568E-2  -2.396572530269623E-1   8.731136322021484E-1  
 8.234234234234234E8     1.741003245115280E-1   4.562226831912994E-1   3.831664845347405E-2   6.963647156953812E-2   3.818619996309280E-2   6.984808295965195E-2  -2.246521711349487E-1   8.753700852394104E-1  
