#  HZ   S   RI   R     50.00 
! Rohde & Schwarz ZVB8 2Ports - Version 2.81 - 1145.1010k08 SN: 100113
! Date: 2016-05-17 22:37:07
! Measurements: S11 S21 S12 S22 
! 
 6.000000000000000E8    -8.067825436592102E-1   4.887322187423706E-1  -7.881669444032013E-4  -1.526566687971354E-3  -7.441613124683499E-4  -1.580879557877779E-3  -9.454806447029114E-1   2.374006211757660E-1  
 6.024024024024024E8    -7.989060878753662E-1   4.991848170757294E-1  -6.814498919993639E-4  -1.517166267149150E-3  -7.033427827991545E-4  -1.506776781752706E-3  -9.422300457954407E-1   2.479311525821686E-1  
 6.048048048048048E8    -7.905637025833130E-1   5.104032754898071E-1  -6.710492307320237E-4  -1.544653438031673E-3  -7.352223619818687E-4  -1.543749356642366E-3  -9.389326572418213E-1   2.586102187633514E-1  
 6.072072072072072E8    -7.815331816673279E-1   5.223786234855652E-1  -6.387180765159428E-4  -1.652937033213675E-3  -6.465821643359959E-4  -1.595051260665059E-3  -9.356380701065064E-1   2.685318589210510E-1  
 6.096096096096096E8    -7.717711329460144E-1   5.344277620315552E-1  -6.795053486712277E-4  -1.708420692011714E-3  -5.498868413269520E-4  -1.727612805552781E-3  -9.322895407676697E-1   2.789986133575440E-1  
 6.120120120120120E8    -7.639768123626709E-1   5.438094735145569E-1  -5.822940147481859E-4  -1.764679909683764E-3  -5.237605073489249E-4  -1.738257240504026E-3  -9.294379949569702E-1   2.867302000522614E-1  
 6.144144144144144E8    -7.556510567665100E-1   5.539261102676392E-1  -4.451197164598852E-4  -1.754590426571667E-3  -5.007190629839897E-4  -1.834724214859307E-3  -9.266356229782105E-1   2.962426245212555E-1  
 6.168168168168168E8    -7.465590834617615E-1   5.644443631172180E-1  -4.138598742429167E-4  -1.980612985789776E-3  -4.127635911572725E-4  -2.020534593611956E-3  -9.232332110404968E-1   3.059144318103790E-1  
 6.192192192192192E8    -7.370496392250061E-1   5.747698545455933E-1  -2.780393115244806E-4  -2.153189620003104E-3  -3.226001863367856E-4  -2.132400404661894E-3  -9.198028445243835E-1   3.152299821376801E-1  
 6.216216216216216E8    -7.270377278327942E-1   5.847677588462830E-1  -2.134261303581297E-4  -2.460995921865106E-3  -2.550170756876469E-4  -2.467090263962746E-3  -9.162281751632690E-1   3.247907757759094E-1  
 6.240240240240240E8    -7.171047925949097E-1   5.943326354026794E-1  -1.193650678033009E-4  -2.849207026883960E-3  -9.388636681251228E-5  -2.882373053580523E-3  -9.123159050941467E-1   3.344287574291229E-1  
 6.264264264264264E8    -7.074333429336548E-1   6.036954522132874E-1  -1.859127514762804E-4  -3.405375406146050E-3  -1.371686666971073E-4  -3.298871451988816E-3  -9.081689715385437E-1   3.460212349891663E-1  
 6.288288288288288E8    -6.981965899467468E-1   6.127310991287231E-1  -3.608320257626474E-4  -3.874277696013451E-3  -3.104750940110534E-4  -3.809973364695907E-3  -9.037054181098938E-1   3.560047745704651E-1  
 6.312312312312312E8    -6.897272467613220E-1   6.213494539260864E-1  -6.382673745974898E-4  -4.482836928218603E-3  -7.096198969520629E-4  -4.459229763597250E-3  -8.996812105178833E-1   3.652598857879639E-1  
 6.336336336336336E8    -6.814212799072266E-1   6.299062371253967E-1  -1.171905547380447E-3  -4.949628841131926E-3  -1.133146113716066E-3  -4.940866492688656E-3  -8.958252668380737E-1   3.733991682529450E-1  
 6.360360360360360E8    -6.727139353752136E-1   6.394213438034058E-1  -1.794120413251221E-3  -5.372002255171537E-3  -1.720200059935451E-3  -5.249310284852982E-3  -8.919613361358643E-1   3.811997473239899E-1  
 6.384384384384384E8    -6.633477807044983E-1   6.488182544708252E-1  -2.421723445877433E-3  -5.465483292937279E-3  -2.414559479802847E-3  -5.469393450766802E-3  -8.884728550910950E-1   3.902697563171387E-1  
 6.408408408408408E8    -6.535942554473877E-1   6.586089134216309E-1  -3.097991691902280E-3  -5.508562549948692E-3  -3.060555551201105E-3  -5.583940073847771E-3  -8.843791484832764E-1   3.992937505245209E-1  
 6.432432432432432E8    -6.432287096977234E-1   6.680747866630554E-1  -3.739037085324526E-3  -5.563769489526749E-3  -3.703680122271180E-3  -5.537976976484060E-3  -8.799950480461121E-1   4.078546464443207E-1  
 6.456456456456456E8    -6.323948502540588E-1   6.771298050880432E-1  -4.281167872250080E-3  -5.422592163085938E-3  -4.262911621481180E-3  -5.431881174445152E-3  -8.753593564033508E-1   4.164088964462280E-1  
 6.480480480480480E8    -6.210383772850037E-1   6.860331892967224E-1  -4.820199683308601E-3  -5.282163619995117E-3  -4.803286399692297E-3  -5.326459184288979E-3  -8.706461787223816E-1   4.247286915779114E-1  
 6.504504504504504E8    -6.088025569915772E-1   6.960374116897583E-1  -5.256398115307093E-3  -5.068758036941290E-3  -5.253303796052933E-3  -5.119824782013893E-3  -8.619814515113831E-1   4.340117573738098E-1  
 6.528528528528528E8    -5.962830185890198E-1   7.053700685501099E-1  -5.660158116370440E-3  -4.935050848871470E-3  -5.626509431749582E-3  -4.922957625240088E-3  -8.545618057250977E-1   4.451769292354584E-1  
 6.552552552552552E8    -5.836081504821777E-1   7.141653895378113E-1  -6.052603479474783E-3  -4.792248830199242E-3  -6.060548126697540E-3  -4.760253708809614E-3  -8.499704003334045E-1   4.563913643360138E-1  
 6.576576576576576E8    -5.705699920654297E-1   7.221060395240784E-1  -6.474056746810675E-3  -4.670361988246441E-3  -6.413436029106379E-3  -4.657493438571692E-3  -8.476437330245972E-1   4.652159512042999E-1  
 6.600600600600600E8    -5.555070042610169E-1   7.303321957588196E-1  -6.907655857503414E-3  -4.475302528589964E-3  -6.903824396431446E-3  -4.517370834946632E-3  -8.445177674293518E-1   4.706690311431885E-1  
 6.624624624624624E8    -5.419071316719055E-1   7.384989857673645E-1  -7.327341008931398E-3  -4.285930655896664E-3  -7.326560560613871E-3  -4.354733042418957E-3  -8.386355638504028E-1   4.800596833229065E-1  
 6.648648648648648E8    -5.281020998954773E-1   7.462731599807739E-1  -7.728069089353085E-3  -4.050034563988447E-3  -7.680149748921394E-3  -4.087591078132391E-3  -8.331293463706970E-1   4.889568090438843E-1  
 6.672672672672672E8    -5.140117406845093E-1   7.534149289131165E-1  -8.121496997773647E-3  -3.891092026606202E-3  -8.062198758125305E-3  -3.922272007912397E-3  -8.274630308151245E-1   4.974652826786041E-1  
 6.696696696696696E8    -4.995983541011810E-1   7.603741884231567E-1  -8.455391041934490E-3  -3.685476258397102E-3  -8.404715918004513E-3  -3.645989811047912E-3  -8.218486905097961E-1   5.055466890335083E-1  
 6.720720720720720E8    -4.841839671134949E-1   7.671242356300354E-1  -8.765930309891701E-3  -3.443481866270304E-3  -8.802196942269802E-3  -3.483374603092670E-3  -8.165627121925354E-1   5.139760375022888E-1  
 6.744744744744744E8    -4.680929183959961E-1   7.737500667572022E-1  -9.241257794201374E-3  -3.271197434514761E-3  -9.218280203640461E-3  -3.297545015811920E-3  -8.096938729286194E-1   5.231827497482300E-1  
 6.768768768768768E8    -4.517531991004944E-1   7.794821858406067E-1  -9.617772884666920E-3  -2.970176748931408E-3  -9.645678102970123E-3  -2.994269365444779E-3  -8.033657073974609E-1   5.319467186927795E-1  
 6.792792792792792E8    -4.351136684417725E-1   7.848416566848755E-1  -1.003164891153574E-2  -2.738302806392312E-3  -9.959974326193333E-3  -2.726515987887979E-3  -7.966352105140686E-1   5.407124757766724E-1  
 6.816816816816816E8    -4.178731143474579E-1   7.897171378135681E-1  -1.035294588655233E-2  -2.448993036523461E-3  -1.030974835157394E-2  -2.490421058610082E-3  -7.899318337440491E-1   5.494937300682068E-1  
 6.840840840840840E8    -4.001708030700684E-1   7.937967777252197E-1  -1.077769510447979E-2  -2.222726354375482E-3  -1.069633290171623E-2  -2.260972512885928E-3  -7.830044031143189E-1   5.585000514984131E-1  
 6.864864864864864E8    -3.822142779827118E-1   7.982385158538818E-1  -1.113270781934261E-2  -1.907914527691901E-3  -1.105403620749712E-2  -2.002510474994779E-3  -7.753790020942688E-1   5.669639706611633E-1  
 6.888888888888888E8    -3.639715611934662E-1   8.020247220993042E-1  -1.144451927393675E-2  -1.647801953367889E-3  -1.148630212992430E-2  -1.722602290101349E-3  -7.678639292716980E-1   5.759875774383545E-1  
 6.912912912912912E8    -3.457512557506561E-1   8.051747083663940E-1  -1.198724657297134E-2  -1.302385819144547E-3  -1.182756386697292E-2  -1.449397997930646E-3  -7.603845596313477E-1   5.849257111549377E-1  
 6.936936936936936E8    -3.274753391742706E-1   8.079019784927368E-1  -1.230086572468281E-2  -9.389495826326311E-4  -1.239297352731228E-2  -1.084218383766711E-3  -7.527803778648377E-1   5.939583778381348E-1  
 6.960960960960960E8    -3.086281418800354E-1   8.103297352790833E-1  -1.266661286354065E-2  -6.752680055797100E-4  -1.267636008560658E-2  -7.402699557133019E-4  -7.453023791313171E-1   6.030824184417725E-1  
 6.984984984984984E8    -2.900796234607697E-1   8.114551901817322E-1  -1.303951349109411E-2  -4.336743731983006E-4  -1.303967460989952E-2  -2.526581520214677E-4  -7.349417805671692E-1   6.148452162742615E-1  
 7.009009009009008E8    -2.712525129318237E-1   8.116474747657776E-1  -1.336440909653902E-2  -1.363235787721351E-4  -1.336934324353933E-2   9.692430467111990E-5  -7.249729633331299E-1   6.252432465553284E-1  
 7.033033033033032E8    -2.515422999858856E-1   8.107554912567139E-1  -1.363372709602118E-2   1.734091347316280E-4  -1.358018629252911E-2   3.712541074492037E-4  -7.167559862136841E-1   6.332482099533081E-1  
 7.057057057057056E8    -2.321225404739380E-1   8.077042102813721E-1  -1.389918103814125E-2   3.696866333484650E-4  -1.392549276351929E-2   4.687293840106577E-4  -7.109625935554504E-1   6.380215287208557E-1  
 7.081081081081080E8    -2.105801552534103E-1   8.043019175529480E-1  -1.429707370698452E-2   5.490346229635179E-4  -1.428428571671248E-2   3.437778796069324E-4  -7.046313881874085E-1   6.437199711799622E-1  
 7.105105105105104E8    -1.900188475847244E-1   8.002949357032776E-1  -1.467519905418158E-2   6.445489125326276E-4  -1.465480774641037E-2   3.337418893352151E-4  -6.974520087242127E-1   6.505123972892761E-1  
 7.129129129129129E8    -1.711675822734833E-1   7.949926257133484E-1  -1.506566628813744E-2   5.519581027328968E-4  -1.506763137876988E-2   2.203793555963785E-4  -6.889522671699524E-1   6.583420634269714E-1  
 7.153153153153153E8    -1.540747731924057E-1   7.879385352134705E-1  -1.564011722803116E-2   2.027345472015441E-4  -1.563782244920731E-2  -7.681008719373494E-5  -6.786710619926453E-1   6.672407984733582E-1  
 7.177177177177178E8    -1.376165896654129E-1   7.805564999580383E-1  -1.640690304338932E-2  -4.452293505892158E-4  -1.640970632433891E-2  -5.662376061081886E-4  -6.673479676246643E-1   6.763383150100708E-1  
 7.201201201201202E8    -1.212737485766411E-1   7.728968858718872E-1  -1.764545217156410E-2  -1.238047145307064E-3  -1.763145439326763E-2  -1.280570635572076E-3  -6.562383770942688E-1   6.850304603576660E-1  
 7.225225225225226E8    -1.071993336081505E-1   7.665657997131348E-1  -1.963897608220577E-2  -2.120407763868570E-3  -1.964515447616577E-2  -2.185676712542772E-3  -6.442340612411499E-1   6.941182613372803E-1  
 7.249249249249250E8    -9.264536201953888E-2   7.607540488243103E-1  -2.261340245604515E-2  -2.596276346594095E-3  -2.249585464596748E-2  -2.800018992275000E-3  -6.339550614356995E-1   7.000234723091126E-1  
 7.273273273273274E8    -7.744801789522171E-2   7.567617297172546E-1  -2.622088789939880E-2  -2.108230721205473E-3  -2.623692527413368E-2  -2.524771494790912E-3  -6.238839030265808E-1   7.057978510856628E-1  
 7.297297297297298E8    -6.080004945397377E-2   7.528403401374817E-1  -3.027437627315521E-2  -5.907047307118774E-4  -3.023433126509190E-2  -1.020524417981505E-3  -6.137423515319824E-1   7.116726040840149E-1  
 7.321321321321322E8    -4.289055243134499E-2   7.469355463981628E-1  -3.406178951263428E-2   1.866796053946018E-3  -3.406246006488800E-2   1.851483015343547E-3  -6.036137938499451E-1   7.177836298942566E-1  
 7.345345345345346E8    -2.296966500580311E-2   7.390801906585693E-1  -3.731778264045715E-2   5.377637222409248E-3  -3.717050701379776E-2   5.576962139457464E-3  -5.935726761817932E-1   7.246752381324768E-1  
 7.369369369369370E8    -2.437091665342450E-3   7.287935614585877E-1  -3.975689411163330E-2   9.453389793634415E-3  -3.957513347268105E-2   9.816872887313366E-3  -5.831907987594605E-1   7.317934632301331E-1  
 7.393393393393394E8     1.903382688760757E-2   7.154179811477661E-1  -4.165337234735489E-2   1.399430632591248E-2  -4.150190204381943E-2   1.438270043581724E-2  -5.727322697639465E-1   7.388824224472046E-1  
 7.417417417417418E8     3.922203183174133E-2   6.992558240890503E-1  -4.280980303883553E-2   1.898689009249210E-2  -4.272719100117683E-2   1.915389485657215E-2  -5.626268982887268E-1   7.454152107238770E-1  
 7.441441441441442E8     5.850685387849808E-2   6.806910037994385E-1  -4.322456195950508E-2   2.388706803321838E-2  -4.327416792511940E-2   2.379662171006203E-2  -5.528238415718079E-1   7.512071728706360E-1  
 7.465465465465466E8     7.329709082841873E-2   6.610755324363709E-1  -4.323129728436470E-2   2.858292125165463E-2  -4.339917004108429E-2   2.849036268889904E-2  -5.405223369598389E-1   7.584364414215088E-1  
 7.489489489489490E8     8.682001382112503E-2   6.395831108093262E-1  -4.304783791303635E-2   3.331765532493591E-2  -4.331508278846741E-2   3.308106958866119E-2  -5.299934148788452E-1   7.646840810775757E-1  
 7.513513513513514E8     9.952454268932343E-2   6.156867146492004E-1  -4.258245974779129E-2   3.816631808876991E-2  -4.298238456249237E-2   3.796542808413506E-2  -5.191971063613892E-1   7.705672383308411E-1  
 7.537537537537538E8     1.110231801867485E-1   5.897238850593567E-1  -4.169929400086403E-2   4.359520599246025E-2  -4.218751937150955E-2   4.335395246744156E-2  -5.069652795791626E-1   7.766383886337280E-1  
 7.561561561561562E8     1.198324486613274E-1   5.624615550041199E-1  -4.026938602328301E-2   4.911110922694206E-2  -4.045195132493973E-2   4.892162606120110E-2  -4.940828680992127E-1   7.810690999031067E-1  
 7.585585585585586E8     1.248865500092506E-1   5.361293554306030E-1  -3.795452415943146E-2   5.467070639133453E-2  -3.789897263050079E-2   5.429306253790855E-2  -4.791816473007202E-1   7.877758145332336E-1  
 7.609609609609610E8     1.268528103828430E-1   5.098521113395691E-1  -3.497170656919479E-2   5.998233705759049E-2  -3.493388742208481E-2   5.947325751185417E-2  -4.655134081840515E-1   7.938222289085388E-1  
 7.633633633633634E8     1.273102909326553E-1   4.837528467178345E-1  -3.159897774457932E-2   6.498054414987564E-2  -3.164763376116753E-2   6.442783027887344E-2  -4.524543881416321E-1   7.993225455284119E-1  
 7.657657657657658E8     1.255750060081482E-1   4.565198719501495E-1  -2.781057357788086E-2   6.999289989471436E-2  -2.807183936238289E-2   6.953971087932587E-2  -4.409043788909912E-1   8.035594224929810E-1  
 7.681681681681682E8     1.193170845508575E-1   4.282717108726502E-1  -2.339735068380833E-2   7.488400489091873E-2  -2.380586601793766E-2   7.500987499952316E-2  -4.305871427059174E-1   8.071602582931519E-1  
 7.705705705705706E8     1.064966171979904E-1   4.036142230033875E-1  -1.816468872129917E-2   7.952645421028137E-2  -1.859925873577595E-2   7.971951365470886E-2  -4.193216264247894E-1   8.105835914611816E-1  
 7.729729729729730E8     9.198605269193649E-2   3.819382190704346E-1  -1.187714748084545E-2   8.338218182325363E-2  -1.269798353314400E-2   8.405261486768723E-2  -4.073550403118134E-1   8.161042928695679E-1  
 7.753753753753754E8     7.617904990911484E-2   3.625426590442658E-1  -5.295381415635347E-3   8.683128654956818E-2  -5.933068227022886E-3   8.754344284534454E-2  -3.921931087970734E-1   8.220518827438355E-1  
 7.777777777777778E8     5.913795158267021E-2   3.457346856594086E-1   1.826291671022773E-3   8.932570368051529E-2   1.294890302233398E-3   8.987458795309067E-2  -3.742453455924988E-1   8.259913921356201E-1  
 7.801801801801802E8     4.173671826720238E-2   3.316788077354431E-1   9.058563970029354E-3   9.120405465364456E-2   8.487523533403873E-3   9.117484837770462E-2  -3.551855683326721E-1   8.270728588104248E-1  
 7.825825825825826E8     2.400510758161545E-2   3.200059235095978E-1   1.634283736348152E-2   9.218983352184296E-2   1.590573415160179E-2   9.213533997535706E-2  -3.361240923404694E-1   8.303954601287842E-1  
 7.849849849849850E8     5.698319524526596E-3   3.123144805431366E-1   2.342104725539684E-2   9.254385530948639E-2   2.273731119930744E-2   9.244669228792191E-2  -3.212795257568359E-1   8.311926722526550E-1  
 7.873873873873874E8    -1.059026457369328E-2   3.076190352439880E-1   3.014159947633743E-2   9.281934797763825E-2   2.925820462405682E-2   9.252894669771195E-2  -3.077616989612579E-1   8.329383730888367E-1  
 7.897897897897898E8    -2.469555847346783E-2   3.021241426467896E-1   3.697314485907555E-2   9.318248927593231E-2   3.616070002317429E-2   9.294529259204865E-2  -2.937460839748383E-1   8.364573717117310E-1  
 7.921921921921922E8    -3.940438851714134E-2   2.966614365577698E-1   4.454900324344635E-2   9.300222247838974E-2   4.410507529973984E-2   9.332795441150665E-2  -2.787127792835236E-1   8.418051600456238E-1  
 7.945945945945946E8    -5.723198503255844E-2   2.937855422496796E-1   5.261782929301262E-2   9.201263636350632E-2   5.177936330437660E-2   9.240882098674774E-2  -2.616145312786102E-1   8.434429764747620E-1  
 7.969969969969970E8    -7.642293721437454E-2   2.940837740898132E-1   6.064772233366966E-2   9.031623601913452E-2   6.000875309109688E-2   9.085995703935623E-2  -2.435717582702637E-1   8.453099727630615E-1  
 7.993993993993994E8    -9.357500076293945E-2   2.981412410736084E-1   6.876821070909500E-2   8.740684390068054E-2   6.842617690563202E-2   8.787924051284790E-2  -2.246535122394562E-1   8.468683958053589E-1  
 8.018018018018018E8    -1.079956516623497E-1   3.029596209526062E-1   7.613870501518250E-2   8.355256170034409E-2   7.614917308092117E-2   8.383658528327942E-2  -2.047920376062393E-1   8.475681543350220E-1  
 8.042042042042042E8    -1.214722469449043E-1   3.091026544570923E-1   8.322765678167343E-2   7.951093465089798E-2   8.320922404527664E-2   7.985959947109222E-2  -1.867059171199799E-1   8.471241593360901E-1  
 8.066066066066066E8    -1.321236640214920E-1   3.177454471588135E-1   9.039141237735748E-2   7.444289326667786E-2   9.038421511650085E-2   7.495092600584030E-2  -1.656368970870972E-1   8.471345901489258E-1  
 8.090090090090090E8    -1.409483700990677E-1   3.258769512176514E-1   9.686147421598434E-2   6.876159459352493E-2   9.701068699359894E-2   6.921022385358810E-2  -1.449151188135147E-1   8.454103469848633E-1  
 8.114114114114114E8    -1.473989337682724E-1   3.339721560478210E-1   1.029341369867325E-1   6.261951476335526E-2   1.031257063150406E-1   6.300485134124756E-2  -1.247526928782463E-1   8.434345722198486E-1  
 8.138138138138138E8    -1.516124755144119E-1   3.396565318107605E-1   1.082780137658119E-1   5.593437701463699E-2   1.085428819060326E-1   5.623365193605423E-2  -1.039573773741722E-1   8.406841158866882E-1  
 8.162162162162162E8    -1.566772758960724E-1   3.431873321533203E-1   1.127115860581398E-1   4.924938455224037E-2   1.128799989819527E-1   4.945497587323189E-2  -8.274027705192566E-2   8.377090692520142E-1  
 8.186186186186186E8    -1.643771082162857E-1   3.479633033275604E-1   1.168423071503639E-1   4.280684143304825E-2   1.169167608022690E-1   4.294021800160408E-2  -6.012841686606407E-2   8.338662385940552E-1  
 8.210210210210210E8    -1.704682856798172E-1   3.537955880165100E-1   1.209200248122215E-1   3.567564114928246E-2   1.208583638072014E-1   3.609214350581169E-2  -3.704015910625458E-2   8.283991217613220E-1  
 8.234234234234234E8    -1.754922419786453E-1   3.575467467308044E-1   1.242399737238884E-1   2.836039289832115E-2   1.242387145757675E-1   2.887695655226708E-2  -1.304514426738024E-2   8.217304348945618E-1  
