#  HZ   S   RI   R     50.00 
! Rohde & Schwarz ZVB8 2Ports - Version 2.81 - 1145.1010k08 SN: 100113
! Date: 2016-05-17 22:37:58
! Measurements: S11 S21 S12 S22 
! 
 6.000000000000000E8    -7.838503122329712E-1   5.084246993064880E-1  -1.530888839624822E-3  -2.543718321248889E-3  -1.569959335029125E-3  -2.554525621235371E-3  -9.299639463424683E-1   2.717468142509460E-1  
 6.024024024024024E8    -7.744047641754150E-1   5.191870331764221E-1  -1.627425197511911E-3  -2.561669796705246E-3  -1.567224389873445E-3  -2.614139346405864E-3  -9.257114529609680E-1   2.833150029182434E-1  
 6.048048048048048E8    -7.644822001457214E-1   5.306943058967590E-1  -1.579446252435446E-3  -2.600629348307848E-3  -1.555223716422916E-3  -2.592673525214195E-3  -9.211773276329041E-1   2.949524223804474E-1  
 6.072072072072072E8    -7.540853619575501E-1   5.424841046333313E-1  -1.577303744852543E-3  -2.755447290837765E-3  -1.564052188768983E-3  -2.777132904157043E-3  -9.169278144836426E-1   3.059435188770294E-1  
 6.096096096096096E8    -7.423468828201294E-1   5.547643303871155E-1  -1.594179309904575E-3  -2.818916924297810E-3  -1.559755881316960E-3  -2.762961899861693E-3  -9.122455716133118E-1   3.172794282436371E-1  
 6.120120120120120E8    -7.330074310302734E-1   5.638666152954102E-1  -1.560600823722780E-3  -3.042470430955291E-3  -1.463890541344881E-3  -2.991958754137158E-3  -9.081734418869019E-1   3.264523744583130E-1  
 6.144144144144144E8    -7.225296497344971E-1   5.746429562568665E-1  -1.428338466212153E-3  -3.173204371705651E-3  -1.386506366543472E-3  -3.228845074772835E-3  -9.037890434265137E-1   3.374696969985962E-1  
 6.168168168168168E8    -7.112835645675659E-1   5.848158597946167E-1  -1.348776509985328E-3  -3.480081912130117E-3  -1.333865453489125E-3  -3.525795647874475E-3  -8.990026712417603E-1   3.483429551124573E-1  
 6.192192192192192E8    -6.998469829559326E-1   5.948790311813355E-1  -1.281571690924466E-3  -3.848726162686944E-3  -1.302685355767608E-3  -3.924760967493057E-3  -8.938944935798645E-1   3.592908382415772E-1  
 6.216216216216216E8    -6.880405545234680E-1   6.045351624488831E-1  -1.185328466817737E-3  -4.458081442862749E-3  -1.197461038827896E-3  -4.475533496588469E-3  -8.882241249084473E-1   3.702057003974915E-1  
 6.240240240240240E8    -6.759148836135864E-1   6.134889125823975E-1  -1.235056552104652E-3  -5.126587580889463E-3  -1.135039259679616E-3  -5.151337943971157E-3  -8.826021552085877E-1   3.808648288249970E-1  
 6.264264264264264E8    -6.645789146423340E-1   6.223318576812744E-1  -1.384821604005992E-3  -6.011018063873053E-3  -1.350466627627611E-3  -6.071765907108784E-3  -8.763984441757202E-1   3.936691284179688E-1  
 6.288288288288288E8    -6.534831523895264E-1   6.304947733879089E-1  -1.911690575070679E-3  -7.005332037806511E-3  -1.878701499663293E-3  -7.083202246576548E-3  -8.703406453132629E-1   4.047867059707642E-1  
 6.312312312312312E8    -6.433323621749878E-1   6.386682391166687E-1  -2.843052847310901E-3  -7.970722392201424E-3  -2.729937899857760E-3  -7.970238104462624E-3  -8.642266988754273E-1   4.151569604873657E-1  
 6.336336336336336E8    -6.334735155105591E-1   6.475858688354492E-1  -3.841056721284986E-3  -8.732006885111332E-3  -3.789376700296998E-3  -8.735624141991139E-3  -8.581452965736389E-1   4.247056841850281E-1  
 6.360360360360360E8    -6.231037974357605E-1   6.570227742195129E-1  -5.082304589450359E-3  -9.380709379911423E-3  -5.112194921821356E-3  -9.400909766554833E-3  -8.524444103240967E-1   4.336038529872894E-1  
 6.384384384384384E8    -6.114299893379211E-1   6.668187975883484E-1  -6.515890359878540E-3  -9.716635569930077E-3  -6.514276843518019E-3  -9.783905930817127E-3  -8.467157483100891E-1   4.440001845359802E-1  
 6.408408408408408E8    -5.991709232330322E-1   6.768321990966797E-1  -8.030406199395657E-3  -9.765857830643654E-3  -8.015658706426621E-3  -9.782109409570694E-3  -8.402301669120789E-1   4.546539187431335E-1  
 6.432432432432432E8    -5.858494043350220E-1   6.868045330047607E-1  -9.434667415916920E-3  -9.625996463000774E-3  -9.349612519145012E-3  -9.628122672438622E-3  -8.334222435951233E-1   4.646723568439484E-1  
 6.456456456456456E8    -5.718125700950623E-1   6.960710883140564E-1  -1.076574623584747E-2  -9.334454312920570E-3  -1.074386481195688E-2  -9.358808398246765E-3  -8.260611295700073E-1   4.745958745479584E-1  
 6.480480480480480E8    -5.566598176956177E-1   7.048835754394531E-1  -1.199828553944826E-2  -8.833862841129303E-3  -1.199491042643786E-2  -8.870923891663551E-3  -8.187475204467773E-1   4.843234419822693E-1  
 6.504504504504504E8    -5.399543642997742E-1   7.147839069366455E-1  -1.319769676774740E-2  -8.373219519853592E-3  -1.309067476540804E-2  -8.358027786016464E-3  -8.074438571929932E-1   4.953320026397705E-1  
 6.528528528528528E8    -5.228446722030640E-1   7.237024903297424E-1  -1.424902956932783E-2  -7.891859859228134E-3  -1.417815033346415E-2  -7.854427210986614E-3  -7.966012358665466E-1   5.079750418663025E-1  
 6.552552552552552E8    -5.053306818008423E-1   7.314158678054810E-1  -1.534578390419483E-2  -7.364767137914896E-3  -1.523487549275160E-2  -7.449423894286156E-3  -7.886441946029663E-1   5.212610363960266E-1  
 6.576576576576576E8    -4.872903227806091E-1   7.381473183631897E-1  -1.653759554028511E-2  -6.853027269244194E-3  -1.644022949039936E-2  -6.859275046736002E-3  -7.829151749610901E-1   5.315867662429810E-1  
 6.600600600600600E8    -4.669544696807861E-1   7.443073987960815E-1  -1.769907586276531E-2  -6.085461471229792E-3  -1.762218214571476E-2  -6.229033693671227E-3  -7.758937478065491E-1   5.390701889991760E-1  
 6.624624624624624E8    -4.479725360870361E-1   7.506507039070129E-1  -1.883661560714245E-2  -5.390599370002747E-3  -1.877633668482304E-2  -5.480821710079908E-3  -7.659468054771423E-1   5.500366091728210E-1  
 6.648648648648648E8    -4.284565746784210E-1   7.559270262718201E-1  -1.992270536720753E-2  -4.621720872819424E-3  -1.986132934689522E-2  -4.744846373796463E-3  -7.562503814697266E-1   5.606958270072937E-1  
 6.672672672672672E8    -4.080292880535126E-1   7.601289153099060E-1  -2.114273048937321E-2  -3.840280696749687E-3  -2.107384614646435E-2  -3.951212391257286E-3  -7.456845641136169E-1   5.710420012474060E-1  
 6.696696696696696E8    -3.868230581283569E-1   7.631580829620361E-1  -2.239960804581642E-2  -2.851299708709121E-3  -2.233288809657097E-2  -2.923508174717426E-3  -7.351949810981751E-1   5.813571214675903E-1  
 6.720720720720720E8    -3.642802536487579E-1   7.657470107078552E-1  -2.369215525686741E-2  -1.838547643274069E-3  -2.361324429512024E-2  -1.889885170385242E-3  -7.246350049972534E-1   5.917305946350098E-1  
 6.744744744744744E8    -3.419467210769653E-1   7.668008804321289E-1  -2.492058463394642E-2  -6.132205598987639E-4  -2.488077618181706E-2  -6.988268578425050E-4  -7.116724252700806E-1   6.028183102607727E-1  
 6.768768768768768E8    -3.191100656986237E-1   7.672817707061768E-1  -2.610472217202187E-2   7.143592811189592E-4  -2.616162970662117E-2   6.677392520941794E-4  -6.991448402404785E-1   6.131603121757507E-1  
 6.792792792792792E8    -2.957585155963898E-1   7.664508223533630E-1  -2.728426828980446E-2   2.138563897460699E-3  -2.734110318124294E-2   2.142617013305426E-3  -6.857272982597351E-1   6.234428882598877E-1  
 6.816816816816816E8    -2.711025178432465E-1   7.641408443450928E-1  -2.842320501804352E-2   3.606944577768445E-3  -2.858305536210537E-2   3.637743648141623E-3  -6.719759106636047E-1   6.339487433433533E-1  
 6.840840840840840E8    -2.453080564737320E-1   7.596407532691956E-1  -2.972680889070034E-2   5.259362515062094E-3  -2.966188453137875E-2   5.228361580520868E-3  -6.581929326057434E-1   6.442319154739380E-1  
 6.864864864864864E8    -2.195587605237961E-1   7.538556456565857E-1  -3.102535381913185E-2   7.149703800678253E-3  -3.092095628380776E-2   6.858875043690205E-3  -6.429981589317322E-1   6.540191769599915E-1  
 6.888888888888888E8    -1.937751322984695E-1   7.461211085319519E-1  -3.230213001370430E-2   9.220221079885960E-3  -3.224862739443779E-2   8.848492056131363E-3  -6.266085505485535E-1   6.642090082168579E-1  
 6.912912912912912E8    -1.684812754392624E-1   7.365946769714356E-1  -3.365928307175636E-2   1.159060467034578E-2  -3.355157375335693E-2   1.115308050066233E-2  -6.094533205032349E-1   6.744276285171509E-1  
 6.936936936936936E8    -1.445156186819077E-1   7.253580093383789E-1  -3.467665612697601E-2   1.423652935773134E-2  -3.465704247355461E-2   1.391014549881220E-2  -5.919719338417053E-1   6.844230890274048E-1  
 6.960960960960960E8    -1.198823973536491E-1   7.118532061576843E-1  -3.550008684396744E-2   1.684832759201527E-2  -3.546862676739693E-2   1.678634807467461E-2  -5.735017061233521E-1   6.940959095954895E-1  
 6.984984984984984E8    -9.772048890590668E-2   6.961671113967896E-1  -3.619135543704033E-2   1.954498700797558E-2  -3.604429587721825E-2   2.006945386528969E-2  -5.509853363037109E-1   7.050197124481201E-1  
 7.009009009009008E8    -7.600195705890656E-2   6.775147318840027E-1  -3.661492839455605E-2   2.234358154237270E-2  -3.621619194746018E-2   2.319127880036831E-2  -5.282395482063294E-1   7.147727012634277E-1  
 7.033033033033032E8    -5.530700087547302E-2   6.572955846786499E-1  -3.672933205962181E-2   2.511691488325596E-2  -3.627849370241165E-2   2.581020444631577E-2  -5.072097182273865E-1   7.219755053520203E-1  
 7.057057057057056E8    -3.534975275397301E-2   6.331220865249634E-1  -3.702806681394577E-2   2.784053236246109E-2  -3.688783198595047E-2   2.810353413224220E-2  -4.881112873554230E-1   7.264426350593567E-1  
 7.081081081081080E8    -1.716257818043232E-2   6.051678061485291E-1  -3.743267804384232E-2   3.089641593396664E-2  -3.758073225617409E-2   3.058488108217716E-2  -4.663919806480408E-1   7.307902574539185E-1  
 7.105105105105104E8    -3.358955960720778E-3   5.756391286849976E-1  -3.778062388300896E-2   3.410582989454269E-2  -3.828525170683861E-2   3.326202929019928E-2  -4.422305524349213E-1   7.351599335670471E-1  
 7.129129129129129E8     4.273492377251387E-3   5.443537831306458E-1  -3.826099634170532E-2   3.713439404964447E-2  -3.900583088397980E-2   3.628304228186607E-2  -4.156766831874847E-1   7.386190295219421E-1  
 7.153153153153153E8     5.574970040470362E-3   5.141800045967102E-1  -3.906591236591339E-2   4.001517221331596E-2  -3.969201818108559E-2   3.923496603965759E-2  -3.857541680335999E-1   7.407306432723999E-1  
 7.177177177177178E8     3.606091253459454E-3   4.874432682991028E-1  -4.104332998394966E-2   4.251996800303459E-2  -4.136034101247788E-2   4.228891804814339E-2  -3.534516394138336E-1   7.404293417930603E-1  
 7.201201201201202E8     3.099808818660677E-4   4.647085070610046E-1  -4.456269741058350E-2   4.593221843242645E-2  -4.473967105150223E-2   4.589249938726425E-2  -3.205743730068207E-1   7.364215254783630E-1  
 7.225225225225226E8    -4.512576851993799E-3   4.461467266082764E-1  -4.991417378187180E-2   5.159427598118782E-2  -4.986684769392014E-2   5.189853534102440E-2  -2.871064841747284E-1   7.287264466285706E-1  
 7.249249249249250E8    -7.461411878466606E-3   4.286401271820068E-1  -5.534095689654350E-2   6.187280640006065E-2  -5.601529031991959E-2   6.161899119615555E-2  -2.570654749870300E-1   7.156388759613037E-1  
 7.273273273273274E8    -7.351390086114407E-3   4.105406701564789E-1  -5.895763635635376E-2   7.691048830747604E-2  -6.056595966219902E-2   7.582820951938629E-2  -2.308465093374252E-1   7.000064253807068E-1  
 7.297297297297298E8    -6.371128372848034E-3   3.880473673343658E-1  -5.852837860584259E-2   9.577692300081253E-2  -6.020399183034897E-2   9.451572597026825E-2  -2.079832553863525E-1   6.844303607940674E-1  
 7.321321321321322E8    -8.463912643492222E-3   3.615742623806000E-1  -5.255198478698731E-2   1.160519272089005E-1  -5.297470837831497E-2   1.154511570930481E-1  -1.858029216527939E-1   6.689536571502686E-1  
 7.345345345345346E8    -1.498177647590637E-2   3.344041705131531E-1  -3.986702486872673E-2   1.350270360708237E-1  -3.952620178461075E-2   1.348528414964676E-1  -1.643778681755066E-1   6.548253893852234E-1  
 7.369369369369370E8    -2.634155936539173E-2   3.064002394676209E-1  -2.263539843261242E-2   1.510643064975739E-1  -2.163538709282875E-2   1.508846580982208E-1  -1.415240764617920E-1   6.417457461357117E-1  
 7.393393393393394E8    -4.288820549845696E-2   2.787505686283112E-1  -1.482641557231545E-3   1.643031090497971E-1  -9.338338713860139E-5   1.641840338706970E-1  -1.164763793349266E-1   6.276983022689819E-1  
 7.417417417417418E8    -6.530086696147919E-2   2.547894716262817E-1   2.336601912975311E-2   1.730177551507950E-1   2.475658059120178E-2   1.729802936315537E-1  -8.981143683195114E-2   6.105020046234131E-1  
 7.441441441441442E8    -9.094296395778656E-2   2.355769425630570E-1   5.044854432344437E-2   1.766157150268555E-1   5.107535049319267E-2   1.768163591623306E-1  -6.250271201133728E-2   5.895834565162659E-1  
 7.465465465465466E8    -1.214848980307579E-1   2.225142270326614E-1   7.786831259727478E-2   1.748010516166687E-1   7.773286104202271E-2   1.752517968416214E-1  -3.446363657712936E-2   5.673810839653015E-1  
 7.489489489489490E8    -1.524073779582977E-1   2.150207012891769E-1   1.046419590711594E-1   1.678989231586456E-1   1.032009348273277E-1   1.690896749496460E-1  -8.353169076144695E-3   5.412547588348389E-1  
 7.513513513513514E8    -1.806809604167938E-1   2.123824357986450E-1   1.293467581272125E-1   1.569103747606278E-1   1.275663971900940E-1   1.586945056915283E-1   1.716332882642746E-2   5.107660889625549E-1  
 7.537537537537538E8    -2.063409686088562E-1   2.135489135980606E-1   1.529481410980225E-1   1.424243450164795E-1   1.513957232236862E-1   1.448695510625839E-1   4.308277741074562E-2   4.735421240329742E-1  
 7.561561561561562E8    -2.265436649322510E-1   2.170866280794144E-1   1.744595468044281E-1   1.251476407051086E-1   1.734221577644348E-1   1.263735890388489E-1   6.781339645385742E-2   4.309424161911011E-1  
 7.585585585585586E8    -2.438860237598419E-1   2.214017808437347E-1   1.929577291011810E-1   1.043601930141449E-1   1.918785870075226E-1   1.045999228954315E-1   9.064959734678268E-2   3.835411667823792E-1  
 7.609609609609610E8    -2.620788812637329E-1   2.248988449573517E-1   2.086992859840393E-1   8.076842874288559E-2   2.074906527996063E-1   8.012889325618744E-2   1.069799363613129E-1   3.296499550342560E-1  
 7.633633633633634E8    -2.817961275577545E-1   2.278913855552673E-1   2.205274701118469E-1   5.423429235816002E-2   2.191298156976700E-1   5.354507267475128E-2   1.146514266729355E-1   2.708883285522461E-1  
 7.657657657657658E8    -3.040316104888916E-1   2.321902960538864E-1   2.276963293552399E-1   2.541310526430607E-2   2.270780652761459E-1   2.520017512142658E-2   1.134652569890022E-1   2.073805630207062E-1  
 7.681681681681682E8    -3.273743987083435E-1   2.404539436101914E-1   2.300762236118317E-1  -4.082132596522570E-3   2.304139584302902E-1  -3.742549102753401E-3   1.036019623279572E-1   1.436454802751541E-1  
 7.705705705705706E8    -3.494069874286652E-1   2.550174295902252E-1   2.272837758064270E-1  -3.330760076642036E-2   2.280146181583405E-1  -3.202806413173676E-2   8.505609631538391E-2   8.155032247304916E-2  
 7.729729729729730E8    -3.658895790576935E-1   2.720179855823517E-1   2.194810509681702E-1  -6.153933331370354E-2   2.215797156095505E-1  -5.935563519597054E-2   5.786859616637230E-2   2.110161259770393E-2  
 7.753753753753754E8    -3.784673213958740E-1   2.881097495555878E-1   2.082648724317551E-1  -8.741514384746552E-2   2.105231583118439E-1  -8.590472489595413E-2   1.758410409092903E-2  -3.863910585641861E-2  
 7.777777777777778E8    -3.877269923686981E-1   3.021458089351654E-1   1.937009543180466E-1  -1.113466694951057E-1   1.954756677150726E-1  -1.095335856080055E-1  -2.976409345865250E-2  -8.933852612972260E-2  
 7.801801801801802E8    -3.956035971641541E-1   3.140885829925537E-1   1.760034412145615E-1  -1.319165676832199E-1   1.765459775924683E-1  -1.297384202480316E-1  -8.666223287582398E-2  -1.329002231359482E-1  
 7.825825825825826E8    -4.026097655296326E-1   3.266374766826630E-1   1.552148908376694E-1  -1.485666781663895E-1   1.554436236619949E-1  -1.475989222526550E-1  -1.505905985832214E-1  -1.664544790983200E-1  
 7.849849849849850E8    -4.118109345436096E-1   3.408754467964172E-1   1.327360868453980E-1  -1.610099673271179E-1   1.334340125322342E-1  -1.599690765142441E-1  -2.172087430953980E-1  -1.879764795303345E-1  
 7.873873873873874E8    -4.216122031211853E-1   3.549591004848480E-1   1.114788576960564E-1  -1.693199127912521E-1   1.114881187677383E-1  -1.680519878864288E-1  -2.834271192550659E-1  -1.983744949102402E-1  
 7.897897897897898E8    -4.322468638420105E-1   3.710091412067413E-1   9.014073759317398E-2  -1.747318655252457E-1   8.975345641374588E-2  -1.737066209316254E-1  -3.484981954097748E-1  -1.988245248794556E-1  
 7.921921921921922E8    -4.414155483245850E-1   3.916763365268707E-1   6.800857186317444E-2  -1.769918054342270E-1   6.872246414422989E-2  -1.766539365053177E-1  -4.066892862319946E-1  -1.919924020767212E-1  
 7.945945945945946E8    -4.485011100769043E-1   4.136573672294617E-1   4.734086990356445E-2  -1.761994510889053E-1   4.876798763871193E-2  -1.756186932325363E-1  -4.601403176784515E-1  -1.780657619237900E-1  
 7.969969969969970E8    -4.516264498233795E-1   4.351190924644470E-1   2.853753976523876E-2  -1.726993322372437E-1   3.024225123226643E-2  -1.723109930753708E-1  -5.096926689147949E-1  -1.588481068611145E-1  
 7.993993993993994E8    -4.512198269367218E-1   4.562872350215912E-1   1.164099387824535E-2  -1.670684367418289E-1   1.300250738859177E-2  -1.671049296855927E-1  -5.555489063262940E-1  -1.345408856868744E-1  
 8.018018018018018E8    -4.481708109378815E-1   4.745898544788361E-1  -2.914245240390301E-3  -1.599807590246201E-1  -2.376893535256386E-3  -1.601627469062805E-1  -5.957476496696472E-1  -1.067949905991554E-1  
 8.042042042042042E8    -4.443208873271942E-1   4.928610622882843E-1  -1.584216021001339E-2  -1.521517038345337E-1  -1.538828108459711E-2  -1.522092372179031E-1  -6.311255097389221E-1  -7.696087658405304E-2  
 8.066066066066066E8    -4.387787282466888E-1   5.106110572814941E-1  -2.740147151052952E-2  -1.434618830680847E-1  -2.709775976836681E-2  -1.436724662780762E-1  -6.610800027847290E-1  -4.473055899143219E-2  
 8.090090090090090E8    -4.332212209701538E-1   5.274577736854553E-1  -3.686681017279625E-2  -1.344564855098724E-1  -3.659523278474808E-2  -1.345841139554977E-1  -6.862170696258545E-1  -1.286468096077442E-2  
 8.114114114114114E8    -4.271372258663178E-1   5.430037975311279E-1  -4.488502070307732E-2  -1.256285011768341E-1  -4.474518075585365E-2  -1.257209181785584E-1  -7.072519659996033E-1   1.859287731349468E-2  
 8.138138138138138E8    -4.209175705909729E-1   5.567623972892761E-1  -5.190244317054749E-2  -1.161426603794098E-1  -5.192657187581062E-2  -1.162445619702339E-1  -7.247961759567261E-1   4.945859313011169E-2  
 8.162162162162162E8    -4.155305624008179E-1   5.701363086700440E-1  -5.736829712986946E-2  -1.063874959945679E-1  -5.718766897916794E-2  -1.064541041851044E-1  -7.398936152458191E-1   7.845148444175720E-2  
 8.186186186186186E8    -4.101100564002991E-1   5.837993621826172E-1  -6.093584373593330E-2  -9.723021835088730E-2  -6.079966947436333E-2  -9.743212163448334E-2  -7.525895833969116E-1   1.076764985918999E-1  
 8.210210210210210E8    -4.025583565235138E-1   5.953385829925537E-1  -6.399068981409073E-2  -8.859820663928986E-2  -6.393466144800186E-2  -8.890517055988312E-2  -7.623316049575806E-1   1.362950056791306E-1  
 8.234234234234234E8    -3.952468931674957E-1   6.065043807029724E-1  -6.586795300245285E-2  -7.985898107290268E-2  -6.577782332897186E-2  -8.017767965793610E-2  -7.701334953308106E-1   1.652775108814240E-1  
