#  HZ   S   RI   R     50.00 
! Rohde & Schwarz ZVB8 2Ports - Version 2.81 - 1145.1010k08 SN: 100113
! Date: 2016-05-12 03:17:09
! Measurements: S11 S21 S12 S22 
! 
 6.000000000000000E8    -7.863025665283203E-1   4.386366009712219E-1  -1.500855665653944E-3  -3.971343394368887E-3  -1.492900075390935E-3  -3.934834618121386E-3  -9.318712949752808E-1   2.456178963184357E-1  
 6.024024024024024E8    -7.746561765670776E-1   4.509207606315613E-1  -1.487966626882553E-3  -4.202540032565594E-3  -1.472648233175278E-3  -4.136986564844847E-3  -9.274088740348816E-1   2.588261365890503E-1  
 6.048048048048048E8    -7.621088624000549E-1   4.639131128787994E-1  -1.597955590113998E-3  -4.423242062330246E-3  -1.626229379326105E-3  -4.439081065356731E-3  -9.228124618530273E-1   2.716000974178314E-1  
 6.072072072072072E8    -7.488201260566711E-1   4.775295257568359E-1  -1.795390038751066E-3  -4.742559976875782E-3  -1.717217848636210E-3  -4.733772017061710E-3  -9.180499911308289E-1   2.840022146701813E-1  
 6.096096096096096E8    -7.339849472045898E-1   4.910935163497925E-1  -1.729759736917913E-3  -4.969929810613394E-3  -1.804414670914412E-3  -5.011203698813915E-3  -9.126394987106323E-1   2.966578304767609E-1  
 6.120120120120120E8    -7.209886312484741E-1   5.018110275268555E-1  -1.868804800324142E-3  -5.353939253836870E-3  -1.819565775804222E-3  -5.371259525418282E-3  -9.080308079719544E-1   3.069525957107544E-1  
 6.144144144144144E8    -7.070024609565735E-1   5.127067565917969E-1  -1.882380805909634E-3  -5.807695444673300E-3  -1.812586211599410E-3  -5.739172454923391E-3  -9.034079909324646E-1   3.187380433082581E-1  
 6.168168168168168E8    -6.918219327926636E-1   5.230342745780945E-1  -1.827712985686958E-3  -6.313454359769821E-3  -1.819617697037756E-3  -6.305632181465626E-3  -8.983446359634399E-1   3.307439982891083E-1  
 6.192192192192192E8    -6.766946911811829E-1   5.317851901054382E-1  -1.876096706837416E-3  -7.009437307715416E-3  -1.857453957200050E-3  -6.969522219151259E-3  -8.925811052322388E-1   3.433511853218079E-1  
 6.216216216216216E8    -6.614710688591003E-1   5.398402810096741E-1  -1.948662567883730E-3  -7.818971760571003E-3  -1.978914719074965E-3  -7.802397012710571E-3  -8.864467144012451E-1   3.564546108245850E-1  
 6.240240240240240E8    -6.474474072456360E-1   5.472969412803650E-1  -2.128013642504811E-3  -8.967053145170212E-3  -2.205474535003305E-3  -9.020353667438030E-3  -8.793420195579529E-1   3.697773218154907E-1  
 6.264264264264264E8    -6.345665454864502E-1   5.557312965393066E-1  -2.752515021711588E-3  -1.039032172411680E-2  -2.719552023336291E-3  -1.035785954445601E-2  -8.712578415870667E-1   3.844206035137177E-1  
 6.288288288288288E8    -6.211607456207275E-1   5.649347901344299E-1  -3.681076224893332E-3  -1.192675717175007E-2  -3.618321847170591E-3  -1.181931793689728E-2  -8.634760379791260E-1   3.975585401058197E-1  
 6.312312312312312E8    -6.071044206619263E-1   5.741454362869263E-1  -5.053063388913870E-3  -1.331929769366980E-2  -5.087803117930889E-3  -1.337705459445715E-2  -8.557601571083069E-1   4.094567596912384E-1  
 6.336336336336336E8    -5.930689573287964E-1   5.839551091194153E-1  -6.899742409586906E-3  -1.468156836926937E-2  -6.865852512419224E-3  -1.465827599167824E-2  -8.482889533042908E-1   4.201720952987671E-1  
 6.360360360360360E8    -5.774239897727966E-1   5.944332480430603E-1  -9.165943600237370E-3  -1.593407057225704E-2  -9.165422990918160E-3  -1.592302881181240E-2  -8.415744900703430E-1   4.298613071441650E-1  
 6.384384384384384E8    -5.609895586967468E-1   6.050460934638977E-1  -1.191223319619894E-2  -1.663404703140259E-2  -1.189897116273642E-2  -1.667904853820801E-2  -8.339146971702576E-1   4.424923956394196E-1  
 6.408408408408408E8    -5.431661605834961E-1   6.155750751495361E-1  -1.496605295687914E-2  -1.678774878382683E-2  -1.490736939013004E-2  -1.681184768676758E-2  -8.253934383392334E-1   4.548050463199616E-1  
 6.432432432432432E8    -5.236795544624329E-1   6.258700489997864E-1  -1.801008358597755E-2  -1.635388471186161E-2  -1.789291203022003E-2  -1.634817756712437E-2  -8.163706660270691E-1   4.670296311378479E-1  
 6.456456456456456E8    -5.023430585861206E-1   6.355617642402649E-1  -2.069345675408840E-2  -1.544678211212158E-2  -2.069699764251709E-2  -1.546215731650591E-2  -8.068302273750305E-1   4.791864752769470E-1  
 6.480480480480480E8    -4.780927002429962E-1   6.436475515365601E-1  -2.343124896287918E-2  -1.436042971909046E-2  -2.332021296024323E-2  -1.435882877558470E-2  -7.968809604644775E-1   4.912760257720947E-1  
 6.504504504504504E8    -4.532032907009125E-1   6.500474214553833E-1  -2.595801092684269E-2  -1.296234037727118E-2  -2.587539143860340E-2  -1.295733358711004E-2  -7.844914197921753E-1   5.056287050247192E-1  
 6.528528528528528E8    -4.269338846206665E-1   6.546043157577515E-1  -2.847104333341122E-2  -1.132838986814022E-2  -2.842362038791180E-2  -1.131647359579802E-2  -7.734034657478333E-1   5.203638672828674E-1  
 6.552552552552552E8    -4.005700051784515E-1   6.572275757789612E-1  -3.069889917969704E-2  -9.500053711235523E-3  -3.076504170894623E-2  -9.445874020457268E-3  -7.634429335594177E-1   5.333581566810608E-1  
 6.576576576576576E8    -3.729042410850525E-1   6.574760675430298E-1  -3.280352801084518E-2  -7.442835252732039E-3  -3.292235359549522E-2  -7.475890684872866E-3  -7.538561820983887E-1   5.444597005844116E-1  
 6.600600600600600E8    -3.422057628631592E-1   6.557110548019409E-1  -3.511218354105949E-2  -5.371228791773319E-3  -3.518868237733841E-2  -5.372493527829647E-3  -7.423242926597595E-1   5.548161864280701E-1  
 6.624624624624624E8    -3.115772306919098E-1   6.512975096702576E-1  -3.744940087199211E-2  -2.887256676331163E-3  -3.739149123430252E-2  -2.945623593404889E-3  -7.289866805076599E-1   5.680777430534363E-1  
 6.648648648648648E8    -2.807657420635223E-1   6.436626315116882E-1  -3.964868560433388E-2   1.823037309804931E-4  -3.962196409702301E-2  -2.838000727933832E-5  -7.144731283187866E-1   5.808960199356079E-1  
 6.672672672672672E8    -2.511306703090668E-1   6.334051489830017E-1  -4.150502011179924E-2   3.380520269274712E-3  -4.152165353298187E-2   3.270459128543735E-3  -7.001017332077026E-1   5.932335853576660E-1  
 6.696696696696696E8    -2.213844358921051E-1   6.205546259880066E-1  -4.311917349696159E-2   6.670236121863127E-3  -4.311484470963478E-2   6.731321103870869E-3  -6.854253411293030E-1   6.048861742019653E-1  
 6.720720720720720E8    -1.908242702484131E-1   6.038434505462647E-1  -4.476471617817879E-2   1.039002649486065E-2  -4.475701227784157E-2   1.048306003212929E-2  -6.704257726669312E-1   6.163214445114136E-1  
 6.744744744744744E8    -1.617508381605148E-1   5.838956832885742E-1  -4.609169065952301E-2   1.461085490882397E-2  -4.613896831870079E-2   1.463437266647816E-2  -6.536371707916260E-1   6.283842325210571E-1  
 6.768768768768768E8    -1.342191696166992E-1   5.593170523643494E-1  -4.702833667397499E-2   1.933401636779308E-2  -4.697886109352112E-2   1.928626373410225E-2  -6.363219618797302E-1   6.396992802619934E-1  
 6.792792792792792E8    -1.095869913697243E-1   5.303886532783508E-1  -4.731974378228188E-2   2.418657019734383E-2  -4.729137942194939E-2   2.398176118731499E-2  -6.184547543525696E-1   6.506973505020142E-1  
 6.816816816816816E8    -8.781924843788147E-2   4.979695379734039E-1  -4.718903079628944E-2   2.921700663864613E-2  -4.715584218502045E-2   2.893576771020889E-2  -5.994370579719544E-1   6.619124412536621E-1  
 6.840840840840840E8    -7.018432021141052E-2   4.626582860946655E-1  -4.650549218058586E-2   3.443285077810288E-2  -4.646929726004601E-2   3.424214199185371E-2  -5.793859958648682E-1   6.725118756294251E-1  
 6.864864864864864E8    -5.854175612330437E-2   4.285043478012085E-1  -4.514602199196816E-2   3.934429585933685E-2  -4.517303034663200E-2   3.939688578248024E-2  -5.577726960182190E-1   6.821172237396240E-1  
 6.888888888888888E8    -5.087184533476830E-2   3.912091851234436E-1  -4.340529814362526E-2   4.454751312732697E-2  -4.360234737396240E-2   4.442880302667618E-2  -5.354262590408325E-1   6.915475130081177E-1  
 6.912912912912912E8    -4.864373430609703E-2   3.521643877029419E-1  -4.097080230712891E-2   4.992697760462761E-2  -4.131242632865906E-2   4.963365942239761E-2  -5.114334225654602E-1   7.002955079078674E-1  
 6.936936936936936E8    -5.112015828490257E-2   3.132362961769104E-1  -3.777152672410011E-2   5.509814247488976E-2  -3.818717971444130E-2   5.474219843745232E-2  -4.865273535251617E-1   7.087932229042053E-1  
 6.960960960960960E8    -5.902732163667679E-2   2.740136086940765E-1  -3.373166918754578E-2   5.989445745944977E-2  -3.386723622679710E-2   5.971913039684296E-2  -4.610886871814728E-1   7.162334322929382E-1  
 6.984984984984984E8    -7.390627264976502E-2   2.388924658298492E-1  -2.908161096274853E-2   6.364084780216217E-2  -2.838551811873913E-2   6.381072103977203E-2  -4.307607412338257E-1   7.242256999015808E-1  
 7.009009009009008E8    -9.256354719400406E-2   2.093374282121658E-1  -2.428314648568630E-2   6.628423184156418E-2  -2.283280715346336E-2   6.666392087936401E-2  -3.996548354625702E-1   7.302119731903076E-1  
 7.033033033033032E8    -1.153113171458244E-1   1.829555481672287E-1  -1.924563571810722E-2   6.810466200113297E-2  -1.786057278513908E-2   6.837311387062073E-2  -3.688122034072876E-1   7.329365015029907E-1  
 7.057057057057056E8    -1.407038867473602E-1   1.606513112783432E-1  -1.447393279522657E-2   6.889313459396362E-2  -1.387096010148525E-2   6.896083801984787E-2  -3.392567038536072E-1   7.324904799461365E-1  
 7.081081081081080E8    -1.665194779634476E-1   1.427954584360123E-1  -1.067229639738798E-2   6.914771348237991E-2  -1.101782079786062E-2   6.915804743766785E-2  -3.066142201423645E-1   7.306922674179077E-1  
 7.105105105105104E8    -1.933943778276444E-1   1.299042105674744E-1  -7.814884185791016E-3   6.935588270425797E-2  -8.849137462675571E-3   6.942301988601685E-2  -2.710421085357666E-1   7.262247800827026E-1  
 7.129129129129129E8    -2.218312919139862E-1   1.204743087291718E-1  -6.272115744650364E-3   6.957866996526718E-2  -7.307330146431923E-3   6.969141215085983E-2  -2.327175438404083E-1   7.182375192642212E-1  
 7.153153153153153E8    -2.495007514953613E-1   1.162400171160698E-1  -6.784227211028338E-3   7.030916213989258E-2  -7.327546365559101E-3   7.064986974000931E-2  -1.923012882471085E-1   7.053387165069580E-1  
 7.177177177177178E8    -2.748524844646454E-1   1.170439794659615E-1  -8.868386968970299E-3   7.332869619131088E-2  -8.962468244135380E-3   7.344046980142593E-2  -1.517013162374497E-1   6.868296265602112E-1  
 7.201201201201202E8    -2.944405972957611E-1   1.224208101630211E-1  -1.173821371048689E-2   7.994203269481659E-2  -1.170482859015465E-2   7.991489022970200E-2  -1.136537343263626E-1   6.616941690444946E-1  
 7.225225225225226E8    -3.081550598144531E-1   1.287657916545868E-1  -1.324734743684530E-2   9.155607223510742E-2  -1.297898963093758E-2   9.146342426538467E-2  -7.942377030849457E-2   6.303458213806152E-1  
 7.249249249249250E8    -3.205024600028992E-1   1.317365318536758E-1  -9.168395772576332E-3   1.076204329729080E-1  -1.036268472671509E-2   1.072027087211609E-1  -5.492684617638588E-2   5.951721668243408E-1  
 7.273273273273274E8    -3.340464532375336E-1   1.315025687217712E-1   2.458524191752076E-3   1.251136809587479E-1  -3.256286727264524E-4   1.248870790004730E-1  -3.720424696803093E-2   5.592383742332459E-1  
 7.297297297297298E8    -3.494771420955658E-1   1.292424947023392E-1   2.074068412184715E-2   1.401367932558060E-1   1.811342127621174E-2   1.403892040252686E-1  -2.366550639271736E-2   5.273249745368958E-1  
 7.321321321321322E8    -3.668067455291748E-1   1.265145540237427E-1   4.354187473654747E-2   1.502254307270050E-1   4.336042702198029E-2   1.503258943557739E-1  -1.052928157150745E-2   4.993918240070343E-1  
 7.345345345345346E8    -3.878107070922852E-1   1.274087876081467E-1   6.998633593320847E-2   1.531660854816437E-1   7.124081999063492E-2   1.528511941432953E-1   4.656531848013401E-3   4.754196107387543E-1  
 7.369369369369370E8    -4.087112545967102E-1   1.327940672636032E-1   9.751427173614502E-2   1.493092775344849E-1   9.972626715898514E-2   1.480834931135178E-1   2.416014112532139E-2   4.485816359519959E-1  
 7.393393393393394E8    -4.277095496654511E-1   1.435837000608444E-1   1.231716945767403E-1   1.384386122226715E-1   1.249706745147705E-1   1.367691308259964E-1   4.451775550842285E-2   4.185637533664703E-1  
 7.417417417417418E8    -4.406191706657410E-1   1.555850803852081E-1   1.459348052740097E-1   1.241551488637924E-1   1.465556472539902E-1   1.225262731313705E-1   6.415499001741409E-2   3.849273324012756E-1  
 7.441441441441442E8    -4.512484967708588E-1   1.662326902151108E-1   1.670279353857040E-1   1.053790226578713E-1   1.667310595512390E-1   1.052241250872612E-1   8.172553032636643E-2   3.434284627437592E-1  
 7.465465465465466E8    -4.631468355655670E-1   1.748736351728439E-1   1.842612177133560E-1   8.278243243694305E-2   1.839335113763809E-1   8.316565304994583E-2   9.720630943775177E-2   2.986092865467072E-1  
 7.489489489489490E8    -4.760326445102692E-1   1.835310906171799E-1   1.964174509048462E-1   5.722586438059807E-2   1.965109705924988E-1   5.830823630094528E-2   1.075303703546524E-1   2.489649504423142E-1  
 7.513513513513514E8    -4.874740839004517E-1   1.926978379487991E-1   2.034003436565399E-1   3.035460412502289E-2   2.037136554718018E-1   3.131977468729019E-2   1.116623356938362E-1   1.936352550983429E-1  
 7.537537537537538E8    -4.986335039138794E-1   2.018809765577316E-1   2.056782394647598E-1   3.256013384088874E-3   2.062769979238510E-1   4.258208908140659E-3   1.083020493388176E-1   1.348888725042343E-1  
 7.561561561561562E8    -5.101121664047241E-1   2.116972208023071E-1   2.045108824968338E-1  -2.267912216484547E-2   2.045510858297348E-1  -2.276996895670891E-2   9.658220410346985E-2   7.363349944353104E-2  
 7.585585585585586E8    -5.197203159332275E-1   2.242390364408493E-1   1.995977759361267E-1  -4.802137985825539E-2   1.986025571823120E-1  -4.894368350505829E-2   7.766164839267731E-2   1.477882079780102E-2  
 7.609609609609610E8    -5.300639271736145E-1   2.361064255237579E-1   1.904030740261078E-1  -7.267935574054718E-2   1.883917897939682E-1  -7.354938238859177E-2   4.812113195657730E-2  -4.266442358493805E-2  
 7.633633633633634E8    -5.407182574272156E-1   2.489888966083527E-1   1.768073141574860E-1  -9.496203809976578E-2   1.748460829257965E-1  -9.494456648826599E-2   8.236670866608620E-3  -9.589909017086029E-2  
 7.657657657657658E8    -5.524476170539856E-1   2.630468308925629E-1   1.606471389532089E-1  -1.139373406767845E-1   1.600209623575211E-1  -1.132300496101379E-1  -4.000131785869598E-2  -1.423734873533249E-1  
 7.681681681681682E8    -5.634234547615051E-1   2.779178619384766E-1   1.420193910598755E-1  -1.296538263559341E-1   1.426149606704712E-1  -1.293440461158752E-1  -9.571821987628937E-2  -1.817400902509689E-1  
 7.705705705705706E8    -5.747597217559815E-1   2.947835326194763E-1   1.216717362403870E-1  -1.412419229745865E-1   1.223292201757431E-1  -1.413553357124329E-1  -1.547508686780930E-1  -2.108024656772614E-1  
 7.729729729729730E8    -5.838609933853149E-1   3.140855133533478E-1   1.000408455729485E-1  -1.490577608346939E-1   1.013481244444847E-1  -1.497496813535690E-1  -2.166647315025330E-1  -2.310775220394135E-1  
 7.753753753753754E8    -5.896632075309753E-1   3.326550722122192E-1   7.919877767562866E-2  -1.530763506889343E-1   8.000408858060837E-2  -1.539532244205475E-1  -2.792488932609558E-1  -2.418367713689804E-1  
 7.777777777777778E8    -5.937200784683228E-1   3.508601486682892E-1   5.938731506466866E-2  -1.535203605890274E-1   5.952612683176994E-2  -1.540697067975998E-1  -3.395870327949524E-1  -2.431855648756027E-1  
 7.801801801801802E8    -5.965182185173035E-1   3.688206374645233E-1   4.171291738748550E-2  -1.508541852235794E-1   4.073016718029976E-2  -1.503488570451737E-1  -3.966045379638672E-1  -2.369413971900940E-1  
 7.825825825825826E8    -5.973069667816162E-1   3.882625401020050E-1   2.575688995420933E-2  -1.454335004091263E-1   2.475152537226677E-2  -1.450175195932388E-1  -4.508146047592163E-1  -2.239341586828232E-1  
 7.849849849849850E8    -5.985209941864014E-1   4.084661900997162E-1   1.229937467724085E-2  -1.394203454256058E-1   1.175157539546490E-2  -1.387016326189041E-1  -5.001562237739563E-1  -2.058476954698563E-1  
 7.873873873873874E8    -5.978312492370606E-1   4.291629195213318E-1   6.641081999987364E-4  -1.328538954257965E-1   4.814469430129975E-4  -1.319127082824707E-1  -5.439062714576721E-1  -1.841411143541336E-1  
 7.897897897897898E8    -5.945988893508911E-1   4.501121044158936E-1  -9.461844339966774E-3  -1.253554373979569E-1  -9.627908468246460E-3  -1.245313212275505E-1  -5.838669538497925E-1  -1.596240997314453E-1  
 7.921921921921922E8    -5.890862345695496E-1   4.708429574966431E-1  -1.784260757267475E-2  -1.173535734415054E-1  -1.810008846223354E-2  -1.171864420175552E-1  -6.207119226455689E-1  -1.332115978002548E-1  
 7.945945945945946E8    -5.853128433227539E-1   4.905250072479248E-1  -2.464934997260571E-2  -1.095141693949699E-1  -2.451869100332260E-2  -1.093894541263580E-1  -6.512005329132080E-1  -1.046544015407562E-1  
 7.969969969969970E8    -5.804843306541443E-1   5.095347166061401E-1  -2.986441180109978E-2  -1.014890298247337E-1  -2.960273064672947E-2  -1.016454920172691E-1  -6.778057813644409E-1  -7.586966454982758E-2  
 7.993993993993994E8    -5.741852521896362E-1   5.261853933334351E-1  -3.347282111644745E-2  -9.414928406476975E-2  -3.325064107775688E-2  -9.437897056341171E-2  -7.005744576454163E-1  -4.761760309338570E-2  
 8.018018018018018E8    -5.661347508430481E-1   5.422825813293457E-1  -3.602829203009605E-2  -8.750124275684357E-2  -3.608200326561928E-2  -8.777060359716415E-2  -7.218186259269714E-1  -1.740125939249992E-2  
 8.042042042042042E8    -5.567946434020996E-1   5.596963167190552E-1  -3.815466165542603E-2  -8.151737600564957E-2  -3.827410191297531E-2  -8.167601376771927E-2  -7.403647899627686E-1   1.137609314173460E-2  
 8.066066066066066E8    -5.463555455207825E-1   5.756222009658814E-1  -3.950233757495880E-2  -7.629836350679398E-2  -3.950870409607887E-2  -7.635083794593811E-2  -7.567656040191650E-1   4.145013540983200E-2  
 8.090090090090090E8    -5.359139442443848E-1   5.896381735801697E-1  -4.063393920660019E-2  -7.215839624404907E-2  -4.073892161250114E-2  -7.224746048450470E-2  -7.704508900642395E-1   7.198096811771393E-2  
 8.114114114114114E8    -5.257152915000916E-1   6.029998660087585E-1  -4.225616902112961E-2  -6.836910545825958E-2  -4.237477853894234E-2  -6.832003593444824E-2  -7.814655900001526E-1   1.020739153027535E-1  
 8.138138138138138E8    -5.163844823837280E-1   6.155156493186951E-1  -4.407954216003418E-2  -6.451598554849625E-2  -4.419266805052757E-2  -6.438604742288590E-2  -7.897615432739258E-1   1.309763789176941E-1  
 8.162162162162162E8    -5.072154998779297E-1   6.275455951690674E-1  -4.553794488310814E-2  -6.043090671300888E-2  -4.563269764184952E-2  -6.031091138720512E-2  -7.960519194602966E-1   1.585686057806015E-1  
 8.186186186186186E8    -4.987771511077881E-1   6.394314765930176E-1  -4.648393392562866E-2  -5.676886439323425E-2  -4.650278761982918E-2  -5.651627480983734E-2  -8.004165291786194E-1   1.852534562349320E-1  
 8.210210210210210E8    -4.881457090377808E-1   6.522161960601807E-1  -4.739370942115784E-2  -5.309287458658218E-2  -4.755384847521782E-2  -5.321406573057175E-2  -8.031263947486877E-1   2.115296423435211E-1  
 8.234234234234234E8    -4.775259792804718E-1   6.638864278793335E-1  -4.853396117687225E-2  -4.960881918668747E-2  -4.862913489341736E-2  -4.984311014413834E-2  -8.045360445976257E-1   2.378159761428833E-1  
