#  HZ   S   RI   R     50.00 
! Rohde & Schwarz ZVB8 2Ports - Version 2.81 - 1145.1010k08 SN: 100113
! Date: 2016-05-12 03:17:05
! Measurements: S11 S21 S12 S22 
! 
 6.000000000000000E8    -7.863231301307678E-1   4.385138154029846E-1  -1.405352144502103E-3  -3.973782993853092E-3  -1.428786665201187E-3  -3.886894090101123E-3  -9.335426688194275E-1   2.424644082784653E-1  
 6.024024024024024E8    -7.744710445404053E-1   4.509550333023071E-1  -1.462008338421583E-3  -4.172537475824356E-3  -1.466149231418967E-3  -4.112733062356710E-3  -9.293276667594910E-1   2.552322149276733E-1  
 6.048048048048048E8    -7.622101902961731E-1   4.642240703105927E-1  -1.597653375938535E-3  -4.345780238509178E-3  -1.583764445967972E-3  -4.398523829877377E-3  -9.245059490203857E-1   2.678512930870056E-1  
 6.072072072072072E8    -7.488762140274048E-1   4.776442646980286E-1  -1.712877652607858E-3  -4.626640118658543E-3  -1.618030015379190E-3  -4.611118696630001E-3  -9.198761582374573E-1   2.800737321376801E-1  
 6.096096096096096E8    -7.341585159301758E-1   4.913121163845062E-1  -1.765156746841967E-3  -4.940277896821499E-3  -1.743999659083784E-3  -4.840943031013012E-3  -9.148985147476196E-1   2.926902174949646E-1  
 6.120120120120120E8    -7.210756540298462E-1   5.020012259483337E-1  -1.825376413762569E-3  -5.177231505513191E-3  -1.779315178282559E-3  -5.140414927154779E-3  -9.100916385650635E-1   3.032853007316589E-1  
 6.144144144144144E8    -7.074048519134522E-1   5.124849677085877E-1  -1.733768498525024E-3  -5.539870820939541E-3  -1.783584710210562E-3  -5.592110101133585E-3  -9.059254527091980E-1   3.147313892841339E-1  
 6.168168168168168E8    -6.922447681427002E-1   5.228294134140015E-1  -1.777010154910386E-3  -6.073354743421078E-3  -1.751841278746724E-3  -6.029647309333086E-3  -9.010172486305237E-1   3.267032802104950E-1  
 6.192192192192192E8    -6.768304705619812E-1   5.319048166275024E-1  -1.782657345756888E-3  -6.736671086400747E-3  -1.779831945896149E-3  -6.762438453733921E-3  -8.955779671669006E-1   3.390788733959198E-1  
 6.216216216216216E8    -6.618085503578186E-1   5.399519205093384E-1  -1.838689669966698E-3  -7.579765282571316E-3  -1.821705605834723E-3  -7.549175992608070E-3  -8.892549872398377E-1   3.521324098110199E-1  
 6.240240240240240E8    -6.474018096923828E-1   5.474597215652466E-1  -2.142060548067093E-3  -8.765594102442265E-3  -2.071048831567168E-3  -8.726968429982662E-3  -8.825077414512634E-1   3.650373518466950E-1  
 6.264264264264264E8    -6.342561841011047E-1   5.560611486434937E-1  -2.590351039543748E-3  -1.006419211626053E-2  -2.562827430665493E-3  -1.000419817864895E-2  -8.749942183494568E-1   3.798154592514038E-1  
 6.288288288288288E8    -6.210310459136963E-1   5.653572678565979E-1  -3.390569938346744E-3  -1.150539517402649E-2  -3.471451578661799E-3  -1.147439423948526E-2  -8.673104047775269E-1   3.926409780979157E-1  
 6.312312312312312E8    -6.073855757713318E-1   5.747977495193481E-1  -4.790023434907198E-3  -1.293959747999907E-2  -4.738385789096355E-3  -1.290957629680634E-2  -8.598275780677795E-1   4.042538404464722E-1  
 6.336336336336336E8    -5.927661657333374E-1   5.847007036209106E-1  -6.389758083969355E-3  -1.420350931584835E-2  -6.452579982578754E-3  -1.426982972770929E-2  -8.530172705650330E-1   4.147403240203857E-1  
 6.360360360360360E8    -5.774168968200684E-1   5.946785807609558E-1  -8.502908051013947E-3  -1.542274374514818E-2  -8.569487370550633E-3  -1.542025152593851E-2  -8.463286757469177E-1   4.244594573974609E-1  
 6.384384384384384E8    -5.607786178588867E-1   6.049895882606506E-1  -1.112615317106247E-2  -1.632484979927540E-2  -1.113018486648798E-2  -1.631752401590347E-2  -8.389346003532410E-1   4.365712106227875E-1  
 6.408408408408408E8    -5.431081056594849E-1   6.152777671813965E-1  -1.405229605734348E-2  -1.657896861433983E-2  -1.409242674708366E-2  -1.651863008737564E-2  -8.309537172317505E-1   4.490886330604553E-1  
 6.432432432432432E8    -5.234010815620422E-1   6.255730986595154E-1  -1.707294210791588E-2  -1.624274626374245E-2  -1.698040775954723E-2  -1.620082929730415E-2  -8.223453760147095E-1   4.611297845840454E-1  
 6.456456456456456E8    -5.018092393875122E-1   6.350857615470886E-1  -1.980969682335854E-2  -1.540780533105135E-2  -1.978928968310356E-2  -1.542296167463064E-2  -8.134273886680603E-1   4.732228517532349E-1  
 6.480480480480480E8    -4.790562093257904E-1   6.433596014976502E-1  -2.237983606755734E-2  -1.439498364925385E-2  -2.239974588155747E-2  -1.435393933206797E-2  -8.039616346359253E-1   4.849198460578919E-1  
 6.504504504504504E8    -4.544192254543304E-1   6.503553986549377E-1  -2.497156895697117E-2  -1.304318755865097E-2  -2.491131797432900E-2  -1.306155696511269E-2  -7.919617891311646E-1   4.993779063224793E-1  
 6.528528528528528E8    -4.278547465801239E-1   6.550174355506897E-1  -2.740090340375900E-2  -1.153679750859737E-2  -2.727612480521202E-2  -1.150418072938919E-2  -7.812868952751160E-1   5.134451985359192E-1  
 6.552552552552552E8    -4.005160629749298E-1   6.574828624725342E-1  -2.974889986217022E-2  -9.727657772600651E-3  -2.965284138917923E-2  -9.741969406604767E-3  -7.719581723213196E-1   5.268083810806274E-1  
 6.576576576576576E8    -3.716307878494263E-1   6.574651002883911E-1  -3.199456632137299E-2  -7.654214277863503E-3  -3.192172199487686E-2  -7.745789829641581E-3  -7.627967596054077E-1   5.376737117767334E-1  
 6.600600600600600E8    -3.411462306976318E-1   6.557525396347046E-1  -3.405638411641121E-2  -5.500596016645432E-3  -3.408751636743546E-2  -5.586943123489618E-3  -7.520415782928467E-1   5.476984381675720E-1  
 6.624624624624624E8    -3.121103942394257E-1   6.520538926124573E-1  -3.609451279044151E-2  -3.121980698779225E-3  -3.617945685982704E-2  -3.133433172479272E-3  -7.390314340591431E-1   5.608423948287964E-1  
 6.648648648648648E8    -2.813794314861298E-1   6.445631384849548E-1  -3.807153925299645E-2  -3.706463321577758E-4  -3.812206909060478E-2  -5.107956822030246E-4  -7.259064316749573E-1   5.735265612602234E-1  
 6.672672672672672E8    -2.507514655590057E-1   6.341723799705505E-1  -3.997015208005905E-2   2.727469429373741E-3  -3.988058120012283E-2   2.472189022228122E-3  -7.126196026802063E-1   5.856846570968628E-1  
 6.696696696696696E8    -2.198690772056580E-1   6.204141974449158E-1  -4.154731705784798E-2   5.946776363998652E-3  -4.146480560302734E-2   5.663634277880192E-3  -6.989344954490662E-1   5.971231460571289E-1  
 6.720720720720720E8    -1.892982870340347E-1   6.034681797027588E-1  -4.302767664194107E-2   9.314024820923805E-3  -4.298900812864304E-2   9.261218830943108E-3  -6.848683953285217E-1   6.087342500686646E-1  
 6.744744744744744E8    -1.609234958887100E-1   5.846028327941895E-1  -4.433324933052063E-2   1.304946653544903E-2  -4.436802491545677E-2   1.315410528331995E-2  -6.691500544548035E-1   6.207651495933533E-1  
 6.768768768768768E8    -1.334164142608643E-1   5.601862072944641E-1  -4.528253525495529E-2   1.739261858165264E-2  -4.532092437148094E-2   1.746043190360069E-2  -6.529157161712647E-1   6.321837902069092E-1  
 6.792792792792792E8    -1.089626699686050E-1   5.315263867378235E-1  -4.578033834695816E-2   2.189124189317226E-2  -4.572560265660286E-2   2.199405618011951E-2  -6.364144086837769E-1   6.432315111160278E-1  
 6.816816816816816E8    -8.728594332933426E-2   4.993486702442169E-1  -4.572520032525063E-2   2.666922844946384E-2  -4.566808789968491E-2   2.663290128111839E-2  -6.186278462409973E-1   6.548115015029907E-1  
 6.840840840840840E8    -6.906861811876297E-2   4.637134075164795E-1  -4.516557231545448E-2   3.149436041712761E-2  -4.525073245167732E-2   3.136980161070824E-2  -6.001300215721130E-1   6.657317280769348E-1  
 6.864864864864864E8    -5.667792260646820E-2   4.254908263683319E-1  -4.403005540370941E-2   3.650843724608421E-2  -4.420596361160278E-2   3.622858971357346E-2  -5.803099274635315E-1   6.754409670829773E-1  
 6.888888888888888E8    -4.949072375893593E-2   3.882750272750855E-1  -4.256246611475945E-2   4.137133806943893E-2  -4.285416379570961E-2   4.101583734154701E-2  -5.597251057624817E-1   6.852427721023560E-1  
 6.912912912912912E8    -4.763509333133698E-2   3.500806391239166E-1  -4.055340588092804E-2   4.645909368991852E-2  -4.086992517113686E-2   4.610979929566383E-2  -5.382884144783020E-1   6.945499181747437E-1  
 6.936936936936936E8    -5.030338093638420E-2   3.135977089405060E-1  -3.775426000356674E-2   5.121775344014168E-2  -3.786372765898705E-2   5.112947523593903E-2  -5.158684849739075E-1   7.037285566329956E-1  
 6.960960960960960E8    -5.814727768301964E-2   2.755426466464996E-1  -3.435743972659111E-2   5.573755875229836E-2  -3.403458371758461E-2   5.595528706908226E-2  -4.925348758697510E-1   7.122457623481751E-1  
 6.984984984984984E8    -7.365312427282333E-2   2.395617663860321E-1  -2.998641878366470E-2   5.966169759631157E-2  -2.906700782477856E-2   5.996563285589218E-2  -4.638297259807587E-1   7.219241261482239E-1  
 7.009009009009008E8    -9.392403811216354E-2   2.078123390674591E-1  -2.530142478644848E-2   6.244507059454918E-2  -2.411240339279175E-2   6.275510787963867E-2  -4.347774386405945E-1   7.292479872703552E-1  
 7.033033033033032E8    -1.180348545312882E-1   1.800519824028015E-1  -2.020874619483948E-2   6.444652378559113E-2  -1.920994557440281E-2   6.461510062217712E-2  -4.067527055740356E-1   7.338093519210815E-1  
 7.057057057057056E8    -1.426447778940201E-1   1.594225615262985E-1  -1.545458380132914E-2   6.492318958044052E-2  -1.500077266246080E-2   6.512999534606934E-2  -3.802985250949860E-1   7.355642318725586E-1  
 7.081081081081080E8    -1.661904007196426E-1   1.441497504711151E-1  -1.214740425348282E-2   6.479773670434952E-2  -1.210411638021469E-2   6.493409723043442E-2  -3.509598374366760E-1   7.364490032196045E-1  
 7.105105105105104E8    -1.914780735969544E-1   1.316870450973511E-1  -9.834392927587032E-3   6.474579870700836E-2  -1.031750347465277E-2   6.478113681077957E-2  -3.192373812198639E-1   7.356734871864319E-1  
 7.129129129129129E8    -2.198639959096909E-1   1.217290610074997E-1  -8.810401894152165E-3   6.477912515401840E-2  -9.528502821922302E-3   6.490116566419601E-2  -2.840982079505920E-1   7.321171164512634E-1  
 7.153153153153153E8    -2.481401115655899E-1   1.166234612464905E-1  -9.496379643678665E-3   6.533276289701462E-2  -1.008987519890070E-2   6.540326774120331E-2  -2.470834404230118E-1   7.251307368278503E-1  
 7.177177177177178E8    -2.737931907176971E-1   1.166898086667061E-1  -1.190956216305494E-2   6.785923987627029E-2  -1.212701946496964E-2   6.788856536149979E-2  -2.080735862255096E-1   7.132142186164856E-1  
 7.201201201201202E8    -2.941408753395081E-1   1.210500746965408E-1  -1.532483939081430E-2   7.390224188566208E-2  -1.540853641927242E-2   7.381776720285416E-2  -1.706122905015945E-1   6.959296464920044E-1  
 7.225225225225226E8    -3.085220754146576E-1   1.266627758741379E-1  -1.769587583839893E-2   8.459497243165970E-2  -1.764703169465065E-2   8.435754477977753E-2  -1.354340612888336E-1   6.728673577308655E-1  
 7.249249249249250E8    -3.208619654178619E-1   1.297646015882492E-1  -1.558680459856987E-2   9.983131289482117E-2  -1.652610488235951E-2   9.933578222990036E-2  -1.074453145265579E-1   6.445695161819458E-1  
 7.273273273273274E8    -3.341073989868164E-1   1.306473612785339E-1  -6.737568415701389E-3   1.170806810259819E-1  -8.667364716529846E-3   1.165580153465271E-1  -8.572248369455338E-2   6.150863170623779E-1  
 7.297297297297298E8    -3.490680158138275E-1   1.286164373159409E-1   8.458209224045277E-3   1.326152086257935E-1   6.747671868652105E-3   1.327548325061798E-1  -6.815177947282791E-2   5.881494879722595E-1  
 7.321321321321322E8    -3.668881058692932E-1   1.256908625364304E-1   2.884682640433312E-2   1.441475301980972E-1   2.886664122343063E-2   1.443326920270920E-1  -5.175539851188660E-2   5.655220150947571E-1  
 7.345345345345346E8    -3.878631591796875E-1   1.264082491397858E-1   5.347513034939766E-2   1.495139896869659E-1   5.409476533532143E-2   1.493392884731293E-1  -3.440033644437790E-2   5.468443036079407E-1  
 7.369369369369370E8    -4.101453423500061E-1   1.314044594764710E-1   7.935667783021927E-2   1.481890678405762E-1   8.034592866897583E-2   1.475783586502075E-1  -1.305302511900663E-2   5.275018811225891E-1  
 7.393393393393394E8    -4.299702644348145E-1   1.418584436178207E-1   1.036227121949196E-1   1.409947574138641E-1   1.046789586544037E-1   1.399285942316055E-1   1.152220834046602E-2   5.037344098091126E-1  
 7.417417417417418E8    -4.444274306297302E-1   1.544067114591599E-1   1.257509589195252E-1   1.302148103713989E-1   1.263277679681778E-1   1.292035877704620E-1   3.706012666225433E-2   4.744348227977753E-1  
 7.441441441441442E8    -4.545055329799652E-1   1.658081561326981E-1   1.468171328306198E-1   1.160487160086632E-1   1.465951651334763E-1   1.155059486627579E-1   6.134063005447388E-2   4.400565028190613E-1  
 7.465465465465466E8    -4.669582545757294E-1   1.753653734922409E-1   1.648264974355698E-1   9.805280715227127E-2   1.647395640611649E-1   9.807918220758438E-2   8.473305404186249E-2   4.025840163230896E-1  
 7.489489489489490E8    -4.796570837497711E-1   1.849152892827988E-1   1.793979704380035E-1   7.701038569211960E-2   1.795559674501419E-1   7.723069190979004E-2   1.046242266893387E-1   3.595221638679504E-1  
 7.513513513513514E8    -4.908924400806427E-1   1.956603378057480E-1   1.897909492254257E-1   5.376107618212700E-2   1.903260499238968E-1   5.429469421505928E-2   1.203076690435410E-1   3.105573952198029E-1  
 7.537537537537538E8    -5.010108351707459E-1   2.060296386480331E-1   1.966101378202438E-1   2.935832552611828E-2   1.972317695617676E-1   3.000270389020443E-2   1.310761123895645E-1   2.565522491931915E-1  
 7.561561561561562E8    -5.107174515724182E-1   2.162461280822754E-1   2.002445906400681E-1   5.135267041623592E-3   2.003762871026993E-1   4.811327904462814E-3   1.361267417669296E-1   1.980191022157669E-1  
 7.585585585585586E8    -5.197871327400208E-1   2.281279116868973E-1   2.003656327724457E-1  -1.958348788321018E-2   1.995719224214554E-1  -2.040138654410839E-2   1.354290843009949E-1   1.391229331493378E-1  
 7.609609609609610E8    -5.291318893432617E-1   2.395024895668030E-1   1.966141909360886E-1  -4.443841800093651E-2   1.950210034847260E-1  -4.532198607921600E-2   1.248372197151184E-1   7.732338458299637E-2  
 7.633633633633634E8    -5.395324826240540E-1   2.517033815383911E-1   1.886067986488342E-1  -6.834708154201508E-2   1.867981106042862E-1  -6.842491775751114E-2   1.027068793773651E-1   1.546839252114296E-2  
 7.657657657657658E8    -5.506281256675720E-1   2.653337419033051E-1   1.769474297761917E-1  -9.036369621753693E-2   1.762628704309464E-1  -8.973470330238342E-2   6.925318390130997E-2  -4.415475204586983E-2  
 7.681681681681682E8    -5.615594387054443E-1   2.802486419677734E-1   1.620547920465469E-1  -1.099622547626495E-1   1.626572459936142E-1  -1.095286235213280E-1   2.627425827085972E-2  -9.893309324979782E-2  
 7.705705705705706E8    -5.722907185554504E-1   2.968988418579102E-1   1.440399736166000E-1  -1.260729432106018E-1   1.448349058628082E-1  -1.260966509580612E-1  -2.361279167234898E-2  -1.456901580095291E-1  
 7.729729729729730E8    -5.805551409721375E-1   3.154839575290680E-1   1.239330023527145E-1  -1.382402479648590E-1   1.253663301467896E-1  -1.388721168041229E-1  -7.965714484453201E-2  -1.848683059215546E-1  
 7.753753753753754E8    -5.868012309074402E-1   3.338290452957153E-1   1.034640595316887E-1  -1.467312425374985E-1   1.047761961817741E-1  -1.475829929113388E-1  -1.400274187326431E-1  -2.149029225111008E-1  
 7.777777777777778E8    -5.916029214859009E-1   3.516195416450501E-1   8.308577537536621E-2  -1.512485593557358E-1   8.381178975105286E-2  -1.519162207841873E-1  -2.028413265943527E-1  -2.347808778285980E-1  
 7.801801801801802E8    -5.947430729866028E-1   3.690347671508789E-1   6.403361260890961E-2  -1.526162177324295E-1   6.378018856048584E-2  -1.523475199937820E-1  -2.663239240646362E-1  -2.446640580892563E-1  
 7.825825825825826E8    -5.958086848258972E-1   3.875440657138825E-1   4.681515321135521E-2  -1.507929116487503E-1   4.569012299180031E-2  -1.504884660243988E-1  -3.284858465194702E-1  -2.456648349761963E-1  
 7.849849849849850E8    -5.969187021255493E-1   4.073800444602966E-1   3.117316775023937E-2  -1.475750356912613E-1   3.005926683545113E-2  -1.467240601778030E-1  -3.874084949493408E-1  -2.384696900844574E-1  
 7.873873873873874E8    -5.966368913650513E-1   4.282932579517365E-1   1.653199829161167E-2  -1.429359018802643E-1   1.585540175437927E-2  -1.417008638381958E-1  -4.404250681400299E-1  -2.247850298881531E-1  
 7.897897897897898E8    -5.935096144676209E-1   4.490707516670227E-1   3.518966725096107E-3  -1.365559697151184E-1   3.182825632393360E-3  -1.358307749032974E-1  -4.881715178489685E-1  -2.068545520305634E-1  
 7.921921921921922E8    -5.879449248313904E-1   4.699936211109161E-1  -7.697642315179110E-3  -1.290909349918366E-1  -7.821019738912582E-3  -1.292572319507599E-1  -5.327216386795044E-1  -1.855433285236359E-1  
 7.945945945945946E8    -5.840138196945190E-1   4.899984896183014E-1  -1.711692847311497E-2  -1.211466491222382E-1  -1.677337847650051E-2  -1.214123368263245E-1  -5.712066888809204E-1  -1.608864516019821E-1  
 7.969969969969970E8    -5.787335634231567E-1   5.084924697875977E-1  -2.464810013771057E-2  -1.126479431986809E-1  -2.418938837945461E-2  -1.130595281720161E-1  -6.054995059967041E-1  -1.349983662366867E-1  
 7.993993993993994E8    -5.726025104522705E-1   5.252649188041687E-1  -2.984651736915112E-2  -1.041941493749619E-1  -2.963092923164368E-2  -1.048379838466644E-1  -6.361053586006165E-1  -1.084083467721939E-1  
 8.018018018018018E8    -5.648167133331299E-1   5.413522124290466E-1  -3.357947245240212E-2  -9.618753939867020E-2  -3.355253115296364E-2  -9.687937051057816E-2  -6.652777791023254E-1  -8.020366728305817E-2  
 8.042042042042042E8    -5.559461712837219E-1   5.582190752029419E-1  -3.620384633541107E-2  -8.934144675731659E-2  -3.620015829801559E-2  -8.963984251022339E-2  -6.912822723388672E-1  -5.232164636254311E-2  
 8.066066066066066E8    -5.460057854652405E-1   5.732886195182800E-1  -3.749250993132591E-2  -8.349835872650147E-2  -3.764645010232925E-2  -8.352075517177582E-2  -7.150878906250000E-1  -2.211755886673927E-2  
 8.090090090090090E8    -5.363548398017883E-1   5.870908498764038E-1  -3.871070593595505E-2  -7.922392338514328E-2  -3.898175433278084E-2  -7.906851172447205E-2  -7.351219654083252E-1   9.321643039584160E-3  
 8.114114114114114E8    -5.272260308265686E-1   6.006093025207520E-1  -4.060520976781845E-2  -7.540290802717209E-2  -4.084279015660286E-2  -7.524556666612625E-2  -7.516913414001465E-1   4.059162735939026E-2  
 8.138138138138138E8    -5.179667472839356E-1   6.139947175979614E-1  -4.288748651742935E-2  -7.154943048954010E-2  -4.299470037221909E-2  -7.128886133432388E-2  -7.650554776191711E-1   7.122892886400223E-2  
 8.162162162162162E8    -5.090651512145996E-1   6.272521615028381E-1  -4.482696205377579E-2  -6.735312938690186E-2  -4.497949779033661E-2  -6.712061166763306E-2  -7.757791280746460E-1   1.004839316010475E-1  
 8.186186186186186E8    -4.999524652957916E-1   6.405863761901856E-1  -4.631357640028000E-2  -6.320565193891525E-2  -4.632719233632088E-2  -6.308597326278687E-2  -7.843695878982544E-1   1.297147870063782E-1  
 8.210210210210210E8    -4.894308447837830E-1   6.533899903297424E-1  -4.767720401287079E-2  -5.942959710955620E-2  -4.771756380796433E-2  -5.953896045684815E-2  -7.903207540512085E-1   1.574057042598724E-1  
 8.234234234234234E8    -4.781107902526856E-1   6.648387908935547E-1  -4.912257939577103E-2  -5.573797225952148E-2  -4.914724454283714E-2  -5.583064630627632E-2  -7.952066063880920E-1   1.857613921165466E-1  
