#  HZ   S   RI   R     50.00 
! Rohde & Schwarz ZVB8 2Ports - Version 2.81 - 1145.1010k08 SN: 100113
! Date: 2016-05-12 03:15:55
! Measurements: S11 S21 S12 S22 
! 
 6.000000000000000E8    -8.550587296485901E-1   3.800300061702728E-1  -1.818650925997645E-4  -1.706412527710199E-3  -2.590567455627024E-4  -1.725203706882894E-3  -9.565526247024536E-1   1.836028397083283E-1  
 6.024024024024024E8    -8.479126095771790E-1   3.921657800674439E-1  -1.943332317750901E-4  -1.733847428113222E-3  -1.369507081108168E-4  -1.726955641061068E-3  -9.539291262626648E-1   1.944303661584854E-1  
 6.048048048048048E8    -8.404645919799805E-1   4.051291346549988E-1  -1.896374451462179E-4  -1.874753274023533E-3  -1.191331466543488E-4  -1.761313877068460E-3  -9.511838555335999E-1   2.054196149110794E-1  
 6.072072072072072E8    -8.326250910758972E-1   4.187824726104736E-1  -1.614848442841321E-4  -1.875839428976178E-3  -2.302118518855423E-4  -1.882302458398044E-3  -9.483655691146851E-1   2.160917818546295E-1  
 6.096096096096096E8    -8.237701058387756E-1   4.330630600452423E-1  -1.425509690307081E-4  -1.922378549352288E-3  -1.500969374319539E-4  -1.939583453349769E-3  -9.454436898231506E-1   2.268716990947723E-1  
 6.120120120120120E8    -8.165913820266724E-1   4.443539977073669E-1  -8.330810669576749E-5  -2.014443976804614E-3  -1.132426841650158E-4  -2.038961974903941E-3  -9.425473809242249E-1   2.353496551513672E-1  
 6.144144144144144E8    -8.085714578628540E-1   4.557286500930786E-1  -6.901894812472165E-5  -2.131222281605005E-3   4.744324542116374E-5  -2.137984149158001E-3  -9.404239058494568E-1   2.449608445167542E-1  
 6.168168168168168E8    -7.997393608093262E-1   4.673603773117065E-1   1.573066110722721E-4  -2.307127695530653E-3   6.923769251443446E-5  -2.285392954945564E-3  -9.379036426544190E-1   2.548973262310028E-1  
 6.192192192192192E8    -7.908148169517517E-1   4.785030484199524E-1   2.367247943766415E-4  -2.538933884352446E-3   2.061782142845914E-4  -2.486280631273985E-3  -9.351327419281006E-1   2.650273442268372E-1  
 6.216216216216216E8    -7.816467285156250E-1   4.895842671394348E-1   3.691070596687496E-4  -2.827160060405731E-3   3.868519270326942E-4  -2.723413519561291E-3  -9.317554831504822E-1   2.761189341545105E-1  
 6.240240240240240E8    -7.726067900657654E-1   4.999977946281433E-1   5.065451259724796E-4  -3.134180791676045E-3   5.040174582973123E-4  -3.226895583793521E-3  -9.280275702476502E-1   2.869049608707428E-1  
 6.264264264264264E8    -7.639996409416199E-1   5.109388232231140E-1   6.098584854044020E-4  -3.742080880329013E-3   4.987954744137824E-4  -3.625832265242934E-3  -9.237753152847290E-1   2.996395230293274E-1  
 6.288288288288288E8    -7.553903460502625E-1   5.221256017684937E-1   4.501558141782880E-4  -4.231953527778387E-3   4.328183422330767E-4  -4.194818437099457E-3  -9.192735552787781E-1   3.108044862747192E-1  
 6.312312312312312E8    -7.466953992843628E-1   5.332799553871155E-1   2.206460339948535E-4  -4.838603083044291E-3   2.110806672135368E-4  -4.756629001349211E-3  -9.150973558425903E-1   3.207585811614990E-1  
 6.336336336336336E8    -7.383974790573120E-1   5.441752076148987E-1  -9.096233407035470E-5  -5.415082443505526E-3  -7.700172136537731E-5  -5.469936877489090E-3  -9.112862944602966E-1   3.292528986930847E-1  
 6.360360360360360E8    -7.294051051139832E-1   5.552898645401001E-1  -5.643713520839810E-4  -5.952657666057348E-3  -5.642679752781987E-4  -6.012206431478262E-3  -9.078793525695801E-1   3.369751274585724E-1  
 6.384384384384384E8    -7.204047441482544E-1   5.666144490242004E-1  -1.214216696098447E-3  -6.449069362133741E-3  -1.250001834705472E-3  -6.499071139842272E-3  -9.041739702224731E-1   3.471474945545197E-1  
 6.408408408408408E8    -7.111944556236267E-1   5.779592990875244E-1  -1.960132271051407E-3  -6.851007230579853E-3  -2.055040793493390E-3  -6.795695517212153E-3  -9.002637863159180E-1   3.571768999099731E-1  
 6.432432432432432E8    -7.013259530067444E-1   5.895135402679443E-1  -2.835002494975925E-3  -6.964869797229767E-3  -2.831345191225410E-3  -6.939683575183153E-3  -8.957093954086304E-1   3.672315776348114E-1  
 6.456456456456456E8    -6.907133460044861E-1   6.010072827339172E-1  -3.545799758285284E-3  -6.886797025799751E-3  -3.546392079442740E-3  -6.899992935359478E-3  -8.910186886787415E-1   3.767574727535248E-1  
 6.480480480480480E8    -6.796628236770630E-1   6.123328208923340E-1  -4.209699574857950E-3  -6.865102797746658E-3  -4.158111754804850E-3  -6.840249057859182E-3  -8.862978219985962E-1   3.860055208206177E-1  
 6.504504504504504E8    -6.680213809013367E-1   6.234351992607117E-1  -4.812750034034252E-3  -6.690366659313440E-3  -4.774874541908503E-3  -6.693477742373943E-3  -8.793421387672424E-1   3.982054293155670E-1  
 6.528528528528528E8    -6.560406088829041E-1   6.340152025222778E-1  -5.310058128088713E-3  -6.573834456503391E-3  -5.287228617817164E-3  -6.498628295958042E-3  -8.738323450088501E-1   4.103063344955444E-1  
 6.552552552552552E8    -6.439015865325928E-1   6.440864801406860E-1  -5.814067553728819E-3  -6.406176835298538E-3  -5.814378615468741E-3  -6.359003018587828E-3  -8.700439929962158E-1   4.206298887729645E-1  
 6.576576576576576E8    -6.313735842704773E-1   6.536064743995667E-1  -6.299467757344246E-3  -6.238093599677086E-3  -6.345405708998442E-3  -6.216218229383230E-3  -8.666488528251648E-1   4.290497004985809E-1  
 6.600600600600600E8    -6.170631051063538E-1   6.638512015342712E-1  -6.793119944632053E-3  -6.083274260163307E-3  -6.781090050935745E-3  -6.144396495074034E-3  -8.622456192970276E-1   4.368631541728973E-1  
 6.624624624624624E8    -6.031755805015564E-1   6.736444234848023E-1  -7.322754245251417E-3  -5.857798736542463E-3  -7.345568854361773E-3  -5.895349197089672E-3  -8.563891053199768E-1   4.477653503417969E-1  
 6.648648648648648E8    -5.891808271408081E-1   6.830397844314575E-1  -7.803764659911394E-3  -5.643701180815697E-3  -7.764504756778479E-3  -5.632631480693817E-3  -8.503116369247437E-1   4.581194519996643E-1  
 6.672672672672672E8    -5.748971700668335E-1   6.919215917587280E-1  -8.234482258558273E-3  -5.382844246923924E-3  -8.200021460652351E-3  -5.355738569051027E-3  -8.444583415985107E-1   4.680281877517700E-1  
 6.696696696696696E8    -5.595696568489075E-1   7.005662918090820E-1  -8.581747300922871E-3  -5.167186725884676E-3  -8.579416200518608E-3  -5.096544045954943E-3  -8.385164141654968E-1   4.773584902286530E-1  
 6.720720720720720E8    -5.434256196022034E-1   7.089048624038696E-1  -8.939634077250958E-3  -4.935867153108120E-3  -8.941134437918663E-3  -4.945530556142330E-3  -8.328003287315369E-1   4.864796996116638E-1  
 6.744744744744744E8    -5.273103713989258E-1   7.170338034629822E-1  -9.462542831897736E-3  -4.713416099548340E-3  -9.398567490279675E-3  -4.695724230259657E-3  -8.262816071510315E-1   4.963864684104919E-1  
 6.768768768768768E8    -5.109103322029114E-1   7.244917750358582E-1  -9.829520247876644E-3  -4.443324636667967E-3  -9.828815236687660E-3  -4.545476753264666E-3  -8.199078440666199E-1   5.060350298881531E-1  
 6.792792792792792E8    -4.941495358943939E-1   7.312110662460327E-1  -1.022006105631590E-2  -4.194280132651329E-3  -1.013752073049545E-2  -4.205951467156410E-3  -8.136434555053711E-1   5.156008005142212E-1  
 6.816816816816816E8    -4.766592979431152E-1   7.373373508453369E-1  -1.067105028778315E-2  -3.960347734391689E-3  -1.065860223025084E-2  -4.014711827039719E-3  -8.071252107620239E-1   5.250828862190247E-1  
 6.840840840840840E8    -4.585179984569550E-1   7.429466843605042E-1  -1.109303906559944E-2  -3.674972569569945E-3  -1.106882281601429E-2  -3.691399702802301E-3  -8.006547689437866E-1   5.346454381942749E-1  
 6.864864864864864E8    -4.404972195625305E-1   7.476878166198731E-1  -1.146473642438650E-2  -3.320437157526612E-3  -1.141444407403469E-2  -3.307684557512403E-3  -7.932951450347900E-1   5.434991717338562E-1  
 6.888888888888888E8    -4.222511947154999E-1   7.522428035736084E-1  -1.183978747576475E-2  -2.998999785631895E-3  -1.183562446385622E-2  -3.049361286684871E-3  -7.857235670089722E-1   5.530831813812256E-1  
 6.912912912912912E8    -4.042697846889496E-1   7.561151981353760E-1  -1.230123825371265E-2  -2.725436119362712E-3  -1.225379854440689E-2  -2.714810892939568E-3  -7.780865430831909E-1   5.625708699226379E-1  
 6.936936936936936E8    -3.861758410930634E-1   7.591376304626465E-1  -1.272784732282162E-2  -2.274464583024383E-3  -1.264116168022156E-2  -2.370695816352963E-3  -7.710290551185608E-1   5.717800259590149E-1  
 6.960960960960960E8    -3.664383888244629E-1   7.617409229278565E-1  -1.307622902095318E-2  -1.935417181812227E-3  -1.306491531431675E-2  -1.834749360568821E-3  -7.635508179664612E-1   5.810945630073547E-1  
 6.984984984984984E8    -3.482368886470795E-1   7.630308866500855E-1  -1.337167620658875E-2  -1.398103195242584E-3  -1.339455880224705E-2  -1.242012716829777E-3  -7.536309361457825E-1   5.936608314514160E-1  
 7.009009009009008E8    -3.295944929122925E-1   7.632924914360046E-1  -1.350666675716639E-2  -9.281543898396194E-4  -1.354615576565266E-2  -6.680499063804746E-4  -7.437738180160523E-1   6.049423217773438E-1  
 7.033033033033032E8    -3.108978569507599E-1   7.622993588447571E-1  -1.348317973315716E-2  -4.815352731384337E-4  -1.359908282756805E-2  -2.103932783938944E-4  -7.359941005706787E-1   6.130025982856751E-1  
 7.057057057057056E8    -2.923254966735840E-1   7.606005072593689E-1  -1.329781487584114E-2  -1.060261929524131E-4  -1.333014108240604E-2   2.056735320365988E-5  -7.304263114929199E-1   6.182303428649902E-1  
 7.081081081081080E8    -2.723278105258942E-1   7.590027451515198E-1  -1.312632765620947E-2  -7.532270683441311E-5  -1.306374464184046E-2  -1.303127501159906E-4  -7.243275046348572E-1   6.242701411247253E-1  
 7.105105105105104E8    -2.531700730323792E-1   7.565957903862000E-1  -1.288175303488970E-2  -2.746675163507462E-4  -1.290608104318380E-2  -5.040317773818970E-4  -7.175704836845398E-1   6.313206553459168E-1  
 7.129129129129129E8    -2.358770519495010E-1   7.525506019592285E-1  -1.282190438359976E-2  -9.528816444799304E-4  -1.281391736119986E-2  -1.116679748520255E-3  -7.092134356498718E-1   6.393564939498901E-1  
 7.153153153153153E8    -2.200471758842468E-1   7.470412254333496E-1  -1.302086189389229E-2  -1.987202093005180E-3  -1.302937977015972E-2  -2.087806118652225E-3  -6.996474862098694E-1   6.484435200691223E-1  
 7.177177177177178E8    -2.050314992666245E-1   7.411285638809204E-1  -1.367542427033186E-2  -3.472445532679558E-3  -1.374447438865900E-2  -3.388496348634362E-3  -6.890262365341187E-1   6.579472422599793E-1  
 7.201201201201202E8    -1.903321892023087E-1   7.359945774078369E-1  -1.506837829947472E-2  -4.891397431492806E-3  -1.507768034934998E-2  -4.906350746750832E-3  -6.789979934692383E-1   6.668286323547363E-1  
 7.225225225225226E8    -1.771257072687149E-1   7.324669361114502E-1  -1.738162711262703E-2  -6.331393495202065E-3  -1.739783585071564E-2  -6.338257342576981E-3  -6.680055856704712E-1   6.760540008544922E-1  
 7.249249249249250E8    -1.629469841718674E-1   7.305762171745300E-1  -2.059818990528584E-2  -7.213333621621132E-3  -2.044175378978252E-2  -7.401446346193552E-3  -6.589318513870239E-1   6.821611523628235E-1  
 7.273273273273274E8    -1.482247114181519E-1   7.297000288963318E-1  -2.437282353639603E-2  -7.020123768597841E-3  -2.423214167356491E-2  -7.571083959192038E-3  -6.500503420829773E-1   6.881157159805298E-1  
 7.297297297297298E8    -1.325099915266037E-1   7.292065024375916E-1  -2.841222099959850E-2  -6.028982345014811E-3  -2.830727770924568E-2  -6.470500025898218E-3  -6.410637497901917E-1   6.944795250892639E-1  
 7.321321321321322E8    -1.152635067701340E-1   7.274527549743652E-1  -3.230780735611916E-2  -4.257725086063147E-3  -3.224591538310051E-2  -4.150435794144869E-3  -6.319984793663025E-1   7.014338970184326E-1  
 7.345345345345346E8    -9.540445357561112E-2   7.238589525222778E-1  -3.585461899638176E-2  -1.484136562794447E-3  -3.575803712010384E-2  -1.241082325577736E-3  -6.223664879798889E-1   7.086770534515381E-1  
 7.369369369369370E8    -7.429257780313492E-2   7.172052860260010E-1  -3.887845948338509E-2   2.192421350628138E-3  -3.877095133066177E-2   2.628275658935309E-3  -6.123104095458984E-1   7.163978815078735E-1  
 7.393393393393394E8    -5.378231778740883E-2   7.074769139289856E-1  -4.103561490774155E-2   6.356157828122377E-3  -4.089086502790451E-2   6.847289856523275E-3  -6.024627089500427E-1   7.235775589942932E-1  
 7.417417417417418E8    -3.504924103617668E-2   6.961544752120972E-1  -4.244867712259293E-2   1.078830566257238E-2  -4.245620593428612E-2   1.113984547555447E-2  -5.927212238311768E-1   7.304022312164307E-1  
 7.441441441441442E8    -1.676378957927227E-2   6.843340992927551E-1  -4.333823919296265E-2   1.543158479034901E-2  -4.350045695900917E-2   1.539612188935280E-2  -5.836169123649597E-1   7.364678978919983E-1  
 7.465465465465466E8    -1.328130951151252E-3   6.725770831108093E-1  -4.370367154479027E-2   1.988785713911057E-2  -4.381388798356056E-2   1.983276754617691E-2  -5.720946788787842E-1   7.438833713531494E-1  
 7.489489489489490E8     1.352260727435350E-2   6.585639715194702E-1  -4.360413923859596E-2   2.438629604876041E-2  -4.371662810444832E-2   2.432369440793991E-2  -5.625050067901611E-1   7.504892349243164E-1  
 7.513513513513514E8     2.750556729733944E-2   6.443348526954651E-1  -4.282273352146149E-2   2.865019254386425E-2  -4.293178021907806E-2   2.856984362006187E-2  -5.526364445686340E-1   7.568150758743286E-1  
 7.537537537537538E8     4.324438795447350E-2   6.303531527519226E-1  -4.168792441487312E-2   3.248612210154533E-2  -4.192001745104790E-2   3.241461887955666E-2  -5.414797067642212E-1   7.632505297660828E-1  
 7.561561561561562E8     5.995447933673859E-2   6.142503023147583E-1  -4.103555530309677E-2   3.633249923586845E-2  -4.101208597421646E-2   3.628173097968102E-2  -5.299580693244934E-1   7.688573598861694E-1  
 7.585585585585586E8     7.478060573339462E-2   5.968634486198425E-1  -3.997479379177094E-2   4.043155536055565E-2  -3.967849910259247E-2   4.031625390052795E-2  -5.162194371223450E-1   7.757847309112549E-1  
 7.609609609609610E8     8.742522448301315E-2   5.774199366569519E-1  -3.847038745880127E-2   4.453496634960175E-2  -3.807606548070908E-2   4.431407153606415E-2  -5.033834576606751E-1   7.831102609634399E-1  
 7.633633633633634E8     9.848499298095703E-2   5.569791793823242E-1  -3.648796677589417E-2   4.886187613010407E-2  -3.627947345376015E-2   4.835652559995651E-2  -4.919091463088989E-1   7.895025014877319E-1  
 7.657657657657658E8     1.082595065236092E-1   5.368877053260803E-1  -3.430746868252754E-2   5.286019295454025E-2  -3.426420316100121E-2   5.247145518660545E-2  -4.821281731128693E-1   7.945086956024170E-1  
 7.681681681681682E8     1.175924018025398E-1   5.162388682365418E-1  -3.177445009350777E-2   5.675273016095161E-2  -3.181552141904831E-2   5.683563277125359E-2  -4.738058745861054E-1   7.986276745796204E-1  
 7.705705705705706E8     1.233993098139763E-1   4.957260489463806E-1  -2.885657176375389E-2   6.066703051328659E-2  -2.906994335353375E-2   6.079945713281632E-2  -4.652645587921143E-1   8.037332892417908E-1  
 7.729729729729730E8     1.288431882858276E-1   4.732795953750610E-1  -2.520900592207909E-2   6.437480449676514E-2  -2.558171562850475E-2   6.494105607271195E-2  -4.554927647113800E-1   8.111888170242310E-1  
 7.753753753753754E8     1.325940638780594E-1   4.495133161544800E-1  -2.113810740411282E-2   6.778161972761154E-2  -2.141616307199001E-2   6.855829805135727E-2  -4.432702958583832E-1   8.187261223793030E-1  
 7.777777777777778E8     1.342176198959351E-1   4.246899187564850E-1  -1.680315844714642E-2   7.091407477855682E-2  -1.692311279475689E-2   7.148188352584839E-2  -4.285466969013214E-1   8.236598372459412E-1  
 7.801801801801802E8     1.324675828218460E-1   3.994448482990265E-1  -1.232347916811705E-2   7.368673384189606E-2  -1.206279080361128E-2   7.370012998580933E-2  -4.136824309825897E-1   8.250116109848023E-1  
 7.825825825825826E8     1.278924494981766E-1   3.748440742492676E-1  -7.522027008235455E-3   7.589793950319290E-2  -7.164501585066319E-3   7.570908218622208E-2  -3.976411223411560E-1   8.287578225135803E-1  
 7.849849849849850E8     1.212342604994774E-1   3.513749241828919E-1  -2.166653983294964E-3   7.806500792503357E-2  -2.303601708263159E-3   7.765321433544159E-2  -3.853264153003693E-1   8.305054306983948E-1  
 7.873873873873874E8     1.118660196661949E-1   3.293495774269104E-1   3.385916352272034E-3   7.970965653657913E-2   3.189460840076208E-3   7.902678102254868E-2  -3.737706542015076E-1   8.339344859123230E-1  
 7.897897897897898E8     1.013251245021820E-1   3.097837865352631E-1   9.197415784001350E-3   8.051232248544693E-2   9.024198167026043E-3   7.994139939546585E-2  -3.617353439331055E-1   8.398374915122986E-1  
 7.921921921921922E8     9.171172976493835E-2   2.916865944862366E-1   1.501797046512365E-2   8.047724515199661E-2   1.490215677767992E-2   8.032132685184479E-2  -3.488037288188934E-1   8.470939993858337E-1  
 7.945945945945946E8     8.093975484371185E-2   2.755962908267975E-1   2.052832953631878E-2   7.985895127058029E-2   2.023321203887463E-2   7.982459664344788E-2  -3.351459801197052E-1   8.509328365325928E-1  
 7.969969969969970E8     6.862647831439972E-2   2.588230371475220E-1   2.564115636050701E-2   7.850900292396545E-2   2.538298815488815E-2   7.867209613323212E-2  -3.212954998016357E-1   8.552858829498291E-1  
 7.993993993993994E8     5.473994091153145E-2   2.409811317920685E-1   2.974186651408672E-2   7.671796530485153E-2   2.959642000496388E-2   7.694645226001740E-2  -3.067664802074432E-1   8.593025803565979E-1  
 8.018018018018018E8     3.656345978379250E-2   2.218994349241257E-1   3.292220830917358E-2   7.537683844566345E-2   3.289863839745522E-2   7.554381340742111E-2  -2.909069359302521E-1   8.631290793418884E-1  
 8.042042042042042E8     1.369793992489576E-2   2.070615738630295E-1   3.603320196270943E-2   7.476734369993210E-2   3.619209676980972E-2   7.486871629953384E-2  -2.764505147933960E-1   8.664982318878174E-1  
 8.066066066066066E8    -1.190451532602310E-2   1.977667510509491E-1   3.933142498135567E-2   7.464019954204559E-2   3.951224684715271E-2   7.473140954971314E-2  -2.598198056221008E-1   8.701280355453491E-1  
 8.090090090090090E8    -3.863605484366417E-2   1.942037642002106E-1   4.337251558899880E-2   7.494647800922394E-2   4.353558272123337E-2   7.502435147762299E-2  -2.432948648929596E-1   8.727829456329346E-1  
 8.114114114114114E8    -6.273679435253143E-2   1.960133612155914E-1   4.811163991689682E-2   7.491035014390945E-2   4.831198602914810E-2   7.502639293670654E-2  -2.276423573493958E-1   8.744712471961975E-1  
 8.138138138138138E8    -8.272842317819595E-2   2.007729709148407E-1   5.340797826647759E-2   7.439964264631271E-2   5.353402346372604E-2   7.441159337759018E-2  -2.117048054933548E-1   8.760422468185425E-1  
 8.162162162162162E8    -9.998412430286408E-2   2.045528441667557E-1   5.857987701892853E-2   7.333022356033325E-2   5.867592990398407E-2   7.321188598871231E-2  -1.956021934747696E-1   8.773236274719238E-1  
 8.186186186186186E8    -1.190112233161926E-1   2.091641575098038E-1   6.371192634105682E-2   7.221912592649460E-2   6.376766413450241E-2   7.220792025327683E-2  -1.790025681257248E-1   8.787812590599060E-1  
 8.210210210210210E8    -1.372496485710144E-1   2.168748527765274E-1   6.964068859815598E-2   7.078399509191513E-2   6.965489685535431E-2   7.059936225414276E-2  -1.620901674032211E-1   8.791594505310059E-1  
 8.234234234234234E8    -1.534946560859680E-1   2.271280437707901E-1   7.579223066568375E-2   6.815839558839798E-2   7.586118578910828E-2   6.814084947109222E-2  -1.441877782344818E-1   8.796433806419373E-1  
