#  HZ   S   RI   R     50.00 
! Rohde & Schwarz ZVB8 2Ports - Version 2.81 - 1145.1010k08 SN: 100113
! Date: 2016-05-12 03:16:02
! Measurements: S11 S21 S12 S22 
! 
 6.000000000000000E8    -8.485844135284424E-1   3.870021700859070E-1  -2.839194785337895E-4  -1.815095543861389E-3  -2.825592237059027E-4  -1.801872625946999E-3  -9.549689888954163E-1   1.880114823579788E-1  
 6.024024024024024E8    -8.410310745239258E-1   3.994847834110260E-1  -2.019584208028391E-4  -1.867832848802209E-3  -2.484073629602790E-4  -1.899722497910261E-3  -9.523903131484985E-1   1.990956813097000E-1  
 6.048048048048048E8    -8.332781791687012E-1   4.126490950584412E-1  -1.990124437725171E-4  -2.027336042374373E-3  -2.103615843225271E-4  -1.975463936105371E-3  -9.495422840118408E-1   2.103142440319061E-1  
 6.072072072072072E8    -8.247120976448059E-1   4.264534115791321E-1  -1.738240680424497E-4  -2.133318223059177E-3  -2.634862030390650E-4  -2.088179579004645E-3  -9.465443491935730E-1   2.210689634084702E-1  
 6.096096096096096E8    -8.152757287025452E-1   4.404906034469605E-1  -2.026164875132963E-4  -2.125508384779096E-3  -2.106766478391364E-4  -2.108950400725007E-3  -9.434804320335388E-1   2.319485843181610E-1  
 6.120120120120120E8    -8.075135350227356E-1   4.519662261009216E-1  -1.296622067457065E-4  -2.284165471792221E-3  -1.064617172232829E-4  -2.252090489491820E-3  -9.405463933944702E-1   2.404412776231766E-1  
 6.144144144144144E8    -7.989526391029358E-1   4.632977545261383E-1  -1.284214704355691E-5  -2.343519590795040E-3   3.627881233114749E-5  -2.459861570969224E-3  -9.384489655494690E-1   2.501563727855682E-1  
 6.168168168168168E8    -7.898574471473694E-1   4.748176932334900E-1   7.737480336800218E-5  -2.579124644398689E-3   1.425924565410242E-4  -2.596357138827443E-3  -9.355840086936951E-1   2.602446079254150E-1  
 6.192192192192192E8    -7.804290652275085E-1   4.858586192131043E-1   2.437741495668888E-4  -2.801220864057541E-3   1.417968014720827E-4  -2.852043369784951E-3  -9.327202439308167E-1   2.704094946384430E-1  
 6.216216216216216E8    -7.706049084663391E-1   4.965164661407471E-1   3.268875880166888E-4  -3.206545487046242E-3   3.598028561100364E-4  -3.164944238960743E-3  -9.289826750755310E-1   2.817313373088837E-1  
 6.240240240240240E8    -7.610117197036743E-1   5.069034695625305E-1   3.804251900874078E-4  -3.685191972181201E-3   4.436441522557288E-4  -3.614164190366864E-3  -9.253537654876709E-1   2.926879823207855E-1  
 6.264264264264264E8    -7.521847486495972E-1   5.179988741874695E-1   4.004728398285806E-4  -4.171811044216156E-3   4.228796751704067E-4  -4.158694762736559E-3  -9.209448099136353E-1   3.054885268211365E-1  
 6.288288288288288E8    -7.430881261825562E-1   5.291149020195007E-1   2.497696259524673E-4  -4.809483420103788E-3   2.416242205072194E-4  -4.772370681166649E-3  -9.164376854896545E-1   3.165346980094910E-1  
 6.312312312312312E8    -7.341392040252686E-1   5.401263236999512E-1  -3.343593925819732E-5  -5.413869395852089E-3  -5.045983925811015E-5  -5.332149099558592E-3  -9.120067358016968E-1   3.266472518444061E-1  
 6.336336336336336E8    -7.250472903251648E-1   5.510849952697754E-1  -4.253461083862931E-4  -6.031065247952938E-3  -4.395444411784411E-4  -5.992037244141102E-3  -9.081072807312012E-1   3.353460431098938E-1  
 6.360360360360360E8    -7.155710458755493E-1   5.623327493667603E-1  -9.086632635444403E-4  -6.602060981094837E-3  -9.371039923280478E-4  -6.659944076091051E-3  -9.046849012374878E-1   3.429103493690491E-1  
 6.384384384384384E8    -7.062260508537293E-1   5.734037756919861E-1  -1.696621300652623E-3  -7.167383097112179E-3  -1.679899869486690E-3  -7.205086294561625E-3  -9.006127119064331E-1   3.533358275890350E-1  
 6.408408408408408E8    -6.962956786155701E-1   5.850480198860169E-1  -2.582263434305787E-3  -7.586709223687649E-3  -2.523858100175858E-3  -7.497003301978111E-3  -8.965513110160828E-1   3.638457059860230E-1  
 6.432432432432432E8    -6.857550740242004E-1   5.967527627944946E-1  -3.435934195294976E-3  -7.642313838005066E-3  -3.411813639104366E-3  -7.704048883169890E-3  -8.919591903686523E-1   3.737469017505646E-1  
 6.456456456456456E8    -6.745613813400269E-1   6.083844900131226E-1  -4.240402951836586E-3  -7.628689985722303E-3  -4.215672146528959E-3  -7.650587707757950E-3  -8.867988586425781E-1   3.834985792636871E-1  
 6.480480480480480E8    -6.624894142150879E-1   6.199244856834412E-1  -5.013606976717711E-3  -7.622023113071919E-3  -5.046101287007332E-3  -7.541949395090342E-3  -8.819838166236877E-1   3.928432464599609E-1  
 6.504504504504504E8    -6.497576832771301E-1   6.310876607894898E-1  -5.739715415984392E-3  -7.410219870507717E-3  -5.658980924636126E-3  -7.441620342433453E-3  -8.744588494300842E-1   4.050891995429993E-1  
 6.528528528528528E8    -6.366980671882629E-1   6.416831016540527E-1  -6.374880671501160E-3  -7.200462277978659E-3  -6.387266796082258E-3  -7.238189224153757E-3  -8.691804409027100E-1   4.171398878097534E-1  
 6.552552552552552E8    -6.237101554870606E-1   6.517598032951355E-1  -6.975169293582439E-3  -6.989466957747936E-3  -6.999331526458263E-3  -6.979456171393395E-3  -8.650245666503906E-1   4.279674291610718E-1  
 6.576576576576576E8    -6.098861694335938E-1   6.610404253005981E-1  -7.528278511017561E-3  -6.735961418598890E-3  -7.571300491690636E-3  -6.797074340283871E-3  -8.615954518318176E-1   4.365007579326630E-1  
 6.600600600600600E8    -5.943948626518250E-1   6.709800362586975E-1  -8.092899806797504E-3  -6.533845327794552E-3  -8.128121495246887E-3  -6.548721343278885E-3  -8.567548990249634E-1   4.442233741283417E-1  
 6.624624624624624E8    -5.790004134178162E-1   6.807011365890503E-1  -8.686914108693600E-3  -6.348450668156147E-3  -8.681755512952805E-3  -6.312153302133083E-3  -8.505220413208008E-1   4.551935195922852E-1  
 6.648648648648648E8    -5.634921789169312E-1   6.897811889648438E-1  -9.225813671946526E-3  -6.064441520720720E-3  -9.200923144817352E-3  -6.059082224965096E-3  -8.445298671722412E-1   4.658063948154450E-1  
 6.672672672672672E8    -5.476947426795960E-1   6.980938911437988E-1  -9.754586964845657E-3  -5.740049760788679E-3  -9.732360020279884E-3  -5.766465328633785E-3  -8.381319046020508E-1   4.757189452648163E-1  
 6.696696696696696E8    -5.310162901878357E-1   7.061954140663147E-1  -1.027491595596075E-2  -5.434606224298477E-3  -1.026220154017210E-2  -5.396772176027298E-3  -8.320423960685730E-1   4.855559468269348E-1  
 6.720720720720720E8    -5.131618976593018E-1   7.135585546493530E-1  -1.076807454228401E-2  -5.179547704756260E-3  -1.075006555765867E-2  -5.192463286221027E-3  -8.259971141815186E-1   4.945294260978699E-1  
 6.744744744744744E8    -4.957908093929291E-1   7.209822535514832E-1  -1.123423036187887E-2  -4.886523354798555E-3  -1.124769728630781E-2  -4.853059072047472E-3  -8.190797567367554E-1   5.046375989913940E-1  
 6.768768768768768E8    -4.775604605674744E-1   7.277340292930603E-1  -1.170200947672129E-2  -4.466414917260408E-3  -1.174928806722164E-2  -4.443433135747910E-3  -8.126637935638428E-1   5.145896077156067E-1  
 6.792792792792792E8    -4.591226875782013E-1   7.333939671516419E-1  -1.221558917313814E-2  -4.114614799618721E-3  -1.220768503844738E-2  -4.127153195440769E-3  -8.058009743690491E-1   5.242596864700317E-1  
 6.816816816816816E8    -4.400178790092468E-1   7.384272217750549E-1  -1.262820884585381E-2  -3.767652437090874E-3  -1.275458931922913E-2  -3.846042323857546E-3  -7.991634011268616E-1   5.338158607482910E-1  
 6.840840840840840E8    -4.199217557907105E-1   7.427377700805664E-1  -1.320004556328058E-2  -3.416137071326375E-3  -1.320954877883196E-2  -3.366052405908704E-3  -7.922158241271973E-1   5.436997413635254E-1  
 6.864864864864864E8    -4.000275731086731E-1   7.462370395660400E-1  -1.369566842913628E-2  -3.002557903528214E-3  -1.353820413351059E-2  -2.942776773124933E-3  -7.845807075500488E-1   5.527160763740540E-1  
 6.888888888888888E8    -3.794755935668945E-1   7.487287521362305E-1  -1.414484158158302E-2  -2.535901032388210E-3  -1.407703105360270E-2  -2.587619004771113E-3  -7.764910459518433E-1   5.621337294578552E-1  
 6.912912912912912E8    -3.591494858264923E-1   7.503123283386231E-1  -1.463251840323210E-2  -2.112171147018671E-3  -1.465203054249287E-2  -2.181107876822352E-3  -7.686120867729187E-1   5.719065070152283E-1  
 6.936936936936936E8    -3.389237523078919E-1   7.512947320938110E-1  -1.508078165352345E-2  -1.608456717804074E-3  -1.520249433815479E-2  -1.705919275991619E-3  -7.610884308815002E-1   5.813785791397095E-1  
 6.960960960960960E8    -3.176494836807251E-1   7.512029409408569E-1  -1.553689874708653E-2  -1.038872636854649E-3  -1.558511797338724E-2  -9.197228355333209E-4  -7.531970143318176E-1   5.907985568046570E-1  
 6.984984984984984E8    -2.977905869483948E-1   7.491465806961060E-1  -1.596914418041706E-2  -3.861699078697711E-4  -1.598425395786762E-2  -7.410348916891962E-5  -7.423315048217773E-1   6.033849716186523E-1  
 7.009009009009008E8    -2.777360677719116E-1   7.457320690155029E-1  -1.614714413881302E-2   2.756562316790223E-4  -1.625509932637215E-2   5.272296839393675E-4  -7.323516607284546E-1   6.146687865257263E-1  
 7.033033033033032E8    -2.581058144569397E-1   7.408405542373657E-1  -1.618612930178642E-2   8.903849520720542E-4  -1.613262481987476E-2   1.212034374475479E-3  -7.236737608909607E-1   6.231158375740051E-1  
 7.057057057057056E8    -2.394497841596603E-1   7.352676987648010E-1  -1.595528982579708E-2   1.257051713764668E-3  -1.595993898808956E-2   1.467330148443580E-3  -7.177302241325378E-1   6.284954547882080E-1  
 7.081081081081080E8    -2.192415148019791E-1   7.300657629966736E-1  -1.572635024785996E-2   1.359929330646992E-3  -1.570752635598183E-2   1.301507465541363E-3  -7.111040949821472E-1   6.347454190254211E-1  
 7.105105105105104E8    -2.001726776361466E-1   7.242817878723145E-1  -1.567149534821510E-2   1.151265343651176E-3  -1.563835889101028E-2   9.304652921855450E-4  -7.036857604980469E-1   6.417373418807983E-1  
 7.129129129129129E8    -1.829166561365128E-1   7.163222432136536E-1  -1.573444530367851E-2   4.700175195466727E-4  -1.574744470417500E-2   2.874014026019722E-4  -6.951102018356323E-1   6.497268080711365E-1  
 7.153153153153153E8    -1.677538454532623E-1   7.072994709014893E-1  -1.610203459858894E-2  -4.635248333215714E-4  -1.612530462443829E-2  -6.438685231842101E-4  -6.844981908798218E-1   6.591206789016724E-1  
 7.177177177177178E8    -1.539073884487152E-1   6.979895830154419E-1  -1.710378937423229E-2  -1.872731489129365E-3  -1.706008426845074E-2  -1.873753615655005E-3  -6.733605861663818E-1   6.683098077774048E-1  
 7.201201201201202E8    -1.406412422657013E-1   6.898912787437439E-1  -1.886172778904438E-2  -3.424455644562841E-3  -1.894551701843739E-2  -3.412092570215464E-3  -6.623519062995911E-1   6.773165464401245E-1  
 7.225225225225226E8    -1.286883652210236E-1   6.840581297874451E-1  -2.176181599497795E-2  -4.626348149031401E-3  -2.182219736278057E-2  -4.573738202452660E-3  -6.504811048507690E-1   6.866090893745422E-1  
 7.249249249249250E8    -1.150310114026070E-1   6.800785660743713E-1  -2.563491277396679E-2  -4.993603099137545E-3  -2.554020658135414E-2  -5.319049581885338E-3  -6.405375003814697E-1   6.925863027572632E-1  
 7.273273273273274E8    -1.002286225557327E-1   6.764690279960632E-1  -3.026135638356209E-2  -4.303015768527985E-3  -3.018040210008621E-2  -4.870011471211910E-3  -6.307744979858398E-1   6.983739137649536E-1  
 7.297297297297298E8    -8.357160538434982E-2   6.728448867797852E-1  -3.487545624375343E-2  -2.292904304340482E-3  -3.483717516064644E-2  -2.783717820420861E-3  -6.213001012802124E-1   7.044604420661926E-1  
 7.321321321321322E8    -6.510987132787705E-2   6.670074462890625E-1  -3.930863738059998E-2   7.225552108138800E-4  -3.916884213685989E-2   7.158933440223336E-4  -6.112889647483826E-1   7.109885215759277E-1  
 7.345345345345346E8    -4.436462000012398E-2   6.582306027412415E-1  -4.284795001149178E-2   4.938839003443718E-3  -4.277432337403297E-2   5.179887637495995E-3  -6.014239788055420E-1   7.181028723716736E-1  
 7.369369369369370E8    -2.314042299985886E-2   6.446174383163452E-1  -4.566987231373787E-2   9.814275428652763E-3  -4.552029073238373E-2   1.031169760972261E-2  -5.906441807746887E-1   7.255120277404785E-1  
 7.393393393393394E8    -4.879666026681662E-3   6.277927756309509E-1  -4.734342172741890E-2   1.531568728387356E-2  -4.716595634818077E-2   1.584149338304997E-2  -5.800180435180664E-1   7.325357198715210E-1  
 7.417417417417418E8     1.008643768727779E-2   6.107841730117798E-1  -4.830816760659218E-2   2.076076716184616E-2  -4.811729490756989E-2   2.114622294902802E-2  -5.699820518493652E-1   7.391515970230103E-1  
 7.441441441441442E8     2.470622770488262E-2   5.938866734504700E-1  -4.849975928664208E-2   2.647442929446697E-2  -4.860293120145798E-2   2.652263082563877E-2  -5.599467754364014E-1   7.450010776519775E-1  
 7.465465465465466E8     3.709439933300018E-2   5.766326189041138E-1  -4.831338673830032E-2   3.205283358693123E-2  -4.841175675392151E-2   3.204578161239624E-2  -5.478470325469971E-1   7.525157928466797E-1  
 7.489489489489490E8     4.780003428459168E-2   5.567709207534790E-1  -4.730165377259255E-2   3.781826421618462E-2  -4.753892868757248E-2   3.783300146460533E-2  -5.373805165290833E-1   7.591243982315064E-1  
 7.513513513513514E8     5.687044188380241E-2   5.369111299514771E-1  -4.536579176783562E-2   4.332147538661957E-2  -4.555761441588402E-2   4.321131482720375E-2  -5.266183018684387E-1   7.649182677268982E-1  
 7.537537537537538E8     6.750865280628204E-2   5.173584222793579E-1  -4.283477365970612E-2   4.819170385599136E-2  -4.320994392037392E-2   4.809733107686043E-2  -5.147808194160461E-1   7.712498903274536E-1  
 7.561561561561562E8     7.798808813095093E-2   4.956853985786438E-1  -4.073481634259224E-2   5.283014103770256E-2  -4.069015383720398E-2   5.266021937131882E-2  -5.024512410163879E-1   7.765662670135498E-1  
 7.585585585585586E8     8.610816299915314E-2   4.730005860328674E-1  -3.806619718670845E-2   5.769801512360573E-2  -3.797086700797081E-2   5.734740197658539E-2  -4.876136481761932E-1   7.837020754814148E-1  
 7.609609609609610E8     9.184403717517853E-2   4.495386779308319E-1  -3.499690070748329E-2   6.238409504294395E-2  -3.463153913617134E-2   6.195516511797905E-2  -4.738782942295075E-1   7.906008958816528E-1  
 7.633633633633634E8     9.505134075880051E-2   4.250974953174591E-1  -3.135669231414795E-2   6.705557554960251E-2  -3.115623258054256E-2   6.657471507787705E-2  -4.614822268486023E-1   7.966784238815308E-1  
 7.657657657657658E8     9.564314782619476E-2   3.998833596706390E-1  -2.720633335411549E-2   7.156778872013092E-2  -2.716294862329960E-2   7.118193060159683E-2  -4.506850242614746E-1   8.015405535697937E-1  
 7.681681681681682E8     9.417174756526947E-2   3.750041425228119E-1  -2.253633923828602E-2   7.578270882368088E-2  -2.245415560901165E-2   7.579575479030609E-2  -4.414345622062683E-1   8.054827451705933E-1  
 7.705705705705706E8     8.851523697376251E-2   3.522892296314240E-1  -1.691595464944840E-2   7.942665368318558E-2  -1.712350919842720E-2   7.970002293586731E-2  -4.317305684089661E-1   8.108003735542297E-1  
 7.729729729729730E8     8.190540969371796E-2   3.294854164123535E-1  -1.085579395294190E-2   8.222049474716187E-2  -1.118837296962738E-2   8.293141424655914E-2  -4.210303425788879E-1   8.179734349250794E-1  
 7.753753753753754E8     7.488808035850525E-2   3.067840039730072E-1  -4.674911033362150E-3   8.422408998012543E-2  -4.935322795063257E-3   8.518816530704498E-2  -4.075327217578888E-1   8.250926136970520E-1  
 7.777777777777778E8     6.617650389671326E-2   2.823751270771027E-1   1.106586772948504E-3   8.606360107660294E-2   1.036563538946211E-3   8.657525479793549E-2  -3.913867175579071E-1   8.301879763603210E-1  
 7.801801801801802E8     5.279449000954628E-2   2.574666440486908E-1   7.046503014862537E-3   8.779577910900116E-2   7.135815452784300E-3   8.768679946660996E-2  -3.751179277896881E-1   8.311670422554016E-1  
 7.825825825825826E8     3.587823733687401E-2   2.357047796249390E-1   1.322205737233162E-2   8.899460732936859E-2   1.358190737664700E-2   8.871632069349289E-2  -3.575551509857178E-1   8.340748548507690E-1  
 7.849849849849850E8     1.442545279860497E-2   2.169148474931717E-1   2.024370245635510E-2   8.984295278787613E-2   2.007786370813847E-2   8.937039226293564E-2  -3.437460660934448E-1   8.358559012413025E-1  
 7.873873873873874E8    -7.800830993801355E-3   2.041311562061310E-1   2.750778757035732E-2   8.977383375167847E-2   2.721235342323780E-2   8.917095512151718E-2  -3.308416306972504E-1   8.385090827941895E-1  
 7.897897897897898E8    -2.923396974802017E-2   1.948985755443573E-1   3.469102084636688E-2   8.858045935630798E-2   3.452490642666817E-2   8.803791552782059E-2  -3.163846731185913E-1   8.440784215927124E-1  
 7.921921921921922E8    -4.793599620461464E-2   1.875998675823212E-1   4.165536537766457E-2   8.633119612932205E-2   4.165415465831757E-2   8.621814846992493E-2  -3.013921082019806E-1   8.504509925842285E-1  
 7.945945945945946E8    -6.786615401506424E-2   1.815488785505295E-1   4.812042042613030E-2   8.330067992210388E-2   4.787376895546913E-2   8.341643214225769E-2  -2.862386405467987E-1   8.536414504051209E-1  
 7.969969969969970E8    -8.837354928255081E-2   1.761743575334549E-1   5.365891754627228E-2   7.950618118047714E-2   5.337886512279511E-2   7.978960871696472E-2  -2.703123986721039E-1   8.570755124092102E-1  
 7.993993993993994E8    -1.100232824683189E-1   1.711212545633316E-1   5.794943496584892E-2   7.551834732294083E-2   5.772541835904121E-2   7.594632357358933E-2  -2.538653910160065E-1   8.605068922042847E-1  
 8.018018018018018E8    -1.337368637323380E-1   1.676413118839264E-1   6.119857728481293E-2   7.185118645429611E-2   6.130279600620270E-2   7.227040827274323E-2  -2.361456900835037E-1   8.632964491844177E-1  
 8.042042042042042E8    -1.578325480222702E-1   1.689244657754898E-1   6.406522542238236E-2   6.917711347341538E-2   6.419065594673157E-2   6.926192343235016E-2  -2.194268852472305E-1   8.653329610824585E-1  
 8.066066066066066E8    -1.815990656614304E-1   1.745165884494782E-1   6.671898066997528E-2   6.724935770034790E-2   6.693574786186218E-2   6.725680828094482E-2  -2.001753896474838E-1   8.679814934730530E-1  
 8.090090090090090E8    -2.047772854566574E-1   1.846739500761032E-1   7.029336690902710E-2   6.602501124143601E-2   7.055143266916275E-2   6.596548855304718E-2  -1.813212931156158E-1   8.692924380302429E-1  
 8.114114114114114E8    -2.237645685672760E-1   1.979896128177643E-1   7.485117018222809E-2   6.444752961397171E-2   7.506711035966873E-2   6.420934945344925E-2  -1.625200659036636E-1   8.694487810134888E-1  
 8.138138138138138E8    -2.390516400337219E-1   2.118877768516541E-1   7.982015609741211E-2   6.202704831957817E-2   7.990012317895889E-2   6.193057820200920E-2  -1.437971889972687E-1   8.688771128654480E-1  
 8.162162162162162E8    -2.526070177555084E-1   2.243115156888962E-1   8.442287892103195E-2   5.924881622195244E-2   8.453284204006195E-2   5.910413339734078E-2  -1.247824952006340E-1   8.683612942695618E-1  
 8.186186186186186E8    -2.671101689338684E-1   2.385361492633820E-1   8.908461779356003E-2   5.658282339572907E-2   8.906296640634537E-2   5.649755150079727E-2  -1.050378903746605E-1   8.673550486564636E-1  
 8.210210210210210E8    -2.795675694942474E-1   2.555961310863495E-1   9.437172114849091E-2   5.336504057049751E-2   9.433280676603317E-2   5.334262549877167E-2  -8.474012464284897E-2   8.653545975685120E-1  
 8.234234234234234E8    -2.876470983028412E-1   2.724389135837555E-1   1.000128909945488E-1   4.949151724576950E-2   9.995829313993454E-2   4.937979206442833E-2  -6.396088749170303E-2   8.624603152275085E-1  
