#  HZ   S   RI   R     50.00 
! Rohde & Schwarz ZVB8 2Ports - Version 2.81 - 1145.1010k08 SN: 100113
! Date: 2016-05-12 03:17:20
! Measurements: S11 S21 S12 S22 
! 
 6.000000000000000E8    -7.861287593841553E-1   4.387410879135132E-1  -1.935821375809610E-3  -4.475142341107130E-3  -1.961178146302700E-3  -4.533303901553154E-3  -9.220930337905884E-1   2.657627463340759E-1  
 6.024024024024024E8    -7.746799588203430E-1   4.511054456233978E-1  -1.996166305616498E-3  -4.716176539659500E-3  -1.948912511579692E-3  -4.675517790019512E-3  -9.165933728218079E-1   2.792477011680603E-1  
 6.048048048048048E8    -7.622793316841126E-1   4.641427993774414E-1  -2.166506834328175E-3  -4.985490348190069E-3  -2.121036872267723E-3  -4.985709208995104E-3  -9.111320972442627E-1   2.926651835441589E-1  
 6.072072072072072E8    -7.486648559570313E-1   4.777864217758179E-1  -2.309067873284221E-3  -5.220227874815464E-3  -2.251357305794954E-3  -5.139126908034086E-3  -9.050400853157044E-1   3.058711886405945E-1  
 6.096096096096096E8    -7.335411906242371E-1   4.913694858551025E-1  -2.324407920241356E-3  -5.459969863295555E-3  -2.367209177464247E-3  -5.445218645036221E-3  -8.988949060440064E-1   3.195388913154602E-1  
 6.120120120120120E8    -7.205556631088257E-1   5.022558569908142E-1  -2.379332669079304E-3  -5.863163154572249E-3  -2.298868028447032E-3  -5.839696619659662E-3  -8.927205204963684E-1   3.308565914630890E-1  
 6.144144144144144E8    -7.067363262176514E-1   5.126422047615051E-1  -2.348166191950440E-3  -6.321927532553673E-3  -2.348510315641761E-3  -6.318391766399145E-3  -8.871708512306213E-1   3.432398438453674E-1  
 6.168168168168168E8    -6.921257376670837E-1   5.228017568588257E-1  -2.336207777261734E-3  -7.003664039075375E-3  -2.401088597252965E-3  -6.928496062755585E-3  -8.806465268135071E-1   3.564968705177307E-1  
 6.192192192192192E8    -6.771951913833618E-1   5.317506790161133E-1  -2.388971624895930E-3  -7.789492607116699E-3  -2.434472320601344E-3  -7.826944813132286E-3  -8.735275864601135E-1   3.699141740798950E-1  
 6.216216216216216E8    -6.618103384971619E-1   5.397033095359802E-1  -2.481861272826791E-3  -8.809066377580166E-3  -2.491743536666036E-3  -8.861659094691277E-3  -8.655693531036377E-1   3.840231001377106E-1  
 6.240240240240240E8    -6.471419930458069E-1   5.473400950431824E-1  -2.858243649825454E-3  -1.027738116681576E-2  -2.870228374376893E-3  -1.024656277149916E-2  -8.569033741950989E-1   3.977180719375610E-1  
 6.264264264264264E8    -6.339079141616821E-1   5.557729601860046E-1  -3.602991579100490E-3  -1.193449646234512E-2  -3.517596749588847E-3  -1.194742135703564E-2  -8.469752073287964E-1   4.131318628787994E-1  
 6.288288288288288E8    -6.206769943237305E-1   5.648069977760315E-1  -4.848642740398645E-3  -1.368689443916082E-2  -4.890483804047108E-3  -1.370228920131922E-2  -8.375615477561951E-1   4.269717931747437E-1  
 6.312312312312312E8    -6.076475977897644E-1   5.745016932487488E-1  -6.650438066571951E-3  -1.541417092084885E-2  -6.679872516542673E-3  -1.539472863078117E-2  -8.274665474891663E-1   4.397258162498474E-1  
 6.336336336336336E8    -5.932885408401489E-1   5.845174193382263E-1  -8.997322060167790E-3  -1.690120436251164E-2  -9.036451578140259E-3  -1.694592833518982E-2  -8.180982470512390E-1   4.510837793350220E-1  
 6.360360360360360E8    -5.775294303894043E-1   5.945736765861511E-1  -1.173564884811640E-2  -1.820527948439121E-2  -1.181586831808090E-2  -1.816846244037151E-2  -8.090372085571289E-1   4.618462920188904E-1  
 6.384384384384384E8    -5.611737966537476E-1   6.053305864334106E-1  -1.513018179684877E-2  -1.891549304127693E-2  -1.517447363585234E-2  -1.893788017332554E-2  -7.986993789672852E-1   4.753106534481049E-1  
 6.408408408408408E8    -5.431445240974426E-1   6.158615350723267E-1  -1.892516575753689E-2  -1.900174282491207E-2  -1.882360689342022E-2  -1.893998682498932E-2  -7.875718474388123E-1   4.886667132377625E-1  
 6.432432432432432E8    -5.231776833534241E-1   6.260664463043213E-1  -2.261816710233688E-2  -1.828605122864246E-2  -2.254977263510227E-2  -1.824043132364750E-2  -7.756868600845337E-1   5.018171668052673E-1  
 6.456456456456456E8    -5.021269321441650E-1   6.357656121253967E-1  -2.598342858254910E-2  -1.704746857285500E-2  -2.606580220162869E-2  -1.693846657872200E-2  -7.629520893096924E-1   5.148072838783264E-1  
 6.480480480480480E8    -4.784216880798340E-1   6.439023017883301E-1  -2.926767431199551E-2  -1.551011018455029E-2  -2.929984964430332E-2  -1.543698925524950E-2  -7.502617239952087E-1   5.276311039924622E-1  
 6.504504504504504E8    -4.534147083759308E-1   6.507263779640198E-1  -3.253634274005890E-2  -1.353247370570898E-2  -3.239091113209724E-2  -1.355284266173840E-2  -7.338374257087708E-1   5.431236028671265E-1  
 6.528528528528528E8    -4.267309308052063E-1   6.553444862365723E-1  -3.561156988143921E-2  -1.132679544389248E-2  -3.551459684967995E-2  -1.133166626095772E-2  -7.185060381889343E-1   5.584890246391296E-1  
 6.552552552552552E8    -3.986191451549530E-1   6.574794650077820E-1  -3.857424482703209E-2  -8.693222887814045E-3  -3.842870891094208E-2  -8.730285800993443E-3  -7.039486169815064E-1   5.722396969795227E-1  
 6.576576576576576E8    -3.697402179241180E-1   6.567874550819397E-1  -4.141188412904739E-2  -5.820438731461763E-3  -4.131310060620308E-2  -5.954539403319359E-3  -6.891233921051025E-1   5.840485095977783E-1  
 6.600600600600600E8    -3.400027453899384E-1   6.544244885444641E-1  -4.409287497401238E-2  -2.763812663033605E-3  -4.403821751475334E-2  -2.836032072082162E-3  -6.721378564834595E-1   5.947313308715820E-1  
 6.624624624624624E8    -3.102785348892212E-1   6.495765447616577E-1  -4.680229350924492E-2   8.049773168750107E-4  -4.700107872486115E-2   7.412713021039963E-4  -6.525102853775024E-1   6.082634925842285E-1  
 6.648648648648648E8    -2.811469435691834E-1   6.419025659561157E-1  -4.945969954133034E-2   5.009535234421492E-3  -4.939642548561096E-2   4.820876289159060E-3  -6.326289772987366E-1   6.205288171768189E-1  
 6.672672672672672E8    -2.511549293994904E-1   6.313255429267883E-1  -5.157406628131867E-2   9.643716737627983E-3  -5.154228955507278E-2   9.362178854644299E-3  -6.119126081466675E-1   6.324421167373657E-1  
 6.696696696696696E8    -2.206818908452988E-1   6.177347302436829E-1  -5.351823940873146E-2   1.453516539186239E-2  -5.342813581228256E-2   1.426695287227631E-2  -5.895933508872986E-1   6.437488794326782E-1  
 6.720720720720720E8    -1.901177316904068E-1   6.007020473480225E-1  -5.526148527860642E-2   1.979645527899265E-2  -5.509540811181068E-2   1.955054141581059E-2  -5.663020610809326E-1   6.542277932167053E-1  
 6.744744744744744E8    -1.615770310163498E-1   5.811257958412170E-1  -5.672624334692955E-2   2.563819661736488E-2  -5.681112408638001E-2   2.564379759132862E-2  -5.404494404792786E-1   6.649428009986877E-1  
 6.768768768768768E8    -1.348970979452133E-1   5.570545196533203E-1  -5.748340860009193E-2   3.234083577990532E-2  -5.753809586167336E-2   3.243840858340263E-2  -5.135337710380554E-1   6.739891767501831E-1  
 6.792792792792792E8    -1.110434755682945E-1   5.284551978111267E-1  -5.732981488108635E-2   3.950911015272141E-2  -5.741514265537262E-2   3.972467780113220E-2  -4.852472543716431E-1   6.821551918983460E-1  
 6.816816816816816E8    -9.079078584909439E-2   4.975829422473908E-1  -5.619412288069725E-2   4.694185778498650E-2  -5.627018585801125E-2   4.733560234308243E-2  -4.552302658557892E-1   6.890916228294373E-1  
 6.840840840840840E8    -7.370083034038544E-2   4.616750776767731E-1  -5.424269288778305E-2   5.467042699456215E-2  -5.419747531414032E-2   5.468060076236725E-2  -4.238570928573608E-1   6.947782039642334E-1  
 6.864864864864864E8    -6.219435855746269E-2   4.252657890319824E-1  -5.108761414885521E-2   6.252865493297577E-2  -5.128885433077812E-2   6.206690892577171E-2  -3.905460536479950E-1   6.979199647903442E-1  
 6.888888888888888E8    -5.530185624957085E-2   3.875652849674225E-1  -4.693188890814781E-2   7.036804407835007E-2  -4.742819815874100E-2   6.964029371738434E-2  -3.541889786720276E-1   6.993975043296814E-1  
 6.912912912912912E8    -5.407457426190376E-2   3.490973114967346E-1  -4.158687964081764E-2   7.841954380273819E-2  -4.227514192461968E-2   7.766105979681015E-2  -3.157813251018524E-1   6.979879736900330E-1  
 6.936936936936936E8    -5.743825435638428E-2   3.141759335994721E-1  -3.478759154677391E-2   8.546113222837448E-2  -3.516212105751038E-2   8.523117005825043E-2  -2.757047712802887E-1   6.938587427139282E-1  
 6.960960960960960E8    -6.499996781349182E-2   2.799240052700043E-1  -2.680640667676926E-2   9.165876358747482E-2  -2.635520510375500E-2   9.180414676666260E-2  -2.331858277320862E-1   6.861009001731873E-1  
 6.984984984984984E8    -7.916625589132309E-2   2.454954087734222E-1  -1.759666390717030E-2   9.638467431068420E-2  -1.622091047465801E-2   9.650252759456635E-2  -1.857185959815979E-1   6.744373440742493E-1  
 7.009009009009008E8    -9.752678871154785E-2   2.148908078670502E-1  -7.876552641391754E-3   9.916830062866211E-2  -5.987001117318869E-3   9.939740598201752E-2  -1.380637586116791E-1   6.564840674400330E-1  
 7.033033033033032E8    -1.195785775780678E-1   1.884632408618927E-1   2.335578436031938E-3   1.003102734684944E-1   4.045739304274321E-3   1.004363596439362E-1  -9.203434735536575E-2   6.312481164932251E-1  
 7.057057057057056E8    -1.413973122835159E-1   1.674523502588272E-1   1.166283711791039E-2   9.977012872695923E-2   1.280843466520309E-2   9.963336586952210E-2  -4.973109439015389E-2   5.998305082321167E-1  
 7.081081081081080E8    -1.636347174644470E-1   1.492946594953537E-1   2.012158557772636E-2   9.811446815729141E-2   2.001880295574665E-2   9.813875705003738E-2  -7.484872825443745E-3   5.622773766517639E-1  
 7.105105105105104E8    -1.893912553787231E-1   1.352952569723129E-1   2.731848321855068E-2   9.597139060497284E-2   2.647542394697666E-2   9.621941298246384E-2   3.391101211309433E-2   5.141375660896301E-1  
 7.129129129129129E8    -2.180029898881912E-1   1.248172596096993E-1   3.268658369779587E-2   9.350953251123428E-2   3.177055716514587E-2   9.388763457536697E-2   7.069828361272812E-2   4.553869366645813E-1  
 7.153153153153153E8    -2.475197613239288E-1   1.194869205355644E-1   3.579635545611382E-2   9.220464527606964E-2   3.511421009898186E-2   9.258107841014862E-2   9.839189052581787E-2   3.865343034267426E-1  
 7.177177177177178E8    -2.741601467132568E-1   1.205073967576027E-1   3.783185407519341E-2   9.361021220684052E-2   3.785058483481407E-2   9.369891881942749E-2   1.123483851552010E-1   3.103105425834656E-1  
 7.201201201201202E8    -2.958979606628418E-1   1.261454373598099E-1   4.069482162594795E-2   9.848821908235550E-2   4.096277058124542E-2   9.857675433158875E-2   1.083857119083405E-1   2.326125502586365E-1  
 7.225225225225226E8    -3.118280768394470E-1   1.338731348514557E-1   4.714439064264298E-2   1.070396751165390E-1   4.746151715517044E-2   1.069859936833382E-1   8.714092522859573E-2   1.608495414257050E-1  
 7.249249249249250E8    -3.245593309402466E-1   1.393265426158905E-1   6.091121956706047E-2   1.166670843958855E-1   5.987730994820595E-2   1.172757297754288E-1   5.253797769546509E-2   1.016509905457497E-1  
 7.273273273273274E8    -3.354656398296356E-1   1.429678946733475E-1   8.219917118549347E-2   1.234172061085701E-1   7.955863326787949E-2   1.250333636999130E-1   1.468379702419043E-2   5.987188965082169E-2  
 7.297297297297298E8    -3.459307253360748E-1   1.434623748064041E-1   1.076917871832848E-1   1.234294772148132E-1   1.054767966270447E-1   1.251401156187058E-1  -2.069934643805027E-2   2.816434204578400E-2  
 7.321321321321322E8    -3.569339811801910E-1   1.419746726751328E-1   1.336383223533630E-1   1.162054762244225E-1   1.334008872509003E-1   1.160712614655495E-1  -5.103148147463799E-2   1.037891022861004E-3  
 7.345345345345346E8    -3.704306483268738E-1   1.422384977340698E-1   1.585382223129273E-1   1.005855500698090E-1   1.589815318584442E-1   9.937044233083725E-2  -7.653582841157913E-2  -2.584671042859554E-2  
 7.369369369369370E8    -3.854766488075256E-1   1.435893326997757E-1   1.797258853912354E-1   7.789230346679688E-2   1.802556514739990E-1   7.545007765293121E-2  -1.017383784055710E-1  -5.512839183211327E-2  
 7.393393393393394E8    -3.996869623661041E-1   1.467530876398087E-1   1.944041997194290E-1   5.014524236321449E-2   1.945802569389343E-1   4.684147611260414E-2  -1.291092783212662E-1  -8.640783280134201E-2  
 7.417417417417418E8    -4.137099981307983E-1   1.506214290857315E-1   2.024736255407333E-1   1.978410221636295E-2   2.021029591560364E-1   1.704459264874458E-2  -1.621599346399307E-1  -1.193825304508209E-1  
 7.441441441441442E8    -4.273964762687683E-1   1.536232531070709E-1   2.037782818078995E-1  -1.264615077525377E-2   2.036307156085968E-1  -1.252670213580132E-2  -1.992665529251099E-1  -1.490288376808167E-1  
 7.465465465465466E8    -4.436230361461639E-1   1.561542302370071E-1   1.976311653852463E-1  -4.304224997758865E-2   1.980583369731903E-1  -4.244275763630867E-2  -2.406191527843475E-1  -1.734253764152527E-1  
 7.489489489489490E8    -4.623405933380127E-1   1.604322493076325E-1   1.849790811538696E-1  -7.008975744247437E-2   1.857921630144119E-1  -6.916518509387970E-2  -2.870267033576965E-1  -1.933853030204773E-1  
 7.513513513513514E8    -4.796302616596222E-1   1.670639514923096E-1   1.681735366582871E-1  -9.175994992256165E-2   1.691077500581741E-1  -9.115482866764069E-2  -3.389888703823090E-1  -2.068086266517639E-1  
 7.537537537537538E8    -4.965778887271881E-1   1.756715476512909E-1   1.496315896511078E-1  -1.085001751780510E-1   1.505856662988663E-1  -1.079630106687546E-1  -3.926246166229248E-1  -2.127444297075272E-1  
 7.561561561561562E8    -5.126274228096008E-1   1.859586834907532E-1   1.318337321281433E-1  -1.213329508900642E-1   1.314570009708405E-1  -1.212226971983910E-1  -4.436315596103668E-1  -2.119181603193283E-1  
 7.585585585585586E8    -5.282932519912720E-1   2.003163695335388E-1   1.124321371316910E-1  -1.313311606645584E-1   1.112308502197266E-1  -1.311358511447907E-1  -4.907911717891693E-1  -2.026952952146530E-1  
 7.609609609609610E8    -5.439903736114502E-1   2.170405387878418E-1   9.231799840927124E-2  -1.376539021730423E-1   9.127405285835266E-2  -1.369786262512207E-1  -5.372240543365479E-1  -1.876203715801239E-1  
 7.633633633633634E8    -5.582540035247803E-1   2.349635660648346E-1   7.314238697290421E-2  -1.402491480112076E-1   7.270572334527969E-2  -1.392499804496765E-1  -5.808294415473938E-1  -1.683426201343536E-1  
 7.657657657657658E8    -5.717603564262390E-1   2.534100711345673E-1   5.578513443470001E-2  -1.401470899581909E-1   5.549998953938484E-2  -1.394700109958649E-1  -6.213696002960205E-1  -1.469372808933258E-1  
 7.681681681681682E8    -5.834795236587524E-1   2.731164991855621E-1   4.002735763788223E-2  -1.379524618387222E-1   3.973017632961273E-2  -1.379797905683518E-1  -6.572527289390564E-1  -1.246221140027046E-1  
 7.705705705705706E8    -5.930808186531067E-1   2.932614684104919E-1   2.585303783416748E-2  -1.344252824783325E-1   2.549631893634796E-2  -1.343400329351425E-1  -6.871072649955750E-1  -9.979907423257828E-2  
 7.729729729729730E8    -5.993439555168152E-1   3.147668838500977E-1   1.282693073153496E-2  -1.294652223587036E-1   1.255057286471129E-2  -1.296220421791077E-1  -7.151339650154114E-1  -7.254371792078018E-2  
 7.753753753753754E8    -6.038159132003784E-1   3.367330729961395E-1   1.343189156614244E-3  -1.230899170041084E-1   1.180680003017187E-3  -1.236478760838509E-1  -7.392839193344116E-1  -4.318455606698990E-2  
 7.777777777777778E8    -6.064348220825195E-1   3.579604327678680E-1  -8.275242522358894E-3  -1.163966506719589E-1  -8.371642790734768E-3  -1.169439703226090E-1  -7.573955655097961E-1  -1.288655493408442E-2  
 7.801801801801802E8    -6.069491505622864E-1   3.784219324588776E-1  -1.669639535248280E-2  -1.095565631985664E-1  -1.672059670090675E-2  -1.094452142715454E-1  -7.704660296440125E-1   1.718155853450298E-2  
 7.825825825825826E8    -6.050108075141907E-1   3.989165723323822E-1  -2.385207079350948E-2  -1.018109470605850E-1  -2.398385852575302E-2  -1.017705500125885E-1  -7.820372581481934E-1   4.676461592316628E-2  
 7.849849849849850E8    -6.032500267028809E-1   4.181612432003021E-1  -2.967709302902222E-2  -9.427873045206070E-2  -2.946429327130318E-2  -9.412325918674469E-2  -7.912992238998413E-1   7.347888499498367E-2  
 7.873873873873874E8    -6.008233428001404E-1   4.369253814220429E-1  -3.400593996047974E-2  -8.689184486865997E-2  -3.375055268406868E-2  -8.624105900526047E-2  -7.993966937065125E-1   9.920939803123474E-2  
 7.897897897897898E8    -5.963332056999207E-1   4.573066830635071E-1  -3.725841641426086E-2  -7.949326187372208E-2  -3.708899021148682E-2  -7.902166992425919E-2  -8.070056438446045E-1   1.250576078891754E-1  
 7.921921921921922E8    -5.896599888801575E-1   4.774482846260071E-1  -3.950968012213707E-2  -7.233455777168274E-2  -3.951298072934151E-2  -7.242760807275772E-2  -8.146582245826721E-1   1.510380804538727E-1  
 7.945945945945946E8    -5.848774313926697E-1   4.963635802268982E-1  -4.079383239150047E-2  -6.578374654054642E-2  -4.062140360474587E-2  -6.591927260160446E-2  -8.177861571311951E-1   1.752786636352539E-1  
 7.969969969969970E8    -5.789126157760620E-1   5.138945579528809E-1  -4.122167453169823E-2  -5.972597748041153E-2  -4.112081602215767E-2  -6.000481918454170E-2  -8.207564949989319E-1   1.988188475370407E-1  
 7.993993993993994E8    -5.724815726280212E-1   5.301200747489929E-1  -4.075614735484123E-2  -5.440264940261841E-2  -4.073041304945946E-2  -5.476046353578568E-2  -8.227202892303467E-1   2.219013273715973E-1  
 8.018018018018018E8    -5.655383467674255E-1   5.460270047187805E-1  -3.981408476829529E-2  -5.021687597036362E-2  -3.988381847739220E-2  -5.024902150034905E-2  -8.236002922058106E-1   2.446997314691544E-1  
 8.042042042042042E8    -5.567137598991394E-1   5.631628632545471E-1  -3.899469599127770E-2  -4.686054959893227E-2  -3.903535008430481E-2  -4.692598804831505E-2  -8.243501186370850E-1   2.656798958778381E-1  
 8.066066066066066E8    -5.466260313987732E-1   5.784854292869568E-1  -3.808544948697090E-2  -4.439420253038406E-2  -3.819377347826958E-2  -4.424681141972542E-2  -8.238532543182373E-1   2.873848080635071E-1  
 8.090090090090090E8    -5.363174080848694E-1   5.927364230155945E-1  -3.766581416130066E-2  -4.240511730313301E-2  -3.785578161478043E-2  -4.221397638320923E-2  -8.229337930679321E-1   3.089239299297333E-1  
 8.114114114114114E8    -5.256680846214294E-1   6.062307357788086E-1  -3.794422000646591E-2  -4.051012918353081E-2  -3.801842778921127E-2  -4.056539013981819E-2  -8.207572102546692E-1   3.283684849739075E-1  
 8.138138138138138E8    -5.154726505279541E-1   6.183525919914246E-1  -3.861034289002419E-2  -3.854051604866982E-2  -3.874199464917183E-2  -3.855055198073387E-2  -8.180546164512634E-1   3.468067049980164E-1  
 8.162162162162162E8    -5.063418745994568E-1   6.303373575210571E-1  -3.898043185472488E-2  -3.615218773484230E-2  -3.913244605064392E-2  -3.618808463215828E-2  -8.153859972953796E-1   3.653718531131744E-1  
 8.186186186186186E8    -4.975412786006928E-1   6.430604457855225E-1  -3.905113041400909E-2  -3.389780223369598E-2  -3.916495293378830E-2  -3.405091911554337E-2  -8.116537332534790E-1   3.840730488300324E-1  
 8.210210210210210E8    -4.874080717563629E-1   6.546969413757324E-1  -3.945987299084663E-2  -3.216416388750076E-2  -3.941507637500763E-2  -3.196553140878677E-2  -8.069394230842590E-1   4.027124047279358E-1  
 8.234234234234234E8    -4.764000177383423E-1   6.659960150718689E-1  -3.998924791812897E-2  -3.000739589333534E-2  -3.986375033855438E-2  -2.989063411951065E-2  -8.013652563095093E-1   4.201139509677887E-1  
