#  HZ   S   RI   R     50.00 
! Rohde & Schwarz ZVB8 2Ports - Version 2.81 - 1145.1010k08 SN: 100113
! Date: 2016-05-12 03:15:39
! Measurements: S11 S21 S12 S22 
! 
 6.000000000000000E8    -8.672264218330383E-1   3.666327893733978E-1  -1.412000856362283E-4  -1.464088098146021E-3  -6.127589585958049E-5  -1.306148595176637E-3  -9.584529995918274E-1   1.773435473442078E-1  
 6.024024024024024E8    -8.610075712203980E-1   3.784359693527222E-1  -9.327699808636680E-5  -1.399037777446210E-3  -8.363998495042324E-5  -1.462601707316935E-3  -9.560682177543640E-1   1.881910413503647E-1  
 6.048048048048048E8    -8.544531464576721E-1   3.909177780151367E-1  -9.464772301726043E-5  -1.507436158135533E-3  -3.209402711945586E-5  -1.443495159037411E-3  -9.534810185432434E-1   1.990170478820801E-1  
 6.072072072072072E8    -8.469623923301697E-1   4.048444628715515E-1  -1.401250337949023E-4  -1.549426233395934E-3  -8.857568172970787E-5  -1.487030764110386E-3  -9.509567022323608E-1   2.094265073537827E-1  
 6.096096096096096E8    -8.386892676353455E-1   4.190357327461243E-1  -6.925379420863465E-5  -1.628586789593101E-3  -1.514922769274563E-5  -1.651529106311500E-3  -9.479715824127197E-1   2.203600555658341E-1  
 6.120120120120120E8    -8.328763246536255E-1   4.297878444194794E-1  -3.910852683475241E-6  -1.610822509974241E-3  -1.452236756449565E-5  -1.665792195126414E-3  -9.454994201660156E-1   2.285933494567871E-1  
 6.144144144144144E8    -8.255103826522827E-1   4.412838220596314E-1   1.349225494777784E-4  -1.739566796459258E-3   1.694266684353352E-4  -1.794764073565602E-3  -9.432377219200134E-1   2.381962239742279E-1  
 6.168168168168168E8    -8.174813389778137E-1   4.528546333312988E-1   2.758870250545442E-4  -1.806136337108910E-3   2.776148030534387E-4  -1.855446374975145E-3  -9.408932328224182E-1   2.476639449596405E-1  
 6.192192192192192E8    -8.097829222679138E-1   4.642391800880432E-1   3.202494699507952E-4  -1.981701934710145E-3   4.178704693913460E-4  -2.045218367129564E-3  -9.382776618003845E-1   2.578322589397430E-1  
 6.216216216216216E8    -8.015816807746887E-1   4.748894572257996E-1   4.450941050890833E-4  -2.207474550232291E-3   4.585479036904872E-4  -2.222519833594561E-3  -9.349560141563416E-1   2.685133516788483E-1  
 6.240240240240240E8    -7.932847142219544E-1   4.857974052429199E-1   5.386291304603219E-4  -2.552193123847246E-3   5.506558227352798E-4  -2.563755959272385E-3  -9.314805865287781E-1   2.791642844676971E-1  
 6.264264264264264E8    -7.852032184600830E-1   4.968760609626770E-1   4.889978445135057E-4  -2.985645784065127E-3   6.529080565087497E-4  -2.870986703783274E-3  -9.273968935012817E-1   2.918984293937683E-1  
 6.288288288288288E8    -7.773259878158569E-1   5.079291462898254E-1   5.194143741391599E-4  -3.347789868712425E-3   5.858766380697489E-4  -3.414190141484141E-3  -9.234422445297241E-1   3.030439317226410E-1  
 6.312312312312312E8    -7.697252035140991E-1   5.186981558799744E-1   4.053942975588143E-4  -3.857515053823590E-3   4.225957090966404E-4  -3.898883471265435E-3  -9.193208813667297E-1   3.129051029682159E-1  
 6.336336336336336E8    -7.618733048439026E-1   5.295669436454773E-1   1.074241226888262E-4  -4.392994102090597E-3   2.157108392566443E-4  -4.282234702259302E-3  -9.157271385192871E-1   3.210007548332214E-1  
 6.360360360360360E8    -7.539159655570984E-1   5.406126976013184E-1  -2.483170537743717E-4  -4.786886274814606E-3  -2.046117442660034E-4  -4.775068257004023E-3  -9.128179550170898E-1   3.285907208919525E-1  
 6.384384384384384E8    -7.459577322006226E-1   5.517180562019348E-1  -6.974149728193879E-4  -5.141942296177149E-3  -6.668672431260347E-4  -5.119477864354849E-3  -9.094118475914002E-1   3.385584056377411E-1  
 6.408408408408408E8    -7.376744747161865E-1   5.629873871803284E-1  -1.160536194220185E-3  -5.421163979917765E-3  -1.213212148286402E-3  -5.394030362367630E-3  -9.052427411079407E-1   3.486143946647644E-1  
 6.432432432432432E8    -7.290030717849731E-1   5.742774009704590E-1  -1.769766677170992E-3  -5.609271582216024E-3  -1.785804866813123E-3  -5.539412144571543E-3  -9.009413123130798E-1   3.582267761230469E-1  
 6.456456456456456E8    -7.197090983390808E-1   5.854242444038391E-1  -2.285532653331757E-3  -5.661843810230494E-3  -2.281688852235675E-3  -5.638732109218836E-3  -8.965131640434265E-1   3.675887286663055E-1  
 6.480480480480480E8    -7.101360559463501E-1   5.967116951942444E-1  -2.800197340548039E-3  -5.615330766886473E-3  -2.749169478192926E-3  -5.602039862424135E-3  -8.918768167495728E-1   3.769099116325378E-1  
 6.504504504504504E8    -6.999828219413757E-1   6.075329780578613E-1  -3.303461242467165E-3  -5.632563028484583E-3  -3.308525541797280E-3  -5.583309568464756E-3  -8.850443959236145E-1   3.887240886688232E-1  
 6.528528528528528E8    -6.894614696502686E-1   6.180385351181030E-1  -3.721830900758505E-3  -5.537656135857105E-3  -3.747760318219662E-3  -5.497530102729797E-3  -8.799923658370972E-1   4.003880620002747E-1  
 6.552552552552552E8    -6.791372299194336E-1   6.280485391616821E-1  -4.107878543436527E-3  -5.426918156445026E-3  -4.177349153906107E-3  -5.395328160375357E-3  -8.767427802085877E-1   4.108361303806305E-1  
 6.576576576576576E8    -6.684536933898926E-1   6.374011635780335E-1  -4.570764023810625E-3  -5.309271626174450E-3  -4.553532227873802E-3  -5.287594161927700E-3  -8.738150000572205E-1   4.190132319927216E-1  
 6.600600600600600E8    -6.563312411308289E-1   6.476973295211792E-1  -4.982407670468092E-3  -5.203762557357550E-3  -4.935189615935087E-3  -5.182363092899323E-3  -8.694915175437927E-1   4.265159368515015E-1  
 6.624624624624624E8    -6.445714831352234E-1   6.579341888427734E-1  -5.336084868758917E-3  -5.012642592191696E-3  -5.318905692547560E-3  -5.045268684625626E-3  -8.639016151428223E-1   4.370538890361786E-1  
 6.648648648648648E8    -6.324224472045898E-1   6.672813296318054E-1  -5.674163810908794E-3  -4.796579480171204E-3  -5.674893036484718E-3  -4.865494556725025E-3  -8.582825660705566E-1   4.475231766700745E-1  
 6.672672672672672E8    -6.203055977821350E-1   6.766001582145691E-1  -6.006899755448103E-3  -4.637855570763350E-3  -5.973926745355129E-3  -4.630640614777803E-3  -8.528445363044739E-1   4.567644596099854E-1  
 6.696696696696696E8    -6.079035997390747E-1   6.857978701591492E-1  -6.297658197581768E-3  -4.450669512152672E-3  -6.281763315200806E-3  -4.429196938872337E-3  -8.471735715866089E-1   4.660676419734955E-1  
 6.720720720720720E8    -5.943482518196106E-1   6.947193145751953E-1  -6.572336889803410E-3  -4.277534317225218E-3  -6.497315131127834E-3  -4.258020780980587E-3  -8.417163491249085E-1   4.750228524208069E-1  
 6.744744744744744E8    -5.811336040496826E-1   7.035501599311829E-1  -6.837881170213223E-3  -4.105030559003353E-3  -6.807252299040556E-3  -4.072780255228281E-3  -8.358227014541626E-1   4.849928021430969E-1  
 6.768768768768768E8    -5.675656795501709E-1   7.121320366859436E-1  -7.048787549138069E-3  -3.912467975169420E-3  -7.011894136667252E-3  -3.941365983337164E-3  -8.297490477561951E-1   4.942780435085297E-1  
 6.792792792792792E8    -5.536597967147827E-1   7.204087972640991E-1  -7.258241064846516E-3  -3.741648513823748E-3  -7.291012909263372E-3  -3.767153248190880E-3  -8.238351345062256E-1   5.037258863449097E-1  
 6.816816816816816E8    -5.396721363067627E-1   7.282704710960388E-1  -7.546901702880859E-3  -3.600438125431538E-3  -7.590347435325384E-3  -3.582599805667996E-3  -8.176962137222290E-1   5.131064653396606E-1  
 6.840840840840840E8    -5.245529413223267E-1   7.357503771781921E-1  -7.796230260282755E-3  -3.446318674832583E-3  -7.792591582983732E-3  -3.486477071419358E-3  -8.116149902343750E-1   5.224227309226990E-1  
 6.864864864864864E8    -5.092086791992188E-1   7.428134679794312E-1  -8.028551004827023E-3  -3.239533863961697E-3  -8.007355034351349E-3  -3.310749307274818E-3  -8.048892021179199E-1   5.310379862785339E-1  
 6.888888888888888E8    -4.936947524547577E-1   7.499299049377441E-1  -8.321644738316536E-3  -3.154102247208357E-3  -8.303832262754440E-3  -3.155839163810015E-3  -7.976314425468445E-1   5.404393672943115E-1  
 6.912912912912912E8    -4.780359566211700E-1   7.562115788459778E-1  -8.547957055270672E-3  -2.842060057446361E-3  -8.441758342087269E-3  -2.965672407299280E-3  -7.906927466392517E-1   5.496909022331238E-1  
 6.936936936936936E8    -4.627188146114349E-1   7.619314193725586E-1  -8.802136406302452E-3  -2.718911971896887E-3  -8.741578087210655E-3  -2.702117897570133E-3  -7.841041088104248E-1   5.587688088417053E-1  
 6.960960960960960E8    -4.463057816028595E-1   7.676394581794739E-1  -9.049402549862862E-3  -2.529210178181529E-3  -8.944309316575527E-3  -2.529887016862631E-3  -7.774201631546021E-1   5.679345726966858E-1  
 6.984984984984984E8    -4.309191107749939E-1   7.721773982048035E-1  -9.119258262217045E-3  -2.237053122371435E-3  -9.240931831300259E-3  -2.146758139133453E-3  -7.679460048675537E-1   5.804244875907898E-1  
 7.009009009009008E8    -4.149685502052307E-1   7.761058211326599E-1  -9.291148744523525E-3  -2.011429984122515E-3  -9.267843328416348E-3  -1.813137438148260E-3  -7.586640715599060E-1   5.912523269653320E-1  
 7.033033033033032E8    -3.985369205474854E-1   7.789580225944519E-1  -9.216847829520702E-3  -1.906024641357362E-3  -9.225396439433098E-3  -1.735579222440720E-3  -7.513974905014038E-1   5.993424057960510E-1  
 7.057057057057056E8    -3.820963799953461E-1   7.809504270553589E-1  -9.109852835536003E-3  -1.728358794935048E-3  -9.196858853101730E-3  -1.672470709308982E-3  -7.464430332183838E-1   6.043540835380554E-1  
 7.081081081081080E8    -3.644921183586121E-1   7.835592627525330E-1  -9.046684019267559E-3  -1.762926578521729E-3  -8.908968418836594E-3  -1.767722191289067E-3  -7.407626509666443E-1   6.103705763816834E-1  
 7.105105105105104E8    -3.478392660617828E-1   7.860365509986877E-1  -8.825215511023998E-3  -1.989244250580668E-3  -8.804032579064369E-3  -2.104935701936483E-3  -7.347753047943115E-1   6.169899106025696E-1  
 7.129129129129129E8    -3.329226076602936E-1   7.868480682373047E-1  -8.715221658349037E-3  -2.572615165263414E-3  -8.697235956788063E-3  -2.688811859115958E-3  -7.274616956710815E-1   6.247900724411011E-1  
 7.153153153153153E8    -3.186257779598236E-1   7.877036929130554E-1  -8.741070516407490E-3  -3.349883947521448E-3  -8.653698489069939E-3  -3.341421717777848E-3  -7.185780405998230E-1   6.337480545043945E-1  
 7.177177177177178E8    -3.039581775665283E-1   7.875425219535828E-1  -8.958234451711178E-3  -4.406263586133719E-3  -9.047175757586956E-3  -4.447793122380972E-3  -7.089551687240601E-1   6.433016061782837E-1  
 7.201201201201202E8    -2.881285548210144E-1   7.881371974945068E-1  -9.700541384518147E-3  -5.738833919167519E-3  -9.649358689785004E-3  -5.759403575211763E-3  -6.997512578964233E-1   6.520773768424988E-1  
 7.225225225225226E8    -2.741298973560333E-1   7.884554862976074E-1  -1.099862065166235E-2  -7.169311400502920E-3  -1.109913829714060E-2  -7.073787041008472E-3  -6.896455287933350E-1   6.611805558204651E-1  
 7.249249249249250E8    -2.598007619380951E-1   7.900082468986511E-1  -1.315139047801495E-2  -8.305099792778492E-3  -1.303317677229643E-2  -8.451602421700954E-3  -6.817067861557007E-1   6.674044728279114E-1  
 7.273273273273274E8    -2.459245920181274E-1   7.921162843704224E-1  -1.585527695715427E-2  -8.832105435431004E-3  -1.570650562644005E-2  -9.180325083434582E-3  -6.739246249198914E-1   6.736594438552856E-1  
 7.297297297297298E8    -2.326582670211792E-1   7.946715950965881E-1  -1.884419284760952E-2  -8.824156597256661E-3  -1.873326487839222E-2  -9.056615643203259E-3  -6.656688451766968E-1   6.801607012748718E-1  
 7.321321321321322E8    -2.186422944068909E-1   7.974312901496887E-1  -2.172174677252770E-2  -8.066086098551750E-3  -2.171215415000916E-2  -7.997157052159309E-3  -6.574069857597351E-1   6.873846054077148E-1  
 7.345345345345346E8    -2.021379172801971E-1   7.996463775634766E-1  -2.445876039564610E-2  -6.590896751731634E-3  -2.442555315792561E-2  -6.439063232392073E-3  -6.487477421760559E-1   6.949371099472046E-1  
 7.369369369369370E8    -1.839556545019150E-1   8.005141615867615E-1  -2.674905955791473E-2  -4.667706321924925E-3  -2.676137350499630E-2  -4.383847117424011E-3  -6.397824287414551E-1   7.028024196624756E-1  
 7.393393393393394E8    -1.650348603725433E-1   7.996353507041931E-1  -2.858066000044346E-2  -2.436934271827340E-3  -2.852046489715576E-2  -2.072708681225777E-3  -6.306046247482300E-1   7.104132771492004E-1  
 7.417417417417418E8    -1.466935276985169E-1   7.976842522621155E-1  -3.003920242190361E-2  -1.711464574327692E-4  -2.998130209743977E-2   3.362843199283816E-5  -6.219869852066040E-1   7.172984480857849E-1  
 7.441441441441442E8    -1.278266906738281E-1   7.950963377952576E-1  -3.144030272960663E-2   2.272798446938396E-3  -3.148882836103439E-2   2.271766308695078E-3  -6.133684515953064E-1   7.235862612724304E-1  
 7.465465465465466E8    -1.116118729114533E-1   7.926072478294373E-1  -3.256253525614739E-2   4.774547182023525E-3  -3.266906738281250E-2   4.759108647704125E-3  -6.030669212341309E-1   7.313638925552368E-1  
 7.489489489489490E8    -9.505031257867813E-2   7.882304191589356E-1  -3.357769176363945E-2   7.365971803665161E-3  -3.369407355785370E-2   7.351872045546770E-3  -5.938891172409058E-1   7.380091547966003E-1  
 7.513513513513514E8    -7.805722206830978E-2   7.828726172447205E-1  -3.419340029358864E-2   1.018526218831539E-2  -3.428172320127487E-2   1.011778041720390E-2  -5.848446488380432E-1   7.445304393768311E-1  
 7.537537537537538E8    -5.950825288891792E-2   7.775277495384216E-1  -3.443469107151032E-2   1.296961121261120E-2  -3.454615920782089E-2   1.280322950333357E-2  -5.749328136444092E-1   7.512132525444031E-1  
 7.561561561561562E8    -4.053727537393570E-2   7.710090279579163E-1  -3.473542258143425E-2   1.556087471544743E-2  -3.463839739561081E-2   1.550272200256586E-2  -5.643104910850525E-1   7.566949129104614E-1  
 7.585585585585586E8    -2.234513685107231E-2   7.638230323791504E-1  -3.477903828024864E-2   1.823255419731140E-2  -3.461030870676041E-2   1.823829486966133E-2  -5.515830516815186E-1   7.640649080276489E-1  
 7.609609609609610E8    -4.992166999727488E-3   7.557155489921570E-1  -3.473654389381409E-2   2.102944254875183E-2  -3.444691747426987E-2   2.092411927878857E-2  -5.394863486289978E-1   7.718676328659058E-1  
 7.633633633633634E8     1.121996343135834E-2   7.470735907554627E-1  -3.441851213574410E-2   2.386236935853958E-2  -3.413336351513863E-2   2.366119436919689E-2  -5.288958549499512E-1   7.783902287483215E-1  
 7.657657657657658E8     2.766369096934795E-2   7.387518286705017E-1  -3.385641053318977E-2   2.665518969297409E-2  -3.376391530036926E-2   2.642519958317280E-2  -5.206014513969421E-1   7.833290100097656E-1  
 7.681681681681682E8     4.437378048896790E-2   7.303897738456726E-1  -3.322771936655045E-2   2.936013787984848E-2  -3.319555148482323E-2   2.936411462724209E-2  -5.137478113174439E-1   7.876590490341187E-1  
 7.705705705705706E8     5.901039391756058E-2   7.222784161567688E-1  -3.217109665274620E-2   3.199602290987968E-2  -3.233259543776512E-2   3.203148022294045E-2  -5.061544775962830E-1   7.929943799972534E-1  
 7.729729729729730E8     7.557676732540131E-2   7.118700742721558E-1  -3.097381815314293E-2   3.434186428785324E-2  -3.127566725015640E-2   3.458163887262344E-2  -4.979977905750275E-1   8.009154796600342E-1  
 7.753753753753754E8     9.243019670248032E-2   6.993101239204407E-1  -2.986528538167477E-2   3.672105446457863E-2  -3.023944422602654E-2   3.706058487296104E-2  -4.870419204235077E-1   8.087610006332398E-1  
 7.777777777777778E8     1.079649850726128E-1   6.845366954803467E-1  -2.889380231499672E-2   3.926282003521919E-2  -2.905933000147343E-2   3.948166593909264E-2  -4.735200703144074E-1   8.143174648284912E-1  
 7.801801801801802E8     1.221492886543274E-1   6.681309342384338E-1  -2.772367000579834E-2   4.180638492107391E-2  -2.767605334520340E-2   4.183198511600494E-2  -4.592947661876679E-1   8.160542845726013E-1  
 7.825825825825826E8     1.345967650413513E-1   6.503297686576843E-1  -2.646753750741482E-2   4.436375573277473E-2  -2.618046477437019E-2   4.434535652399063E-2  -4.446718692779541E-1   8.199126720428467E-1  
 7.849849849849850E8     1.454405784606934E-1   6.326448917388916E-1  -2.493421360850334E-2   4.737220332026482E-2  -2.483931928873062E-2   4.704101383686066E-2  -4.337418973445892E-1   8.222562074661255E-1  
 7.873873873873874E8     1.545839607715607E-1   6.161397695541382E-1  -2.267042174935341E-2   5.042318999767304E-2  -2.256164140999317E-2   4.994702339172363E-2  -4.237776398658752E-1   8.259379863739014E-1  
 7.897897897897898E8     1.646036207675934E-1   5.994668602943420E-1  -2.015378884971142E-2   5.285301059484482E-2  -2.004839479923248E-2   5.244984850287437E-2  -4.130179882049561E-1   8.319247364997864E-1  
 7.921921921921922E8     1.761083155870438E-1   5.812121033668518E-1  -1.755244098603725E-2   5.510213226079941E-2  -1.743611693382263E-2   5.497561395168304E-2  -4.021589756011963E-1   8.394583463668823E-1  
 7.945945945945946E8     1.843817085027695E-1   5.648199319839478E-1  -1.459228247404099E-2   5.730356648564339E-2  -1.477167848497629E-2   5.721686780452728E-2  -3.901493549346924E-1   8.434599041938782E-1  
 7.969969969969970E8     1.912145465612412E-1   5.469626188278198E-1  -1.140076201409102E-2   5.910869687795639E-2  -1.164253894239664E-2   5.908168852329254E-2  -3.782997727394104E-1   8.478178977966309E-1  
 7.993993993993994E8     1.967066377401352E-1   5.281663537025452E-1  -8.577212691307068E-3   6.028373539447784E-2  -8.682787418365479E-3   6.034896150231361E-2  -3.658246994018555E-1   8.523515462875366E-1  
 8.018018018018018E8     2.010971456766129E-1   5.061683058738709E-1  -6.011386401951313E-3   6.148022040724754E-2  -6.042509805411100E-3   6.166422367095947E-2  -3.521431982517242E-1   8.568479418754578E-1  
 8.042042042042042E8     2.032859176397324E-1   4.844738841056824E-1  -3.352308413013816E-3   6.293082982301712E-2  -3.324412973597646E-3   6.303958594799042E-2  -3.404532074928284E-1   8.603041768074036E-1  
 8.066066066066066E8     2.020005285739899E-1   4.645258784294128E-1  -8.986352477222681E-4   6.414853781461716E-2  -8.043405832722783E-4   6.431837379932404E-2  -3.270574212074280E-1   8.650969266891480E-1  
 8.090090090090090E8     1.990756988525391E-1   4.447971284389496E-1   1.512946095317602E-3   6.588941067457199E-2   1.653735176660121E-3   6.594554334878922E-2  -3.132376968860626E-1   8.687368631362915E-1  
 8.114114114114114E8     1.944107711315155E-1   4.261762201786041E-1   4.372874274849892E-3   6.798285990953445E-2   4.542673937976360E-3   6.804749369621277E-2  -2.997761666774750E-1   8.720036745071411E-1  
 8.138138138138138E8     1.878454089164734E-1   4.093340337276459E-1   7.883959449827671E-3   6.999996304512024E-2   8.015303872525692E-3   6.992052495479584E-2  -2.865502834320068E-1   8.744851350784302E-1  
 8.162162162162162E8     1.813373714685440E-1   3.943066895008087E-1   1.161532942205668E-2   7.171764969825745E-2   1.166600547730923E-2   7.155130058526993E-2  -2.732935249805450E-1   8.773493170738220E-1  
 8.186186186186186E8     1.730496287345886E-1   3.797474801540375E-1   1.550868246704340E-2   7.345035672187805E-2   1.551221031695604E-2   7.334797829389572E-2  -2.595653235912323E-1   8.801909685134888E-1  
 8.210210210210210E8     1.624559760093689E-1   3.662317097187042E-1   2.014732547104359E-2   7.504680752754211E-2   2.018352411687374E-2   7.501788437366486E-2  -2.456180453300476E-1   8.821449875831604E-1  
 8.234234234234234E8     1.515807956457138E-1   3.554110229015350E-1   2.537934482097626E-2   7.607303559780121E-2   2.543121576309204E-2   7.610382884740830E-2  -2.313060313463211E-1   8.841388225555420E-1  
