#  HZ   S   RI   R     50.00 
! Rohde & Schwarz ZVB8 2Ports - Version 2.81 - 1145.1010k08 SN: 100113
! Date: 2016-05-12 03:17:27
! Measurements: S11 S21 S12 S22 
! 
 6.000000000000000E8    -7.870730161666870E-1   4.377750754356384E-1  -2.272433135658503E-3  -4.742007236927748E-3  -2.148539759218693E-3  -4.725418519228697E-3  -9.147685766220093E-1   2.780561745166779E-1  
 6.024024024024024E8    -7.749921679496765E-1   4.505599737167358E-1  -2.265577204525471E-3  -4.945210646837950E-3  -2.352073555812240E-3  -5.011531990021467E-3  -9.087030887603760E-1   2.918483316898346E-1  
 6.048048048048048E8    -7.627370357513428E-1   4.639542996883392E-1  -2.409189706668258E-3  -5.291298497468233E-3  -2.489276463165879E-3  -5.254630465060473E-3  -9.025388956069946E-1   3.060906827449799E-1  
 6.072072072072072E8    -7.489883303642273E-1   4.778685569763184E-1  -2.561900997534394E-3  -5.578173790127039E-3  -2.616028534248471E-3  -5.587174557149410E-3  -8.960278034210205E-1   3.195604979991913E-1  
 6.096096096096096E8    -7.344041466712952E-1   4.914289116859436E-1  -2.764021046459675E-3  -5.920839030295610E-3  -2.694867784157395E-3  -5.866872612386942E-3  -8.887840509414673E-1   3.336614072322846E-1  
 6.120120120120120E8    -7.213678359985352E-1   5.024152398109436E-1  -2.887303708121181E-3  -6.272858474403620E-3  -2.754063112661243E-3  -6.329684518277645E-3  -8.821702003479004E-1   3.457636833190918E-1  
 6.144144144144144E8    -7.074438929557800E-1   5.129587054252625E-1  -2.883126959204674E-3  -6.818062625825405E-3  -2.842682180926204E-3  -6.863975431770086E-3  -8.753031492233276E-1   3.590427339076996E-1  
 6.168168168168168E8    -6.924721002578735E-1   5.230054259300232E-1  -2.959012752398849E-3  -7.472474128007889E-3  -2.896286081522703E-3  -7.538063451647759E-3  -8.678750991821289E-1   3.728249669075012E-1  
 6.192192192192192E8    -6.773650646209717E-1   5.321906208992004E-1  -2.995275892317295E-3  -8.311834186315537E-3  -2.964729443192482E-3  -8.277340792119503E-3  -8.595278263092041E-1   3.868102133274078E-1  
 6.216216216216216E8    -6.622372269630432E-1   5.402871370315552E-1  -3.140392946079373E-3  -9.404255077242851E-3  -3.125135786831379E-3  -9.433384984731674E-3  -8.502852320671082E-1   4.014003276824951E-1  
 6.240240240240240E8    -6.474063992500305E-1   5.479896068572998E-1  -3.552716458216310E-3  -1.099143177270889E-2  -3.556864801794291E-3  -1.100300624966621E-2  -8.403046131134033E-1   4.159541726112366E-1  
 6.264264264264264E8    -6.343521475791931E-1   5.566231608390808E-1  -4.364230204373598E-3  -1.267267670482397E-2  -4.440407268702984E-3  -1.262348424643278E-2  -8.289862871170044E-1   4.317058622837067E-1  
 6.288288288288288E8    -6.205430626869202E-1   5.658321976661682E-1  -5.750097800046206E-3  -1.453310251235962E-2  -5.723183043301106E-3  -1.445717085152865E-2  -8.177267313003540E-1   4.460704326629639E-1  
 6.312312312312312E8    -6.063768863677979E-1   5.753474235534668E-1  -7.777726743370295E-3  -1.642157882452011E-2  -7.668119389563799E-3  -1.637992635369301E-2  -8.059962391853333E-1   4.590715169906616E-1  
 6.336336336336336E8    -5.916357636451721E-1   5.849324464797974E-1  -1.033348776400089E-2  -1.816933788359165E-2  -1.031434256583452E-2  -1.819405145943165E-2  -7.948630452156067E-1   4.714710116386414E-1  
 6.360360360360360E8    -5.759053230285645E-1   5.946065783500671E-1  -1.355434302240610E-2  -1.961161568760872E-2  -1.357955764979124E-2  -1.961542852222920E-2  -7.839649319648743E-1   4.826155602931976E-1  
 6.384384384384384E8    -5.594083070755005E-1   6.047865748405457E-1  -1.745029725134373E-2  -2.048065699636936E-2  -1.745257340371609E-2  -2.039488218724728E-2  -7.717183232307434E-1   4.965887069702148E-1  
 6.408408408408408E8    -5.415228009223938E-1   6.150496602058411E-1  -2.177985012531281E-2  -2.028303779661655E-2  -2.169810608029366E-2  -2.035263553261757E-2  -7.584095001220703E-1   5.105814933776856E-1  
 6.432432432432432E8    -5.225530862808228E-1   6.250516176223755E-1  -2.594460360705853E-2  -1.928125135600567E-2  -2.601507119834423E-2  -1.928920112550259E-2  -7.435216307640076E-1   5.246257781982422E-1  
 6.456456456456456E8    -5.013799071311951E-1   6.346537470817566E-1  -2.990263327956200E-2  -1.765894144773483E-2  -2.979603782296181E-2  -1.767778024077416E-2  -7.289464473724365E-1   5.377838611602783E-1  
 6.480480480480480E8    -4.776374101638794E-1   6.425625681877136E-1  -3.363704308867455E-2  -1.576967351138592E-2  -3.341846913099289E-2  -1.576752215623856E-2  -7.124441266059876E-1   5.510407090187073E-1  
 6.504504504504504E8    -4.526342153549194E-1   6.491440534591675E-1  -3.728811070322990E-2  -1.338306907564402E-2  -3.713758289813995E-2  -1.340167783200741E-2  -6.924710273742676E-1   5.668678879737854E-1  
 6.528528528528528E8    -4.267064929008484E-1   6.537956595420837E-1  -4.080421105027199E-2  -1.066062878817320E-2  -4.069500043988228E-2  -1.067956443876028E-2  -6.731557250022888E-1   5.824563503265381E-1  
 6.552552552552552E8    -3.991028368473053E-1   6.560800075531006E-1  -4.411248117685318E-2  -7.521031890064478E-3  -4.403254017233849E-2  -7.545061875134707E-3  -6.543993353843689E-1   5.962356925010681E-1  
 6.576576576576576E8    -3.709448277950287E-1   6.557186841964722E-1  -4.719471931457520E-2  -4.018307197839022E-3  -4.731665179133415E-2  -4.062502179294825E-3  -6.350417733192444E-1   6.079328060150147E-1  
 6.600600600600600E8    -3.409417271614075E-1   6.533358693122864E-1  -5.039793625473976E-2  -2.154903195332736E-4  -5.055317655205727E-2  -2.027843438554555E-4  -6.130550503730774E-1   6.180537343025208E-1  
 6.624624624624624E8    -3.122487068176270E-1   6.491305232048035E-1  -5.356425046920776E-2   4.198927432298660E-3  -5.385721847414970E-2   4.301557783037424E-3  -5.882238149642944E-1   6.304295063018799E-1  
 6.648648648648648E8    -2.818696796894074E-1   6.409737467765808E-1  -5.667864158749580E-2   9.764517657458782E-3  -5.648020654916763E-2   9.424723684787750E-3  -5.632596611976624E-1   6.413702368736267E-1  
 6.672672672672672E8    -2.520067691802979E-1   6.307003498077393E-1  -5.903906002640724E-2   1.574439182877541E-2  -5.896076932549477E-2   1.538544055074453E-2  -5.355718135833740E-1   6.514914035797119E-1  
 6.696696696696696E8    -2.222475707530975E-1   6.178641319274902E-1  -6.102474033832550E-2   2.201870828866959E-2  -6.099544093012810E-2   2.172927930951119E-2  -5.065338611602783E-1   6.601842045783997E-1  
 6.720720720720720E8    -1.921118199825287E-1   6.018887162208557E-1  -6.268282979726791E-2   2.885921113193035E-2  -6.263451278209686E-2   2.893164381384850E-2  -4.756017327308655E-1   6.678077578544617E-1  
 6.744744744744744E8    -1.634645760059357E-1   5.824540257453919E-1  -6.363508850336075E-2   3.664845228195190E-2  -6.385549902915955E-2   3.705540299415588E-2  -4.412644207477570E-1   6.740041971206665E-1  
 6.768768768768768E8    -1.360934823751450E-1   5.577111840248108E-1  -6.353949010372162E-2   4.541104286909103E-2  -6.375064700841904E-2   4.595953971147537E-2  -4.053911566734314E-1   6.780169606208801E-1  
 6.792792792792792E8    -1.116227433085442E-1   5.281946063041687E-1  -6.213258206844330E-2   5.481968447566032E-2  -6.226975098252296E-2   5.479232594370842E-2  -3.690215647220612E-1   6.793962717056274E-1  
 6.816816816816816E8    -9.096883237361908E-2   4.953133463859558E-1  -5.944039300084114E-2   6.445226073265076E-2  -5.970973521471024E-2   6.425169855356216E-2  -3.302470147609711E-1   6.786645650863648E-1  
 6.840840840840840E8    -7.474572211503983E-2   4.596764147281647E-1  -5.527447164058685E-2   7.455338537693024E-2  -5.544501543045044E-2   7.404079288244247E-2  -2.884694337844849E-1   6.746302247047424E-1  
 6.864864864864864E8    -6.408772617578507E-2   4.254176318645477E-1  -4.908535629510880E-2   8.385136723518372E-2  -4.938261210918427E-2   8.349363505840302E-2  -2.444658130407333E-1   6.650534272193909E-1  
 6.888888888888888E8    -5.714548006653786E-2   3.914391100406647E-1  -4.196206107735634E-2   9.273473918437958E-2  -4.233899340033531E-2   9.258285164833069E-2  -1.973099112510681E-1   6.510300040245056E-1  
 6.912912912912912E8    -5.511059984564781E-2   3.532754182815552E-1  -3.286890313029289E-2   1.017222180962563E-1  -3.327610716223717E-2   1.015522554516792E-1  -1.493302732706070E-1   6.309077143669128E-1  
 6.936936936936936E8    -5.821185186505318E-2   3.161143064498901E-1  -2.158031798899174E-2   1.091481149196625E-1  -2.184752747416496E-2   1.093391627073288E-1  -1.009908318519592E-1   6.044838428497315E-1  
 6.960960960960960E8    -6.601785123348236E-2   2.790294289588928E-1  -8.494706824421883E-3   1.148902848362923E-1  -8.416572585701942E-3   1.152263730764389E-1  -5.311638489365578E-2   5.704804062843323E-1  
 6.984984984984984E8    -8.050566166639328E-2   2.451907247304916E-1   5.673840641975403E-3   1.181184053421021E-1   7.465893868356943E-3   1.183674037456513E-1  -4.566037096083164E-3   5.275666117668152E-1  
 7.009009009009008E8    -9.931372851133347E-2   2.150464951992035E-1   2.078247629106045E-2   1.181627213954926E-1   2.314191125333309E-2   1.177496984601021E-1   3.808677569031715E-2   4.774566888809204E-1  
 7.033033033033032E8    -1.216908544301987E-1   1.889515668153763E-1   3.572532907128334E-2   1.147683486342430E-1   3.716976940631867E-2   1.141723170876503E-1   7.266781479120255E-2   4.200218915939331E-1  
 7.057057057057056E8    -1.428574770689011E-1   1.700962930917740E-1   4.823908582329750E-2   1.082753390073776E-1   4.906059429049492E-2   1.078519597649574E-1   9.892808645963669E-2   3.526251018047333E-1  
 7.081081081081080E8    -1.644824594259262E-1   1.531957089900971E-1   5.830914899706841E-2   1.002451255917549E-1   5.811990797519684E-2   1.002498641610146E-1   1.170711293816567E-1   2.747852802276611E-1  
 7.105105105105104E8    -1.901656091213226E-1   1.384877860546112E-1   6.532146781682968E-2   9.191777557134628E-2   6.460551917552948E-2   9.247594326734543E-2   1.215006038546562E-1   1.926247030496597E-1  
 7.129129129129129E8    -2.186612486839294E-1   1.279938519001007E-1   6.944796442985535E-2   8.406094461679459E-2   6.847555190324783E-2   8.504358679056168E-2   1.087639704346657E-1   1.057480573654175E-1  
 7.153153153153153E8    -2.469249218702316E-1   1.233501210808754E-1   7.029910385608673E-2   7.900936901569367E-2   7.006236165761948E-2   7.939969748258591E-2   7.724477350711823E-2   2.295717783272266E-2  
 7.177177177177178E8    -2.730867564678192E-1   1.238172873854637E-1   7.100312411785126E-2   7.776610553264618E-2   7.117283344268799E-2   7.783342897891998E-2   2.854851447045803E-2  -4.936602339148521E-2  
 7.201201201201202E8    -2.949654459953308E-1   1.296534091234207E-1   7.415394484996796E-2   8.023609220981598E-2   7.437472045421600E-2   7.992447912693024E-2  -3.415536507964134E-2  -1.067788228392601E-1  
 7.225225225225226E8    -3.110048472881317E-1   1.381658911705017E-1   8.209824562072754E-2   8.474149554967880E-2   8.248062431812286E-2   8.419895917177200E-2  -1.024687066674233E-1  -1.442294716835022E-1  
 7.249249249249250E8    -3.207999765872955E-1   1.450564563274384E-1   9.651649743318558E-2   8.731815963983536E-2   9.550270438194275E-2   8.791346102952957E-2  -1.676756143569946E-1  -1.629002094268799E-1  
 7.273273273273274E8    -3.287527561187744E-1   1.491144448518753E-1   1.154726594686508E-1   8.543664962053299E-2   1.137762442231178E-1   8.696037530899048E-2  -2.237313091754913E-1  -1.678249090909958E-1  
 7.297297297297298E8    -3.356066346168518E-1   1.492530852556229E-1   1.359567940235138E-1   7.741538435220718E-2   1.347372531890869E-1   7.861549407243729E-2  -2.689799070358276E-1  -1.667297929525375E-1  
 7.321321321321322E8    -3.452786505222321E-1   1.447564065456390E-1   1.555736958980560E-1   6.247282028198242E-2   1.554392874240875E-1   6.265685707330704E-2  -3.049592077732086E-1  -1.653340756893158E-1  
 7.345345345345346E8    -3.584107756614685E-1   1.401691287755966E-1   1.713495403528214E-1   3.984273597598076E-2   1.715339422225952E-1   3.945660963654518E-2  -3.381312787532806E-1  -1.679049134254456E-1  
 7.369369369369370E8    -3.751930892467499E-1   1.369598358869553E-1   1.800071299076080E-1   1.201756205409765E-2   1.802040785551071E-1   1.088905427604914E-2  -3.722110986709595E-1  -1.730250567197800E-1  
 7.393393393393394E8    -3.941211104393005E-1   1.375186145305634E-1   1.799473464488983E-1  -1.654051803052425E-2   1.799848824739456E-1  -1.769383996725082E-2  -4.081999659538269E-1  -1.781138032674789E-1  
 7.417417417417418E8    -4.105145633220673E-1   1.405306756496429E-1   1.740674972534180E-1  -4.212653264403343E-2   1.738615036010742E-1  -4.283930361270905E-2  -4.475072026252747E-1  -1.809962242841721E-1  
 7.441441441441442E8    -4.244453012943268E-1   1.426472365856171E-1   1.643575429916382E-1  -6.522852927446365E-2   1.638496071100235E-1  -6.539602577686310E-2  -4.875008761882782E-1  -1.796330809593201E-1  
 7.465465465465466E8    -4.427678883075714E-1   1.453551203012466E-1   1.507449001073837E-1  -8.477109670639038E-2   1.500086784362793E-1  -8.508907258510590E-2  -5.270950794219971E-1  -1.725089102983475E-1  
 7.489489489489490E8    -4.634242057800293E-1   1.504926681518555E-1   1.342461854219437E-1  -1.004913747310638E-1   1.338492035865784E-1  -1.005468145012856E-1  -5.662599802017212E-1  -1.619500368833542E-1  
 7.513513513513514E8    -4.831441044807434E-1   1.587701290845871E-1   1.159031018614769E-1  -1.120697483420372E-1   1.161377727985382E-1  -1.118353232741356E-1  -6.027093529701233E-1  -1.480505615472794E-1  
 7.537537537537538E8    -5.014808773994446E-1   1.688877344131470E-1   9.773627668619156E-2  -1.194594427943230E-1   9.849605709314346E-2  -1.191866248846054E-1  -6.365562677383423E-1  -1.308112144470215E-1  
 7.561561561561562E8    -5.198067426681519E-1   1.812832057476044E-1   8.108810335397720E-2  -1.241122782230377E-1   8.118346333503723E-2  -1.238562688231468E-1  -6.673870086669922E-1  -1.114143654704094E-1  
 7.585585585585586E8    -5.366293787956238E-1   1.978250741958618E-1   6.468731909990311E-2  -1.265126466751099E-1   6.451556086540222E-2  -1.261054873466492E-1  -6.944554448127747E-1  -8.801188319921494E-2  
 7.609609609609610E8    -5.513557791709900E-1   2.147332131862640E-1   4.923496767878532E-2  -1.263975650072098E-1   4.895910248160362E-2  -1.258262842893601E-1  -7.195565700531006E-1  -6.220095604658127E-2  
 7.633633633633634E8    -5.653831958770752E-1   2.334218621253967E-1   3.503982350230217E-2  -1.243331581354141E-1   3.510799258947372E-2  -1.235516294836998E-1  -7.430751919746399E-1  -3.518318012356758E-2  
 7.657657657657658E8    -5.781900882720947E-1   2.525864541530609E-1   2.283382229506970E-2  -1.212535500526428E-1   2.278182096779347E-2  -1.206599622964859E-1  -7.648592591285706E-1  -8.328921161592007E-3  
 7.681681681681682E8    -5.890592336654663E-1   2.727738916873932E-1   1.196189969778061E-2  -1.174621954560280E-1   1.136884652078152E-2  -1.169582828879356E-1  -7.833840250968933E-1   1.638225279748440E-2  
 7.705705705705706E8    -5.986814498901367E-1   2.955701649188995E-1   1.787302433513105E-3  -1.123698428273201E-1   1.546428538858891E-3  -1.120876595377922E-1  -7.978678941726685E-1   4.234335571527481E-2  
 7.729729729729730E8    -6.047156453132629E-1   3.196136951446533E-1  -7.684331387281418E-3  -1.060442328453064E-1  -7.274354808032513E-3  -1.068898588418961E-1  -8.105458021163940E-1   6.751536577939987E-2  
 7.753753753753754E8    -6.078851222991943E-1   3.422673642635346E-1  -1.518732216209173E-2  -9.919217973947525E-2  -1.485329493880272E-2  -1.003639250993729E-1  -8.204659223556519E-1   9.405823796987534E-2  
 7.777777777777778E8    -6.089650988578796E-1   3.634872138500214E-1  -2.116882055997849E-2  -9.256573766469955E-2  -2.102118730545044E-2  -9.356616437435150E-2  -8.266772627830505E-1   1.214478239417076E-1  
 7.801801801801802E8    -6.081689596176148E-1   3.818019628524780E-1  -2.608454786241055E-2  -8.641493320465088E-2  -2.612766064703465E-2  -8.634193986654282E-2  -8.289545774459839E-1   1.472032219171524E-1  
 7.825825825825826E8    -6.051636934280396E-1   4.006334841251373E-1  -2.992674522101879E-2  -7.985331863164902E-2  -3.017744421958923E-2  -7.955751568078995E-2  -8.310220837593079E-1   1.735199689865112E-1  
 7.849849849849850E8    -6.034272313117981E-1   4.205186367034912E-1  -3.311713412404060E-2  -7.375682145357132E-2  -3.301876038312912E-2  -7.334551960229874E-2  -8.318235278129578E-1   1.962918639183044E-1  
 7.873873873873874E8    -6.005669236183167E-1   4.405606687068939E-1  -3.558986634016037E-2  -6.803341209888458E-2  -3.522509336471558E-2  -6.772705912590027E-2  -8.327994942665100E-1   2.172029465436935E-1  
 7.897897897897898E8    -5.953580141067505E-1   4.604263007640839E-1  -3.749263659119606E-2  -6.240778788924217E-2  -3.726722300052643E-2  -6.207254901528359E-2  -8.341453075408936E-1   2.391650229692459E-1  
 7.921921921921922E8    -5.880990028381348E-1   4.797684550285339E-1  -3.875105828046799E-2  -5.677218735218048E-2  -3.879259526729584E-2  -5.651859939098358E-2  -8.358462452888489E-1   2.609708309173584E-1  
 7.945945945945946E8    -5.833299756050110E-1   4.973991811275482E-1  -3.932806849479675E-2  -5.142790451645851E-2  -3.916959837079048E-2  -5.148215964436531E-2  -8.342185020446777E-1   2.800094187259674E-1  
 7.969969969969970E8    -5.777257680892944E-1   5.138926506042481E-1  -3.930424153804779E-2  -4.664732888340950E-2  -3.912067785859108E-2  -4.666203632950783E-2  -8.323361873626709E-1   2.992481589317322E-1  
 7.993993993993994E8    -5.720062255859375E-1   5.290558338165283E-1  -3.842528164386749E-2  -4.222710058093071E-2  -3.840288519859314E-2  -4.235189035534859E-2  -8.302168250083923E-1   3.174450397491455E-1  
 8.018018018018018E8    -5.650177597999573E-1   5.447829365730286E-1  -3.707950934767723E-2  -3.864761441946030E-2  -3.716656938195229E-2  -3.878975287079811E-2  -8.279195427894592E-1   3.360395431518555E-1  
 8.042042042042042E8    -5.569039583206177E-1   5.622926950454712E-1  -3.564090654253960E-2  -3.618479520082474E-2  -3.581870719790459E-2  -3.632830083370209E-2  -8.253238797187805E-1   3.535528779029846E-1  
 8.066066066066066E8    -5.468091368675232E-1   5.784226059913635E-1  -3.462613001465797E-2  -3.425601124763489E-2  -3.477415069937706E-2  -3.445607423782349E-2  -8.222333192825317E-1   3.722699880599976E-1  
 8.090090090090090E8    -5.370847582817078E-1   5.932180285453796E-1  -3.404904901981354E-2  -3.297003358602524E-2  -3.427358344197273E-2  -3.308472037315369E-2  -8.181770443916321E-1   3.902669548988342E-1  
 8.114114114114114E8    -5.270417928695679E-1   6.068420410156250E-1  -3.404301777482033E-2  -3.186499327421188E-2  -3.407825529575348E-2  -3.169718012213707E-2  -8.135300874710083E-1   4.070995450019836E-1  
 8.138138138138138E8    -5.168034434318543E-1   6.195275187492371E-1  -3.445001691579819E-2  -3.042248450219631E-2  -3.451011702418327E-2  -3.027234971523285E-2  -8.092136383056641E-1   4.228962063789368E-1  
 8.162162162162162E8    -5.072203874588013E-1   6.313508152961731E-1  -3.477643430233002E-2  -2.876962348818779E-2  -3.477113693952560E-2  -2.853433787822723E-2  -8.045392632484436E-1   4.383031129837036E-1  
 8.186186186186186E8    -4.980764687061310E-1   6.439294219017029E-1  -3.487089648842812E-2  -2.717341668903828E-2  -3.485044836997986E-2  -2.690462395548821E-2  -7.990075349807739E-1   4.540918469429016E-1  
 8.210210210210210E8    -4.874718189239502E-1   6.565797924995422E-1  -3.515987843275070E-2  -2.555472962558270E-2  -3.518491983413696E-2  -2.558248490095139E-2  -7.931514978408814E-1   4.681481719017029E-1  
 8.234234234234234E8    -4.754115343093872E-1   6.683149933815002E-1  -3.545318543910980E-2  -2.381480298936367E-2  -3.548684343695641E-2  -2.387502975761890E-2  -7.865038514137268E-1   4.831005334854126E-1  
