#  HZ   S   RI   R     50.00 
! Rohde & Schwarz ZVB8 2Ports - Version 2.81 - 1145.1010k08 SN: 100113
! Date: 2016-05-12 03:16:06
! Measurements: S11 S21 S12 S22 
! 
 6.000000000000000E8    -8.436518907546997E-1   3.918246626853943E-1  -3.336037916596979E-4  -1.789579750038683E-3  -4.110418667551130E-4  -1.974372193217278E-3  -9.548131227493286E-1   1.896618157625198E-1  
 6.024024024024024E8    -8.360359072685242E-1   4.041901528835297E-1  -2.185509219998494E-4  -2.103638835251331E-3  -3.969706594944000E-4  -1.989959506317973E-3  -9.518730044364929E-1   2.006715238094330E-1  
 6.048048048048048E8    -8.279983997344971E-1   4.172031283378601E-1  -1.895123277790844E-4  -2.075149444863200E-3  -3.097175504080951E-4  -2.071219962090254E-3  -9.489870071411133E-1   2.120941728353500E-1  
 6.072072072072072E8    -8.190158009529114E-1   4.311751127243042E-1  -2.803178795147687E-4  -2.183865988627076E-3  -2.225842617917806E-4  -2.149387728422880E-3  -9.460669159889221E-1   2.223551273345947E-1  
 6.096096096096096E8    -8.091770410537720E-1   4.455162882804871E-1  -2.224456547992304E-4  -2.348794369027019E-3  -2.400520606897771E-4  -2.286070957779884E-3  -9.426721334457398E-1   2.335981875658035E-1  
 6.120120120120120E8    -8.009412884712219E-1   4.570274055004120E-1  -2.363150560995564E-4  -2.417040988802910E-3  -2.255433646496385E-4  -2.457998227328062E-3  -9.400361180305481E-1   2.421376854181290E-1  
 6.144144144144144E8    -7.921512722969055E-1   4.685462713241577E-1  -6.652228330494836E-5  -2.573387464508414E-3  -7.300179277081043E-5  -2.496764995157719E-3  -9.375291466712952E-1   2.517504096031189E-1  
 6.168168168168168E8    -7.823796868324280E-1   4.799116849899292E-1   3.079425005125813E-5  -2.718862611800432E-3   5.869525921298191E-5  -2.715149428695440E-3  -9.350078105926514E-1   2.617768347263336E-1  
 6.192192192192192E8    -7.725989818572998E-1   4.910673797130585E-1   1.063666059053503E-4  -2.936485689133406E-3   2.615625562611967E-4  -2.925438107922673E-3  -9.321807026863098E-1   2.724203169345856E-1  
 6.216216216216216E8    -7.623620629310608E-1   5.013345479965210E-1   2.554054954089224E-4  -3.384452313184738E-3   2.818180364556611E-4  -3.377322573214769E-3  -9.283196926116943E-1   2.833922207355499E-1  
 6.240240240240240E8    -7.527258992195129E-1   5.115149617195129E-1   3.664616378955543E-4  -3.867315826937556E-3   3.868553612846881E-4  -3.876062575727701E-3  -9.243209362030029E-1   2.945689558982849E-1  
 6.264264264264264E8    -7.434113621711731E-1   5.225993394851685E-1   3.784857108257711E-4  -4.422615282237530E-3   3.949730016756803E-4  -4.365987610071898E-3  -9.198544621467590E-1   3.076703846454620E-1  
 6.288288288288288E8    -7.340019941329956E-1   5.335882902145386E-1   1.982997637242079E-4  -5.049784202128649E-3   2.085321902995929E-4  -5.071286577731371E-3  -9.155835509300232E-1   3.186147809028626E-1  
 6.312312312312312E8    -7.247363328933716E-1   5.446898341178894E-1  -1.216098680743016E-4  -5.853929556906223E-3  -9.006744949147105E-5  -5.735420156270266E-3  -9.110708832740784E-1   3.284654915332794E-1  
 6.336336336336336E8    -7.153130173683167E-1   5.555409789085388E-1  -4.729726933874190E-4  -6.399339064955711E-3  -5.927422898821533E-4  -6.435691844671965E-3  -9.070236682891846E-1   3.372147679328919E-1  
 6.360360360360360E8    -7.054938673973084E-1   5.668527483940125E-1  -1.119867549277842E-3  -7.074191700667143E-3  -1.143011497333646E-3  -7.052210159599781E-3  -9.037182331085205E-1   3.449820578098297E-1  
 6.384384384384384E8    -6.956695318222046E-1   5.779574513435364E-1  -2.016412094235420E-3  -7.623989135026932E-3  -2.081622602418065E-3  -7.659804075956345E-3  -8.995344042778015E-1   3.552572429180145E-1  
 6.408408408408408E8    -6.853341460227966E-1   5.896167159080505E-1  -2.879714826121926E-3  -7.967557758092880E-3  -2.894679550081492E-3  -7.972682826220989E-3  -8.952999114990234E-1   3.656170964241028E-1  
 6.432432432432432E8    -6.744282245635986E-1   6.012343764305115E-1  -3.938305657356978E-3  -8.163562044501305E-3  -3.924610093235970E-3  -8.131948299705982E-3  -8.906978964805603E-1   3.756332099437714E-1  
 6.456456456456456E8    -6.622675657272339E-1   6.129610538482666E-1  -4.746135789901018E-3  -8.052096702158451E-3  -4.738009069114924E-3  -8.071371354162693E-3  -8.857722282409668E-1   3.855426013469696E-1  
 6.480480480480480E8    -6.498005986213684E-1   6.245814561843872E-1  -5.581683479249477E-3  -8.030760101974011E-3  -5.534519441425800E-3  -8.012264966964722E-3  -8.805389404296875E-1   3.953042328357697E-1  
 6.504504504504504E8    -6.365763545036316E-1   6.358581185340881E-1  -6.392274517565966E-3  -7.836028002202511E-3  -6.353092379868031E-3  -7.817308418452740E-3  -8.731387853622437E-1   4.072273969650269E-1  
 6.528528528528528E8    -6.227200031280518E-1   6.464752554893494E-1  -7.122208829969168E-3  -7.593173533678055E-3  -7.080189883708954E-3  -7.587736472487450E-3  -8.676357865333557E-1   4.195195138454437E-1  
 6.552552552552552E8    -6.085628867149353E-1   6.565965414047241E-1  -7.760211359709501E-3  -7.342312484979630E-3  -7.775600533932447E-3  -7.254582829773426E-3  -8.635277748107910E-1   4.302266836166382E-1  
 6.576576576576576E8    -5.938405394554138E-1   6.654847264289856E-1  -8.393498137593269E-3  -7.046394981443882E-3  -8.404576219618321E-3  -7.051956839859486E-3  -8.598338961601257E-1   4.389935135841370E-1  
 6.600600600600600E8    -5.773231387138367E-1   6.754180192947388E-1  -9.003971703350544E-3  -6.818553898483515E-3  -8.935709483921528E-3  -6.751994602382183E-3  -8.550344109535217E-1   4.466525316238403E-1  
 6.624624624624624E8    -5.610982179641724E-1   6.847526431083679E-1  -9.577800519764423E-3  -6.520914379507303E-3  -9.518081322312355E-3  -6.492715794593096E-3  -8.488085865974426E-1   4.578464031219482E-1  
 6.648648648648648E8    -5.446613430976868E-1   6.932478547096252E-1  -1.015772949904203E-2  -6.160209886729717E-3  -1.016983669251204E-2  -6.188926752656698E-3  -8.425842523574829E-1   4.682396054267883E-1  
 6.672672672672672E8    -5.276067256927490E-1   7.013383507728577E-1  -1.072950195521116E-2  -5.817692261189222E-3  -1.072402019053698E-2  -5.876285955309868E-3  -8.363038301467896E-1   4.780856668949127E-1  
 6.696696696696696E8    -5.095721483230591E-1   7.088689208030701E-1  -1.128477323800325E-2  -5.490971263498068E-3  -1.124756131321192E-2  -5.487800575792790E-3  -8.299026489257813E-1   4.880101680755615E-1  
 6.720720720720720E8    -4.904591143131256E-1   7.158743143081665E-1  -1.182023435831070E-2  -5.182669498026371E-3  -1.184680592268705E-2  -5.169512238353491E-3  -8.237776756286621E-1   4.972805976867676E-1  
 6.744744744744744E8    -4.719394147396088E-1   7.225420475006104E-1  -1.238024048507214E-2  -4.710062872618437E-3  -1.239292882382870E-2  -4.723373800516129E-3  -8.167771100997925E-1   5.073292851448059E-1  
 6.768768768768768E8    -4.522961080074310E-1   7.282417416572571E-1  -1.295101456344128E-2  -4.286578390747309E-3  -1.297180261462927E-2  -4.337102640420198E-3  -8.100308179855347E-1   5.172743797302246E-1  
 6.792792792792792E8    -4.327123761177063E-1   7.328647375106812E-1  -1.338921301066876E-2  -3.912767861038446E-3  -1.341637875884771E-2  -3.913631662726402E-3  -8.032135963439941E-1   5.269880294799805E-1  
 6.816816816816816E8    -4.122200310230255E-1   7.368206977844238E-1  -1.392406504601240E-2  -3.437064122408629E-3  -1.397431455552578E-2  -3.416538005694747E-3  -7.962744235992432E-1   5.366668701171875E-1  
 6.840840840840840E8    -3.907220363616943E-1   7.396218776702881E-1  -1.444374118000269E-2  -3.031140891835094E-3  -1.445794384926558E-2  -3.005867591127753E-3  -7.893334031105042E-1   5.465897917747498E-1  
 6.864864864864864E8    -3.691902160644531E-1   7.414290308952332E-1  -1.497888285666704E-2  -2.450905740261078E-3  -1.496125385165215E-2  -2.512370934709907E-3  -7.814829349517822E-1   5.555118918418884E-1  
 6.888888888888888E8    -3.475569784641266E-1   7.423821687698364E-1  -1.552879251539707E-2  -2.010955475270748E-3  -1.543956901878119E-2  -2.097542630508542E-3  -7.733230590820313E-1   5.651826262474060E-1  
 6.912912912912912E8    -3.261696398258209E-1   7.422547340393066E-1  -1.602066867053509E-2  -1.460088999010623E-3  -1.600727066397667E-2  -1.597965718246996E-3  -7.652807831764221E-1   5.746607184410095E-1  
 6.936936936936936E8    -3.046502470970154E-1   7.411546111106873E-1  -1.656646281480789E-2  -8.460883982479572E-4  -1.652793027460575E-2  -8.726782398298383E-4  -7.571725845336914E-1   5.844340324401856E-1  
 6.960960960960960E8    -2.821864783763886E-1   7.388310432434082E-1  -1.707533188164234E-2  -2.174977416871116E-4  -1.704865507781506E-2  -1.806749642128125E-4  -7.494696378707886E-1   5.938418507575989E-1  
 6.984984984984984E8    -2.614478766918182E-1   7.343389987945557E-1  -1.741410233080387E-2   5.339955678209662E-4  -1.743952743709087E-2   7.980361697264016E-4  -7.386148571968079E-1   6.063511371612549E-1  
 7.009009009009008E8    -2.404934316873550E-1   7.283996343612671E-1  -1.751511543989182E-2   1.312497071921825E-3  -1.751822233200073E-2   1.713557634502649E-3  -7.284091114997864E-1   6.176372170448303E-1  
 7.033033033033032E8    -2.202190011739731E-1   7.209591865539551E-1  -1.756700687110424E-2   1.955398591235280E-3  -1.744318008422852E-2   2.284095622599125E-3  -7.197980284690857E-1   6.261579990386963E-1  
 7.057057057057056E8    -2.008250355720520E-1   7.120762467384338E-1  -1.736321114003658E-2   2.455237088724971E-3  -1.727325469255447E-2   2.586807589977980E-3  -7.133986353874207E-1   6.312198638916016E-1  
 7.081081081081080E8    -1.806310266256332E-1   7.031121850013733E-1  -1.719562336802483E-2   2.474450040608645E-3  -1.711426489055157E-2   2.518458757549524E-3  -7.067565917968750E-1   6.379832625389099E-1  
 7.105105105105104E8    -1.618086844682694E-1   6.936660408973694E-1  -1.708476617932320E-2   2.283442532643676E-3  -1.712174527347088E-2   2.116197487339377E-3  -6.993131041526794E-1   6.451654434204102E-1  
 7.129129129129129E8    -1.456375271081924E-1   6.826093792915344E-1  -1.728464290499687E-2   1.670411205850542E-3  -1.728463731706142E-2   1.514378353022039E-3  -6.900670528411865E-1   6.532374024391174E-1  
 7.153153153153153E8    -1.319618523120880E-1   6.702363491058350E-1  -1.780834421515465E-2   6.564899813383818E-4  -1.775243133306503E-2   5.794879980385304E-4  -6.794032454490662E-1   6.623911857604981E-1  
 7.177177177177178E8    -1.197481006383896E-1   6.579651236534119E-1  -1.893211342394352E-2  -6.844974122941494E-4  -1.895611174404621E-2  -7.083398522809148E-4  -6.679096817970276E-1   6.720798611640930E-1  
 7.201201201201202E8    -1.084317266941071E-1   6.474967598915100E-1  -2.103449217975140E-2  -2.161034848541021E-3  -2.105021104216576E-2  -2.130224835127592E-3  -6.566168069839478E-1   6.809535026550293E-1  
 7.225225225225226E8    -9.797002375125885E-2   6.398035883903503E-1  -2.430970594286919E-2  -3.346509533002973E-3  -2.438688278198242E-2  -3.342758864164352E-3  -6.444251537322998E-1   6.899636387825012E-1  
 7.249249249249250E8    -8.550980687141419E-2   6.334594488143921E-1  -2.885778434574604E-2  -3.405751427635551E-3  -2.869973890483379E-2  -3.777646226808429E-3  -6.340033411979675E-1   6.959599256515503E-1  
 7.273273273273274E8    -7.136815041303635E-2   6.279237270355225E-1  -3.396694362163544E-2  -2.040528459474444E-3  -3.382141143083572E-2  -2.695299452170730E-3  -6.244738698005676E-1   7.014681696891785E-1  
 7.297297297297298E8    -5.525231733918190E-2   6.220384836196899E-1  -3.910687938332558E-2   8.423312683589757E-4  -3.897694498300552E-2   1.992112374864519E-4  -6.145660281181335E-1   7.074003219604492E-1  
 7.321321321321322E8    -3.642930835485458E-2   6.128580570220947E-1  -4.363402724266052E-2   4.946311470121145E-3  -4.354225099086762E-2   4.961885511875153E-3  -6.043640971183777E-1   7.139527201652527E-1  
 7.345345345345346E8    -1.616362109780312E-2   5.996119379997253E-1  -4.704546555876732E-2   1.037278957664967E-2  -4.695999249815941E-2   1.059690769761801E-2  -5.941052436828613E-1   7.210547327995300E-1  
 7.369369369369370E8     2.865246497094631E-3   5.807530879974365E-1  -4.935194179415703E-2   1.640273258090019E-2  -4.909555986523628E-2   1.691287383437157E-2  -5.831519365310669E-1   7.285240888595581E-1  
 7.393393393393394E8     1.743470504879952E-2   5.589118003845215E-1  -5.037421360611916E-2   2.290618792176247E-2  -5.000524595379829E-2   2.340666949748993E-2  -5.721643567085266E-1   7.352012991905212E-1  
 7.417417417417418E8     2.824159339070320E-2   5.376181006431580E-1  -5.027084797620773E-2   2.914529666304588E-2  -5.020383372902870E-2   2.951127849519253E-2  -5.616148114204407E-1   7.416735291481018E-1  
 7.441441441441442E8     3.836319968104363E-2   5.179684758186340E-1  -4.966774582862854E-2   3.540579974651337E-2  -4.974355921149254E-2   3.542916849255562E-2  -5.513840317726135E-1   7.472832202911377E-1  
 7.465465465465466E8     4.688512161374092E-2   4.975047111511231E-1  -4.854799062013626E-2   4.158828407526016E-2  -4.867249354720116E-2   4.165184870362282E-2  -5.391764044761658E-1   7.546913027763367E-1  
 7.489489489489490E8     5.315521731972694E-2   4.749578833580017E-1  -4.642847180366516E-2   4.792663827538490E-2  -4.658446088433266E-2   4.795696213841438E-2  -5.285123586654663E-1   7.608328461647034E-1  
 7.513513513513514E8     5.722602084279060E-2   4.524915218353272E-1  -4.326198995113373E-2   5.364501848816872E-2  -4.340648651123047E-2   5.371126532554627E-2  -5.178788304328919E-1   7.665717601776123E-1  
 7.537537537537538E8     6.192821636795998E-2   4.296638965606690E-1  -3.956265375018120E-2   5.873880162835121E-2  -3.988922014832497E-2   5.864956974983215E-2  -5.058804750442505E-1   7.729598879814148E-1  
 7.561561561561562E8     6.578486412763596E-2   4.047254025936127E-1  -3.616284206509590E-2   6.360677629709244E-2  -3.613527119159699E-2   6.335927546024323E-2  -4.933378994464874E-1   7.779021263122559E-1  
 7.585585585585586E8     6.618259847164154E-2   3.806243240833283E-1  -3.205236047506332E-2   6.836097687482834E-2  -3.185324370861054E-2   6.808114796876907E-2  -4.787547588348389E-1   7.849577665328980E-1  
 7.609609609609610E8     6.410637497901917E-2   3.553188443183899E-1  -2.735652774572372E-2   7.297963649034500E-2  -2.706827595829964E-2   7.239241153001785E-2  -4.644646942615509E-1   7.921253442764282E-1  
 7.633633633633634E8     5.871096625924110E-2   3.305516242980957E-1  -2.211490646004677E-2   7.706282287836075E-2  -2.205606363713741E-2   7.636755704879761E-2  -4.518708288669586E-1   7.980793118476868E-1  
 7.657657657657658E8     5.123923346400261E-2   3.075788617134094E-1  -1.659372821450234E-2   8.070037513971329E-2  -1.663350686430931E-2   8.029583096504211E-2  -4.409099817276001E-1   8.030802011489868E-1  
 7.681681681681682E8     4.248705133795738E-2   2.855170369148254E-1  -1.070522796362639E-2   8.382167667150497E-2  -1.048348844051361E-2   8.395454287528992E-2  -4.311665296554565E-1   8.073788881301880E-1  
 7.705705705705706E8     2.994851768016815E-2   2.652020752429962E-1  -4.031810443848372E-3   8.617661148309708E-2  -4.072921350598335E-3   8.644316345453262E-2  -4.209255576133728E-1   8.126272559165955E-1  
 7.729729729729730E8     1.668077148497105E-2   2.453875988721848E-1   2.711617155000567E-3   8.754507452249527E-2   2.588844392448664E-3   8.836176991462708E-2  -4.099903404712677E-1   8.202171921730042E-1  
 7.753753753753754E8     1.910466351546347E-3   2.259851545095444E-1   9.493269957602024E-3   8.843944966793060E-2   9.513881057500839E-3   8.936434239149094E-2  -3.957944214344025E-1   8.274952173233032E-1  
 7.777777777777778E8    -1.474280469119549E-2   2.063721865415573E-1   1.594888977706432E-2   8.879225701093674E-2   1.611828804016113E-2   8.939740806818008E-2  -3.791773021221161E-1   8.324038982391357E-1  
 7.801801801801802E8    -3.433644026517868E-2   1.875853836536408E-1   2.245869860053062E-2   8.899452537298203E-2   2.236864157021046E-2   8.882829546928406E-2  -3.621966242790222E-1   8.332827687263489E-1  
 7.825825825825826E8    -5.779955908656120E-2   1.717666238546372E-1   2.879788354039192E-2   8.860217034816742E-2   2.881765924394131E-2   8.825855702161789E-2  -3.442685604095459E-1   8.362743854522705E-1  
 7.849849849849850E8    -8.521977066993713E-2   1.604995429515839E-1   3.595613688230515E-2   8.783090859651566E-2   3.548080101609230E-2   8.749679476022720E-2  -3.297162652015686E-1   8.378179073333740E-1  
 7.873873873873874E8    -1.113024950027466E-1   1.557280570268631E-1   4.285080358386040E-2   8.627422899007797E-2   4.227755591273308E-2   8.576238155364990E-2  -3.157719671726227E-1   8.408861160278320E-1  
 7.897897897897898E8    -1.348982751369476E-1   1.547310054302216E-1   4.936718568205833E-2   8.375855535268784E-2   4.898213967680931E-2   8.329111337661743E-2  -3.008798956871033E-1   8.460608720779419E-1  
 7.921921921921922E8    -1.560084372758865E-1   1.549318730831146E-1   5.540660768747330E-2   8.050344139337540E-2   5.561517924070358E-2   8.041210472583771E-2  -2.848416268825531E-1   8.527314066886902E-1  
 7.945945945945946E8    -1.788443475961685E-1   1.571697741746903E-1   6.127624213695526E-2   7.666802406311035E-2   6.124000623822212E-2   7.666291296482086E-2  -2.682926356792450E-1   8.551095724105835E-1  
 7.969969969969970E8    -2.016054242849350E-1   1.609390974044800E-1   6.622564792633057E-2   7.210904359817505E-2   6.619153171777725E-2   7.240572571754456E-2  -2.509849369525909E-1   8.583351969718933E-1  
 7.993993993993994E8    -2.243449240922928E-1   1.659994721412659E-1   7.000618427991867E-2   6.747674942016602E-2   6.995427608489990E-2   6.796260178089142E-2  -2.334113270044327E-1   8.609442710876465E-1  
 8.018018018018018E8    -2.472113370895386E-1   1.735495477914810E-1   7.294264435768127E-2   6.338000297546387E-2   7.313349097967148E-2   6.379576027393341E-2  -2.150381654500961E-1   8.631854653358460E-1  
 8.042042042042042E8    -2.679995000362396E-1   1.856276988983154E-1   7.557267695665360E-2   5.989826098084450E-2   7.580002397298813E-2   6.001019477844238E-2  -1.973471492528915E-1   8.643690943717957E-1  
 8.066066066066066E8    -2.859550416469574E-1   1.998831480741501E-1   7.792790979146957E-2   5.704635754227638E-2   7.815249264240265E-2   5.711883679032326E-2  -1.775681525468826E-1   8.664559721946716E-1  
 8.090090090090090E8    -3.013526797294617E-1   2.166754454374313E-1   8.111129701137543E-2   5.502252280712128E-2   8.119573444128037E-2   5.474454909563065E-2  -1.575031727552414E-1   8.665884733200073E-1  
 8.114114114114114E8    -3.134674727916718E-1   2.340754717588425E-1   8.503919094800949E-2   5.254494398832321E-2   8.512084186077118E-2   5.220424011349678E-2  -1.375649124383926E-1   8.660849332809448E-1  
 8.138138138138138E8    -3.228087723255158E-1   2.506880164146423E-1   8.931729197502136E-2   4.922138899564743E-2   8.940191566944122E-2   4.900188371539116E-2  -1.178536489605904E-1   8.646159768104553E-1  
 8.162162162162162E8    -3.314002454280853E-1   2.655653953552246E-1   9.324706345796585E-2   4.546086862683296E-2   9.316083043813705E-2   4.538474977016449E-2  -9.787426143884659E-2   8.627755045890808E-1  
 8.186186186186186E8    -3.413632810115814E-1   2.819852530956268E-1   9.687773138284683E-2   4.193170368671417E-2   9.688208252191544E-2   4.193001985549927E-2  -7.690656930208206E-2   8.606575131416321E-1  
 8.210210210210210E8    -3.489502966403961E-1   2.998354434967041E-1   1.011075153946877E-1   3.826473280787468E-2   1.010967791080475E-1   3.817435353994370E-2  -5.520923063158989E-2   8.573515415191650E-1  
 8.234234234234234E8    -3.531504273414612E-1   3.176921010017395E-1   1.057458892464638E-1   3.372405469417572E-2   1.057520508766174E-1   3.369248285889626E-2  -3.350488841533661E-2   8.532072305679321E-1  
