#  HZ   S   RI   R     50.00 
! Rohde & Schwarz ZVB8 2Ports - Version 2.81 - 1145.1010k08 SN: 100113
! Date: 2016-05-12 03:16:28
! Measurements: S11 S21 S12 S22 
! 
 6.000000000000000E8    -8.080419898033142E-1   4.234253168106079E-1  -6.910326192155480E-4  -2.677186392247677E-3  -6.862795562483370E-4  -2.743111690506339E-3  -9.500381350517273E-1   2.032307833433151E-1  
 6.024024024024024E8    -7.976937890052795E-1   4.361603558063507E-1  -7.226823945529759E-4  -2.819490153342485E-3  -7.360478630289435E-4  -2.798861358314753E-3  -9.469672441482544E-1   2.148749083280563E-1  
 6.048048048048048E8    -7.868127226829529E-1   4.494405686855316E-1  -6.529280799441040E-4  -3.027526894584298E-3  -7.994388579390943E-4  -2.967304782941937E-3  -9.437384009361267E-1   2.260005027055740E-1  
 6.072072072072072E8    -7.749471068382263E-1   4.635153412818909E-1  -7.794997072778642E-4  -3.141694702208042E-3  -7.719999412074685E-4  -3.100318601354957E-3  -9.404327273368835E-1   2.372102439403534E-1  
 6.096096096096096E8    -7.622168660163879E-1   4.777483642101288E-1  -8.258474990725517E-4  -3.271004883572459E-3  -7.884172373451293E-4  -3.338501555845141E-3  -9.368313550949097E-1   2.481625378131867E-1  
 6.120120120120120E8    -7.509641051292419E-1   4.888212978839874E-1  -7.675549131818116E-4  -3.456394653767347E-3  -7.338157156482339E-4  -3.447109600529075E-3  -9.336325526237488E-1   2.575818896293640E-1  
 6.144144144144144E8    -7.392220497131348E-1   4.998623728752136E-1  -7.089957944117487E-4  -3.662725212052465E-3  -6.716338684782386E-4  -3.674866165965796E-3  -9.309384822845459E-1   2.673794627189636E-1  
 6.168168168168168E8    -7.263617515563965E-1   5.107451677322388E-1  -4.939256468787789E-4  -3.941575530916452E-3  -6.096790311858058E-4  -3.962125629186630E-3  -9.280128479003906E-1   2.779297828674316E-1  
 6.192192192192192E8    -7.129822373390198E-1   5.206396579742432E-1  -4.460266500245780E-4  -4.424890037626028E-3  -5.445054266601801E-4  -4.392947535961866E-3  -9.242266416549683E-1   2.889584898948669E-1  
 6.216216216216216E8    -7.000747323036194E-1   5.302140712738037E-1  -3.748271556105465E-4  -4.873328842222691E-3  -3.601640637498349E-4  -4.942740313708782E-3  -9.202792048454285E-1   3.003677725791931E-1  
 6.240240240240240E8    -6.871427893638611E-1   5.391125679016113E-1  -3.842153237201273E-4  -5.614230409264565E-3  -3.907044301740825E-4  -5.628805607557297E-3  -9.157325029373169E-1   3.116550147533417E-1  
 6.264264264264264E8    -6.748158931732178E-1   5.488070845603943E-1  -5.975119420327246E-4  -6.436843425035477E-3  -6.002578302286565E-4  -6.441186182200909E-3  -9.108230471611023E-1   3.248644173145294E-1  
 6.288288288288288E8    -6.628758311271668E-1   5.590380430221558E-1  -9.455617400817573E-4  -7.332631852477789E-3  -9.151943959295750E-4  -7.315672002732754E-3  -9.055394530296326E-1   3.364188969135284E-1  
 6.312312312312312E8    -6.505548357963562E-1   5.692887902259827E-1  -1.532869879156351E-3  -8.336754515767098E-3  -1.580422394908965E-3  -8.367040194571018E-3  -9.007142186164856E-1   3.468708395957947E-1  
 6.336336336336336E8    -6.383938193321228E-1   5.794953703880310E-1  -2.348633017390966E-3  -9.285140782594681E-3  -2.320721279829741E-3  -9.281364269554615E-3  -8.963937759399414E-1   3.557718694210053E-1  
 6.360360360360360E8    -6.252403259277344E-1   5.903127789497376E-1  -3.463925560936332E-3  -1.018725987523794E-2  -3.492144169285893E-3  -1.016501337289810E-2  -8.922684192657471E-1   3.640386760234833E-1  
 6.384384384384384E8    -6.119347214698792E-1   6.011810898780823E-1  -4.813925363123417E-3  -1.081747189164162E-2  -4.814783111214638E-3  -1.082256902009249E-2  -8.875594139099121E-1   3.749714791774750E-1  
 6.408408408408408E8    -5.975399613380432E-1   6.123512983322144E-1  -6.416619755327702E-3  -1.123727206140757E-2  -6.466341670602560E-3  -1.120393071323633E-2  -8.825193643569946E-1   3.855230212211609E-1  
 6.432432432432432E8    -5.817607641220093E-1   6.238200068473816E-1  -8.063299581408501E-3  -1.121952012181282E-2  -8.087302558124065E-3  -1.121372077614069E-2  -8.772135376930237E-1   3.960753679275513E-1  
 6.456456456456456E8    -5.638603568077087E-1   6.352488994598389E-1  -9.501186199486256E-3  -1.094942260533571E-2  -9.558450430631638E-3  -1.098117791116238E-2  -8.718209266662598E-1   4.063719511032105E-1  
 6.480480480480480E8    -5.450669527053833E-1   6.458217501640320E-1  -1.092346198856831E-2  -1.059286948293448E-2  -1.088865753263235E-2  -1.065268274396658E-2  -8.659170269966126E-1   4.161612093448639E-1  
 6.504504504504504E8    -5.250914096832275E-1   6.555593609809876E-1  -1.221452280879021E-2  -1.023719739168882E-2  -1.219259202480316E-2  -1.016075350344181E-2  -8.579196929931641E-1   4.289807677268982E-1  
 6.528528528528528E8    -5.043025612831116E-1   6.639413237571716E-1  -1.334245968610048E-2  -9.678964503109455E-3  -1.341352704912424E-2  -9.723295457661152E-3  -8.512861132621765E-1   4.414815306663513E-1  
 6.552552552552552E8    -4.819942712783814E-1   6.710649132728577E-1  -1.464254967868328E-2  -9.123173542320728E-3  -1.461223233491182E-2  -9.128068573772907E-3  -8.465449213981628E-1   4.528201818466187E-1  
 6.576576576576576E8    -4.588210582733154E-1   6.765058636665344E-1  -1.579941436648369E-2  -8.420707657933235E-3  -1.576780155301094E-2  -8.405924774706364E-3  -8.419318795204163E-1   4.618539214134216E-1  
 6.600600600600600E8    -4.335317909717560E-1   6.814567446708679E-1  -1.694614812731743E-2  -7.777671795338392E-3  -1.691699773073196E-2  -7.817373611032963E-3  -8.361972570419312E-1   4.703757762908936E-1  
 6.624624624624624E8    -4.081438481807709E-1   6.851125359535217E-1  -1.814818568527699E-2  -6.936324760317802E-3  -1.809658855199814E-2  -7.006172090768814E-3  -8.290166258811951E-1   4.816710054874420E-1  
 6.648648648648648E8    -3.828950524330139E-1   6.869372725486755E-1  -1.930359192192555E-2  -6.024890579283238E-3  -1.933158375322819E-2  -6.037519779056311E-3  -8.215061426162720E-1   4.926520287990570E-1  
 6.672672672672672E8    -3.567970991134644E-1   6.871834397315979E-1  -2.042511478066444E-2  -5.011208355426788E-3  -2.037465758621693E-2  -4.987890366464853E-3  -8.143013715744019E-1   5.032981038093567E-1  
 6.696696696696696E8    -3.291642069816589E-1   6.854605078697205E-1  -2.141180075705051E-2  -3.935733810067177E-3  -2.134955301880837E-2  -3.957930486649275E-3  -8.069807887077332E-1   5.132901668548584E-1  
 6.720720720720720E8    -3.000445961952210E-1   6.811494231224060E-1  -2.244696952402592E-2  -2.809793455526233E-3  -2.247211709618568E-2  -2.715415088459849E-3  -7.997136116027832E-1   5.231170058250427E-1  
 6.744744744744744E8    -2.714086174964905E-1   6.751514077186585E-1  -2.345475740730763E-2  -1.483546104282141E-3  -2.352421171963215E-2  -1.532889786176384E-3  -7.914127111434937E-1   5.337032079696655E-1  
 6.768768768768768E8    -2.425434738397598E-1   6.661502122879028E-1  -2.448382228612900E-2  -2.467772901582066E-6  -2.445262670516968E-2  -1.084936884581111E-4  -7.833885550498962E-1   5.440254211425781E-1  
 6.792792792792792E8    -2.142942696809769E-1   6.539096832275391E-1  -2.534494549036026E-2   1.454590470530093E-3  -2.527856454253197E-2   1.452002092264593E-3  -7.754234671592712E-1   5.541904568672180E-1  
 6.816816816816816E8    -1.865939646959305E-1   6.391060948371887E-1  -2.606518380343914E-2   3.120180452242494E-3  -2.607274055480957E-2   3.132151905447245E-3  -7.671532034873962E-1   5.643439292907715E-1  
 6.840840840840840E8    -1.592293530702591E-1   6.208469867706299E-1  -2.677927911281586E-2   4.903563763946295E-3  -2.669653668999672E-2   4.818418063223362E-3  -7.586912512779236E-1   5.745989680290222E-1  
 6.864864864864864E8    -1.351363211870194E-1   6.009627580642700E-1  -2.721787989139557E-2   6.764811463654041E-3  -2.721624448895454E-2   6.639222148805857E-3  -7.495277523994446E-1   5.840792655944824E-1  
 6.888888888888888E8    -1.128945946693420E-1   5.792583227157593E-1  -2.761986665427685E-2   8.639463223516941E-3  -2.763763256371021E-2   8.429994806647301E-3  -7.399586439132690E-1   5.938742756843567E-1  
 6.912912912912912E8    -9.230594336986542E-2   5.542589426040649E-1  -2.798912860453129E-2   1.063854899257422E-2  -2.799670025706291E-2   1.043421868234873E-2  -7.302853465080261E-1   6.041750311851502E-1  
 6.936936936936936E8    -7.376100867986679E-2   5.265291333198547E-1  -2.811004780232906E-2   1.276871096342802E-2  -2.804351411759853E-2   1.264061406254768E-2  -7.205505967140198E-1   6.139121055603027E-1  
 6.960960960960960E8    -5.806591734290123E-2   4.958274662494659E-1  -2.785499580204487E-2   1.500788517296314E-2  -2.790438011288643E-2   1.501735020428896E-2  -7.109093070030212E-1   6.240420937538147E-1  
 6.984984984984984E8    -4.814195260405541E-2   4.631892442703247E-1  -2.734857238829136E-2   1.723589189350605E-2  -2.708556503057480E-2   1.751040108501911E-2  -6.980295181274414E-1   6.368058919906616E-1  
 7.009009009009008E8    -4.322240501642227E-2   4.307224452495575E-1  -2.632815018296242E-2   1.912267506122589E-2  -2.594233863055706E-2   1.956523023545742E-2  -6.855148673057556E-1   6.481909155845642E-1  
 7.033033033033032E8    -4.320138320326805E-2   3.984952569007874E-1  -2.484628930687904E-2   2.075296267867088E-2  -2.446456812322140E-2   2.107703872025013E-2  -6.746355891227722E-1   6.570639610290527E-1  
 7.057057057057056E8    -4.609787836670876E-2   3.687808215618134E-1  -2.310532890260220E-2   2.165668457746506E-2  -2.293414436280727E-2   2.185989730060101E-2  -6.666565537452698E-1   6.627647280693054E-1  
 7.081081081081080E8    -4.873659089207649E-2   3.428312242031097E-1  -2.186966687440872E-2   2.164051309227943E-2  -2.187867276370525E-2   2.174364402890205E-2  -6.576396822929382E-1   6.697545051574707E-1  
 7.105105105105104E8    -5.612379685044289E-2   3.156317174434662E-1  -2.129902131855488E-2   2.138708904385567E-2  -2.144508808851242E-2   2.124583534896374E-2  -6.476486921310425E-1   6.775060296058655E-1  
 7.129129129129129E8    -6.936725229024887E-2   2.894175648689270E-1  -2.133553847670555E-2   2.075006440281868E-2  -2.161020413041115E-2   2.054404467344284E-2  -6.358580589294434E-1   6.856586337089539E-1  
 7.153153153153153E8    -8.641553670167923E-2   2.676175236701965E-1  -2.242102846503258E-2   1.987081207334995E-2  -2.258689142763615E-2   1.966958306729794E-2  -6.224045753479004E-1   6.950369477272034E-1  
 7.177177177177178E8    -1.033767163753510E-1   2.522808015346527E-1  -2.490039169788361E-2   1.915626041591167E-2  -2.494319155812264E-2   1.918260008096695E-2  -6.075284481048584E-1   7.043164968490601E-1  
 7.201201201201202E8    -1.178102791309357E-1   2.412831932306290E-1  -2.853570319712162E-2   1.946501433849335E-2  -2.856189571321011E-2   1.945601962506771E-2  -5.929396748542786E-1   7.125580310821533E-1  
 7.225225225225226E8    -1.293919086456299E-1   2.332404702901840E-1  -3.349013254046440E-2   2.164157852530479E-2  -3.349327296018601E-2   2.150447294116020E-2  -5.771438479423523E-1   7.206020951271057E-1  
 7.249249249249250E8    -1.368681490421295E-1   2.255106866359711E-1  -3.853220120072365E-2   2.632193826138973E-2  -3.876814991235733E-2   2.581286802887917E-2  -5.635071992874146E-1   7.252320051193237E-1  
 7.273273273273274E8    -1.406312435865402E-1   2.154620140790939E-1  -4.272093623876572E-2   3.356492146849632E-2  -4.341324046254158E-2   3.274942561984062E-2  -5.504254102706909E-1   7.290390729904175E-1  
 7.297297297297298E8    -1.437969505786896E-1   2.007300406694412E-1  -4.529916495084763E-2   4.268768802285194E-2  -4.574409127235413E-2   4.217720031738281E-2  -5.380392074584961E-1   7.331679463386536E-1  
 7.321321321321322E8    -1.520943939685822E-1   1.790842264890671E-1  -4.536952823400497E-2   5.298024415969849E-2  -4.522722586989403E-2   5.308376252651215E-2  -5.256317853927612E-1   7.376660108566284E-1  
 7.345345345345346E8    -1.677087396383286E-1   1.562486141920090E-1  -4.206080362200737E-2   6.369350850582123E-2  -4.162737727165222E-2   6.399448961019516E-2  -5.137776732444763E-1   7.429268360137940E-1  
 7.369369369369370E8    -1.917156577110291E-1   1.360799521207809E-1  -3.562876209616661E-2   7.327797263860703E-2  -3.500923514366150E-2   7.365765422582626E-2  -5.011383891105652E-1   7.491138577461243E-1  
 7.393393393393394E8    -2.199645042419434E-1   1.241846680641174E-1  -2.716645225882530E-2   8.059214055538178E-2  -2.648820728063583E-2   8.088903129100800E-2  -4.888824224472046E-1   7.554988861083984E-1  
 7.417417417417418E8    -2.464541196823120E-1   1.185251772403717E-1  -1.825253851711750E-2   8.597587049007416E-2  -1.790991425514221E-2   8.603579550981522E-2  -4.762191176414490E-1   7.615934014320374E-1  
 7.441441441441442E8    -2.709912359714508E-1   1.152066364884377E-1  -8.767903782427311E-3   9.000215679407120E-2  -9.082642383873463E-3   9.006205201148987E-2  -4.638161659240723E-1   7.674473524093628E-1  
 7.465465465465466E8    -2.948383092880249E-1   1.138951256871223E-1   4.604908172041178E-4   9.257845580577850E-2   3.724734124261886E-4   9.268186241388321E-2  -4.488271474838257E-1   7.746836543083191E-1  
 7.489489489489490E8    -3.192546069622040E-1   1.155869737267494E-1   9.918708354234695E-3   9.383992105722427E-2   9.892435744404793E-3   9.379980713129044E-2  -4.349609315395355E-1   7.809692025184631E-1  
 7.513513513513514E8    -3.422982692718506E-1   1.209630593657494E-1   1.913711428642273E-2   9.337159991264343E-2   1.914403773844242E-2   9.334406256675720E-2  -4.201791882514954E-1   7.871240973472595E-1  
 7.537537537537538E8    -3.625316321849823E-1   1.271454840898514E-1   2.757217921316624E-2   9.183815866708756E-2   2.738114260137081E-2   9.208936989307404E-2  -4.043251574039459E-1   7.932009696960449E-1  
 7.561561561561562E8    -3.829886317253113E-1   1.335052251815796E-1   3.526798635721207E-2   9.051931649446487E-2   3.514611721038818E-2   9.034547954797745E-2  -3.871121108531952E-1   7.977411150932312E-1  
 7.585585585585586E8    -4.029271602630615E-1   1.443992555141449E-1   4.314336925745010E-2   8.854703605175018E-2   4.295450448989868E-2   8.815276622772217E-2  -3.673969209194183E-1   8.041499853134155E-1  
 7.609609609609610E8    -4.214659333229065E-1   1.560951471328735E-1   5.089567974209786E-2   8.562398701906204E-2   5.058811232447624E-2   8.513545244932175E-2  -3.479391634464264E-1   8.107132315635681E-1  
 7.633633633633634E8    -4.395926594734192E-1   1.685737520456314E-1   5.815294012427330E-2   8.198507875204086E-2   5.763047561049461E-2   8.165652304887772E-2  -3.292137086391449E-1   8.157483935356140E-1  
 7.657657657657658E8    -4.559417068958283E-1   1.816640496253967E-1   6.492968648672104E-2   7.813717424869537E-2   6.448021531105042E-2   7.804384082555771E-2  -3.114003539085388E-1   8.197796344757080E-1  
 7.681681681681682E8    -4.708493947982788E-1   1.956235766410828E-1   7.131421566009522E-2   7.381116598844528E-2   7.149747759103775E-2   7.376287132501602E-2  -2.949382066726685E-1   8.222193717956543E-1  
 7.705705705705706E8    -4.845964014530182E-1   2.113291323184967E-1   7.722073793411255E-2   6.856219470500946E-2   7.761728018522263E-2   6.853268295526505E-2  -2.775645554065704E-1   8.257528543472290E-1  
 7.729729729729730E8    -4.969302415847778E-1   2.287300229072571E-1   8.232564479112625E-2   6.232851743698120E-2   8.299273252487183E-2   6.293031573295593E-2  -2.582483589649200E-1   8.307020068168640E-1  
 7.753753753753754E8    -5.076078176498413E-1   2.458060532808304E-1   8.657614141702652E-2   5.607213079929352E-2   8.748660981655121E-2   5.662764981389046E-2  -2.356319576501846E-1   8.343455791473389E-1  
 7.777777777777778E8    -5.170842409133911E-1   2.624007165431976E-1   9.012639522552490E-2   5.003446340560913E-2   9.080857038497925E-2   5.039110034704208E-2  -2.107084989547730E-1   8.346733450889587E-1  
 7.801801801801802E8    -5.258042216300964E-1   2.798050940036774E-1   9.335129708051682E-2   4.432541877031326E-2   9.341870248317719E-2   4.435130208730698E-2  -1.860094368457794E-1   8.309667706489563E-1  
 7.825825825825826E8    -5.321093797683716E-1   2.991020679473877E-1   9.627843648195267E-2   3.845177963376045E-2   9.614747017621994E-2   3.835506364703178E-2  -1.593989580869675E-1   8.274971246719360E-1  
 7.849849849849850E8    -5.369421839714050E-1   3.185806274414063E-1   9.963461756706238E-2   3.243142366409302E-2   9.906706213951111E-2   3.239555284380913E-2  -1.360405683517456E-1   8.229658603668213E-1  
 7.873873873873874E8    -5.398041009902954E-1   3.383423686027527E-1   1.023109778761864E-1   2.568849176168442E-2   1.014534607529640E-1   2.576638944447041E-2  -1.127887964248657E-1   8.185240626335144E-1  
 7.897897897897898E8    -5.397430062294006E-1   3.575933873653412E-1   1.039515212178230E-1   1.883815973997116E-2   1.032767072319984E-1   1.863511651754379E-2  -8.770265430212021E-2   8.152323961257935E-1  
 7.921921921921922E8    -5.378918647766113E-1   3.766200542449951E-1   1.047412604093552E-1   1.157418079674244E-2   1.046840548515320E-1   1.134251710027456E-2  -6.123504042625427E-2   8.112448453903198E-1  
 7.945945945945946E8    -5.387917160987854E-1   3.948866724967957E-1   1.045703515410423E-1   4.505106247961521E-3   1.046682223677635E-1   4.668689332902432E-3  -3.581199422478676E-2   8.035250306129456E-1  
 7.969969969969970E8    -5.389539003372192E-1   4.121812283992767E-1   1.033852845430374E-1  -2.022133441641927E-3   1.036339998245239E-1  -1.606438891030848E-3  -1.021219789981842E-2   7.950816750526428E-1  
 7.993993993993994E8    -5.393319129943848E-1   4.290666878223419E-1   1.015928164124489E-1  -7.219280116260052E-3   1.019086390733719E-1  -6.948424968868494E-3   1.622796803712845E-2   7.860740423202515E-1  
 8.018018018018018E8    -5.380945801734924E-1   4.473494887351990E-1   9.984325617551804E-2  -1.110434811562300E-2   1.002547591924667E-1  -1.089228503406048E-2   4.401160404086113E-2   7.753365039825440E-1  
 8.042042042042042E8    -5.343236327171326E-1   4.674372375011444E-1   9.935620427131653E-2  -1.420711353421211E-2   9.946982562541962E-2  -1.419581100344658E-2   7.222511619329453E-2   7.623756527900696E-1  
 8.066066066066066E8    -5.282370448112488E-1   4.862068295478821E-1   9.964909404516220E-2  -1.730048656463623E-2   9.973970055580139E-2  -1.729029789566994E-2   1.022421866655350E-1   7.474816441535950E-1  
 8.090090090090090E8    -5.205440521240234E-1   5.033480525016785E-1   1.012252867221832E-1  -2.058666013181210E-2   1.011926904320717E-1  -2.087949775159359E-2   1.319824308156967E-1   7.287275791168213E-1  
 8.114114114114114E8    -5.116213560104370E-1   5.187528133392334E-1   1.032109633088112E-1  -2.537966147065163E-2   1.031441166996956E-1  -2.575040236115456E-2   1.610875576734543E-1   7.072382569313049E-1  
 8.138138138138138E8    -5.033106207847595E-1   5.325542688369751E-1   1.048096343874931E-1  -3.151867166161537E-2   1.046817228198052E-1  -3.177180886268616E-2   1.891958415508270E-1   6.828467249870300E-1  
 8.162162162162162E8    -4.961782991886139E-1   5.459210872650147E-1   1.055587008595467E-1  -3.807939589023590E-2   1.054867357015610E-1  -3.835245221853256E-2   2.169029861688614E-1   6.557466983795166E-1  
 8.186186186186186E8    -4.894784688949585E-1   5.599564909934998E-1   1.060300618410111E-1  -4.441272839903832E-2   1.061111465096474E-1  -4.466070979833603E-2   2.437675744295120E-1   6.260728836059570E-1  
 8.210210210210210E8    -4.812074601650238E-1   5.738627314567566E-1   1.064787283539772E-1  -5.188082531094551E-2   1.065870970487595E-1  -5.193060263991356E-2   2.687665820121765E-1   5.932100415229797E-1  
 8.234234234234234E8    -4.716046154499054E-1   5.864122509956360E-1   1.062948182225227E-1  -6.036199629306793E-2   1.063686981797218E-1  -6.031462550163269E-2   2.924561798572540E-1   5.562142729759216E-1  
