#  HZ   S   RI   R     50.00 
! Rohde & Schwarz ZVB8 2Ports - Version 2.81 - 1145.1010k08 SN: 100113
! Date: 2016-05-12 03:16:47
! Measurements: S11 S21 S12 S22 
! 
 6.000000000000000E8    -7.864601612091065E-1   4.380702674388886E-1  -1.178031205199659E-3  -3.372078994289041E-3  -1.140088890679181E-3  -3.275924129411578E-3  -9.440557360649109E-1   2.184826284646988E-1  
 6.024024024024024E8    -7.748761177062988E-1   4.508682787418366E-1  -1.222185208462179E-3  -3.473988035693765E-3  -1.102380221709609E-3  -3.492844291031361E-3  -9.407026767730713E-1   2.302348017692566E-1  
 6.048048048048048E8    -7.625020742416382E-1   4.639984965324402E-1  -1.219847355969250E-3  -3.699383232742548E-3  -1.211930997669697E-3  -3.695578780025244E-3  -9.368367791175842E-1   2.420318722724915E-1  
 6.072072072072072E8    -7.491948008537293E-1   4.771665334701538E-1  -1.304271863773465E-3  -3.818959929049015E-3  -1.232174225151539E-3  -3.804155392572284E-3  -9.332146048545837E-1   2.536840140819550E-1  
 6.096096096096096E8    -7.344413399696350E-1   4.910703897476196E-1  -1.234440831467509E-3  -4.081801511347294E-3  -1.251163892447949E-3  -4.037660080939531E-3  -9.290633797645569E-1   2.652457058429718E-1  
 6.120120120120120E8    -7.211588621139526E-1   5.020383596420288E-1  -1.321730786003172E-3  -4.279700573533773E-3  -1.267353654839099E-3  -4.331087693572044E-3  -9.254143834114075E-1   2.748091816902161E-1  
 6.144144144144144E8    -7.069526314735413E-1   5.125498175621033E-1  -1.262349425815046E-3  -4.610772244632244E-3  -1.246814732439816E-3  -4.548414144665003E-3  -9.223476648330689E-1   2.852763831615448E-1  
 6.168168168168168E8    -6.922127008438110E-1   5.225710868835449E-1  -1.238757628016174E-3  -5.061401054263115E-3  -1.247036387212575E-3  -5.034004338085651E-3  -9.184755086898804E-1   2.964906096458435E-1  
 6.192192192192192E8    -6.774170994758606E-1   5.318630337715149E-1  -1.170123112387955E-3  -5.486165639013052E-3  -1.112869242206216E-3  -5.477129947394133E-3  -9.146243929862976E-1   3.078109025955200E-1  
 6.216216216216216E8    -6.625562310218811E-1   5.403247475624085E-1  -1.149532268755138E-3  -6.148858461529017E-3  -1.128132687881589E-3  -6.233250722289085E-3  -9.097173810005188E-1   3.196298480033875E-1  
 6.240240240240240E8    -6.476204991340637E-1   5.481910109519959E-1  -1.243649050593376E-3  -7.165872026234865E-3  -1.242064288817346E-3  -7.089140359312296E-3  -9.045919179916382E-1   3.315319120883942E-1  
 6.264264264264264E8    -6.343154907226563E-1   5.564765930175781E-1  -1.586431404575706E-3  -8.241934701800346E-3  -1.539837103337050E-3  -8.233977481722832E-3  -8.985350728034973E-1   3.452311754226685E-1  
 6.288288288288288E8    -6.209362745285034E-1   5.654532909393311E-1  -2.181454328820109E-3  -9.386421181261540E-3  -2.169588347896934E-3  -9.498751722276211E-3  -8.929572105407715E-1   3.571912348270416E-1  
 6.312312312312312E8    -6.067153215408325E-1   5.746760368347168E-1  -3.125779330730438E-3  -1.070392876863480E-2  -3.162754932418466E-3  -1.068102940917015E-2  -8.868414163589478E-1   3.681389689445496E-1  
 6.336336336336336E8    -5.924282670021057E-1   5.844842195510864E-1  -4.471549764275551E-3  -1.181438937783241E-2  -4.460809752345085E-3  -1.183650828897953E-2  -8.818973898887634E-1   3.778958022594452E-1  
 6.360360360360360E8    -5.767082571983337E-1   5.944091081619263E-1  -6.071442272514105E-3  -1.286853663623333E-2  -6.012432277202606E-3  -1.288107503205538E-2  -8.772201538085938E-1   3.864278197288513E-1  
 6.384384384384384E8    -5.607237815856934E-1   6.046212315559387E-1  -8.085448294878006E-3  -1.362354028970003E-2  -8.137063123285770E-3  -1.358085311949253E-2  -8.716430664062500E-1   3.978531360626221E-1  
 6.408408408408408E8    -5.431414246559143E-1   6.149393916130066E-1  -1.041470468044281E-2  -1.395290344953537E-2  -1.041564438492060E-2  -1.387557014822960E-2  -8.657206892967224E-1   4.095473587512970E-1  
 6.432432432432432E8    -5.237249135971069E-1   6.254603862762451E-1  -1.274699065834284E-2  -1.361402589827776E-2  -1.267505250871182E-2  -1.360767148435116E-2  -8.593944907188416E-1   4.203586578369141E-1  
 6.456456456456456E8    -5.026825666427612E-1   6.350332498550415E-1  -1.481766067445278E-2  -1.303612999618053E-2  -1.485959906131029E-2  -1.302499324083328E-2  -8.527638912200928E-1   4.310643374919891E-1  
 6.480480480480480E8    -4.792880117893219E-1   6.431617140769959E-1  -1.678210496902466E-2  -1.228748448193073E-2  -1.676207780838013E-2  -1.219046209007502E-2  -8.461116552352905E-1   4.417869746685028E-1  
 6.504504504504504E8    -4.546250402927399E-1   6.496896743774414E-1  -1.857313886284828E-2  -1.131303608417511E-2  -1.859485916793346E-2  -1.135419402271509E-2  -8.366828560829163E-1   4.548367857933044E-1  
 6.528528528528528E8    -4.286285340785980E-1   6.546692848205566E-1  -2.034408971667290E-2  -1.023946702480316E-2  -2.021000720560551E-2  -1.025036070495844E-2  -8.289588093757629E-1   4.684948325157166E-1  
 6.552552552552552E8    -4.012041985988617E-1   6.574508547782898E-1  -2.202345244586468E-2  -9.065227583050728E-3  -2.196717262268066E-2  -9.114824235439301E-3  -8.227191567420960E-1   4.801907539367676E-1  
 6.576576576576576E8    -3.724820315837860E-1   6.578041315078735E-1  -2.367721684277058E-2  -7.820787839591503E-3  -2.357595786452293E-2  -7.851706817746162E-3  -8.169790506362915E-1   4.897568821907044E-1  
 6.600600600600600E8    -3.421330153942108E-1   6.559209227561951E-1  -2.516977116465569E-2  -6.403799168765545E-3  -2.519572153687477E-2  -6.373140029609203E-3  -8.096810579299927E-1   4.988717138767242E-1  
 6.624624624624624E8    -3.127456605434418E-1   6.522043347358704E-1  -2.671878598630428E-2  -4.797549918293953E-3  -2.676357142627239E-2  -4.846833180636168E-3  -8.009286522865295E-1   5.106320381164551E-1  
 6.648648648648648E8    -2.832560837268829E-1   6.456032991409302E-1  -2.824264764785767E-2  -2.954998752102256E-3  -2.825885079801083E-2  -3.017804818227887E-3  -7.922043204307556E-1   5.222402811050415E-1  
 6.672672672672672E8    -2.527593076229096E-1   6.361188888549805E-1  -2.959084883332253E-2  -1.029953360557556E-3  -2.956028468906879E-2  -1.065158867277205E-3  -7.830671072006226E-1   5.331607460975647E-1  
 6.696696696696696E8    -2.209932357072830E-1   6.230258345603943E-1  -3.079678863286972E-2   1.052514067851007E-3  -3.074437193572521E-2   9.280984522774816E-4  -7.743414640426636E-1   5.439265370368958E-1  
 6.720720720720720E8    -1.885846555233002E-1   6.058126091957092E-1  -3.220772370696068E-2   3.228863235563040E-3  -3.205625340342522E-2   3.102825256064534E-3  -7.651612162590027E-1   5.544012784957886E-1  
 6.744744744744744E8    -1.585877239704132E-1   5.851846933364868E-1  -3.336970135569572E-2   5.774279590696096E-3  -3.329981118440628E-2   5.784683860838413E-3  -7.549887895584106E-1   5.657557845115662E-1  
 6.768768768768768E8    -1.315937042236328E-1   5.610771179199219E-1  -3.421801328659058E-2   8.704706095159054E-3  -3.432440012693405E-2   8.704230189323425E-3  -7.449073195457459E-1   5.764828324317932E-1  
 6.792792792792792E8    -1.077009215950966E-1   5.323634147644043E-1  -3.463715314865112E-2   1.166926883161068E-2  -3.475729003548622E-2   1.177686266601086E-2  -7.346310615539551E-1   5.873041152954102E-1  
 6.816816816816816E8    -8.632364124059677E-2   5.000489354133606E-1  -3.479550778865814E-2   1.478606089949608E-2  -3.476391360163689E-2   1.491691730916500E-2  -7.242524623870850E-1   5.980354547500610E-1  
 6.840840840840840E8    -6.882040202617645E-2   4.642727971076965E-1  -3.457377478480339E-2   1.795965246856213E-2  -3.467389568686485E-2   1.798056252300739E-2  -7.132301926612854E-1   6.089074611663818E-1  
 6.864864864864864E8    -5.704343691468239E-2   4.274691343307495E-1  -3.401277959346771E-2   2.117245458066464E-2  -3.405064344406128E-2   2.087674103677273E-2  -7.018166184425354E-1   6.187833547592163E-1  
 6.888888888888888E8    -4.967702925205231E-2   3.897458314895630E-1  -3.328867629170418E-2   2.428355254232884E-2  -3.341687843203545E-2   2.377839013934135E-2  -6.892523765563965E-1   6.293849349021912E-1  
 6.912912912912912E8    -4.692894965410233E-2   3.507643640041351E-1  -3.222832456231117E-2   2.748401649296284E-2  -3.243236616253853E-2   2.693485841155052E-2  -6.768446564674377E-1   6.396844983100891E-1  
 6.936936936936936E8    -4.908071830868721E-2   3.132530450820923E-1  -3.080031462013722E-2   3.041208907961845E-2  -3.097193129360676E-2   3.008376806974411E-2  -6.640294194221497E-1   6.502277255058289E-1  
 6.960960960960960E8    -5.634102970361710E-2   2.750123441219330E-1  -2.895405888557434E-2   3.317136690020561E-2  -2.896821871399880E-2   3.308965638279915E-2  -6.511044502258301E-1   6.604969501495361E-1  
 6.984984984984984E8    -7.058197259902954E-2   2.398974597454071E-1  -2.687751129269600E-2   3.550278767943382E-2  -2.630784548819065E-2   3.588812425732613E-2  -6.343696713447571E-1   6.734951734542847E-1  
 7.009009009009008E8    -9.012706577777863E-2   2.091175913810730E-1  -2.418076992034912E-2   3.726819902658463E-2  -2.327024750411511E-2   3.795236721634865E-2  -6.181406378746033E-1   6.850684881210327E-1  
 7.033033033033032E8    -1.142613440752029E-1   1.825720965862274E-1  -2.136913314461708E-2   3.856408596038818E-2  -2.045746892690659E-2   3.896767273545265E-2  -6.035223007202148E-1   6.940091252326965E-1  
 7.057057057057056E8    -1.387006640434265E-1   1.614966690540314E-1  -1.862512342631817E-2   3.880567103624344E-2  -1.824437081813812E-2   3.904610499739647E-2  -5.913559198379517E-1   7.000882029533386E-1  
 7.081081081081080E8    -1.629053503274918E-1   1.433019787073135E-1  -1.663468964397907E-2   3.849840164184570E-2  -1.679462380707264E-2   3.841957822442055E-2  -5.776283740997315E-1   7.071225643157959E-1  
 7.105105105105104E8    -1.898399889469147E-1   1.286697238683701E-1  -1.562636159360409E-2   3.799446672201157E-2  -1.608093641698360E-2   3.782042115926743E-2  -5.631282329559326E-1   7.146928310394287E-1  
 7.129129129129129E8    -2.190008759498596E-1   1.190992519259453E-1  -1.547292713075876E-2   3.732335567474365E-2  -1.603010296821594E-2   3.714312985539436E-2  -5.461585521697998E-1   7.224527001380920E-1  
 7.153153153153153E8    -2.466442435979843E-1   1.154242306947708E-1  -1.680750586092472E-2   3.663607314229012E-2  -1.721373572945595E-2   3.650486096739769E-2  -5.269316434860230E-1   7.303633689880371E-1  
 7.177177177177178E8    -2.695645689964294E-1   1.171268820762634E-1  -1.973895356059074E-2   3.699954226613045E-2  -1.970356702804565E-2   3.704467788338661E-2  -5.056308507919312E-1   7.380268573760986E-1  
 7.201201201201202E8    -2.866573333740234E-1   1.223190948367119E-1  -2.365029975771904E-2   3.922585770487785E-2  -2.343651466071606E-2   3.925324976444244E-2  -4.842135906219482E-1   7.437050938606262E-1  
 7.225225225225226E8    -3.009112477302551E-1   1.261862367391586E-1  -2.802908048033714E-2   4.404575005173683E-2  -2.784606628119946E-2   4.399431869387627E-2  -4.623725414276123E-1   7.481619715690613E-1  
 7.249249249249250E8    -3.131273388862610E-1   1.268922090530396E-1  -3.121991083025932E-2   5.219076573848724E-2  -3.194393217563629E-2   5.169809982180595E-2  -4.431289732456207E-1   7.486457824707031E-1  
 7.273273273273274E8    -3.255166113376617E-1   1.240731328725815E-1  -3.185211867094040E-2   6.333831697702408E-2  -3.326695412397385E-2   6.249213963747025E-2  -4.252905845642090E-1   7.480792999267578E-1  
 7.297297297297298E8    -3.405630290508270E-1   1.182563751935959E-1  -2.892859093844891E-2   7.542958855628967E-2  -3.021528944373131E-2   7.496903091669083E-2  -4.087171852588654E-1   7.474932074546814E-1  
 7.321321321321322E8    -3.593993782997131E-1   1.109507158398628E-1  -2.245163917541504E-2   8.705946058034897E-2  -2.255499362945557E-2   8.720790594816208E-2  -3.928128480911255E-1   7.482999563217163E-1  
 7.345345345345346E8    -3.819945454597473E-1   1.077288538217545E-1  -1.213983260095120E-2   9.673606604337692E-2  -1.142265368252993E-2   9.680148214101791E-2  -3.778892159461975E-1   7.506918311119080E-1  
 7.369369369369370E8    -4.078596234321594E-1   1.108522638678551E-1   7.111913873814046E-4   1.033669337630272E-1   2.077592536807060E-3   1.032545492053032E-1  -3.612854480743408E-1   7.547547221183777E-1  
 7.393393393393394E8    -4.331042766571045E-1   1.207710728049278E-1   1.443412899971008E-2   1.060577556490898E-1   1.586975716054440E-2   1.057439744472504E-1  -3.434728085994721E-1   7.590066194534302E-1  
 7.417417417417418E8    -4.536237418651581E-1   1.335709244012833E-1   2.733290195465088E-2   1.065376028418541E-1   2.804164215922356E-2   1.061412543058395E-1  -3.249189853668213E-1   7.630700469017029E-1  
 7.441441441441442E8    -4.711142182350159E-1   1.470836997032166E-1   4.005103558301926E-2   1.052908971905708E-1   3.971953317523003E-2   1.053990498185158E-1  -3.046308755874634E-1   7.663306593894959E-1  
 7.465465465465466E8    -4.880937039852142E-1   1.602649092674255E-1   5.164140462875366E-2   1.023253127932549E-1   5.130412057042122E-2   1.026016101241112E-1  -2.814763784408569E-1   7.703430056571960E-1  
 7.489489489489490E8    -5.041692256927490E-1   1.743738502264023E-1   6.212414428591728E-2   9.805693477392197E-2   6.192718818783760E-2   9.851548075675964E-2  -2.584342062473297E-1   7.729721665382385E-1  
 7.513513513513514E8    -5.164207816123962E-1   1.890444904565811E-1   7.175754755735397E-2   9.325361996889114E-2   7.162868231534958E-2   9.362615644931793E-2  -2.339644283056259E-1   7.738862633705139E-1  
 7.537537537537538E8    -5.262307524681091E-1   2.032826095819473E-1   8.059707283973694E-2   8.784949034452438E-2   8.066700398921967E-2   8.812581002712250E-2  -2.069977819919586E-1   7.730633020401001E-1  
 7.561561561561562E8    -5.365541577339172E-1   2.178964316844940E-1   8.912862837314606E-2   8.234472572803497E-2   8.928492665290833E-2   8.187304437160492E-2  -1.791316270828247E-1   7.700453400611877E-1  
 7.585585585585586E8    -5.461127161979675E-1   2.360765188932419E-1   9.734289348125458E-2   7.554087042808533E-2   9.734880179166794E-2   7.480049133300781E-2  -1.485949307680130E-1   7.677332162857056E-1  
 7.609609609609610E8    -5.548467636108398E-1   2.539743483066559E-1   1.050370410084724E-1   6.791806221008301E-2   1.043332368135452E-1   6.727376580238342E-2  -1.187199503183365E-1   7.640778422355652E-1  
 7.633633633633634E8    -5.626593232154846E-1   2.718677222728729E-1   1.117336750030518E-1   5.978413298726082E-2   1.107452958822250E-1   5.960122868418694E-2  -8.821568638086319E-2   7.575505375862122E-1  
 7.657657657657658E8    -5.695555806159973E-1   2.900444567203522E-1   1.181546375155449E-1   5.157019570469856E-2   1.173267215490341E-1   5.186369270086289E-2  -5.748275294899941E-2   7.479054331779480E-1  
 7.681681681681682E8    -5.756483078002930E-1   3.084275126457214E-1   1.242145746946335E-1   4.250675067305565E-2   1.241500526666641E-1   4.282617941498756E-2  -2.714120969176292E-2   7.348548769950867E-1  
 7.705705705705706E8    -5.796266794204712E-1   3.265037238597870E-1   1.292254924774170E-1   3.251734003424645E-2   1.295955032110214E-1   3.262503072619438E-2   4.262087866663933E-3   7.204059958457947E-1  
 7.729729729729730E8    -5.811010599136353E-1   3.445797860622406E-1   1.329703032970429E-1   2.159146778285503E-2   1.339736580848694E-1   2.145694941282272E-2   3.709550201892853E-2   7.039145827293396E-1  
 7.753753753753754E8    -5.814472436904907E-1   3.615476191043854E-1   1.355461180210114E-1   1.014003809541464E-2   1.368054598569870E-1   9.686901234090328E-3   7.154357433319092E-2   6.827046275138855E-1  
 7.777777777777778E8    -5.815055966377258E-1   3.773941993713379E-1   1.370565891265869E-1  -1.376620726659894E-3   1.379325687885284E-1  -2.039480954408646E-3   1.058086901903153E-1   6.558231711387634E-1  
 7.801801801801802E8    -5.808981060981751E-1   3.923225700855255E-1   1.376383304595947E-1  -1.294304989278317E-2   1.378779709339142E-1  -1.331270486116409E-2   1.377909481525421E-1   6.227055191993713E-1  
 7.825825825825826E8    -5.786197185516357E-1   4.085413515567780E-1   1.366590708494186E-1  -2.480707690119743E-2   1.365930736064911E-1  -2.508619986474514E-2   1.682133227586746E-1   5.866733193397522E-1  
 7.849849849849850E8    -5.774855613708496E-1   4.246045947074890E-1   1.347045153379440E-1  -3.697181865572929E-2   1.344876587390900E-1  -3.622841462492943E-2   1.929426938295364E-1   5.489931106567383E-1  
 7.873873873873874E8    -5.754371881484985E-1   4.399686455726624E-1   1.317469924688339E-1  -4.852463304996491E-2   1.310862004756928E-1  -4.768140241503716E-2   2.159594744443893E-1   5.079347491264343E-1  
 7.897897897897898E8    -5.715705752372742E-1   4.556951522827148E-1   1.273400187492371E-1  -6.003801897168160E-2   1.263791769742966E-1  -5.930453166365624E-2   2.369396239519119E-1   4.641927778720856E-1  
 7.921921921921922E8    -5.667089223861694E-1   4.722904264926910E-1   1.209686994552612E-1  -7.083841413259506E-2   1.203695163130760E-1  -7.076358795166016E-2   2.552920281887054E-1   4.163226187229157E-1  
 7.945945945945946E8    -5.638219118118286E-1   4.882336556911469E-1   1.130912378430367E-1  -8.040657639503479E-2   1.129856854677200E-1  -8.008702099323273E-2   2.676098048686981E-1   3.655357360839844E-1  
 7.969969969969970E8    -5.608054995536804E-1   5.037711262702942E-1   1.042368337512016E-1  -8.787588775157929E-2   1.045529395341873E-1  -8.775333315134049E-2   2.758730947971344E-1   3.128444552421570E-1  
 7.993993993993994E8    -5.577090382575989E-1   5.189856290817261E-1   9.556125104427338E-2  -9.297170490026474E-2   9.587891399860382E-2  -9.339526295661926E-2   2.799649238586426E-1   2.573909461498261E-1  
 8.018018018018018E8    -5.527732968330383E-1   5.348263382911682E-1   8.797854930162430E-2  -9.694310277700424E-2   8.811722695827484E-2  -9.775329381227493E-2   2.793047428131104E-1   1.988701820373535E-1  
 8.042042042042042E8    -5.454611182212830E-1   5.524961352348328E-1   8.133451640605927E-2  -1.011906266212463E-1   8.160585165023804E-2  -1.013455614447594E-1   2.725509405136108E-1   1.406949460506439E-1  
 8.066066066066066E8    -5.368381142616272E-1   5.682782530784607E-1   7.522215694189072E-2  -1.052307188510895E-1   7.550194114446640E-2  -1.052649691700935E-1   2.574408948421478E-1   7.953310012817383E-2  
 8.090090090090090E8    -5.271572470664978E-1   5.811441540718079E-1   6.988668441772461E-2  -1.103514432907105E-1   6.964548677206039E-2  -1.102349981665611E-1   2.322508543729782E-1   1.812210306525230E-2  
 8.114114114114114E8    -5.179781317710877E-1   5.943228602409363E-1   6.291922926902771E-2  -1.162256971001625E-1   6.290101259946823E-2  -1.162793785333633E-1   1.977716088294983E-1  -4.065346717834473E-2  
 8.138138138138138E8    -5.089555382728577E-1   6.065852046012878E-1   5.391387641429901E-2  -1.221164688467979E-1   5.421091616153717E-2  -1.222650185227394E-1   1.546137034893036E-1  -9.489300101995468E-2  
 8.162162162162162E8    -5.009782910346985E-1   6.186899542808533E-1   4.416004195809364E-2  -1.264591217041016E-1   4.424049705266953E-2  -1.265995055437088E-1   1.053203791379929E-1  -1.423961222171783E-1  
 8.186186186186186E8    -4.931728839874268E-1   6.312788724899292E-1   3.406451269984245E-2  -1.294753998517990E-1   3.387404233217239E-2  -1.296480149030685E-1   4.932319000363350E-2  -1.836593449115753E-1  
 8.210210210210210E8    -4.837828278541565E-1   6.422532200813294E-1   2.344795130193234E-2  -1.320462375879288E-1   2.306944504380226E-2  -1.318531483411789E-1  -9.874332696199417E-3  -2.152362912893295E-1  
 8.234234234234234E8    -4.740821123123169E-1   6.537206768989563E-1   1.170277316123247E-2  -1.327635496854782E-1   1.167657133191824E-2  -1.326936185359955E-1  -7.158151268959045E-2  -2.374741584062576E-1  
