#  HZ   S   RI   R     50.00 
! Rohde & Schwarz ZVB8 2Ports - Version 2.81 - 1145.1010k08 SN: 100113
! Date: 2016-05-12 03:16:10
! Measurements: S11 S21 S12 S22 
! 
 6.000000000000000E8    -8.389179706573486E-1   3.969743847846985E-1  -3.311021719127893E-4  -2.137802774086595E-3  -3.107037628069520E-4  -2.087471773847938E-3  -9.540656208992004E-1   1.914021521806717E-1  
 6.024024024024024E8    -8.307120203971863E-1   4.096009135246277E-1  -3.063178446609527E-4  -2.166418358683586E-3  -2.700881159398705E-4  -2.143562771379948E-3  -9.512714147567749E-1   2.021701037883759E-1  
 6.048048048048048E8    -8.223238587379456E-1   4.225488603115082E-1  -3.450992226134986E-4  -2.261532237753272E-3  -4.173375491518527E-4  -2.269238000735641E-3  -9.485390782356262E-1   2.135480940341950E-1  
 6.072072072072072E8    -8.127847909927368E-1   4.367718696594238E-1  -3.334636567160487E-4  -2.372773597016931E-3  -3.305780119262636E-4  -2.326640533283353E-3  -9.455048441886902E-1   2.243654578924179E-1  
 6.096096096096096E8    -8.029003143310547E-1   4.510114192962647E-1  -2.806269039865583E-4  -2.414852846413851E-3  -2.825188857968897E-4  -2.454450121149421E-3  -9.421094655990601E-1   2.351645827293396E-1  
 6.120120120120120E8    -7.943705320358276E-1   4.617253839969635E-1  -2.054178330581635E-4  -2.550512552261353E-3  -2.169263607356697E-4  -2.554364735260606E-3  -9.392507076263428E-1   2.438880205154419E-1  
 6.144144144144144E8    -7.847824096679688E-1   4.739496707916260E-1  -1.285605394514278E-4  -2.691705012694001E-3  -1.928006386151537E-4  -2.733187284320593E-3  -9.367133975028992E-1   2.536252140998840E-1  
 6.168168168168168E8    -7.744776010513306E-1   4.854221045970917E-1   2.110556670231745E-5  -2.892999909818173E-3  -6.496023706858978E-5  -2.861540531739593E-3  -9.341911077499390E-1   2.638049423694611E-1  
 6.192192192192192E8    -7.642310857772827E-1   4.961277544498444E-1   1.552677567815408E-4  -3.170575015246868E-3   1.118020882131532E-4  -3.202137071639299E-3  -9.310661554336548E-1   2.743465602397919E-1  
 6.216216216216216E8    -7.536456584930420E-1   5.065314769744873E-1   1.700635766610503E-4  -3.524337662383914E-3   2.614055119920522E-4  -3.591683460399509E-3  -9.273678660392761E-1   2.852829098701477E-1  
 6.240240240240240E8    -7.434836626052856E-1   5.165442228317261E-1   2.483224379830062E-4  -4.052540287375450E-3   3.074727428611368E-4  -4.138129297643900E-3  -9.236166477203369E-1   2.964278459548950E-1  
 6.264264264264264E8    -7.337979674339294E-1   5.273371934890747E-1   3.000994329340756E-4  -4.739546682685614E-3   2.198613074142486E-4  -4.655566997826099E-3  -9.188185334205627E-1   3.095074594020844E-1  
 6.288288288288288E8    -7.241487503051758E-1   5.380553007125855E-1   3.862300218315795E-5  -5.390044301748276E-3   2.992888948938344E-5  -5.385233554989100E-3  -9.142826795578003E-1   3.206598162651062E-1  
 6.312312312312312E8    -7.145850062370300E-1   5.490669012069702E-1  -3.001310979016125E-4  -6.154618225991726E-3  -2.194891130784527E-4  -6.111508235335350E-3  -9.097288250923157E-1   3.309417366981506E-1  
 6.336336336336336E8    -7.046376466751099E-1   5.600357651710510E-1  -7.570422603748739E-4  -6.820622365921736E-3  -7.658927934244275E-4  -6.733422633260489E-3  -9.059165120124817E-1   3.398183882236481E-1  
 6.360360360360360E8    -6.945730447769165E-1   5.711274743080139E-1  -1.360379625111818E-3  -7.449984550476074E-3  -1.425519003532827E-3  -7.488863077014685E-3  -9.023491144180298E-1   3.475266695022583E-1  
 6.384384384384384E8    -6.841666102409363E-1   5.824100971221924E-1  -2.332917880266905E-3  -8.080395869910717E-3  -2.305809175595641E-3  -8.071815595030785E-3  -8.981106281280518E-1   3.577061593532562E-1  
 6.408408408408408E8    -6.733756661415100E-1   5.939915180206299E-1  -3.311700886115432E-3  -8.413069881498814E-3  -3.313284600153565E-3  -8.506901562213898E-3  -8.938085436820984E-1   3.682052195072174E-1  
 6.432432432432432E8    -6.621593832969666E-1   6.058686375617981E-1  -4.355745390057564E-3  -8.546925149857998E-3  -4.299851134419441E-3  -8.532534353435040E-3  -8.890880942344666E-1   3.783125281333923E-1  
 6.456456456456456E8    -6.493881344795227E-1   6.175984144210815E-1  -5.326351150870323E-3  -8.450796827673912E-3  -5.356401205062866E-3  -8.382132276892662E-3  -8.842173218727112E-1   3.880879580974579E-1  
 6.480480480480480E8    -6.360616087913513E-1   6.291508674621582E-1  -6.200657691806555E-3  -8.344966918230057E-3  -6.241293624043465E-3  -8.354913443326950E-3  -8.789277672767639E-1   3.976951837539673E-1  
 6.504504504504504E8    -6.217979788780212E-1   6.403686404228210E-1  -7.016500458121300E-3  -8.105788379907608E-3  -7.034791167825460E-3  -8.135845884680748E-3  -8.714497089385986E-1   4.100064337253571E-1  
 6.528528528528528E8    -6.074064970016480E-1   6.509715914726257E-1  -7.796172052621841E-3  -7.909245789051056E-3  -7.803522516041994E-3  -7.822290994226933E-3  -8.657869696617127E-1   4.221330285072327E-1  
 6.552552552552552E8    -5.922223329544067E-1   6.607363224029541E-1  -8.517388254404068E-3  -7.565332576632500E-3  -8.474762551486492E-3  -7.582318969070911E-3  -8.615894317626953E-1   4.328812956809998E-1  
 6.576576576576576E8    -5.768470168113709E-1   6.696239709854126E-1  -9.126449003815651E-3  -7.220066618174315E-3  -9.205061011016369E-3  -7.260967046022415E-3  -8.577697873115540E-1   4.416849911212921E-1  
 6.600600600600600E8    -5.591495037078857E-1   6.790774464607239E-1  -9.790997020900250E-3  -7.030879147350788E-3  -9.764933027327061E-3  -6.963133346289396E-3  -8.528640866279602E-1   4.496242403984070E-1  
 6.624624624624624E8    -5.419889688491821E-1   6.882389783859253E-1  -1.048393826931715E-2  -6.697522010654211E-3  -1.044450979679823E-2  -6.682747043669224E-3  -8.465106487274170E-1   4.608351290225983E-1  
 6.648648648648648E8    -5.240431427955627E-1   6.964500546455383E-1  -1.113113481551409E-2  -6.294611841440201E-3  -1.110107079148293E-2  -6.378671154379845E-3  -8.399665951728821E-1   4.711884558200836E-1  
 6.672672672672672E8    -5.058296322822571E-1   7.040482759475708E-1  -1.175035908818245E-2  -5.900272168219090E-3  -1.169070322066546E-2  -5.926924757659435E-3  -8.336652517318726E-1   4.814695119857788E-1  
 6.696696696696696E8    -4.865871071815491E-1   7.109581828117371E-1  -1.234124414622784E-2  -5.546444095671177E-3  -1.232747454196215E-2  -5.506979301571846E-3  -8.273515105247498E-1   4.908317327499390E-1  
 6.720720720720720E8    -4.662023484706879E-1   7.171398401260376E-1  -1.302571501582861E-2  -5.180564243346453E-3  -1.297760196030140E-2  -5.184805486351252E-3  -8.210693597793579E-1   5.002460479736328E-1  
 6.744744744744744E8    -4.459307491779327E-1   7.226486206054688E-1  -1.360399555414915E-2  -4.701140802353621E-3  -1.365741435438395E-2  -4.760262090712786E-3  -8.143401145935059E-1   5.105511546134949E-1  
 6.768768768768768E8    -4.250347912311554E-1   7.272169589996338E-1  -1.425880566239357E-2  -4.250674974173307E-3  -1.424060110002756E-2  -4.215191118419170E-3  -8.072001934051514E-1   5.204144120216370E-1  
 6.792792792792792E8    -4.039456248283386E-1   7.305499911308289E-1  -1.483898982405663E-2  -3.681013826280832E-3  -1.487119868397713E-2  -3.686526091769338E-3  -8.002587556838989E-1   5.299984216690064E-1  
 6.816816816816816E8    -3.819247782230377E-1   7.331066131591797E-1  -1.542296167463064E-2  -3.135334933176637E-3  -1.549016311764717E-2  -3.250084351748228E-3  -7.931617498397827E-1   5.398478507995606E-1  
 6.840840840840840E8    -3.592051267623901E-1   7.339305877685547E-1  -1.599718257784843E-2  -2.624609041959047E-3  -1.605768688023090E-2  -2.655188320204616E-3  -7.860542535781860E-1   5.498279929161072E-1  
 6.864864864864864E8    -3.361125588417053E-1   7.340417504310608E-1  -1.658198237419128E-2  -1.930305617861450E-3  -1.653919927775860E-2  -2.022647298872471E-3  -7.780458331108093E-1   5.588613748550415E-1  
 6.888888888888888E8    -3.135739564895630E-1   7.330524325370789E-1  -1.711915433406830E-2  -1.404689042828977E-3  -1.709593087434769E-2  -1.467399531975389E-3  -7.694811820983887E-1   5.689164996147156E-1  
 6.912912912912912E8    -2.911139130592346E-1   7.305656671524048E-1  -1.768405176699162E-2  -6.440112483687699E-4  -1.772131584584713E-2  -7.793489494360983E-4  -7.613304257392883E-1   5.781167149543762E-1  
 6.936936936936936E8    -2.683989107608795E-1   7.267940044403076E-1  -1.833351515233517E-2   4.058927152073011E-5  -1.834735274314880E-2  -6.064858462195844E-5  -7.535189390182495E-1   5.878208875656128E-1  
 6.960960960960960E8    -2.448411136865616E-1   7.213114500045776E-1  -1.888079941272736E-2   9.029820212163031E-4  -1.886968873441219E-2   9.298764052800834E-4  -7.453982234001160E-1   5.973781347274780E-1  
 6.984984984984984E8    -2.227189689874649E-1   7.136579751968384E-1  -1.920650899410248E-2   1.872741617262363E-3  -1.921655237674713E-2   2.009900519624353E-3  -7.343677282333374E-1   6.101301312446594E-1  
 7.009009009009008E8    -2.017308175563812E-1   7.043097615242004E-1  -1.939437724649906E-2   2.720983466133475E-3  -1.928178593516350E-2   3.100256901234388E-3  -7.237201929092407E-1   6.213423609733582E-1  
 7.033033033033032E8    -1.817443817853928E-1   6.931427717208862E-1  -1.931404694914818E-2   3.586348844692111E-3  -1.921936124563217E-2   3.925484605133534E-3  -7.148128151893616E-1   6.299865841865540E-1  
 7.057057057057056E8    -1.629161685705185E-1   6.813151240348816E-1  -1.898769102990627E-2   4.168384242802858E-3  -1.899790205061436E-2   4.338028840720654E-3  -7.084177732467651E-1   6.353019475936890E-1  
 7.081081081081080E8    -1.435571610927582E-1   6.694684028625488E-1  -1.865111105144024E-2   4.331812262535095E-3  -1.869127526879311E-2   4.278969950973988E-3  -7.012671232223511E-1   6.416624188423157E-1  
 7.105105105105104E8    -1.255320906639099E-1   6.565585136413574E-1  -1.861136220395565E-2   4.113524686545134E-3  -1.869419403374195E-2   3.980473615229130E-3  -6.935520172119141E-1   6.487810611724854E-1  
 7.129129129129129E8    -1.107029616832733E-1   6.411676406860352E-1  -1.885096356272697E-2   3.548738081008196E-3  -1.893176324665546E-2   3.391216741874814E-3  -6.845297813415527E-1   6.570993661880493E-1  
 7.153153153153153E8    -9.883958846330643E-2   6.251275539398193E-1  -1.947151497006416E-2   2.597146434709430E-3  -1.944651082158089E-2   2.463941695168614E-3  -6.734820604324341E-1   6.661266088485718E-1  
 7.177177177177178E8    -8.878542482852936E-2   6.097212433815002E-1  -2.080444619059563E-2   1.240986166521907E-3  -2.079251594841480E-2   1.281900797039270E-3  -6.617416143417358E-1   6.758978962898254E-1  
 7.201201201201202E8    -7.974755764007568E-2   5.968265533447266E-1  -2.321519143879414E-2  -7.015467417659238E-5  -2.318015694618225E-2   2.181341329787756E-7  -6.498086452484131E-1   6.846155524253845E-1  
 7.225225225225226E8    -7.115207612514496E-2   5.868110060691834E-1  -2.681476436555386E-2  -8.879137458279729E-4  -2.680335193872452E-2  -9.758933447301388E-4  -6.373993754386902E-1   6.932283639907837E-1  
 7.249249249249250E8    -6.054335460066795E-2   5.781984329223633E-1  -3.167955949902535E-2  -4.425692313816398E-4  -3.161370381712914E-2  -8.226098143495619E-4  -6.268942952156067E-1   6.995361447334290E-1  
 7.273273273273274E8    -4.831923916935921E-2   5.710451602935791E-1  -3.699413686990738E-2   1.620342140085995E-3  -3.697339072823525E-2   8.939376566559076E-4  -6.167932152748108E-1   7.049975991249085E-1  
 7.297297297297298E8    -3.366268798708916E-2   5.622718930244446E-1  -4.217770695686340E-2   5.254611372947693E-3  -4.218352958559990E-2   4.689068067818880E-3  -6.065626740455627E-1   7.106748819351196E-1  
 7.321321321321322E8    -1.661166362464428E-2   5.495146512985230E-1  -4.656140506267548E-2   1.021488104015589E-2  -4.650415107607842E-2   1.032994687557221E-2  -5.962697267532349E-1   7.173349261283875E-1  
 7.345345345345346E8     1.155933947302401E-3   5.322095751762390E-1  -4.982437565922737E-2   1.654075644910336E-2  -4.966827481985092E-2   1.690645888447762E-2  -5.857015848159790E-1   7.241357564926148E-1  
 7.369369369369370E8     1.694944687187672E-2   5.089939832687378E-1  -5.168340355157852E-2   2.363812737166882E-2  -5.134108290076256E-2   2.413497678935528E-2  -5.744052529335022E-1   7.312380671501160E-1  
 7.393393393393394E8     2.671884372830391E-2   4.826023876667023E-1  -5.182924121618271E-2   3.106957115232945E-2  -5.152912437915802E-2   3.152990341186523E-2  -5.633053779602051E-1   7.380660772323608E-1  
 7.417417417417418E8     3.230411931872368E-2   4.579491913318634E-1  -5.085029453039169E-2   3.807833418250084E-2  -5.059342831373215E-2   3.841457515954971E-2  -5.523932576179504E-1   7.443028688430786E-1  
 7.441441441441442E8     3.704666718840599E-2   4.348225593566895E-1  -4.906126484274864E-2   4.502803087234497E-2  -4.917549714446068E-2   4.501368850469589E-2  -5.421792864799500E-1   7.501703500747681E-1  
 7.465465465465466E8     3.992349281907082E-2   4.120746552944183E-1  -4.657580330967903E-2   5.178433284163475E-2  -4.677370935678482E-2   5.180561169981957E-2  -5.297138690948486E-1   7.571571469306946E-1  
 7.489489489489490E8     3.984899446368218E-2   3.875733911991119E-1  -4.305652156472206E-2   5.816366896033287E-2  -4.326126351952553E-2   5.828440934419632E-2  -5.187032222747803E-1   7.634788751602173E-1  
 7.513513513513514E8     3.691293671727181E-2   3.641785383224487E-1  -3.851703181862831E-2   6.386587768793106E-2  -3.864139318466187E-2   6.394889950752258E-2  -5.075325965881348E-1   7.693012356758118E-1  
 7.537537537537538E8     3.477957844734192E-2   3.412608802318573E-1  -3.359385207295418E-2   6.857521086931229E-2  -3.385009244084358E-2   6.856646388769150E-2  -4.954441487789154E-1   7.754995226860046E-1  
 7.561561561561562E8     3.162476792931557E-2   3.164431154727936E-1  -2.881502732634544E-2   7.308340817689896E-2  -2.893239259719849E-2   7.294726371765137E-2  -4.827376902103424E-1   7.804284691810608E-1  
 7.585585585585586E8     2.480080723762512E-2   2.925595045089722E-1  -2.359481528401375E-2   7.732070237398148E-2  -2.349254675209522E-2   7.696606963872910E-2  -4.678032100200653E-1   7.875376939773560E-1  
 7.609609609609610E8     1.460822764784098E-2   2.680811583995819E-1  -1.763788610696793E-2   8.128190040588379E-2  -1.760111376643181E-2   8.057107776403427E-2  -4.534394145011902E-1   7.945440411567688E-1  
 7.633633633633634E8     2.264286013087258E-4   2.450142651796341E-1  -1.132887136191130E-2   8.464297652244568E-2  -1.139734592288733E-2   8.390011638402939E-2  -4.403944611549377E-1   8.008893728256226E-1  
 7.657657657657658E8    -1.534854806959629E-2   2.253839373588562E-1  -4.797054920345545E-3   8.743028342723846E-2  -4.962781909853220E-3   8.704749494791031E-2  -4.287747740745544E-1   8.057972192764282E-1  
 7.681681681681682E8    -3.218779712915421E-2   2.077464759349823E-1   2.194611122831702E-3   8.964785933494568E-2   2.273861318826675E-3   8.965520560741425E-2  -4.188456833362579E-1   8.097158670425415E-1  
 7.705705705705706E8    -5.174773186445236E-2   1.934089958667755E-1   9.586872532963753E-3   9.066227078437805E-2   9.791195392608643E-3   9.108559787273407E-2  -4.081350266933441E-1   8.153650760650635E-1  
 7.729729729729730E8    -7.202729582786560E-2   1.800832450389862E-1   1.719426363706589E-2   9.073065221309662E-2   1.731088943779469E-2   9.157129377126694E-2  -3.962582349777222E-1   8.228899836540222E-1  
 7.753753753753754E8    -9.270770847797394E-2   1.680313497781754E-1   2.450120076537132E-2   8.996663987636566E-2   2.478545904159546E-2   9.090252220630646E-2  -3.813156783580780E-1   8.300867080688477E-1  
 7.777777777777778E8    -1.144259721040726E-1   1.560909599065781E-1   3.123499453067780E-2   8.880569040775299E-2   3.160639479756355E-2   8.951043337583542E-2  -3.642197549343109E-1   8.347402215003967E-1  
 7.801801801801802E8    -1.390913575887680E-1   1.462907791137695E-1   3.794331103563309E-2   8.740748465061188E-2   3.788461908698082E-2   8.744116872549057E-2  -3.466010391712189E-1   8.358167409896851E-1  
 7.825825825825826E8    -1.657234728336334E-1   1.407738178968430E-1   4.432524368166924E-2   8.548188954591751E-2   4.442309960722923E-2   8.508976548910141E-2  -3.275755643844605E-1   8.386617302894592E-1  
 7.849849849849850E8    -1.931264549493790E-1   1.407393068075180E-1   5.107691138982773E-2   8.307653665542603E-2   5.062173306941986E-2   8.271676301956177E-2  -3.124623596668243E-1   8.401053547859192E-1  
 7.873873873873874E8    -2.181505262851715E-1   1.452175825834274E-1   5.742110311985016E-2   7.987218350172043E-2   5.674837157130241E-2   7.942750304937363E-2  -2.981801033020020E-1   8.424693346023560E-1  
 7.897897897897898E8    -2.392610609531403E-1   1.523124873638153E-1   6.317303329706192E-2   7.609421014785767E-2   6.275971233844757E-2   7.553768157958984E-2  -2.817190289497376E-1   8.475807905197144E-1  
 7.921921921921922E8    -2.584319710731506E-1   1.598298698663712E-1   6.856933236122131E-2   7.155634462833405E-2   6.845717132091522E-2   7.146756350994110E-2  -2.649396359920502E-1   8.532630801200867E-1  
 7.945945945945946E8    -2.789250612258911E-1   1.684694737195969E-1   7.328665256500244E-2   6.649640947580338E-2   7.299124449491501E-2   6.675814837217331E-2  -2.473173737525940E-1   8.556964397430420E-1  
 7.969969969969970E8    -2.986677587032318E-1   1.781714409589768E-1   7.691248506307602E-2   6.121757254004479E-2   7.668946683406830E-2   6.178021430969238E-2  -2.296675145626068E-1   8.579250574111939E-1  
 7.993993993993994E8    -3.183773756027222E-1   1.890047043561935E-1   7.935115694999695E-2   5.614090710878372E-2   7.927587628364563E-2   5.655399337410927E-2  -2.104734629392624E-1   8.601315617561340E-1  
 8.018018018018018E8    -3.371732532978058E-1   2.020460516214371E-1   8.111602813005447E-2   5.194032564759255E-2   8.127195388078690E-2   5.230709165334702E-2  -1.907109767198563E-1   8.616717457771301E-1  
 8.042042042042042E8    -3.543264269828796E-1   2.195950150489807E-1   8.302322775125504E-2   4.843372851610184E-2   8.314035087823868E-2   4.867094755172730E-2  -1.718420088291168E-1   8.621133565902710E-1  
 8.066066066066066E8    -3.681001961231232E-1   2.388724684715271E-1   8.475480973720551E-2   4.565428569912911E-2   8.496377617120743E-2   4.571748152375221E-2  -1.507907360792160E-1   8.628506064414978E-1  
 8.090090090090090E8    -3.784834742546082E-1   2.601242661476135E-1   8.752500265836716E-2   4.348926618695259E-2   8.769915252923966E-2   4.331878200173378E-2  -1.295665651559830E-1   8.622143864631653E-1  
 8.114114114114114E8    -3.848245143890381E-1   2.802608609199524E-1   9.114674478769302E-2   4.081432521343231E-2   9.135780483484268E-2   4.055194184184074E-2  -1.084987744688988E-1   8.604267835617065E-1  
 8.138138138138138E8    -3.891692757606506E-1   2.984504699707031E-1   9.505420923233032E-2   3.716904670000076E-2   9.516236186027527E-2   3.682588040828705E-2  -8.730563521385193E-2   8.578171133995056E-1  
 8.162162162162162E8    -3.938971161842346E-1   3.151401281356812E-1   9.845475107431412E-2   3.303780779242516E-2   9.859176725149155E-2   3.285638988018036E-2  -6.592991948127747E-2   8.545138835906982E-1  
 8.186186186186186E8    -3.993778824806213E-1   3.338533043861389E-1   1.017471402883530E-1   2.908523939549923E-2   1.018550321459770E-1   2.919594570994377E-2  -4.392208904027939E-2   8.509973287582398E-1  
 8.210210210210210E8    -4.020466506481171E-1   3.534651994705200E-1   1.057215332984924E-1   2.494711801409721E-2   1.056656017899513E-1   2.490803413093090E-2  -2.118568494915962E-2   8.460188508033752E-1  
 8.234234234234234E8    -4.014785587787628E-1   3.720045685768127E-1   1.099023297429085E-1   1.990814134478569E-2   1.098390221595764E-1   1.975595951080322E-2   2.278972882777453E-3   8.396391272544861E-1  
