#  HZ   S   RI   R     50.00 
! Rohde & Schwarz ZVB8 2Ports - Version 2.81 - 1145.1010k08 SN: 100113
! Date: 2016-05-12 03:16:58
! Measurements: S11 S21 S12 S22 
! 
 6.000000000000000E8    -7.866097092628479E-1   4.381299316883087E-1  -1.328863669186831E-3  -3.692751051858068E-3  -1.367635093629360E-3  -3.669499652460218E-3  -9.381011128425598E-1   2.326226681470871E-1  
 6.024024024024024E8    -7.749444842338562E-1   4.506953954696655E-1  -1.385111245326698E-3  -3.873982699587941E-3  -1.415869570337236E-3  -3.795798169448972E-3  -9.339393973350525E-1   2.449851185083389E-1  
 6.048048048048048E8    -7.621384859085083E-1   4.641464650630951E-1  -1.452597207389772E-3  -4.121748730540276E-3  -1.474740100093186E-3  -4.065021406859160E-3  -9.299070239067078E-1   2.574490308761597E-1  
 6.072072072072072E8    -7.488201260566711E-1   4.776147007942200E-1  -1.560789998620749E-3  -4.343073815107346E-3  -1.510512316599488E-3  -4.224430304020643E-3  -9.256992340087891E-1   2.693608403205872E-1  
 6.096096096096096E8    -7.346997261047363E-1   4.911487698554993E-1  -1.550053129903972E-3  -4.456597846001387E-3  -1.583863748237491E-3  -4.499456845223904E-3  -9.211323857307434E-1   2.815701663494110E-1  
 6.120120120120120E8    -7.213090658187866E-1   5.020548105239868E-1  -1.596410409547389E-3  -4.754503257572651E-3  -1.562580000609160E-3  -4.787726327776909E-3  -9.168620705604553E-1   2.915860712528229E-1  
 6.144144144144144E8    -7.072778344154358E-1   5.125960707664490E-1  -1.493605901487172E-3  -5.114324390888214E-3  -1.607532147318125E-3  -5.142986308783293E-3  -9.127709865570068E-1   3.028541207313538E-1  
 6.168168168168168E8    -6.924545764923096E-1   5.227645635604858E-1  -1.519493409432471E-3  -5.637772846966982E-3  -1.516412710770965E-3  -5.696416832506657E-3  -9.087285399436951E-1   3.138105273246765E-1  
 6.192192192192192E8    -6.773273944854736E-1   5.319474339485169E-1  -1.534832408651710E-3  -6.219875067472458E-3  -1.531225047074258E-3  -6.117783952504396E-3  -9.038480520248413E-1   3.260998725891113E-1  
 6.216216216216216E8    -6.621205806732178E-1   5.402071475982666E-1  -1.487923087552190E-3  -7.024586666375399E-3  -1.482392544858158E-3  -6.913255900144577E-3  -8.982278108596802E-1   3.384177684783936E-1  
 6.240240240240240E8    -6.473606824874878E-1   5.480627417564392E-1  -1.640251721255481E-3  -8.003167808055878E-3  -1.650056219659746E-3  -7.970269769430161E-3  -8.924246430397034E-1   3.508529663085938E-1  
 6.264264264264264E8    -6.340400576591492E-1   5.568547248840332E-1  -2.099192934110761E-3  -9.301155805587769E-3  -2.002418506890535E-3  -9.259168058633804E-3  -8.853753209114075E-1   3.651003241539002E-1  
 6.288288288288288E8    -6.204428672790527E-1   5.654889345169067E-1  -2.837746404111385E-3  -1.063874736428261E-2  -2.777597634121776E-3  -1.066222693771124E-2  -8.785075545310974E-1   3.779492974281311E-1  
 6.312312312312312E8    -6.064612865447998E-1   5.746800899505615E-1  -3.964682109653950E-3  -1.197921298444271E-2  -4.012804944068193E-3  -1.200619712471962E-2  -8.717845082283020E-1   3.891314864158630E-1  
 6.336336336336336E8    -5.925356149673462E-1   5.842982530593872E-1  -5.516831297427416E-3  -1.337286271154881E-2  -5.584925413131714E-3  -1.326568983495235E-2  -8.657671213150024E-1   3.992215991020203E-1  
 6.360360360360360E8    -5.769188404083252E-1   5.941857695579529E-1  -7.411505561321974E-3  -1.446752808988094E-2  -7.561820093542337E-3  -1.445132307708263E-2  -8.601634502410889E-1   4.086152017116547E-1  
 6.384384384384384E8    -5.608057379722595E-1   6.043346524238586E-1  -9.907094761729240E-3  -1.526498142629862E-2  -9.958717040717602E-3  -1.533174142241478E-2  -8.536699414253235E-1   4.204206764698029E-1  
 6.408408408408408E8    -5.433429479598999E-1   6.147481799125671E-1  -1.258449628949165E-2  -1.551212184131146E-2  -1.255805790424347E-2  -1.551572699099779E-2  -8.466534614562988E-1   4.324004054069519E-1  
 6.432432432432432E8    -5.237770676612854E-1   6.252713799476624E-1  -1.528738904744387E-2  -1.510657090693712E-2  -1.525330636650324E-2  -1.512350980192423E-2  -8.392921090126038E-1   4.441668093204498E-1  
 6.456456456456456E8    -5.018613338470459E-1   6.348036527633667E-1  -1.769448444247246E-2  -1.433952152729034E-2  -1.765911094844341E-2  -1.426571048796177E-2  -8.313310742378235E-1   4.555912315845490E-1  
 6.480480480480480E8    -4.786851406097412E-1   6.429017186164856E-1  -1.988590322434902E-2  -1.339422911405563E-2  -1.988644525408745E-2  -1.337677519768477E-2  -8.230182528495789E-1   4.668346345424652E-1  
 6.504504504504504E8    -4.545986950397492E-1   6.497567892074585E-1  -2.206675894558430E-2  -1.234076824039221E-2  -2.211619541049004E-2  -1.223743148148060E-2  -8.121351003646851E-1   4.808830320835114E-1  
 6.528528528528528E8    -4.288585186004639E-1   6.547095775604248E-1  -2.416124939918518E-2  -1.100046467036009E-2  -2.416706643998623E-2  -1.098783500492573E-2  -8.031439781188965E-1   4.945979416370392E-1  
 6.552552552552552E8    -4.012916982173920E-1   6.572397947311401E-1  -2.621052972972393E-2  -9.640295989811420E-3  -2.615498378872871E-2  -9.569209069013596E-3  -7.950446009635925E-1   5.072404742240906E-1  
 6.576576576576576E8    -3.724824190139771E-1   6.574635505676270E-1  -2.820931747555733E-2  -7.965290918946266E-3  -2.811671420931816E-2  -8.012015372514725E-3  -7.874898910522461E-1   5.175305008888245E-1  
 6.600600600600600E8    -3.416419327259064E-1   6.552668809890747E-1  -3.013601899147034E-2  -6.178474519401789E-3  -3.010692633688450E-2  -6.183850113302469E-3  -7.784870862960815E-1   5.270739793777466E-1  
 6.624624624624624E8    -3.120776712894440E-1   6.509614586830139E-1  -3.203742951154709E-2  -4.092199727892876E-3  -3.197567909955978E-2  -4.150683991611004E-3  -7.676115036010742E-1   5.399141907691956E-1  
 6.648648648648648E8    -2.831795215606690E-1   6.447222828865051E-1  -3.374004736542702E-2  -1.832638983614743E-3  -3.380551561713219E-2  -1.883451943285763E-3  -7.563745379447937E-1   5.520475506782532E-1  
 6.672672672672672E8    -2.527922093868256E-1   6.352032423019409E-1  -3.534523770213127E-2   6.810504710301757E-4  -3.534910455346108E-2   5.674110725522041E-4  -7.454319000244141E-1   5.639261007308960E-1  
 6.696696696696696E8    -2.213326990604401E-1   6.223008036613464E-1  -3.684384003281593E-2   3.319827606901527E-3  -3.677886351943016E-2   3.110864665359259E-3  -7.338367104530335E-1   5.751169323921204E-1  
 6.720720720720720E8    -1.893763691186905E-1   6.053062677383423E-1  -3.831117227673531E-2   6.131347268819809E-3  -3.827320411801338E-2   5.975835956633091E-3  -7.220448851585388E-1   5.863540768623352E-1  
 6.744744744744744E8    -1.591662615537643E-1   5.847187042236328E-1  -3.977090492844582E-2   9.366878308355808E-3  -3.973733261227608E-2   9.290944784879684E-3  -7.093289494514465E-1   5.981112122535706E-1  
 6.768768768768768E8    -1.311742514371872E-1   5.596203207969666E-1  -4.087895527482033E-2   1.316260732710362E-2  -4.082696139812470E-2   1.301752682775259E-2  -6.962686777114868E-1   6.093917489051819E-1  
 6.792792792792792E8    -1.065974161028862E-1   5.296860337257385E-1  -4.131893813610077E-2   1.722078770399094E-2  -4.128314927220345E-2   1.703893952071667E-2  -6.828376054763794E-1   6.204927563667297E-1  
 6.816816816816816E8    -8.597927540540695E-2   4.975910186767578E-1  -4.138078913092613E-2   2.133535407483578E-2  -4.138625413179398E-2   2.111601084470749E-2  -6.689967513084412E-1   6.315273046493530E-1  
 6.840840840840840E8    -6.961746513843536E-2   4.644083678722382E-1  -4.094577953219414E-2   2.524988725781441E-2  -4.086957871913910E-2   2.542263828217983E-2  -6.542095541954041E-1   6.429984569549561E-1  
 6.864864864864864E8    -5.812539905309677E-2   4.281105995178223E-1  -3.997450694441795E-2   2.936845086514950E-2  -4.003860801458359E-2   2.934251725673676E-2  -6.386540532112122E-1   6.531821489334106E-1  
 6.888888888888888E8    -5.046189203858376E-2   3.907165825366974E-1  -3.867919370532036E-2   3.331998735666275E-2  -3.889232128858566E-2   3.316051512956619E-2  -6.219290494918823E-1   6.639958024024963E-1  
 6.912912912912912E8    -4.795187339186668E-2   3.518834710121155E-1  -3.717356175184250E-2   3.747891262173653E-2  -3.742337599396706E-2   3.707539290189743E-2  -6.046645045280457E-1   6.742382645606995E-1  
 6.936936936936936E8    -5.052750185132027E-2   3.133612871170044E-1  -3.499716520309448E-2   4.138798639178276E-2  -3.523033112287521E-2   4.113332554697990E-2  -5.871900916099548E-1   6.846186518669128E-1  
 6.960960960960960E8    -5.804663524031639E-2   2.752946913242340E-1  -3.224378079175949E-2   4.497001692652702E-2  -3.241845592856407E-2   4.486985877156258E-2  -5.692100524902344E-1   6.948037743568420E-1  
 6.984984984984984E8    -7.268177717924118E-2   2.392124086618424E-1  -2.909568510949612E-2   4.810587689280510E-2  -2.862191945314407E-2   4.837179183959961E-2  -5.466567277908325E-1   7.066299319267273E-1  
 7.009009009009008E8    -9.240116178989410E-2   2.075475305318832E-1  -2.544820867478848E-2   5.043264105916023E-2  -2.458714693784714E-2   5.076734721660614E-2  -5.244977474212647E-1   7.167719006538391E-1  
 7.033033033033032E8    -1.141372397542000E-1   1.829386949539185E-1  -2.177215367555618E-2   5.187036469578743E-2  -2.076301351189613E-2   5.220758914947510E-2  -5.034564733505249E-1   7.244036197662354E-1  
 7.057057057057056E8    -1.380590498447418E-1   1.617012321949005E-1  -1.834895648062229E-2   5.235936492681503E-2  -1.769028045237064E-2   5.243942141532898E-2  -4.842222929000855E-1   7.296277284622192E-1  
 7.081081081081080E8    -1.627547442913055E-1   1.433433443307877E-1  -1.572390086948872E-2   5.211538821458817E-2  -1.580809988081455E-2   5.215829610824585E-2  -4.629211425781250E-1   7.349460124969482E-1  
 7.105105105105104E8    -1.895444393157959E-1   1.292749047279358E-1  -1.408128347247839E-2   5.200124904513359E-2  -1.483648549765348E-2   5.182061344385147E-2  -4.397086501121521E-1   7.401089668273926E-1  
 7.129129129129129E8    -2.181029617786408E-1   1.193241998553276E-1  -1.355454791337252E-2   5.159078910946846E-2  -1.443018671125174E-2   5.137028172612190E-2  -4.132977128028870E-1   7.444340586662293E-1  
 7.153153153153153E8    -2.466762661933899E-1   1.142208874225617E-1  -1.497510168701410E-2   5.140272900462151E-2  -1.546662207692862E-2   5.144604668021202E-2  -3.839998245239258E-1   7.472878098487854E-1  
 7.177177177177178E8    -2.716603577136993E-1   1.147678419947624E-1  -1.814494282007217E-2   5.288141965866089E-2  -1.826760359108448E-2   5.300037562847138E-2  -3.527254462242127E-1   7.477883100509644E-1  
 7.201201201201202E8    -2.898961901664734E-1   1.193276122212410E-1  -2.228674478828907E-2   5.720257759094238E-2  -2.210169844329357E-2   5.719310417771339E-2  -3.220621943473816E-1   7.451614737510681E-1  
 7.225225225225226E8    -3.047587573528290E-1   1.241550818085671E-1  -2.631239034235477E-2   6.485219299793243E-2  -2.600988373160362E-2   6.488718092441559E-2  -2.915193736553192E-1   7.386567592620850E-1  
 7.249249249249250E8    -3.180237114429474E-1   1.263507604598999E-1  -2.769020758569241E-2   7.705482095479965E-2  -2.844563312828541E-2   7.638342678546906E-2  -2.655935585498810E-1   7.279278635978699E-1  
 7.273273273273274E8    -3.316239118576050E-1   1.251392811536789E-1  -2.457933686673641E-2   9.203185886144638E-2  -2.660149522125721E-2   9.128092974424362E-2  -2.423530220985413E-1   7.150086164474487E-1  
 7.297297297297298E8    -3.474293649196625E-1   1.213629171252251E-1  -1.645867899060249E-2   1.071766912937164E-1  -1.842217706143856E-2   1.068144366145134E-1  -2.220583856105804E-1   7.032116651535034E-1  
 7.321321321321322E8    -3.667358756065369E-1   1.170512139797211E-1  -3.688854165375233E-3   1.206869482994080E-1  -4.095485433936119E-3   1.205002665519714E-1  -2.027839273214340E-1   6.936880946159363E-1  
 7.345345345345346E8    -3.892582356929779E-1   1.166596040129662E-1   1.351968199014664E-2   1.305868029594421E-1   1.411167718470097E-2   1.305459886789322E-1  -1.829955726861954E-1   6.866527795791626E-1  
 7.369369369369370E8    -4.127236008644104E-1   1.216501966118813E-1   3.327447175979614E-2   1.356880366802216E-1   3.494655340909958E-2   1.353400051593781E-1  -1.604173779487610E-1   6.810381412506104E-1  
 7.393393393393394E8    -4.346742928028107E-1   1.323777139186859E-1   5.356048792600632E-2   1.356452405452728E-1   5.539098009467125E-2   1.349248588085175E-1  -1.353037208318710E-1   6.750299930572510E-1  
 7.417417417417418E8    -4.512292146682739E-1   1.455031186342239E-1   7.261341810226440E-2   1.324249058961868E-1   7.428871840238571E-2   1.315490752458572E-1  -1.073229536414146E-1   6.669003963470459E-1  
 7.441441441441442E8    -4.657348692417145E-1   1.588457822799683E-1   9.145078063011169E-2   1.260460913181305E-1   9.186159074306488E-2   1.258385032415390E-1  -7.828023284673691E-2   6.559486985206604E-1  
 7.465465465465466E8    -4.794100224971771E-1   1.709146946668625E-1   1.082944050431252E-1   1.169612333178520E-1   1.083423346281052E-1   1.171623691916466E-1  -4.678860679268837E-2   6.431317329406738E-1  
 7.489489489489490E8    -4.932257831096649E-1   1.828695237636566E-1   1.232825592160225E-1   1.058857291936874E-1   1.230114027857781E-1   1.065558493137360E-1  -1.537216920405626E-2   6.265086531639099E-1  
 7.513513513513514E8    -5.050274729728699E-1   1.963985711336136E-1   1.366567611694336E-1   9.302350878715515E-2   1.361694186925888E-1   9.404537081718445E-2   1.707537099719048E-2   6.046671271324158E-1  
 7.537537537537538E8    -5.152640938758850E-1   2.098626494407654E-1   1.483423709869385E-1   7.883562892675400E-2   1.479720771312714E-1   8.023065328598023E-2   5.035922303795815E-2   5.772868990898132E-1  
 7.561561561561562E8    -5.238603353500366E-1   2.223953902721405E-1   1.588906347751617E-1   6.454992294311523E-2   1.585046648979187E-1   6.491348892450333E-2   8.303371071815491E-2   5.449101924896240E-1  
 7.585585585585586E8    -5.315068960189819E-1   2.374760955572128E-1   1.677292287349701E-1   4.860685393214226E-2   1.670477837324143E-1   4.781153798103333E-2   1.165628433227539E-1   5.097686648368835E-1  
 7.609609609609610E8    -5.387846231460571E-1   2.522933185100555E-1   1.746855378150940E-1   3.107628785073757E-2   1.736836582422257E-1   2.979592792689800E-2   1.476824581623077E-1   4.682361185550690E-1  
 7.633633633633634E8    -5.463421344757080E-1   2.669857740402222E-1   1.792514175176621E-1   1.215538848191500E-2   1.780811995267868E-1   1.114367879927158E-2   1.739654988050461E-1   4.194748401641846E-1  
 7.657657657657658E8    -5.539318919181824E-1   2.818920910358429E-1   1.818811446428299E-1  -7.247061002999544E-3   1.811871677637100E-1  -7.511867675930262E-3   1.932429373264313E-1   3.654035329818726E-1  
 7.681681681681682E8    -5.610349774360657E-1   2.970610857009888E-1   1.820105612277985E-1  -2.731828577816486E-2   1.824502050876617E-1  -2.792955376207829E-2   2.053528428077698E-1   3.049077987670898E-1  
 7.705705705705706E8    -5.674958229064941E-1   3.128660619258881E-1   1.789872497320175E-1  -4.791863635182381E-2   1.797569394111633E-1  -4.815668240189552E-2   2.110601961612701E-1   2.462326437234879E-1  
 7.729729729729730E8    -5.723798274993897E-1   3.297123908996582E-1   1.719189435243607E-1  -6.879268586635590E-2   1.736422479152679E-1  -6.866796314716339E-2   2.097356915473938E-1   1.845897734165192E-1  
 7.753753753753754E8    -5.765572786331177E-1   3.451728522777557E-1   1.615033298730850E-1  -8.757619559764862E-2   1.631825268268585E-1  -8.793094009160996E-2   1.992064267396927E-1   1.188884228467941E-1  
 7.777777777777778E8    -5.801147818565369E-1   3.594037294387817E-1   1.494088172912598E-1  -1.039898768067360E-1   1.499582529067993E-1  -1.044745147228241E-1   1.781406402587891E-1   5.253594741225243E-2  
 7.801801801801802E8    -5.824977755546570E-1   3.743860125541687E-1   1.353137046098709E-1  -1.186101585626602E-1   1.346279233694077E-1  -1.184994950890541E-1   1.462557166814804E-1  -1.150435209274292E-2  
 7.825825825825826E8    -5.831727385520935E-1   3.908700942993164E-1   1.189538910984993E-1  -1.299294680356979E-1   1.180337816476822E-1  -1.297932118177414E-1   1.057121679186821E-1  -6.951650977134705E-2  
 7.849849849849850E8    -5.845482349395752E-1   4.088024795055389E-1   1.018952876329422E-1  -1.388840079307556E-1   1.013433337211609E-1  -1.383203268051148E-1   5.598102882504463E-2  -1.198501959443092E-1  
 7.873873873873874E8    -5.848172903060913E-1   4.274159073829651E-1   8.432938158512116E-2  -1.451840698719025E-1   8.378172665834427E-2  -1.446677148342133E-1   1.768781512510032E-4  -1.607767343521118E-1  
 7.897897897897898E8    -5.827155709266663E-1   4.463130235671997E-1   6.614588201045990E-2  -1.485004872083664E-1   6.538372486829758E-2  -1.481836289167404E-1  -5.802499130368233E-2  -1.924472600221634E-1  
 7.921921921921922E8    -5.788218379020691E-1   4.649976789951325E-1   4.782767966389656E-2  -1.483809947967529E-1   4.741048812866211E-2  -1.485534757375717E-1  -1.154285818338394E-1  -2.149675339460373E-1  
 7.945945945945946E8    -5.768270492553711E-1   4.834306538105011E-1   3.123961947858334E-2  -1.453132182359695E-1   3.161238133907318E-2  -1.452336758375168E-1  -1.712688654661179E-1  -2.294720858335495E-1  
 7.969969969969970E8    -5.737271904945374E-1   5.003570318222046E-1   1.726245507597923E-2  -1.398159712553024E-1   1.756573654711247E-2  -1.397875845432282E-1  -2.282388657331467E-1  -2.387015223503113E-1  
 7.993993993993994E8    -5.698782205581665E-1   5.169354081153870E-1   6.089752539992333E-3  -1.328850537538528E-1   6.225515622645617E-3  -1.328358799219132E-1  -2.842682600021362E-1  -2.427771538496018E-1  
 8.018018018018018E8    -5.640279054641724E-1   5.338032245635986E-1  -2.485368400812149E-3  -1.257043778896332E-1  -2.328624483197928E-3  -1.258145868778229E-1  -3.390612304210663E-1  -2.419810742139816E-1  
 8.042042042042042E8    -5.562168955802918E-1   5.524904131889343E-1  -9.317033924162388E-3  -1.190561056137085E-1  -9.135613217949867E-3  -1.194771826267242E-1  -3.950926661491394E-1  -2.353334575891495E-1  
 8.066066066066066E8    -5.463757514953613E-1   5.695257186889648E-1  -1.447893213480711E-2  -1.133257523179054E-1  -1.429517101496458E-2  -1.139769107103348E-1  -4.486075043678284E-1  -2.213951200246811E-1  
 8.090090090090090E8    -5.367232561111450E-1   5.844635367393494E-1  -1.907202601432800E-2  -1.090958341956139E-1  -1.915466785430908E-2  -1.095734760165215E-1  -4.984040260314941E-1  -2.018663138151169E-1  
 8.114114114114114E8    -5.268912315368652E-1   5.983322858810425E-1  -2.423039078712463E-2  -1.054747700691223E-1  -2.443133853375912E-2  -1.058574840426445E-1  -5.437012314796448E-1  -1.778091490268707E-1  
 8.138138138138138E8    -5.176727771759033E-1   6.110158562660217E-1  -2.982276305556297E-2  -1.017300188541412E-1  -3.009141981601715E-2  -1.017920151352882E-1  -5.844416022300720E-1  -1.502933353185654E-1  
 8.162162162162162E8    -5.090773701667786E-1   6.240935325622559E-1  -3.497390076518059E-2  -9.688706696033478E-2  -3.520891442894936E-2  -9.681697189807892E-2  -6.201074123382568E-1  -1.207640022039414E-1  
 8.186186186186186E8    -5.003451704978943E-1   6.368083357810974E-1  -3.911518305540085E-2  -9.232083708047867E-2  -3.938529267907143E-2  -9.195347875356674E-2  -6.521365046501160E-1  -8.905026316642761E-2  
 8.210210210210210E8    -4.901203811168671E-1   6.496733427047730E-1  -4.337676614522934E-2  -8.759413659572601E-2  -4.341042041778565E-2  -8.767435699701309E-2  -6.773278713226318E-1  -5.759788304567337E-2  
 8.234234234234234E8    -4.787387251853943E-1   6.617971658706665E-1  -4.739644378423691E-2  -8.237455785274506E-2  -4.734905436635017E-2  -8.269713073968887E-2  -7.001530528068543E-1  -2.335719764232636E-2  
