#  HZ   S   RI   R     50.00 
! Rohde & Schwarz ZVB8 2Ports - Version 2.81 - 1145.1010k08 SN: 100113
! Date: 2016-05-12 03:16:36
! Measurements: S11 S21 S12 S22 
! 
 6.000000000000000E8    -7.866854667663574E-1   4.385597705841065E-1  -1.007972285151482E-3  -3.088934579864144E-3  -1.039928058162332E-3  -3.071058541536331E-3  -9.479076862335205E-1   2.093578428030014E-1  
 6.024024024024024E8    -7.749626040458679E-1   4.511943459510803E-1  -1.035490888170898E-3  -3.294180380180478E-3  -1.044404576532543E-3  -3.286402439698577E-3  -9.445679783821106E-1   2.210644632577896E-1  
 6.048048048048048E8    -7.621467709541321E-1   4.643696248531342E-1  -1.107626128941774E-3  -3.375363769009709E-3  -1.095520914532244E-3  -3.363816998898983E-3  -9.410770535469055E-1   2.323969751596451E-1  
 6.072072072072072E8    -7.483649253845215E-1   4.782402515411377E-1  -1.162756932899356E-3  -3.599280724301934E-3  -1.216697157360613E-3  -3.633973887190223E-3  -9.378204941749573E-1   2.436080873012543E-1  
 6.096096096096096E8    -7.338429093360901E-1   4.917366206645966E-1  -1.167872571386397E-3  -3.803479718044400E-3  -1.248320913873613E-3  -3.814924508333206E-3  -9.337905645370483E-1   2.551849484443665E-1  
 6.120120120120120E8    -7.210651636123657E-1   5.023534297943115E-1  -1.200072700157762E-3  -4.023017361760140E-3  -1.184309716336429E-3  -3.936525899916887E-3  -9.305438399314880E-1   2.642277181148529E-1  
 6.144144144144144E8    -7.068754434585571E-1   5.126698017120361E-1  -1.116214087232947E-3  -4.212656989693642E-3  -1.093574217520654E-3  -4.189058672636747E-3  -9.277163743972778E-1   2.745678126811981E-1  
 6.168168168168168E8    -6.919635534286499E-1   5.228002667427063E-1  -1.083102775737643E-3  -4.633958451449871E-3  -1.130985328927636E-3  -4.583892878144980E-3  -9.243623614311218E-1   2.851434648036957E-1  
 6.192192192192192E8    -6.767850518226624E-1   5.316818356513977E-1  -1.013665576465428E-3  -5.027198698371649E-3  -1.011467422358692E-3  -5.072600208222866E-3  -9.207282066345215E-1   2.959713041782379E-1  
 6.216216216216216E8    -6.620450019836426E-1   5.397378802299500E-1  -1.006042584776878E-3  -5.736327730119228E-3  -9.813621873036027E-4  -5.678328219801188E-3  -9.163340330123901E-1   3.076600730419159E-1  
 6.240240240240240E8    -6.473555564880371E-1   5.476077198982239E-1  -9.872381342574954E-4  -6.519578397274017E-3  -1.059002825058997E-3  -6.574553437530994E-3  -9.116064906120300E-1   3.195110857486725E-1  
 6.264264264264264E8    -6.341711282730103E-1   5.561988353729248E-1  -1.371222781017423E-3  -7.499678526073694E-3  -1.360456924885511E-3  -7.452679798007011E-3  -9.062352180480957E-1   3.330344557762146E-1  
 6.288288288288288E8    -6.206306815147400E-1   5.655253529548645E-1  -1.858060597442091E-3  -8.590749464929104E-3  -1.887093880213797E-3  -8.566624484956265E-3  -9.006585478782654E-1   3.443903625011444E-1  
 6.312312312312312E8    -6.067042350769043E-1   5.748950839042664E-1  -2.645381726324558E-3  -9.670954197645187E-3  -2.622991800308228E-3  -9.641600772738457E-3  -8.958557248115540E-1   3.547860682010651E-1  
 6.336336336336336E8    -5.924756526947022E-1   5.845673680305481E-1  -3.750585718080401E-3  -1.067318394780159E-2  -3.794492920860648E-3  -1.066698320209980E-2  -8.910707831382752E-1   3.640832901000977E-1  
 6.360360360360360E8    -5.771022439002991E-1   5.945615172386169E-1  -5.190452560782433E-3  -1.173329632729292E-2  -5.212164949625731E-3  -1.167166512459517E-2  -8.867098689079285E-1   3.725073635578156E-1  
 6.384384384384384E8    -5.608620643615723E-1   6.044889092445374E-1  -7.040682248771191E-3  -1.234281808137894E-2  -7.056746166199446E-3  -1.241341046988964E-2  -8.818888664245606E-1   3.834200203418732E-1  
 6.408408408408408E8    -5.432930588722229E-1   6.148457527160645E-1  -9.103969670832157E-3  -1.263190433382988E-2  -9.063799865543842E-3  -1.264879573136568E-2  -8.766855597496033E-1   3.942552208900452E-1  
 6.432432432432432E8    -5.241458415985107E-1   6.251450777053833E-1  -1.095603313297033E-2  -1.240386255085468E-2  -1.102065574377775E-2  -1.248657982796431E-2  -8.710176348686218E-1   4.049710631370544E-1  
 6.456456456456456E8    -5.019183158874512E-1   6.347540020942688E-1  -1.282330788671970E-2  -1.205469295382500E-2  -1.277192216366530E-2  -1.198999397456646E-2  -8.647738099098206E-1   4.155274629592896E-1  
 6.480480480480480E8    -4.790267050266266E-1   6.429612636566162E-1  -1.456197537481785E-2  -1.146940700709820E-2  -1.456771697849035E-2  -1.147304847836494E-2  -8.587157130241394E-1   4.252950847148895E-1  
 6.504504504504504E8    -4.551421403884888E-1   6.501156091690064E-1  -1.621397025883198E-2  -1.080125756561756E-2  -1.623875647783279E-2  -1.072622556239367E-2  -8.503972887992859E-1   4.386573433876038E-1  
 6.528528528528528E8    -4.291119277477264E-1   6.550666689872742E-1  -1.789363287389278E-2  -9.910092689096928E-3  -1.784055307507515E-2  -9.867003187537193E-3  -8.432316780090332E-1   4.514692127704620E-1  
 6.552552552552552E8    -4.017226696014404E-1   6.579133272171021E-1  -1.937780715525150E-2  -8.938916027545929E-3  -1.932173781096935E-2  -8.940558880567551E-3  -8.379119634628296E-1   4.627998769283295E-1  
 6.576576576576576E8    -3.731319904327393E-1   6.579329371452332E-1  -2.081209607422352E-2  -7.812847383320332E-3  -2.085978724062443E-2  -7.875030860304833E-3  -8.332404494285584E-1   4.721283018589020E-1  
 6.600600600600600E8    -3.425802290439606E-1   6.565183401107788E-1  -2.234089188277721E-2  -6.684172898530960E-3  -2.226328849792481E-2  -6.704555824398994E-3  -8.266434669494629E-1   4.805906116962433E-1  
 6.624624624624624E8    -3.121228516101837E-1   6.524325013160706E-1  -2.385020628571510E-2  -5.288091022521257E-3  -2.372401580214500E-2  -5.304133519530296E-3  -8.191800117492676E-1   4.922139346599579E-1  
 6.648648648648648E8    -2.821881473064423E-1   6.455222368240356E-1  -2.522622235119343E-2  -3.712730482220650E-3  -2.519940398633480E-2  -3.785735229030252E-3  -8.112334012985230E-1   5.034549236297607E-1  
 6.672672672672672E8    -2.523891329765320E-1   6.363937854766846E-1  -2.641430683434010E-2  -2.087436616420746E-3  -2.652480639517307E-2  -2.056776313111186E-3  -8.034140467643738E-1   5.142163634300232E-1  
 6.696696696696696E8    -2.210285514593124E-1   6.230115890502930E-1  -2.768102101981640E-2  -2.435305359540507E-4  -2.768782153725624E-2  -2.366545959375799E-4  -7.953807115554810E-1   5.243613123893738E-1  
 6.720720720720720E8    -1.894551664590836E-1   6.056721210479736E-1  -2.885258942842484E-2   1.788407214917243E-3  -2.881608344614506E-2   1.773807452991605E-3  -7.876836657524109E-1   5.344790816307068E-1  
 6.744744744744744E8    -1.596280932426453E-1   5.847030878067017E-1  -2.984343655407429E-2   4.079807549715042E-3  -2.987255528569222E-2   4.007560200989246E-3  -7.789142727851868E-1   5.451263189315796E-1  
 6.768768768768768E8    -1.320133209228516E-1   5.595777034759522E-1  -3.056819736957550E-2   6.653710268437862E-3  -3.053700923919678E-2   6.542804650962353E-3  -7.700627446174622E-1   5.557677149772644E-1  
 6.792792792792792E8    -1.075331792235375E-1   5.304136276245117E-1  -3.103400394320488E-2   9.273961186408997E-3  -3.097935579717159E-2   9.121102280914784E-3  -7.612832784652710E-1   5.661329030990601E-1  
 6.816816816816816E8    -8.633121103048325E-2   4.989069700241089E-1  -3.122494556009769E-2   1.190291810780764E-2  -3.113421984016895E-2   1.180666033178568E-2  -7.524200677871704E-1   5.764262080192566E-1  
 6.840840840840840E8    -6.872932612895966E-2   4.648256301879883E-1  -3.109570965170860E-2   1.451372727751732E-2  -3.111740015447140E-2   1.453684270381928E-2  -7.429876923561096E-1   5.869333148002625E-1  
 6.864864864864864E8    -5.617570504546166E-2   4.302893877029419E-1  -3.074180707335472E-2   1.712094247341156E-2  -3.073625080287457E-2   1.712121069431305E-2  -7.332437634468079E-1   5.965839624404907E-1  
 6.888888888888888E8    -4.762915149331093E-2   3.918755054473877E-1  -3.027152642607689E-2   1.979824528098106E-2  -3.038764558732510E-2   1.965062506496906E-2  -7.227410674095154E-1   6.069012284278870E-1  
 6.912912912912912E8    -4.515265673398972E-2   3.516716659069061E-1  -2.952547185122967E-2   2.265547588467598E-2  -2.970044314861298E-2   2.249093167483807E-2  -7.123243212699890E-1   6.168902516365051E-1  
 6.936936936936936E8    -4.819053784012795E-2   3.123563826084137E-1  -2.827202714979649E-2   2.545111626386643E-2  -2.845403365790844E-2   2.528084442019463E-2  -7.017272114753723E-1   6.267918348312378E-1  
 6.960960960960960E8    -5.647247657179833E-2   2.735069990158081E-1  -2.663265913724899E-2   2.820833586156368E-2  -2.670667879283428E-2   2.799439243972302E-2  -6.911969780921936E-1   6.370994448661804E-1  
 6.984984984984984E8    -7.214400172233582E-2   2.374460250139237E-1  -2.448970824480057E-2   3.037913888692856E-2  -2.413528971374035E-2   3.053926862776279E-2  -6.770797967910767E-1   6.499584913253784E-1  
 7.009009009009008E8    -9.333195537328720E-2   2.059997618198395E-1  -2.182661928236485E-2   3.185266256332398E-2  -2.131257206201553E-2   3.221790120005608E-2  -6.634483337402344E-1   6.615118980407715E-1  
 7.033033033033032E8    -1.179971620440483E-1   1.800693273544312E-1  -1.911317184567452E-2   3.269448131322861E-2  -1.864054985344410E-2   3.293187916278839E-2  -6.514090895652771E-1   6.706507205963135E-1  
 7.057057057057056E8    -1.402916461229324E-1   1.623711735010147E-1  -1.674218475818634E-2   3.243789821863174E-2  -1.640765555202961E-2   3.261638060212135E-2  -6.420532464981079E-1   6.765540838241577E-1  
 7.081081081081080E8    -1.623048037290573E-1   1.459894329309464E-1  -1.513103954494000E-2   3.169469907879829E-2  -1.498547103255987E-2   3.173447772860527E-2  -6.317603588104248E-1   6.835376620292664E-1  
 7.105105105105104E8    -1.880127489566803E-1   1.316187977790833E-1  -1.438932772725821E-2   3.077694214880467E-2  -1.466645579785109E-2   3.070595674216747E-2  -6.204336285591126E-1   6.911188960075378E-1  
 7.129129129129129E8    -2.149526923894882E-1   1.216471344232559E-1  -1.461594738066196E-2   2.978455275297165E-2  -1.478366460651159E-2   2.963375672698021E-2  -6.070898771286011E-1   6.995391845703125E-1  
 7.153153153153153E8    -2.428259849548340E-1   1.166236847639084E-1  -1.594655029475689E-2   2.895508147776127E-2  -1.604638434946537E-2   2.889063768088818E-2  -5.917624235153198E-1   7.086472511291504E-1  
 7.177177177177178E8    -2.678006589412689E-1   1.162089109420776E-1  -1.864263974130154E-2   2.881832048296928E-2  -1.866099238395691E-2   2.884151227772236E-2  -5.749059915542603E-1   7.174250483512878E-1  
 7.201201201201202E8    -2.885612249374390E-1   1.195024028420448E-1  -2.230628393590450E-2   3.028087131679058E-2  -2.235061489045620E-2   3.026247583329678E-2  -5.582901835441589E-1   7.250548005104065E-1  
 7.225225225225226E8    -3.043198287487030E-1   1.250730007886887E-1  -2.658885531127453E-2   3.404613211750984E-2  -2.660164423286915E-2   3.401799127459526E-2  -5.407602190971375E-1   7.322025895118713E-1  
 7.249249249249250E8    -3.164651095867157E-1   1.288784146308899E-1  -2.996235899627209E-2   4.075738042593002E-2  -3.051664307713509E-2   4.029652848839760E-2  -5.253619551658630E-1   7.357313036918640E-1  
 7.273273273273274E8    -3.264521360397339E-1   1.286994069814682E-1  -3.121937811374664E-2   4.976359754800797E-2  -3.228494897484779E-2   4.905344918370247E-2  -5.109111070632935E-1   7.385363578796387E-1  
 7.297297297297298E8    -3.389946222305298E-1   1.225814148783684E-1  -2.965868636965752E-2   5.957366153597832E-2  -3.066156804561615E-2   5.913535505533218E-2  -4.975168406963348E-1   7.413138747215271E-1  
 7.321321321321322E8    -3.543168306350708E-1   1.140998080372810E-1  -2.570891007781029E-2   6.931789964437485E-2  -2.574731782078743E-2   6.918007880449295E-2  -4.846291840076447E-1   7.450817227363586E-1  
 7.345345345345346E8    -3.769316673278809E-1   1.093899905681610E-1  -1.822653226554394E-2   7.772965729236603E-2  -1.772296801209450E-2   7.778073847293854E-2  -4.716660082340241E-1   7.501750588417053E-1  
 7.369369369369370E8    -4.022038578987122E-1   1.099503561854363E-1  -8.886416442692280E-3   8.389737457036972E-2  -7.795672398060560E-3   8.389132469892502E-2  -4.579671621322632E-1   7.560130953788757E-1  
 7.393393393393394E8    -4.272559583187103E-1   1.174770370125771E-1   1.346749602816999E-3   8.735234290361404E-2   2.603231230750680E-3   8.714923262596130E-2  -4.438723921775818E-1   7.623609304428101E-1  
 7.417417417417418E8    -4.489587247371674E-1   1.285389214754105E-1   1.124618016183376E-2   8.895118534564972E-2   1.212637405842543E-2   8.867836743593216E-2  -4.294478893280029E-1   7.683989405632019E-1  
 7.441441441441442E8    -4.681365191936493E-1   1.406642794609070E-1   2.132414840161800E-2   8.926251530647278E-2   2.117460221052170E-2   8.935714513063431E-2  -4.143693149089813E-1   7.742660641670227E-1  
 7.465465465465466E8    -4.872615337371826E-1   1.531987190246582E-1   3.079770691692829E-2   8.820127695798874E-2   3.066227771341801E-2   8.849480748176575E-2  -3.967459201812744E-1   7.810334563255310E-1  
 7.489489489489490E8    -5.056313276290894E-1   1.680066287517548E-1   3.992145135998726E-2   8.581328392028809E-2   3.967960923910141E-2   8.619265258312225E-2  -3.799516260623932E-1   7.868521809577942E-1  
 7.513513513513514E8    -5.192105174064636E-1   1.834934949874878E-1   4.803371801972389E-2   8.245708793401718E-2   4.788881912827492E-2   8.277723938226700E-2  -3.624120950698853E-1   7.922461628913879E-1  
 7.537537537537538E8    -5.303179621696472E-1   1.996408551931381E-1   5.510906502604485E-2   7.827625423669815E-2   5.509071052074432E-2   7.849348336458206E-2  -3.426741659641266E-1   7.973650693893433E-1  
 7.561561561561562E8    -5.400246977806091E-1   2.154682278633118E-1   6.148791313171387E-2   7.449184358119965E-2   6.151824072003365E-2   7.405748963356018E-2  -3.220218122005463E-1   8.007354736328125E-1  
 7.585585585585586E8    -5.492446422576904E-1   2.346238493919373E-1   6.763551384210587E-2   6.994038075208664E-2   6.750053167343140E-2   6.928248703479767E-2  -2.990497350692749E-1   8.057280182838440E-1  
 7.609609609609610E8    -5.572673678398132E-1   2.529766261577606E-1   7.344589382410049E-2   6.499911099672318E-2   7.291480153799057E-2   6.449934095144272E-2  -2.757501900196075E-1   8.100612759590149E-1  
 7.633633633633634E8    -5.643520355224609E-1   2.700240612030029E-1   7.860472798347473E-2   5.973781272768974E-2   7.793529331684113E-2   5.952960252761841E-2  -2.522706091403961E-1   8.127961158752441E-1  
 7.657657657657658E8    -5.720317959785461E-1   2.870531380176544E-1   8.349354565143585E-2   5.459493026137352E-2   8.295698463916779E-2   5.477500334382057E-2  -2.302974313497543E-1   8.137440085411072E-1  
 7.681681681681682E8    -5.789998173713684E-1   3.051107227802277E-1   8.810725808143616E-2   4.894765466451645E-2   8.815418928861618E-2   4.920541122555733E-2  -2.085459083318710E-1   8.128219842910767E-1  
 7.705705705705706E8    -5.846310853958130E-1   3.244225680828095E-1   9.197197854518890E-2   4.265288636088371E-2   9.251201152801514E-2   4.305469244718552E-2  -1.860383749008179E-1   8.127725720405579E-1  
 7.729729729729730E8    -5.867516994476318E-1   3.431679308414459E-1   9.514247626066208E-2   3.582141548395157E-2   9.620919078588486E-2   3.620142489671707E-2  -1.616324335336685E-1   8.132600784301758E-1  
 7.753753753753754E8    -5.876739621162415E-1   3.606622219085693E-1   9.772486239671707E-2   2.905649133026600E-2   9.880200028419495E-2   2.911823801696301E-2  -1.339212059974670E-1   8.117209672927856E-1  
 7.777777777777778E8    -5.879451036453247E-1   3.767155110836029E-1   9.960885345935822E-2   2.247934974730015E-2   1.004205495119095E-1   2.227886021137238E-2  -1.044404730200768E-1   8.061190843582153E-1  
 7.801801801801802E8    -5.878821611404419E-1   3.925556838512421E-1   1.013315021991730E-1   1.622953824698925E-2   1.012288033962250E-1   1.582094095647335E-2  -7.532171905040741E-2   7.957001328468323E-1  
 7.825825825825826E8    -5.857709050178528E-1   4.094998538494110E-1   1.025943160057068E-1   9.909392334520817E-3   1.020663976669312E-1   9.350301697850227E-3  -4.547448083758354E-2   7.849870920181274E-1  
 7.849849849849850E8    -5.842873454093933E-1   4.279811084270477E-1   1.041366830468178E-1   2.969912253320217E-3   1.035920605063438E-1   3.281953278928995E-3  -1.847130991518498E-2   7.726200819015503E-1  
 7.873873873873874E8    -5.814002156257629E-1   4.454186260700226E-1   1.047387346625328E-1  -4.473502282053232E-3   1.041783094406128E-1  -3.865800099447370E-3   8.879668079316616E-3   7.597449421882629E-1  
 7.897897897897898E8    -5.769959092140198E-1   4.626835286617279E-1   1.043578609824181E-1  -1.181953866034746E-2   1.039191409945488E-1  -1.139530446380377E-2   3.758243843913078E-2   7.463615536689758E-1  
 7.921921921921922E8    -5.710114836692810E-1   4.804595410823822E-1   1.029809862375259E-1  -1.897716522216797E-2   1.029919013381004E-1  -1.888488978147507E-2   6.764826923608780E-2   7.313154935836792E-1  
 7.945945945945946E8    -5.678442716598511E-1   4.962296187877655E-1   1.009648591279984E-1  -2.537568844854832E-2   1.010500490665436E-1  -2.524101734161377E-2   9.531425684690476E-2   7.123525142669678E-1  
 7.969969969969970E8    -5.636422634124756E-1   5.126616954803467E-1   9.815537929534912E-2  -3.095782175660133E-2   9.864916652441025E-2  -3.068940714001656E-2   1.229990944266319E-1   6.922598481178284E-1  
 7.993993993993994E8    -5.585306882858276E-1   5.282662510871887E-1   9.557785838842392E-2  -3.538457676768303E-2   9.602031856775284E-2  -3.539084643125534E-2   1.515947878360748E-1   6.700423359870911E-1  
 8.018018018018018E8    -5.522345304489136E-1   5.433250069618225E-1   9.366057068109512E-2  -3.903408721089363E-2   9.410637617111206E-2  -3.946925699710846E-2   1.816417723894119E-1   6.441806554794312E-1  
 8.042042042042042E8    -5.438333749771118E-1   5.604639649391174E-1   9.268688410520554E-2  -4.296578839421272E-2   9.285155683755875E-2  -4.325604811310768E-2   2.101964801549912E-1   6.152592301368713E-1  
 8.066066066066066E8    -5.339445471763611E-1   5.753299593925476E-1   9.240605682134628E-2  -4.700180143117905E-2   9.228120744228363E-2  -4.737871512770653E-2   2.388076782226563E-1   5.818012356758118E-1  
 8.090090090090090E8    -5.232097506523132E-1   5.890770554542542E-1   9.246658533811569E-2  -5.202394351363182E-2   9.223029017448425E-2  -5.240049958229065E-2   2.645738422870636E-1   5.444481372833252E-1  
 8.114114114114114E8    -5.127046704292297E-1   6.011968255043030E-1   9.217151999473572E-2  -5.848395079374313E-2   9.202160686254501E-2  -5.865924805402756E-2   2.871103584766388E-1   5.026971101760864E-1  
 8.138138138138138E8    -5.029028654098511E-1   6.123266816139221E-1   9.086836874485016E-2  -6.576260924339294E-2   9.085606783628464E-2  -6.584799289703369E-2   3.063303232192993E-1   4.574919044971466E-1  
 8.162162162162162E8    -4.942899048328400E-1   6.233852505683899E-1   8.843549340963364E-2  -7.323189824819565E-2   8.857957273721695E-2  -7.317540049552918E-2   3.217287659645081E-1   4.081761538982391E-1  
 8.186186186186186E8    -4.865056872367859E-1   6.351363658905029E-1   8.560000360012054E-2  -8.021343499422073E-2   8.567724376916885E-2  -8.006390929222107E-2   3.333854973316193E-1   3.560141623020172E-1  
 8.210210210210210E8    -4.767152369022369E-1   6.461189985275269E-1   8.234208077192307E-2  -8.758588880300522E-2   8.214515447616577E-2  -8.774493634700775E-2   3.394409120082855E-1   2.987322211265564E-1  
 8.234234234234234E8    -4.662204086780548E-1   6.566553115844727E-1   7.795180380344391E-2  -9.539498388767242E-2   7.768228650093079E-2  -9.576899558305740E-2   3.392142057418823E-1   2.404208630323410E-1  
