#  HZ   S   RI   R     50.00 
! Rohde & Schwarz ZVB8 2Ports - Version 2.81 - 1145.1010k08 SN: 100113
! Date: 2016-05-12 03:17:30
! Measurements: S11 S21 S12 S22 
! 
 6.000000000000000E8    -7.867922186851502E-1   4.380024671554565E-1  -2.299833111464977E-3  -5.069592036306858E-3  -2.371506765484810E-3  -4.998512100428343E-3  -9.081349968910217E-1   2.888605594635010E-1  
 6.024024024024024E8    -7.751381397247315E-1   4.505308270454407E-1  -2.535349689424038E-3  -5.379895679652691E-3  -2.473728731274605E-3  -5.388846620917320E-3  -9.017671346664429E-1   3.030435144901276E-1  
 6.048048048048048E8    -7.628862857818604E-1   4.634234011173248E-1  -2.695158589631319E-3  -5.662655457854271E-3  -2.676348667591810E-3  -5.717032589018345E-3  -8.947538733482361E-1   3.176212906837463E-1  
 6.072072072072072E8    -7.488279938697815E-1   4.779447019100189E-1  -2.924635075032711E-3  -5.953132640570402E-3  -2.862158231437206E-3  -5.960396490991116E-3  -8.872541785240173E-1   3.322339653968811E-1  
 6.096096096096096E8    -7.343974709510803E-1   4.914731681346893E-1  -3.082774346694350E-3  -6.335529033094645E-3  -3.120269160717726E-3  -6.268110126256943E-3  -8.796201944351196E-1   3.465161025524139E-1  
 6.120120120120120E8    -7.212918400764465E-1   5.021577477455139E-1  -3.165357979014516E-3  -6.776923779398203E-3  -3.217912744730711E-3  -6.671302486211062E-3  -8.722094297409058E-1   3.585267364978790E-1  
 6.144144144144144E8    -7.071326971054077E-1   5.127868652343750E-1  -3.265813458710909E-3  -7.268316112458706E-3  -3.178397426381707E-3  -7.268056273460388E-3  -8.643521070480347E-1   3.726148009300232E-1  
 6.168168168168168E8    -6.924225687980652E-1   5.228911042213440E-1  -3.351615974679589E-3  -8.001635782420635E-3  -3.345545148476958E-3  -7.983244955539703E-3  -8.559252619743347E-1   3.867820203304291E-1  
 6.192192192192192E8    -6.769989132881165E-1   5.323142409324646E-1  -3.546290099620819E-3  -8.896937593817711E-3  -3.524296451359987E-3  -8.930450305342674E-3  -8.462272882461548E-1   4.016594588756561E-1  
 6.216216216216216E8    -6.621121764183044E-1   5.399880409240723E-1  -3.728998592123389E-3  -1.004590559750795E-2  -3.749085124582052E-3  -1.009060349315405E-2  -8.358366489410400E-1   4.166516959667206E-1  
 6.240240240240240E8    -6.477920413017273E-1   5.477831363677979E-1  -4.190979059785605E-3  -1.160188019275665E-2  -4.224949982017279E-3  -1.160364225506783E-2  -8.240501284599304E-1   4.316356778144836E-1  
 6.264264264264264E8    -6.342152357101440E-1   5.562542676925659E-1  -5.143572110682726E-3  -1.351211871951819E-2  -5.135024897754192E-3  -1.361009757965803E-2  -8.110448122024536E-1   4.481680095195770E-1  
 6.288288288288288E8    -6.206706166267395E-1   5.655988454818726E-1  -6.781724281609058E-3  -1.554186921566725E-2  -6.763416342437267E-3  -1.562065072357655E-2  -7.981659770011902E-1   4.625628888607025E-1  
 6.312312312312312E8    -6.064231395721436E-1   5.752137899398804E-1  -9.000456891953945E-3  -1.760666072368622E-2  -8.890349417924881E-3  -1.752797700464726E-2  -7.850112915039063E-1   4.760074913501740E-1  
 6.336336336336336E8    -5.920065045356751E-1   5.848851203918457E-1  -1.193828880786896E-2  -1.940065622329712E-2  -1.188685745000839E-2  -1.934919692575932E-2  -7.720066308975220E-1   4.882391393184662E-1  
 6.360360360360360E8    -5.760458707809448E-1   5.949911475181580E-1  -1.562342699617147E-2  -2.086723409593105E-2  -1.562449056655169E-2  -2.078865282237530E-2  -7.591778635978699E-1   5.001392960548401E-1  
 6.384384384384384E8    -5.597936511039734E-1   6.052299737930298E-1  -2.009219862520695E-2  -2.153000794351101E-2  -1.998404785990715E-2  -2.152808383107185E-2  -7.447590231895447E-1   5.141121149063110E-1  
 6.408408408408408E8    -5.419370532035828E-1   6.154458522796631E-1  -2.488661184906960E-2  -2.126690559089184E-2  -2.484101802110672E-2  -2.124556526541710E-2  -7.288479804992676E-1   5.288076400756836E-1  
 6.432432432432432E8    -5.231106877326965E-1   6.254112720489502E-1  -2.951859496533871E-2  -1.984400674700737E-2  -2.960328757762909E-2  -1.987290568649769E-2  -7.115741372108460E-1   5.431119799613953E-1  
 6.456456456456456E8    -5.008628368377686E-1   6.346610188484192E-1  -3.390201553702354E-2  -1.784200035035610E-2  -3.377943113446236E-2  -1.775469258427620E-2  -6.937332749366760E-1   5.564974546432495E-1  
 6.480480480480480E8    -4.770062863826752E-1   6.428174376487732E-1  -3.802573308348656E-2  -1.543669681996107E-2  -3.789336234331131E-2  -1.541404053568840E-2  -6.742693781852722E-1   5.697090029716492E-1  
 6.504504504504504E8    -4.519687891006470E-1   6.490581631660461E-1  -4.206034541130066E-2  -1.251014601439238E-2  -4.190452769398689E-2  -1.254967600107193E-2  -6.507663726806641E-1   5.851225852966309E-1  
 6.528528528528528E8    -4.262285232543945E-1   6.536870598793030E-1  -4.593256115913391E-2  -9.100873023271561E-3  -4.577068611979485E-2  -9.151109494268894E-3  -6.275440454483032E-1   6.003938913345337E-1  
 6.552552552552552E8    -3.995895385742188E-1   6.560235619544983E-1  -4.951768368482590E-2  -5.237899720668793E-3  -4.949871823191643E-2  -5.222862586379051E-3  -6.038590669631958E-1   6.137942671775818E-1  
 6.576576576576576E8    -3.713957369327545E-1   6.555444598197937E-1  -5.290561169385910E-2  -1.045325538143516E-3  -5.301585793495178E-2  -9.324781130999327E-4  -5.799340605735779E-1   6.241916418075562E-1  
 6.600600600600600E8    -3.405608534812927E-1   6.528489589691162E-1  -5.630083382129669E-2   3.801646409556270E-3  -5.638854578137398E-2   3.811137052252889E-3  -5.524573326110840E-1   6.328663825988770E-1  
 6.624624624624624E8    -3.108779191970825E-1   6.478222608566284E-1  -5.967350676655769E-2   9.421338327229023E-3  -5.975801870226860E-2   9.322180412709713E-3  -5.212146639823914E-1   6.430270075798035E-1  
 6.648648648648648E8    -2.812371253967285E-1   6.396278142929077E-1  -6.254678964614868E-2   1.614001952111721E-2  -6.258586049079895E-2   1.588708907365799E-2  -4.902108013629913E-1   6.511919498443604E-1  
 6.672672672672672E8    -2.525705993175507E-1   6.299521923065186E-1  -6.472402065992355E-2   2.339815348386765E-2  -6.468030810356140E-2   2.311010472476482E-2  -4.567164182662964E-1   6.577466130256653E-1  
 6.696696696696696E8    -2.233894765377045E-1   6.172055602073669E-1  -6.628423929214478E-2   3.096863627433777E-2  -6.632382422685623E-2   3.093248419463635E-2  -4.201401472091675E-1   6.620113849639893E-1  
 6.720720720720720E8    -1.927850395441055E-1   6.001743078231812E-1  -6.752049177885056E-2   3.956010565161705E-2  -6.753031909465790E-2   3.940649703145027E-2  -3.812116086483002E-1   6.638150215148926E-1  
 6.744744744744744E8    -1.634392738342285E-1   5.790089964866638E-1  -6.768867373466492E-2   4.935056343674660E-2  -6.779143214225769E-2   4.918595403432846E-2  -3.386821448802948E-1   6.624818444252014E-1  
 6.768768768768768E8    -1.370975524187088E-1   5.543814897537231E-1  -6.625729054212570E-2   6.019274145364761E-2  -6.636120378971100E-2   5.998189747333527E-2  -2.943026125431061E-1   6.567866206169128E-1  
 6.792792792792792E8    -1.141533330082893E-1   5.261395573616028E-1  -6.290870159864426E-2   7.105504721403122E-2  -6.296446174383164E-2   7.111191004514694E-2  -2.483884096145630E-1   6.465135216712952E-1  
 6.816816816816816E8    -9.389754384756088E-2   4.938279092311859E-1  -5.780486762523651E-2   8.225961029529572E-2  -5.778202041983604E-2   8.261620253324509E-2  -1.999761760234833E-1   6.308888792991638E-1  
 6.840840840840840E8    -7.794075459241867E-2   4.600307047367096E-1  -5.056749656796455E-2   9.375112503767014E-2  -5.058721825480461E-2   9.363969415426254E-2  -1.541058570146561E-1   6.111181974411011E-1  
 6.864864864864864E8    -6.801751255989075E-2   4.269559681415558E-1  -4.069937765598297E-2   1.039324477314949E-1  -4.095933213829994E-2   1.037850156426430E-1  -1.060372740030289E-1   5.832598209381104E-1  
 6.888888888888888E8    -6.134635955095291E-2   3.918822407722473E-1  -2.910958230495453E-2   1.133627519011498E-1  -2.960490807890892E-2   1.130975931882858E-1  -5.675133317708969E-2   5.461196899414063E-1  
 6.912912912912912E8    -5.961572751402855E-2   3.553736805915833E-1  -1.477378793060780E-2   1.216652318835259E-1  -1.583850570023060E-2   1.213203221559525E-1  -1.036161649972200E-2   4.998958408832550E-1  
 6.936936936936936E8    -6.234515085816383E-2   3.191382586956024E-1   1.602260628715158E-3   1.270372718572617E-1   6.048324867151678E-4   1.268209367990494E-1   3.183547779917717E-2   4.440067708492279E-1  
 6.960960960960960E8    -6.914865225553513E-2   2.835072875022888E-1   1.907864212989807E-2   1.291839480400085E-1   1.918927952647209E-2   1.292785406112671E-1   6.709964573383331E-2   3.787705004215241E-1  
 6.984984984984984E8    -8.236204832792282E-2   2.506164610385895E-1   3.725983574986458E-2   1.273939013481140E-1   3.932809084653854E-2   1.270263195037842E-1   9.389440715312958E-2   3.056434094905853E-1  
 7.009009009009008E8    -9.957049041986466E-2   2.209924012422562E-1   5.475857853889465E-2   1.210444495081902E-1   5.798599496483803E-2   1.198274642229080E-1   1.078264564275742E-1   2.265203744173050E-1  
 7.033033033033032E8    -1.182215735316277E-1   1.974667161703110E-1   6.996642053127289E-2   1.107632592320442E-1   7.247906923294067E-2   1.092152073979378E-1   1.073269769549370E-1   1.469552367925644E-1  
 7.057057057057056E8    -1.377449035644531E-1   1.768619120121002E-1   8.128766715526581E-2   9.754985570907593E-2   8.256069570779800E-2   9.643451869487763E-2   9.171970933675766E-2   6.578362733125687E-2  
 7.081081081081080E8    -1.597038209438324E-1   1.567179709672928E-1   8.868236094713211E-2   8.342721313238144E-2   8.849278092384338E-2   8.361425250768662E-2   6.179503723978996E-2  -1.473824027925730E-2  
 7.105105105105104E8    -1.853718906641007E-1   1.407330483198166E-1   9.213984012603760E-2   7.011638581752777E-2   9.136740863323212E-2   7.126145064830780E-2   1.411323063075542E-2  -9.211263060569763E-2  
 7.129129129129129E8    -2.143077850341797E-1   1.294038146734238E-1   9.134265780448914E-2   5.955135077238083E-2   9.067411720752716E-2   6.061357259750366E-2  -4.813772067427635E-2  -1.566267609596252E-1  
 7.153153153153153E8    -2.430064082145691E-1   1.240638792514801E-1   8.815681934356690E-2   5.337823182344437E-2   8.795579522848129E-2   5.367027968168259E-2  -1.215187013149262E-1  -2.049581259489059E-1  
 7.177177177177178E8    -2.692435383796692E-1   1.243489682674408E-1   8.600468933582306E-2   5.171156674623489E-2   8.611068874597549E-2   5.118187889456749E-2  -1.997415721416473E-1  -2.341037541627884E-1  
 7.201201201201202E8    -2.914548218250275E-1   1.298427730798721E-1   8.735857903957367E-2   5.262907221913338E-2   8.723195642232895E-2   5.249777063727379E-2  -2.724894285202026E-1  -2.438231110572815E-1  
 7.225225225225226E8    -3.057204186916351E-1   1.387921273708344E-1   9.327777475118637E-2   5.490211024880409E-2   9.326145052909851E-2   5.463200062513351E-2  -3.400682806968689E-1  -2.389424741268158E-1  
 7.249249249249250E8    -3.149325251579285E-1   1.454687565565109E-1   1.042934209108353E-1   5.448263138532639E-2   1.034885048866272E-1   5.584550276398659E-2  -3.947417736053467E-1  -2.242994606494904E-1  
 7.273273273273274E8    -3.225629925727844E-1   1.486041694879532E-1   1.186709105968475E-1   5.013089999556541E-2   1.175521388649941E-1   5.244141072034836E-2  -4.403705298900604E-1  -2.048900574445725E-1  
 7.297297297297298E8    -3.298702538013458E-1   1.471160948276520E-1   1.340452283620834E-1   4.050979390740395E-2   1.333481967449188E-1   4.272969439625740E-2  -4.747720360755920E-1  -1.861464083194733E-1  
 7.321321321321322E8    -3.391518890857697E-1   1.408777087926865E-1   1.477736830711365E-1   2.492010034620762E-2   1.478341966867447E-1   2.545522898435593E-2  -5.038061141967773E-1  -1.709832549095154E-1  
 7.345345345345346E8    -3.527550995349884E-1   1.339218616485596E-1   1.567871570587158E-1   2.947509987279773E-3   1.570584923028946E-1   2.663673367351294E-3  -5.307594537734985E-1  -1.604158878326416E-1  
 7.369369369369370E8    -3.714567720890045E-1   1.288103908300400E-1   1.589607596397400E-1  -2.160179428756237E-2   1.585664153099060E-1  -2.301632612943649E-2  -5.588007569313049E-1  -1.514292806386948E-1  
 7.393393393393394E8    -3.923989236354828E-1   1.288907527923584E-1   1.533102095127106E-1  -4.532733932137489E-2   1.526052653789520E-1  -4.680016264319420E-2  -5.888980627059937E-1  -1.418034434318543E-1  
 7.417417417417418E8    -4.109284281730652E-1   1.316285133361816E-1   1.436143517494202E-1  -6.516903638839722E-2   1.425491124391556E-1  -6.621740013360977E-2  -6.195197105407715E-1  -1.303729116916657E-1  
 7.441441441441442E8    -4.282475113868713E-1   1.346405595541000E-1   1.306271255016327E-1  -8.239346742630005E-2   1.300055384635925E-1  -8.242693543434143E-2  -6.485496163368225E-1  -1.164136230945587E-1  
 7.465465465465466E8    -4.469583332538605E-1   1.378905624151230E-1   1.159306615591049E-1  -9.560610353946686E-2   1.151434779167175E-1  -9.572219103574753E-2  -6.750226616859436E-1  -9.898536652326584E-2  
 7.489489489489490E8    -4.695770740509033E-1   1.447927355766296E-1   9.951922297477722E-2  -1.052345931529999E-1   9.953425824642181E-2  -1.051686406135559E-1  -7.008744478225708E-1  -8.017910271883011E-2  
 7.513513513513514E8    -4.897162318229675E-1   1.552095115184784E-1   8.276742696762085E-2  -1.110078692436218E-1   8.340266346931458E-2  -1.109561249613762E-1  -7.251834273338318E-1  -5.952078476548195E-2  
 7.537537537537538E8    -5.083027482032776E-1   1.674168556928635E-1   6.717060506343842E-2  -1.136367470026016E-1   6.833788007497788E-2  -1.136423498392105E-1  -7.467038035392761E-1  -3.699942305684090E-2  
 7.561561561561562E8    -5.255949497222900E-1   1.809148788452148E-1   5.354895070195198E-2  -1.146026030182838E-1   5.416681617498398E-2  -1.145840063691139E-1  -7.660363316535950E-1  -1.334847696125507E-2  
 7.585585585585586E8    -5.422519445419312E-1   1.986184269189835E-1   4.056303203105927E-2  -1.142752990126610E-1   4.049374535679817E-2  -1.138962805271149E-1  -7.811953425407410E-1   1.327343378216028E-2  
 7.609609609609610E8    -5.557946562767029E-1   2.162475883960724E-1   2.871789038181305E-2  -1.126112341880798E-1   2.814313955605030E-2  -1.117625981569290E-1  -7.952415943145752E-1   4.091318696737289E-2  
 7.633633633633634E8    -5.691921114921570E-1   2.352831661701202E-1   1.794128678739071E-2  -1.094478070735931E-1   1.743411272764206E-2  -1.082933247089386E-1  -8.080629110336304E-1   6.755600869655609E-2  
 7.657657657657658E8    -5.806722640991211E-1   2.538523077964783E-1   8.692144416272640E-3  -1.056887134909630E-1   8.316189981997013E-3  -1.047520488500595E-1  -8.189693093299866E-1   9.041496366262436E-2  
 7.681681681681682E8    -5.917303562164307E-1   2.751832306385040E-1   1.588586601428688E-4  -1.013285219669342E-1  -1.304949255427346E-4  -1.010914444923401E-1  -8.289086818695068E-1   1.119764149188995E-1  
 7.705705705705706E8    -6.008726954460144E-1   2.981979250907898E-1  -7.667900994420052E-3  -9.632391482591629E-2  -7.500808220356703E-3  -9.648187458515167E-2  -8.358256220817566E-1   1.343714743852615E-1  
 7.729729729729730E8    -6.061125993728638E-1   3.216800391674042E-1  -1.463525369763374E-2  -9.065287560224533E-2  -1.427819207310677E-2  -9.162691235542297E-2  -8.425894379615784E-1   1.571477949619293E-1  
 7.753753753753754E8    -6.091506481170654E-1   3.441738784313202E-1  -2.025364898145199E-2  -8.460085093975067E-2  -2.007971704006195E-2  -8.567226678133011E-2  -8.470053672790527E-1   1.813099980354309E-1  
 7.777777777777778E8    -6.097626090049744E-1   3.647083640098572E-1  -2.482141740620136E-2  -7.877460867166519E-2  -2.467911876738071E-2  -7.959230989217758E-2  -8.478652834892273E-1   2.056166827678680E-1  
 7.801801801801802E8    -6.092011332511902E-1   3.845673203468323E-1  -2.845744043588638E-2  -7.304704934358597E-2  -2.845540456473827E-2  -7.326845079660416E-2  -8.450335860252380E-1   2.277562767267227E-1  
 7.825825825825826E8    -6.060947179794312E-1   4.036769270896912E-1  -3.117966838181019E-2  -6.741797178983688E-2  -3.128694370388985E-2  -6.729881465435028E-2  -8.430728912353516E-1   2.502739131450653E-1  
 7.849849849849850E8    -6.040334105491638E-1   4.226353466510773E-1  -3.338763117790222E-2  -6.234791129827499E-2  -3.323379531502724E-2  -6.197145581245422E-2  -8.405936956405640E-1   2.692606747150421E-1  
 7.873873873873874E8    -6.007580757141113E-1   4.417620897293091E-1  -3.515622392296791E-2  -5.741169676184654E-2  -3.477798029780388E-2  -5.686356872320175E-2  -8.386615514755249E-1   2.872383892536163E-1  
 7.897897897897898E8    -5.949004888534546E-1   4.613710939884186E-1  -3.642444312572479E-2  -5.255459621548653E-2  -3.619210422039032E-2  -5.210521072149277E-2  -8.373194336891174E-1   3.057446479797363E-1  
 7.921921921921922E8    -5.876177549362183E-1   4.806063473224640E-1  -3.717898949980736E-2  -4.760802909731865E-2  -3.712378442287445E-2  -4.752249643206596E-2  -8.371765017509460E-1   3.250490427017212E-1  
 7.945945945945946E8    -5.829743742942810E-1   4.988261163234711E-1  -3.734194114804268E-2  -4.305387288331986E-2  -3.719753026962280E-2  -4.301687702536583E-2  -8.334007859230042E-1   3.421804010868073E-1  
 7.969969969969970E8    -5.776993632316589E-1   5.154431462287903E-1  -3.688066452741623E-2  -3.887791559100151E-2  -3.673191368579865E-2  -3.883806988596916E-2  -8.300904035568237E-1   3.587248921394348E-1  
 7.993993993993994E8    -5.720205903053284E-1   5.305086970329285E-1  -3.583287447690964E-2  -3.515866026282311E-2  -3.583615273237228E-2  -3.524234890937805E-2  -8.261812329292297E-1   3.752870857715607E-1  
 8.018018018018018E8    -5.649125576019287E-1   5.459857583045960E-1  -3.445220366120338E-2  -3.230578452348709E-2  -3.437869623303413E-2  -3.220560401678085E-2  -8.222796320915222E-1   3.916987180709839E-1  
 8.042042042042042E8    -5.564920902252197E-1   5.633012652397156E-1  -3.299486264586449E-2  -3.019354864954948E-2  -3.302412107586861E-2  -3.025221265852451E-2  -8.185474872589111E-1   4.056603014469147E-1  
 8.066066066066066E8    -5.464141964912415E-1   5.790737867355347E-1  -3.177034109830856E-2  -2.874794043600559E-2  -3.198280930519104E-2  -2.875170111656189E-2  -8.141815662384033E-1   4.224303364753723E-1  
 8.090090090090090E8    -5.361580848693848E-1   5.939596295356751E-1  -3.114587813615799E-2  -2.774956263601780E-2  -3.136921674013138E-2  -2.786097861826420E-2  -8.091328144073486E-1   4.383962452411652E-1  
 8.114114114114114E8    -5.258066058158875E-1   6.077510118484497E-1  -3.107157163321972E-2  -2.685653232038021E-2  -3.124318085610867E-2  -2.696464024484158E-2  -8.036791086196899E-1   4.532211124897003E-1  
 8.138138138138138E8    -5.158947110176086E-1   6.204569935798645E-1  -3.138710930943489E-2  -2.582088671624661E-2  -3.160266205668449E-2  -2.575357444584370E-2  -7.982519865036011E-1   4.675040245056152E-1  
 8.162162162162162E8    -5.063782334327698E-1   6.321353912353516E-1  -3.174505382776260E-2  -2.451989613473415E-2  -3.168730065226555E-2  -2.434863150119782E-2  -7.928927540779114E-1   4.810034334659576E-1  
 8.186186186186186E8    -4.973053932189941E-1   6.444880366325378E-1  -3.181693702936173E-2  -2.330196835100651E-2  -3.187144920229912E-2  -2.313648723065853E-2  -7.869555354118347E-1   4.947204589843750E-1  
 8.210210210210210E8    -4.862217009067535E-1   6.571441292762756E-1  -3.202679753303528E-2  -2.188889868557453E-2  -3.213281556963921E-2  -2.196804620325565E-2  -7.803992629051209E-1   5.078461766242981E-1  
 8.234234234234234E8    -4.744064509868622E-1   6.685475111007690E-1  -3.235488757491112E-2  -2.044062502682209E-2  -3.241714462637901E-2  -2.050264924764633E-2  -7.733676433563232E-1   5.213460326194763E-1  
