#  HZ   S   RI   R     50.00 
! Rohde & Schwarz ZVB8 2Ports - Version 2.81 - 1145.1010k08 SN: 100113
! Date: 2016-05-04 02:49:34
! Measurements: S11 S21 S12 S22 
! 
 6.000000000000000E8    -8.702691793441773E-1   3.643328547477722E-1   6.309783202596009E-5  -5.078770336695015E-4   6.173252768348903E-5  -5.378044443204999E-4  -8.433300852775574E-1  -4.784761369228363E-1  
 6.024024024024024E8    -8.634173870086670E-1   3.775279521942139E-1   1.378089218633249E-4  -5.390687147155404E-4   1.320820883847773E-4  -6.421705475077033E-4  -8.478843569755554E-1  -4.695653021335602E-1  
 6.048048048048048E8    -8.564385771751404E-1   3.905587196350098E-1   1.797896838979796E-4  -5.095480591990054E-4   1.281394797842950E-4  -6.109334644861519E-4  -8.527274727821350E-1  -4.608782529830933E-1  
 6.072072072072072E8    -8.487709164619446E-1   4.046401679515839E-1   1.325265329796821E-4  -6.202790536917746E-4   2.240050380351022E-4  -5.907868035137653E-4  -8.572366237640381E-1  -4.519282281398773E-1  
 6.096096096096096E8    -8.407346010208130E-1   4.184627830982208E-1   1.579049421707168E-4  -6.063377950340509E-4   2.197181020164862E-4  -5.650039529427886E-4  -8.616954684257507E-1  -4.428913593292236E-1  
 6.120120120120120E8    -8.344345688819885E-1   4.295912086963654E-1   3.355604130774736E-4  -5.314294248819351E-4   2.577882551122457E-4  -5.717145395465195E-4  -8.653430938720703E-1  -4.349640011787415E-1  
 6.144144144144144E8    -8.261668086051941E-1   4.422121942043304E-1   3.501983883325011E-4  -6.391054484993219E-4   4.016050079371780E-4  -5.993942031636834E-4  -8.689846396446228E-1  -4.272424876689911E-1  
 6.168168168168168E8    -8.177562952041626E-1   4.548239409923554E-1   4.987692809663713E-4  -5.080204573459923E-4   5.790772847831249E-4  -4.999559023417532E-4  -8.730284571647644E-1  -4.182918071746826E-1  
 6.192192192192192E8    -8.086462616920471E-1   4.667478501796722E-1   7.113823667168617E-4  -6.090905517339706E-4   7.006165105849505E-4  -6.120831822045147E-4  -8.772630095481873E-1  -4.092472195625305E-1  
 6.216216216216216E8    -7.994729280471802E-1   4.784127175807953E-1   9.176420862786472E-4  -6.321065011434257E-4   9.033773676492274E-4  -6.672255112789571E-4  -8.821403384208679E-1  -3.990092575550079E-1  
 6.240240240240240E8    -7.901244163513184E-1   4.898373484611511E-1   1.145087066106498E-3  -8.731684647500515E-4   1.111946767196059E-3  -8.176117553375661E-4  -8.864833712577820E-1  -3.885943293571472E-1  
 6.264264264264264E8    -7.806271314620972E-1   5.018262267112732E-1   1.337516587227583E-3  -1.120614819228649E-3   1.405729213729501E-3  -1.115811872296035E-3  -8.910858631134033E-1  -3.778418302536011E-1  
 6.288288288288288E8    -7.714266180992127E-1   5.132845044136047E-1   1.522631966508925E-3  -1.525927684269846E-3   1.522639882750809E-3  -1.509510912001133E-3  -8.943493962287903E-1  -3.684525191783905E-1  
 6.312312312312312E8    -7.631582617759705E-1   5.239973664283752E-1   1.575302681885660E-3  -1.971375197172165E-3   1.647668424993753E-3  -1.962923910468817E-3  -8.976226449012756E-1  -3.599053323268890E-1  
 6.336336336336336E8    -7.552481293678284E-1   5.349157452583313E-1   1.606163685210049E-3  -2.486902289092541E-3   1.626933575607836E-3  -2.463415963575244E-3  -9.005038738250732E-1  -3.517884910106659E-1  
 6.360360360360360E8    -7.470049262046814E-1   5.457208752632141E-1   1.456781406886876E-3  -2.935765311121941E-3   1.428341493010521E-3  -2.948511857539415E-3  -9.035313725471497E-1  -3.443255722522736E-1  
 6.384384384384384E8    -7.375168204307556E-1   5.586119294166565E-1   1.114566810429096E-3  -3.383509814739227E-3   1.133262878283858E-3  -3.318825038149953E-3  -9.066282510757446E-1  -3.356060087680817E-1  
 6.408408408408408E8    -7.275430560112000E-1   5.713611841201782E-1   7.607708103023469E-4  -3.742480883374810E-3   6.943231564946473E-4  -3.695576451718807E-3  -9.097095131874085E-1  -3.266953825950623E-1  
 6.432432432432432E8    -7.169204354286194E-1   5.838651061058044E-1   3.603423829190433E-4  -3.971382044255734E-3   3.814201918430626E-4  -3.880192292854190E-3  -9.134816527366638E-1  -3.178606629371643E-1  
 6.456456456456456E8    -7.055465579032898E-1   5.957710742950440E-1   1.081169557437534E-5  -4.122501704841852E-3  -2.995056274812669E-5  -4.039178602397442E-3  -9.162684082984924E-1  -3.090114891529083E-1  
 6.480480480480480E8    -6.940724849700928E-1   6.068819165229797E-1  -3.662489179987460E-4  -4.182346630841494E-3  -3.537769080139697E-4  -4.149386193603277E-3  -9.197280406951904E-1  -3.003740608692169E-1  
 6.504504504504504E8    -6.805508136749268E-1   6.192854642868042E-1  -6.602983339689672E-4  -4.210508894175291E-3  -7.260491838678718E-4  -4.196011926978827E-3  -9.216811656951904E-1  -2.906927168369293E-1  
 6.528528528528528E8    -6.674219369888306E-1   6.310957670211792E-1  -9.714281768538058E-4  -4.160069860517979E-3  -9.706818382255733E-4  -4.138160962611437E-3  -9.240484237670898E-1  -2.812714278697968E-1  
 6.552552552552552E8    -6.543929576873779E-1   6.419997215270996E-1  -1.280533266253769E-3  -4.165788646787405E-3  -1.208682544529438E-3  -4.137002862989903E-3  -9.266400337219238E-1  -2.720286846160889E-1  
 6.576576576576576E8    -6.411943435668945E-1   6.521226167678833E-1  -1.468799193389714E-3  -4.074383992701769E-3  -1.377434469759464E-3  -4.155851434916258E-3  -9.292342662811279E-1  -2.637974917888641E-1  
 6.600600600600600E8    -6.263939142227173E-1   6.626920104026794E-1  -1.628878992050886E-3  -4.072329495102167E-3  -1.608435879461467E-3  -4.072185605764389E-3  -9.319657683372498E-1  -2.554288804531097E-1  
 6.624624624624624E8    -6.107404828071594E-1   6.736847162246704E-1  -1.710431184619665E-3  -4.055348224937916E-3  -1.678218948654831E-3  -4.026412032544613E-3  -9.344252347946167E-1  -2.448689341545105E-1  
 6.648648648648648E8    -5.951598882675171E-1   6.841374039649963E-1  -1.872117514722049E-3  -4.042711574584246E-3  -1.814906368963420E-3  -3.991444595158100E-3  -9.367266893386841E-1  -2.345968633890152E-1  
 6.672672672672672E8    -5.793975591659546E-1   6.936046481132507E-1  -1.988927600905299E-3  -4.022360779345036E-3  -1.904077711515129E-3  -4.011358600109816E-3  -9.388449788093567E-1  -2.247834056615830E-1  
 6.696696696696696E8    -5.630634427070618E-1   7.025511860847473E-1  -2.012095646932721E-3  -4.077359102666378E-3  -1.989038661122322E-3  -4.066131077706814E-3  -9.407843947410584E-1  -2.154576480388641E-1  
 6.720720720720720E8    -5.453913807868958E-1   7.106156945228577E-1  -1.999607076868415E-3  -4.091311711817980E-3  -2.000682754442096E-3  -4.100865218788385E-3  -9.424363970756531E-1  -2.061418741941452E-1  
 6.744744744744744E8    -5.274009704589844E-1   7.183486819267273E-1  -2.006854629144073E-3  -4.239012952893972E-3  -2.073405776172876E-3  -4.227403085678816E-3  -9.440873861312866E-1  -1.963485181331635E-1  
 6.768768768768768E8    -5.096268057823181E-1   7.257152795791626E-1  -2.043172717094421E-3  -4.344805609434843E-3  -1.964431954547763E-3  -4.341286607086659E-3  -9.456236958503723E-1  -1.868432909250259E-1  
 6.792792792792792E8    -4.921560585498810E-1   7.322175502777100E-1  -1.887185499072075E-3  -4.468897357583046E-3  -1.815682160668075E-3  -4.481080919504166E-3  -9.472384452819824E-1  -1.772732585668564E-1  
 6.816816816816816E8    -4.743564724922180E-1   7.381601929664612E-1  -1.662541530095041E-3  -4.852339159697294E-3  -1.590362633578479E-3  -4.796576686203480E-3  -9.487692713737488E-1  -1.672503054141998E-1  
 6.840840840840840E8    -4.566055834293366E-1   7.436132431030273E-1  -1.418783213011921E-3  -5.396564491093159E-3  -1.376266824081540E-3  -5.348776001483202E-3  -9.503406286239624E-1  -1.568091213703156E-1  
 6.864864864864864E8    -4.384437501430512E-1   7.483021616935730E-1  -1.260431134141982E-3  -6.193174980580807E-3  -1.133371028117836E-3  -6.164091173559427E-3  -9.505696892738342E-1  -1.475807279348373E-1  
 6.888888888888888E8    -4.214105904102325E-1   7.525057196617127E-1  -1.238923054188490E-3  -7.308062165975571E-3  -1.131317112594843E-3  -7.335081696510315E-3  -9.511913061141968E-1  -1.372297108173370E-1  
 6.912912912912912E8    -4.052058458328247E-1   7.570461034774780E-1  -1.563464407809079E-3  -8.726354688405991E-3  -1.468258793465793E-3  -8.749531581997871E-3  -9.517408609390259E-1  -1.268962621688843E-1  
 6.936936936936936E8    -3.894136250019074E-1   7.622703313827515E-1  -2.534461440518498E-3  -1.024397648870945E-2  -2.368827350437641E-3  -1.026346255093813E-2  -9.524061083793640E-1  -1.166482120752335E-1  
 6.960960960960960E8    -3.727729618549347E-1   7.693342566490173E-1  -3.945765085518360E-3  -1.166271045804024E-2  -3.916201181709766E-3  -1.160667184740305E-2  -9.533433914184570E-1  -1.065415665507317E-1  
 6.984984984984984E8    -3.541793525218964E-1   7.764751911163330E-1  -5.699649453163147E-3  -1.260309759527445E-2  -5.818105768412352E-3  -1.241689082235098E-2  -9.542306661605835E-1  -9.316730499267578E-2  
 7.009009009009008E8    -3.336245715618134E-1   7.831950187683106E-1  -7.770795840770006E-3  -1.293303351849318E-2  -7.971960119903088E-3  -1.284770853817463E-2  -9.550166130065918E-1  -8.080765604972839E-2  
 7.033033033033032E8    -3.107322752475739E-1   7.887975573539734E-1  -9.704064577817917E-3  -1.291081774979830E-2  -9.839081205427647E-3  -1.280128583312035E-2  -9.547357559204102E-1  -7.143414020538330E-2  
 7.057057057057056E8    -2.865042090415955E-1   7.919282913208008E-1  -1.149957254528999E-2  -1.259316597133875E-2  -1.152084954082966E-2  -1.251741871237755E-2  -9.544383287429810E-1  -6.542626768350601E-2  
 7.081081081081080E8    -2.602692842483521E-1   7.944194078445435E-1  -1.329819113016129E-2  -1.214150711894035E-2  -1.313302945345640E-2  -1.216081902384758E-2  -9.543756842613220E-1  -5.786615982651711E-2  
 7.105105105105104E8    -2.330661565065384E-1   7.951934933662415E-1  -1.498570945113897E-2  -1.148707699030638E-2  -1.464311312884092E-2  -1.169481221586466E-2  -9.543538689613342E-1  -4.949725791811943E-2  
 7.129129129129129E8    -2.073701024055481E-1   7.939270734786987E-1  -1.643978059291840E-2  -1.083558145910502E-2  -1.626549102365971E-2  -1.118769217282534E-2  -9.545230269432068E-1  -3.941490128636360E-2  
 7.153153153153153E8    -1.819254159927368E-1   7.909764051437378E-1  -1.790895685553551E-2  -1.022791117429733E-2  -1.774355955421925E-2  -1.045911479741335E-2  -9.543134570121765E-1  -2.729661576449871E-2  
 7.177177177177178E8    -1.553170680999756E-1   7.868101000785828E-1  -1.937846653163433E-2  -9.507440030574799E-3  -1.931736245751381E-2  -9.638893418014050E-3  -9.542012810707092E-1  -1.426717080175877E-2  
 7.201201201201202E8    -1.272202283143997E-1   7.807713150978088E-1  -2.091682143509388E-2  -8.642085827887058E-3  -2.081143110990524E-2  -8.845722302794457E-3  -9.538433551788330E-1  -2.522573806345463E-3  
 7.225225225225226E8    -9.957492351531982E-2   7.724674344062805E-1  -2.240916900336742E-2  -7.778975181281567E-3  -2.232339233160019E-2  -7.853589020669460E-3  -9.533790349960327E-1   9.845071472227573E-3  
 7.249249249249250E8    -7.195921987295151E-2   7.626194953918457E-1  -2.410757541656494E-2  -6.491121370345354E-3  -2.393798902630806E-2  -6.983294151723385E-3  -9.523336291313171E-1   1.950396783649921E-2  
 7.273273273273274E8    -4.603093862533569E-2   7.509631514549255E-1  -2.561621181666851E-2  -5.156067665666342E-3  -2.540398947894573E-2  -5.727913696318865E-3  -9.511592388153076E-1   2.979561872780323E-2  
 7.297297297297298E8    -2.221862785518169E-2   7.380309700965881E-1  -2.701772935688496E-2  -3.842820413410664E-3  -2.689639292657375E-2  -4.334782715886831E-3  -9.500223398208618E-1   4.074385762214661E-2  
 7.321321321321322E8     1.247611129656434E-3   7.240130901336670E-1  -2.838431298732758E-2  -2.533464226871729E-3  -2.836687117815018E-2  -2.664447994902730E-3  -9.484406113624573E-1   5.274919793009758E-2  
 7.345345345345346E8     2.546912059187889E-2   7.089944481849670E-1  -2.974725142121315E-2  -1.152825891040266E-3  -2.971991896629334E-2  -1.145775546319783E-3  -9.471338987350464E-1   6.389747560024262E-2  
 7.369369369369370E8     5.059199780225754E-2   6.923004984855652E-1  -3.123037144541740E-2   1.781396422302350E-4  -3.118235990405083E-2   3.796354285441339E-4  -9.450569748878479E-1   7.612769305706024E-2  
 7.393393393393394E8     7.573226839303970E-2   6.718339323997498E-1  -3.299663960933685E-2   1.846581115387380E-3  -3.296414390206337E-2   2.049071015790105E-3  -9.431635141372681E-1   8.770853281021118E-2  
 7.417417417417418E8     9.964386373758316E-2   6.485680937767029E-1  -3.482724726200104E-2   3.996674437075853E-3  -3.483968228101730E-2   3.994923084974289E-3  -9.412134885787964E-1   9.840267151594162E-2  
 7.441441441441442E8     1.225085332989693E-1   6.237822771072388E-1  -3.661310672760010E-2   6.530074402689934E-3  -3.669686242938042E-2   6.320785265415907E-3  -9.392468333244324E-1   1.084392666816711E-1  
 7.465465465465466E8     1.437783390283585E-1   5.967217683792114E-1  -3.845764696598053E-2   9.432281367480755E-3  -3.859179839491844E-2   9.145161136984825E-3  -9.366736412048340E-1   1.196923628449440E-1  
 7.489489489489490E8     1.636423617601395E-1   5.655490159988403E-1  -4.006684198975563E-2   1.283217221498489E-2  -4.024094715714455E-2   1.248168852180243E-2  -9.342398643493652E-1   1.303238123655319E-1  
 7.513513513513514E8     1.812565326690674E-1   5.299398303031921E-1  -4.137885943055153E-2   1.671000383794308E-2  -4.157602041959763E-2   1.626401022076607E-2  -9.316099286079407E-1   1.416168808937073E-1  
 7.537537537537538E8     1.951963007450104E-1   4.907152354717255E-1  -4.206675663590431E-2   2.113481611013413E-2  -4.232753068208695E-2   2.044359594583511E-2  -9.286345839500427E-1   1.544660180807114E-1  
 7.561561561561562E8     2.040037959814072E-1   4.500475227832794E-1  -4.231965169310570E-2   2.555205300450325E-2  -4.249990358948708E-2   2.490043826401234E-2  -9.247484803199768E-1   1.661925017833710E-1  
 7.585585585585586E8     2.078141570091248E-1   4.100688397884369E-1  -4.222832247614861E-2   2.992521971464157E-2  -4.231449216604233E-2   2.919741719961166E-2  -9.199484586715698E-1   1.795292645692825E-1  
 7.609609609609610E8     2.068201452493668E-1   3.693438470363617E-1  -4.177257046103478E-2   3.464573621749878E-2  -4.181552305817604E-2   3.381027281284332E-2  -9.154478907585144E-1   1.930111348628998E-1  
 7.633633633633634E8     2.015664875507355E-1   3.285997807979584E-1  -4.079065471887589E-2   3.964854404330254E-2  -4.105516523122788E-2   3.868511319160461E-2  -9.111890196800232E-1   2.053803205490112E-1  
 7.657657657657658E8     1.922054737806320E-1   2.904548048973084E-1  -3.915756195783615E-2   4.459896311163902E-2  -3.963965177536011E-2   4.392467811703682E-2  -9.077692627906799E-1   2.162993699312210E-1  
 7.681681681681682E8     1.791109293699265E-1   2.546692192554474E-1  -3.714052587747574E-2   4.930963367223740E-2  -3.774523735046387E-2   4.894962906837463E-2  -9.055680036544800E-1   2.259955704212189E-1  
 7.705705705705706E8     1.614825874567032E-1   2.217346131801605E-1  -3.452654182910919E-2   5.392404273152351E-2  -3.528742119669914E-2   5.377454683184624E-2  -9.011902213096619E-1   2.358847558498383E-1  
 7.729729729729730E8     1.394931674003601E-1   1.883022636175156E-1  -3.135594725608826E-2   5.859788134694099E-2  -3.219354897737503E-2   5.854560062289238E-2  -8.981760740280151E-1   2.474642097949982E-1  
 7.753753753753754E8     1.141910701990128E-1   1.576144695281982E-1  -2.767781540751457E-2   6.304986774921417E-2  -2.855573408305645E-2   6.308581680059433E-2  -8.936432003974915E-1   2.604496777057648E-1  
 7.777777777777778E8     8.544614911079407E-2   1.302648931741715E-1  -2.351695671677589E-2   6.720081716775894E-2  -2.414374053478241E-2   6.730674952268601E-2  -8.861434459686279E-1   2.736860811710358E-1  
 7.801801801801802E8     5.330941826105118E-2   1.066636070609093E-1  -1.889507658779621E-2   7.127109915018082E-2  -1.932822540402412E-2   7.070545852184296E-2  -8.755492568016052E-1   2.854833304882050E-1  
 7.825825825825826E8     1.855339109897614E-2   8.907909691333771E-2  -1.375345699489117E-2   7.472525537014008E-2  -1.425274461507797E-2   7.414428889751434E-2  -8.675339818000794E-1   2.984718680381775E-1  
 7.849849849849850E8    -1.517070177942514E-2   7.820453494787216E-2  -7.882763631641865E-3   7.783453166484833E-2  -8.843145333230496E-3   7.718902081251144E-2  -8.603134751319885E-1   3.084794282913208E-1  
 7.873873873873874E8    -4.721199721097946E-2   7.032715529203415E-2  -1.801515347324312E-3   8.043975383043289E-2  -2.871345495805144E-3   7.960613816976547E-2  -8.535509109497070E-1   3.185413777828217E-1  
 7.897897897897898E8    -7.720524817705154E-2   6.442838162183762E-2   4.201316740363836E-3   8.244261890649796E-2   3.143645590171218E-3   8.184514939785004E-2  -8.481743931770325E-1   3.302346765995026E-1  
 7.921921921921922E8    -1.077661141753197E-1   6.128140538930893E-2   1.049612928181887E-2   8.394099771976471E-2   9.501527063548565E-3   8.398301154375076E-2  -8.435696363449097E-1   3.432337343692780E-1  
 7.945945945945946E8    -1.368969380855560E-1   6.217674911022186E-2   1.729593425989151E-2   8.540002256631851E-2   1.621717028319836E-2   8.533468842506409E-2  -8.344138264656067E-1   3.555589914321899E-1  
 7.969969969969970E8    -1.641148030757904E-1   6.330864876508713E-2   2.427578531205654E-2   8.578409254550934E-2   2.347567863762379E-2   8.592388778924942E-2  -8.249481916427612E-1   3.687649071216583E-1  
 7.993993993993994E8    -1.934705823659897E-1   6.451160460710526E-2   3.087539598345757E-2   8.548704534769058E-2   3.047418221831322E-2   8.550275117158890E-2  -8.150499463081360E-1   3.820926547050476E-1  
 8.018018018018018E8    -2.264945954084396E-1   7.036778330802918E-2   3.740755841135979E-2   8.486887812614441E-2   3.716767206788063E-2   8.498392999172211E-2  -8.037309646606445E-1   3.964105844497681E-1  
 8.042042042042042E8    -2.574433684349060E-1   8.289581537246704E-2   4.436255618929863E-2   8.392064273357391E-2   4.394189640879631E-2   8.435641974210739E-2  -7.924959659576416E-1   4.086807668209076E-1  
 8.066066066066066E8    -2.849087417125702E-1   9.955821186304092E-2   5.137107893824577E-2   8.256325125694275E-2   5.089439079165459E-2   8.313434571027756E-2  -7.801062464714050E-1   4.226369857788086E-1  
 8.090090090090090E8    -3.075528442859650E-1   1.185099706053734E-1   5.867340043187141E-2   8.072061091661453E-2   5.841834843158722E-2   8.126105368137360E-2  -7.668308019638062E-1   4.355055093765259E-1  
 8.114114114114114E8    -3.273451030254364E-1   1.370125561952591E-1   6.599591672420502E-2   7.802484929561615E-2   6.575798988342285E-2   7.859213650226593E-2  -7.528998851776123E-1   4.481084942817688E-1  
 8.138138138138138E8    -3.463287949562073E-1   1.560349911451340E-1   7.302628457546234E-2   7.480614632368088E-2   7.289768755435944E-2   7.557961344718933E-2  -7.380527257919312E-1   4.603156447410584E-1  
 8.162162162162162E8    -3.632036447525024E-1   1.779729425907135E-1   8.049342781305313E-2   7.119568437337875E-2   8.024217933416367E-2   7.179865986108780E-2  -7.225351929664612E-1   4.721206128597260E-1  
 8.186186186186186E8    -3.736599087715149E-1   2.008998394012451E-1   8.769624680280685E-2   6.669870764017105E-2   8.747513592243195E-2   6.712815165519714E-2  -7.062305212020874E-1   4.839874505996704E-1  
 8.210210210210210E8    -3.793494999408722E-1   2.223089188337326E-1   9.445802122354507E-2   6.125580519437790E-2   9.399987757205963E-2   6.144956499338150E-2  -6.886515617370606E-1   4.954209327697754E-1  
 8.234234234234234E8    -3.839715421199799E-1   2.418197989463806E-1   1.007221862673760E-1   5.514916777610779E-2   1.002242639660835E-1   5.540744215250015E-2  -6.690042018890381E-1   5.074201822280884E-1  
