#  HZ   S   RI   R     50.00 
! Rohde & Schwarz ZVB8 2Ports - Version 2.81 - 1145.1010k08 SN: 100113
! Date: 2016-05-04 02:50:06
! Measurements: S11 S21 S12 S22 
! 
 6.000000000000000E8    -8.667796254158020E-1   3.698193430900574E-1   1.089613942895085E-4  -6.806420278735459E-4   4.347267895354889E-5  -6.624464294873178E-4  -8.468757271766663E-1  -4.690189957618713E-1  
 6.024024024024024E8    -8.595275282859802E-1   3.829253613948822E-1   1.540111552458257E-4  -7.183302077464759E-4   1.329085935140029E-4  -7.222477579489350E-4  -8.515034317970276E-1  -4.600693285465241E-1  
 6.048048048048048E8    -8.524585366249085E-1   3.959848582744598E-1   1.840238401200622E-4  -7.210442563518882E-4   1.742560707498342E-4  -7.875246228650212E-4  -8.562378883361816E-1  -4.506051540374756E-1  
 6.072072072072072E8    -8.443655967712402E-1   4.104689359664917E-1   1.452586293453351E-4  -7.782165193930268E-4   2.276468585478142E-4  -7.667578756809235E-4  -8.604027628898621E-1  -4.416944980621338E-1  
 6.096096096096096E8    -8.357569575309753E-1   4.243833720684052E-1   2.724337100517005E-4  -8.133880328387022E-4   3.033405519090593E-4  -7.887973915785551E-4  -8.653189539909363E-1  -4.317720532417297E-1  
 6.120120120120120E8    -8.286659121513367E-1   4.358124434947968E-1   4.268693155609071E-4  -7.241836283355951E-4   3.603028599172831E-4  -6.956182187423110E-4  -8.689653873443604E-1  -4.235844910144806E-1  
 6.144144144144144E8    -8.203765749931335E-1   4.482998847961426E-1   4.642950079869479E-4  -7.424798677675426E-4   4.536450724117458E-4  -7.398646557703614E-4  -8.724729418754578E-1  -4.151808321475983E-1  
 6.168168168168168E8    -8.111251592636108E-1   4.608731865882874E-1   6.243320531211793E-4  -7.809745729900897E-4   6.653517484664917E-4  -6.850275094620884E-4  -8.767181634902954E-1  -4.061568975448608E-1  
 6.192192192192192E8    -8.017164468765259E-1   4.727261364459992E-1   8.899989770725370E-4  -8.050166070461273E-4   9.639491909183562E-4  -8.465772261843085E-4  -8.807643651962280E-1  -3.962821960449219E-1  
 6.216216216216216E8    -7.922005653381348E-1   4.843038320541382E-1   1.261075842194259E-3  -9.928294457495213E-4   1.224685111083090E-3  -8.550974307581782E-4  -8.853719830513001E-1  -3.857437372207642E-1  
 6.240240240240240E8    -7.824178934097290E-1   4.957129955291748E-1   1.543437712825835E-3  -1.314454362727702E-3   1.554811606183648E-3  -1.232737209647894E-3  -8.898267745971680E-1  -3.745316863059998E-1  
 6.264264264264264E8    -7.723166346549988E-1   5.075871348381043E-1   1.879862858913839E-3  -1.635000924579799E-3   1.867350190877914E-3  -1.555563765577972E-3  -8.941014409065247E-1  -3.632420897483826E-1  
 6.288288288288288E8    -7.628169655799866E-1   5.190092921257019E-1   2.100864890962839E-3  -2.158108633011580E-3   2.074378775432706E-3  -2.125345868989825E-3  -8.974776864051819E-1  -3.527407050132752E-1  
 6.312312312312312E8    -7.539538145065308E-1   5.296961665153503E-1   2.105718012899160E-3  -2.825563075020909E-3   2.146853599697352E-3  -2.758931135758758E-3  -9.004756808280945E-1  -3.437001705169678E-1  
 6.336336336336336E8    -7.454006075859070E-1   5.405713915824890E-1   2.038110746070743E-3  -3.574297297745943E-3   2.052976982668042E-3  -3.450470976531506E-3  -9.033122062683106E-1  -3.354056179523468E-1  
 6.360360360360360E8    -7.369121909141541E-1   5.515489578247070E-1   1.782801933586597E-3  -4.193869885057211E-3   1.843067933805287E-3  -4.197965841740370E-3  -9.063196182250977E-1  -3.271360099315643E-1  
 6.384384384384384E8    -7.271027565002441E-1   5.642424821853638E-1   1.297864597290754E-3  -4.710296634584665E-3   1.415582955814898E-3  -4.660044331103563E-3  -9.092763662338257E-1  -3.178470730781555E-1  
 6.408408408408408E8    -7.168447971343994E-1   5.768672823905945E-1   7.915520109236240E-4  -5.269564222544432E-3   8.742660866118968E-4  -5.115171428769827E-3  -9.123890995979309E-1  -3.081000447273254E-1  
 6.432432432432432E8    -7.058796286582947E-1   5.894825458526611E-1   2.479337854310870E-4  -5.532356444746256E-3   2.333512238692492E-4  -5.509608890861273E-3  -9.156742691993713E-1  -2.983975112438202E-1  
 6.456456456456456E8    -6.939094066619873E-1   6.015024185180664E-1  -3.149526310153306E-4  -5.663884337991476E-3  -2.962120342999697E-4  -5.773746874183416E-3  -9.187835454940796E-1  -2.890558838844299E-1  
 6.480480480480480E8    -6.811670064926148E-1   6.128714680671692E-1  -7.623417186550796E-4  -5.953419022262096E-3  -7.583691622130573E-4  -5.855892784893513E-3  -9.218969345092773E-1  -2.795823514461517E-1  
 6.504504504504504E8    -6.671293377876282E-1   6.253352761268616E-1  -1.324508222751319E-3  -5.966184195131064E-3  -1.241128658875823E-3  -5.970221944153309E-3  -9.235358238220215E-1  -2.690116167068481E-1  
 6.528528528528528E8    -6.532946825027466E-1   6.371597051620483E-1  -1.742436201311648E-3  -6.024834234267473E-3  -1.765883294865489E-3  -6.017062347382307E-3  -9.257778525352478E-1  -2.584844231605530E-1  
 6.552552552552552E8    -6.395930051803589E-1   6.477293372154236E-1  -2.219272311776876E-3  -5.931022111326456E-3  -2.189249964430928E-3  -5.971809849143028E-3  -9.280790686607361E-1  -2.485884428024292E-1  
 6.576576576576576E8    -6.254870891571045E-1   6.574750542640686E-1  -2.535586943849921E-3  -5.940451286733151E-3  -2.481659408658743E-3  -5.898511968553066E-3  -9.304988980293274E-1  -2.389718294143677E-1  
 6.600600600600600E8    -6.098200678825378E-1   6.677163243293762E-1  -2.869425108656287E-3  -5.784849170595408E-3  -2.830155426636338E-3  -5.889371503144503E-3  -9.333154559135437E-1  -2.292393743991852E-1  
 6.624624624624624E8    -5.931478738784790E-1   6.788988709449768E-1  -3.120604902505875E-3  -5.765436682850123E-3  -3.057313617318869E-3  -5.804250016808510E-3  -9.353833794593811E-1  -2.180053442716599E-1  
 6.648648648648648E8    -5.760939717292786E-1   6.894165873527527E-1  -3.388177137821913E-3  -5.727836862206459E-3  -3.280667820945382E-3  -5.782499443739653E-3  -9.372553825378418E-1  -2.068590223789215E-1  
 6.672672672672672E8    -5.587946176528931E-1   6.983736157417297E-1  -3.547073807567358E-3  -5.816384684294462E-3  -3.439728636294603E-3  -5.819292273372412E-3  -9.389350414276123E-1  -1.957726478576660E-1  
 6.696696696696696E8    -5.411627292633057E-1   7.067120075225830E-1  -3.650644794106484E-3  -5.836170632392168E-3  -3.568232292309403E-3  -5.904362536966801E-3  -9.404601454734802E-1  -1.850439161062241E-1  
 6.720720720720720E8    -5.229555964469910E-1   7.142156958580017E-1  -3.804328152909875E-3  -5.965761374682188E-3  -3.821140620857477E-3  -5.984628573060036E-3  -9.416530728340149E-1  -1.743360757827759E-1  
 6.744744744744744E8    -5.039546489715576E-1   7.211397886276245E-1  -3.854226786643267E-3  -6.064212881028652E-3  -3.811823902651668E-3  -6.110397167503834E-3  -9.427577257156372E-1  -1.631312668323517E-1  
 6.768768768768768E8    -4.851890504360199E-1   7.276179790496826E-1  -3.840466029942036E-3  -6.230330560356379E-3  -3.853496396914125E-3  -6.268331315368414E-3  -9.437440633773804E-1  -1.521842330694199E-1  
 6.792792792792792E8    -4.666214287281036E-1   7.331171631813049E-1  -3.749564290046692E-3  -6.589564029127359E-3  -3.672696184366942E-3  -6.569107528775930E-3  -9.445275068283081E-1  -1.408449113368988E-1  
 6.816816816816816E8    -4.480642676353455E-1   7.380034923553467E-1  -3.524411004036665E-3  -7.099431008100510E-3  -3.554087597876787E-3  -7.166330236941576E-3  -9.453625082969666E-1  -1.290860325098038E-1  
 6.840840840840840E8    -4.293188750743866E-1   7.425355315208435E-1  -3.405557712540031E-3  -8.000098168849945E-3  -3.299392526969314E-3  -8.019610308110714E-3  -9.458872675895691E-1  -1.168128252029419E-1  
 6.864864864864864E8    -4.097591638565064E-1   7.464246749877930E-1  -3.340965835377574E-3  -9.297006763517857E-3  -3.275291062891483E-3  -9.305421262979507E-3  -9.452258348464966E-1  -1.056690216064453E-1  
 6.888888888888888E8    -3.908399939537048E-1   7.499349713325501E-1  -3.585308091714978E-3  -1.106383278965950E-2  -3.371075261384249E-3  -1.108960993587971E-2  -9.442448019981384E-1  -9.331718832254410E-2  
 6.912912912912912E8    -3.733516633510590E-1   7.534030079841614E-1  -4.551302641630173E-3  -1.331076771020889E-2  -4.325232002884150E-3  -1.329574547708035E-2  -9.433177709579468E-1  -8.144786208868027E-2  
 6.936936936936936E8    -3.562167584896088E-1   7.577774524688721E-1  -6.359280087053776E-3  -1.553918700665236E-2  -6.231706123799086E-3  -1.548079773783684E-2  -9.426538944244385E-1  -6.948310136795044E-2  
 6.960960960960960E8    -3.377874791622162E-1   7.635189294815064E-1  -9.147396311163902E-3  -1.755904778838158E-2  -9.006188251078129E-3  -1.750046201050282E-2  -9.420396685600281E-1  -5.768055468797684E-2  
 6.984984984984984E8    -3.177703022956848E-1   7.697845101356506E-1  -1.252620760351419E-2  -1.871625706553459E-2  -1.261322014033794E-2  -1.851280964910984E-2  -9.412989616394043E-1  -4.264311119914055E-2  
 7.009009009009008E8    -2.953318059444428E-1   7.753530740737915E-1  -1.614760234951973E-2  -1.892601139843464E-2  -1.638781465590000E-2  -1.866485923528671E-2  -9.404070973396301E-1  -2.888416871428490E-2  
 7.033033033033032E8    -2.703668475151062E-1   7.789779305458069E-1  -1.969967782497406E-2  -1.828157156705856E-2  -1.989793777465820E-2  -1.808458194136620E-2  -9.388652443885803E-1  -1.750697568058968E-2  
 7.057057057057056E8    -2.446799278259277E-1   7.801610231399536E-1  -2.289892733097076E-2  -1.721346378326416E-2  -2.294787578284740E-2  -1.713113673031330E-2  -9.373283386230469E-1  -9.561568498611450E-3  
 7.081081081081080E8    -2.158324718475342E-1   7.796349525451660E-1  -2.590523473918438E-2  -1.586269587278366E-2  -2.577059902250767E-2  -1.605742610991001E-2  -9.358635544776917E-1   2.559307613410056E-4  
 7.105105105105104E8    -1.863439381122589E-1   7.773664593696594E-1  -2.891867980360985E-2  -1.425870414823294E-2  -2.859260141849518E-2  -1.474598702043295E-2  -9.338676333427429E-1   1.135658752173185E-2  
 7.129129129129129E8    -1.580001413822174E-1   7.722121477127075E-1  -3.165670856833458E-2  -1.247130148112774E-2  -3.130314499139786E-2  -1.308118738234043E-2  -9.315817952156067E-1   2.427325397729874E-2  
 7.153153153153153E8    -1.300387680530548E-1   7.650525569915772E-1  -3.420859202742577E-2  -1.064551621675491E-2  -3.393576666712761E-2  -1.106236875057221E-2  -9.290919303894043E-1   3.905427083373070E-2  
 7.177177177177178E8    -1.009194776415825E-1   7.552490234375000E-1  -3.689014166593552E-2  -8.745792321860790E-3  -3.669375926256180E-2  -9.044077247381210E-3  -9.261440038681030E-1   5.449139699339867E-2  
 7.201201201201202E8    -7.115754485130310E-2   7.436305284500122E-1  -3.963118046522141E-2  -6.327777635306120E-3  -3.946930915117264E-2  -6.656466983258724E-3  -9.228923916816711E-1   6.959129124879837E-2  
 7.225225225225226E8    -4.345732554793358E-2   7.295983433723450E-1  -4.237838834524155E-2  -3.685180796310306E-3  -4.229336231946945E-2  -4.029398318380117E-3  -9.191551208496094E-1   8.493547141551971E-2  
 7.249249249249250E8    -1.692913286387920E-2   7.140818238258362E-1  -4.501511901617050E-2  -4.680689598899335E-4  -4.513975232839584E-2  -1.311025582253933E-3  -9.147093892097473E-1   9.787672758102417E-2  
 7.273273273273274E8     8.132451213896275E-3   6.967625021934509E-1  -4.767241701483727E-2   3.125566756352782E-3  -4.793578386306763E-2   2.023089677095413E-3  -9.096739888191223E-1   1.117491498589516E-1  
 7.297297297297298E8     3.159554675221443E-2   6.769825816154480E-1  -5.016836896538734E-2   6.801676470786333E-3  -5.030632019042969E-2   5.911857355386019E-3  -9.042613506317139E-1   1.260717809200287E-1  
 7.321321321321322E8     5.383976176381111E-2   6.561642885208130E-1  -5.239047855138779E-2   1.053993217647076E-2  -5.226942524313927E-2   1.033854205161333E-2  -8.984969258308411E-1   1.412535756826401E-1  
 7.345345345345346E8     7.714566588401794E-2   6.336722970008850E-1  -5.450431630015373E-2   1.448822207748890E-2  -5.420712381601334E-2   1.449015270918608E-2  -8.916224837303162E-1   1.561122089624405E-1  
 7.369369369369370E8     1.010483503341675E-1   6.068809628486633E-1  -5.701324716210365E-2   1.873777247965336E-2  -5.671862885355949E-2   1.880105398595333E-2  -8.843258023262024E-1   1.718736737966538E-1  
 7.393393393393394E8     1.227449700236321E-1   5.751533508300781E-1  -5.998679995536804E-2   2.415414899587631E-2  -5.974102765321732E-2   2.421174570918083E-2  -8.759590983390808E-1   1.879273802042007E-1  
 7.417417417417418E8     1.398785114288330E-1   5.424181818962097E-1  -6.245844438672066E-2   3.076883405447006E-2  -6.242433562874794E-2   3.074882552027702E-2  -8.669269680976868E-1   2.028981000185013E-1  
 7.441441441441442E8     1.541551351547241E-1   5.087484121322632E-1  -6.420215219259262E-2   3.857298195362091E-2  -6.457654386758804E-2   3.828033432364464E-2  -8.572378158569336E-1   2.168484181165695E-1  
 7.465465465465466E8     1.647986322641373E-1   4.729965925216675E-1  -6.521739065647125E-2   4.718325659632683E-2  -6.576743721961975E-2   4.693265631794930E-2  -8.458277583122253E-1   2.320992052555084E-1  
 7.489489489489490E8     1.717709302902222E-1   4.341387152671814E-1  -6.513737142086029E-2   5.678420513868332E-2  -6.584765762090683E-2   5.626214295625687E-2  -8.340188860893250E-1   2.460536211729050E-1  
 7.513513513513514E8     1.742274612188339E-1   3.924320638179779E-1  -6.349262595176697E-2   6.721515953540802E-2  -6.450300663709641E-2   6.663852185010910E-2  -8.216299414634705E-1   2.608272135257721E-1  
 7.537537537537538E8     1.708990186452866E-1   3.512351810932159E-1  -5.976343154907227E-2   7.811863720417023E-2  -6.124836951494217E-2   7.736221700906754E-2  -8.079454898834229E-1   2.763041257858276E-1  
 7.561561561561562E8     1.628583371639252E-1   3.123764991760254E-1  -5.453825369477272E-2   8.854296058416367E-2  -5.572915449738503E-2   8.777236193418503E-2  -7.927345633506775E-1   2.908820509910584E-1  
 7.585585585585586E8     1.513938009738922E-1   2.766709923744202E-1  -4.824921861290932E-2   9.813679009675980E-2  -4.917426779866219E-2   9.721052646636963E-2  -7.749885916709900E-1   3.077678382396698E-1  
 7.609609609609610E8     1.366888433694840E-1   2.423886805772781E-1  -4.112282767891884E-2   1.080347597599030E-1  -4.211802780628204E-2   1.066460534930229E-1  -7.565303444862366E-1   3.239051401615143E-1  
 7.633633633633634E8     1.190168559551239E-1   2.096164524555206E-1  -3.227810189127922E-2   1.181901171803474E-1  -3.373514488339424E-2   1.164809018373489E-1  -7.367311716079712E-1   3.383667469024658E-1  
 7.657657657657658E8     9.938054531812668E-2   1.809892952442169E-1  -2.161146886646748E-2   1.275985240936279E-1  -2.331987954676151E-2   1.265236884355545E-1  -7.157540917396545E-1   3.510014414787293E-1  
 7.681681681681682E8     7.567516714334488E-2   1.536983549594879E-1  -9.121567942202091E-3   1.360239386558533E-1  -1.088074687868357E-2   1.358407437801361E-1  -6.932134628295898E-1   3.622172474861145E-1  
 7.705705705705706E8     4.825879633426666E-2   1.304017007350922E-1   4.912637174129486E-3   1.433340311050415E-1   3.253344213590026E-3   1.435533761978149E-1  -6.677613258361816E-1   3.724531233310700E-1  
 7.729729729729730E8     2.037496864795685E-2   1.106901392340660E-1   2.065310068428516E-2   1.489700525999069E-1   1.946491003036499E-2   1.502085179090500E-1  -6.401735544204712E-1   3.828167915344238E-1  
 7.753753753753754E8    -1.052617747336626E-2   9.309119731187820E-2   3.798486664891243E-2   1.531096845865250E-1   3.709404543042183E-2   1.547181457281113E-1  -6.090905666351318E-1   3.921752572059631E-1  
 7.777777777777778E8    -4.224789142608643E-2   7.942658662796021E-2   5.716686323285103E-2   1.554328203201294E-1   5.629821494221687E-2   1.563217639923096E-1  -5.729179978370667E-1   3.980682194232941E-1  
 7.801801801801802E8    -7.520389556884766E-2   6.889381259679794E-2   7.743114233016968E-2   1.556451916694641E-1   7.601568847894669E-2   1.555391550064087E-1  -5.322376489639282E-1   3.987483382225037E-1  
 7.825825825825826E8    -1.093316450715065E-1   6.508951634168625E-2   9.939157962799072E-2   1.527904272079468E-1   9.805734455585480E-2   1.529139429330826E-1  -4.903007149696350E-1   3.961022198200226E-1  
 7.849849849849850E8    -1.394423544406891E-1   6.716442853212357E-2   1.230397149920464E-1   1.458545625209808E-1   1.210683286190033E-1   1.465621292591095E-1  -4.484339058399200E-1   3.866042792797089E-1  
 7.873873873873874E8    -1.637413352727890E-1   7.010543346405029E-2   1.461772024631500E-1   1.348492801189423E-1   1.443101614713669E-1   1.352114528417587E-1  -4.048967659473419E-1   3.713554143905640E-1  
 7.897897897897898E8    -1.846541315317154E-1   7.245998084545136E-2   1.680437624454498E-1   1.198418810963631E-1   1.664533019065857E-1   1.198840737342835E-1  -3.623609840869904E-1   3.508299887180328E-1  
 7.921921921921922E8    -2.052056044340134E-1   7.521232962608337E-2   1.884202361106873E-1   1.002053469419479E-1   1.873443275690079E-1   1.004916280508041E-1  -3.209615349769592E-1   3.232143521308899E-1  
 7.945945945945946E8    -2.276597917079926E-1   7.810025662183762E-2   2.062818408012390E-1   7.533359527587891E-2   2.048125118017197E-1   7.723181694746018E-2  -2.809805274009705E-1   2.849689126014710E-1  
 7.969969969969970E8    -2.508910000324249E-1   7.916558533906937E-2   2.191889882087708E-1   4.607362300157547E-2   2.180071771144867E-1   4.911061376333237E-2  -2.463027536869049E-1   2.383188456296921E-1  
 7.993993993993994E8    -2.776187658309937E-1   8.103079348802567E-2   2.260121852159500E-1   1.459677703678608E-2   2.257211357355118E-1   1.805233024060726E-2  -2.190365791320801E-1   1.828400790691376E-1  
 8.018018018018018E8    -3.053988516330719E-1   8.732798695564270E-2   2.266211509704590E-1  -1.747952029109001E-2   2.270316779613495E-1  -1.488319411873817E-2  -2.016848325729370E-1   1.220639422535896E-1  
 8.042042042042042E8    -3.322713077068329E-1   9.753748029470444E-2   2.211678177118301E-1  -4.959544911980629E-2   2.219273597002029E-1  -4.714271053671837E-2  -1.967703849077225E-1   5.686259642243385E-2  
 8.066066066066066E8    -3.556978702545166E-1   1.101129725575447E-1   2.102673947811127E-1  -7.848532497882843E-2   2.107873260974884E-1  -7.724707573652268E-2  -2.046821415424347E-1  -7.910899817943573E-3  
 8.090090090090090E8    -3.785823881626129E-1   1.243501603603363E-1   1.941690444946289E-1  -1.053310185670853E-1   1.945724785327911E-1  -1.042947247624397E-1  -2.262774556875229E-1  -6.961748749017716E-2  
 8.114114114114114E8    -4.016274213790894E-1   1.396538466215134E-1   1.740728467702866E-1  -1.267787665128708E-1   1.735451966524124E-1  -1.264713406562805E-1  -2.590677440166473E-1  -1.244372352957726E-1  
 8.138138138138138E8    -4.262460172176361E-1   1.603334397077560E-1   1.518461406230927E-1  -1.436433494091034E-1   1.517024785280228E-1  -1.432481706142426E-1  -2.994087636470795E-1  -1.695423871278763E-1  
 8.162162162162162E8    -4.476667344570160E-1   1.855149567127228E-1   1.280922442674637E-1  -1.568825691938400E-1   1.287066340446472E-1  -1.561453640460968E-1  -3.454872071743012E-1  -2.053833454847336E-1  
 8.186186186186186E8    -4.630898833274841E-1   2.129404544830322E-1   1.039039567112923E-1  -1.653355956077576E-1   1.040130853652954E-1  -1.646521389484406E-1  -3.936018645763397E-1  -2.306525707244873E-1  
 8.210210210210210E8    -4.741997420787811E-1   2.402716726064682E-1   7.883173227310181E-2  -1.687329560518265E-1   7.940130680799484E-2  -1.681381762027741E-1  -4.400699734687805E-1  -2.469102591276169E-1  
 8.234234234234234E8    -4.813624024391174E-1   2.648933231830597E-1   5.641804635524750E-2  -1.676877737045288E-1   5.642751231789589E-2  -1.669866442680359E-1  -4.868986904621124E-1  -2.560477852821350E-1  
