#  HZ   S   RI   R     50.00 
! Rohde & Schwarz ZVB8 2Ports - Version 2.81 - 1145.1010k08 SN: 100113
! Date: 2016-05-04 02:49:11
! Measurements: S11 S21 S12 S22 
! 
 6.000000000000000E8    -8.822042942047119E-1   3.475653529167175E-1   9.843642328632996E-5  -4.187532176729292E-4   5.559424607781693E-5  -4.154892230872065E-4  -8.416920304298401E-1  -4.824493825435638E-1  
 6.024024024024024E8    -8.764259815216065E-1   3.600172996520996E-1   1.346759090665728E-4  -4.379986785352230E-4   1.429552648914978E-4  -4.646717861760408E-4  -8.460939526557922E-1  -4.740354418754578E-1  
 6.048048048048048E8    -8.702787756919861E-1   3.730090260505676E-1   1.466456596972421E-4  -4.267960903234780E-4   1.087082710000686E-4  -4.070480936206877E-4  -8.507476449012756E-1  -4.653477966785431E-1  
 6.072072072072072E8    -8.633648753166199E-1   3.864546716213226E-1   1.680037530604750E-4  -4.524995456449688E-4   2.077109966194257E-4  -4.737735725939274E-4  -8.551852703094482E-1  -4.568383693695068E-1  
 6.096096096096096E8    -8.565490245819092E-1   3.998521268367767E-1   1.630318583920598E-4  -4.706741601694375E-4   2.229196543339640E-4  -4.905537352897227E-4  -8.600088357925415E-1  -4.475237429141998E-1  
 6.120120120120120E8    -8.512179851531982E-1   4.107652902603149E-1   2.505048178136349E-4  -3.967544471379370E-4   2.137371484423056E-4  -3.918074362445623E-4  -8.635640740394592E-1  -4.401585757732391E-1  
 6.144144144144144E8    -8.441814780235291E-1   4.226028025150299E-1   3.343201824463904E-4  -4.169588792137802E-4   3.160484193358570E-4  -4.266349715180695E-4  -8.673745393753052E-1  -4.323398172855377E-1  
 6.168168168168168E8    -8.367145061492920E-1   4.348499774932861E-1   4.972367314621806E-4  -3.982922353316099E-4   4.211508785374463E-4  -3.822496510110796E-4  -8.711434006690979E-1  -4.239954352378845E-1  
 6.192192192192192E8    -8.289762139320374E-1   4.467153251171112E-1   6.032099481672049E-4  -4.534897161647677E-4   5.991620710119605E-4  -4.265199240762740E-4  -8.758135437965393E-1  -4.151550531387329E-1  
 6.216216216216216E8    -8.210177421569824E-1   4.583759307861328E-1   7.560995290987194E-4  -5.291809793561697E-4   7.814323762431741E-4  -4.372632829472423E-4  -8.800773620605469E-1  -4.054805636405945E-1  
 6.240240240240240E8    -8.126422762870789E-1   4.694474041461945E-1   9.385030134581029E-4  -6.066286587156355E-4   9.528377559036017E-4  -5.539942067116499E-4  -8.848809599876404E-1  -3.951342701911926E-1  
 6.264264264264264E8    -8.046136498451233E-1   4.815876483917236E-1   1.128517324104905E-3  -7.654241053387523E-4   1.104586408473551E-3  -7.851388654671609E-4  -8.891955018043518E-1  -3.842386305332184E-1  
 6.288288288288288E8    -7.963727712631226E-1   4.929797649383545E-1   1.305969315581024E-3  -1.086519914679229E-3   1.371747232042253E-3  -1.083123148418963E-3  -8.926469087600708E-1  -3.753618597984314E-1  
 6.312312312312312E8    -7.891418933868408E-1   5.039450526237488E-1   1.341072726063430E-3  -1.435525715351105E-3   1.352021703496575E-3  -1.420574611984193E-3  -8.957595825195313E-1  -3.671144545078278E-1  
 6.336336336336336E8    -7.823738455772400E-1   5.142981410026550E-1   1.353856059722602E-3  -1.780667924322188E-3   1.408764510415494E-3  -1.734692603349686E-3  -8.989706039428711E-1  -3.593526780605316E-1  
 6.360360360360360E8    -7.751807570457459E-1   5.252085328102112E-1   1.243325881659985E-3  -2.186194760724902E-3   1.213109353557229E-3  -2.160334028303623E-3  -9.018386602401733E-1  -3.518859446048737E-1  
 6.384384384384384E8    -7.667492628097534E-1   5.374636650085449E-1   1.033399021252990E-3  -2.407656516879797E-3   1.044116914272308E-3  -2.423466648906469E-3  -9.047433137893677E-1  -3.433380722999573E-1  
 6.408408408408408E8    -7.586196660995483E-1   5.494894981384277E-1   8.123139268718660E-4  -2.779541537165642E-3   8.087999885901809E-4  -2.682299353182316E-3  -9.081981778144836E-1  -3.346852362155914E-1  
 6.432432432432432E8    -7.494188547134399E-1   5.615340471267700E-1   5.221445462666452E-4  -2.937451936304569E-3   5.266316002234817E-4  -2.900387626141310E-3  -9.116203188896179E-1  -3.260652422904968E-1  
 6.456456456456456E8    -7.398321628570557E-1   5.729800462722778E-1   2.357663324801251E-4  -2.935576951131225E-3   3.098842280451208E-4  -3.030828433111310E-3  -9.150465726852417E-1  -3.175161778926849E-1  
 6.480480480480480E8    -7.297440767288208E-1   5.837000608444214E-1   5.622110984404571E-5  -3.072681138291955E-3  -5.774248711531982E-5  -2.990345703437924E-3  -9.182836413383484E-1  -3.090818822383881E-1  
 6.504504504504504E8    -7.187997102737427E-1   5.958533883094788E-1  -2.626968198455870E-4  -3.078018082305789E-3  -2.454595232848078E-4  -3.004694124683738E-3  -9.201649427413940E-1  -2.995954751968384E-1  
 6.528528528528528E8    -7.079223990440369E-1   6.071364283561707E-1  -4.156913782935590E-4  -3.074099309742451E-3  -4.354944103397429E-4  -3.066815203055739E-3  -9.228107929229736E-1  -2.903405725955963E-1  
 6.552552552552552E8    -6.974018216133118E-1   6.176041960716248E-1  -6.097788573242724E-4  -3.046959405764937E-3  -5.194583791308105E-4  -3.064887132495642E-3  -9.253102540969849E-1  -2.816349267959595E-1  
 6.576576576576576E8    -6.866946220397949E-1   6.274334788322449E-1  -7.499089697375894E-4  -3.039490198716521E-3  -7.579310913570225E-4  -2.973721828311682E-3  -9.278890490531921E-1  -2.735746800899506E-1  
 6.600600600600600E8    -6.746897101402283E-1   6.377638578414917E-1  -8.559112320654094E-4  -3.057828405871987E-3  -8.502366254106164E-4  -3.001235658302903E-3  -9.309663772583008E-1  -2.652482688426971E-1  
 6.624624624624624E8    -6.620686650276184E-1   6.489963531494141E-1  -9.766425937414169E-4  -2.995233749970794E-3  -9.531748946756125E-4  -3.004773752763867E-3  -9.331403970718384E-1  -2.552554905414581E-1  
 6.648648648648648E8    -6.492871046066284E-1   6.598657369613648E-1  -9.994993451982737E-4  -2.958009485155344E-3  -1.034713233821094E-3  -2.953970339149237E-3  -9.357441663742065E-1  -2.456899434328079E-1  
 6.672672672672672E8    -6.366104483604431E-1   6.699737906455994E-1  -1.089131110347807E-3  -2.922088839113712E-3  -1.039417111314833E-3  -2.927688416093588E-3  -9.378213882446289E-1  -2.360276132822037E-1  
 6.696696696696696E8    -6.236024498939514E-1   6.794067025184631E-1  -1.131071709096432E-3  -2.975747920572758E-3  -1.103122485801578E-3  -3.022877965122461E-3  -9.400721192359924E-1  -2.269976586103439E-1  
 6.720720720720720E8    -6.099879741668701E-1   6.884343624114990E-1  -1.019536983221769E-3  -3.046659054234624E-3  -1.039391616359353E-3  -3.011222695931792E-3  -9.416778087615967E-1  -2.182328701019287E-1  
 6.744744744744744E8    -5.958673954010010E-1   6.977525353431702E-1  -1.047296798788011E-3  -3.055511275306344E-3  -1.021021278575063E-3  -3.024615580216050E-3  -9.433706998825073E-1  -2.089664936065674E-1  
 6.768768768768768E8    -5.814759731292725E-1   7.062515616416931E-1  -1.004445948638022E-3  -3.100083908066154E-3  -9.843339212238789E-4  -3.078143112361431E-3  -9.451412558555603E-1  -1.998918056488037E-1  
 6.792792792792792E8    -5.674632787704468E-1   7.144755125045776E-1  -9.267138084396720E-4  -3.165277419611812E-3  -8.462393307127059E-4  -3.187037073075771E-3  -9.468184709548950E-1  -1.905885040760040E-1  
 6.816816816816816E8    -5.535185933113098E-1   7.222656011581421E-1  -6.701252423226833E-4  -3.334166947752237E-3  -6.450163200497627E-4  -3.361785085871816E-3  -9.486129283905029E-1  -1.810009479522705E-1  
 6.840840840840840E8    -5.394335389137268E-1   7.295677661895752E-1  -4.531964368652552E-4  -3.724254434928298E-3  -4.155437345616520E-4  -3.642674302682281E-3  -9.506416320800781E-1  -1.712590456008911E-1  
 6.864864864864864E8    -5.246131420135498E-1   7.368589639663696E-1  -2.284634247189388E-4  -4.178802017122507E-3  -1.538330834591761E-4  -4.134736955165863E-3  -9.510368108749390E-1  -1.622704714536667E-1  
 6.888888888888888E8    -5.101405382156372E-1   7.437359690666199E-1  -2.180789488193113E-5  -4.899288062006235E-3   9.430764293938410E-6  -4.833231214433909E-3  -9.517199397087097E-1  -1.524718701839447E-1  
 6.912912912912912E8    -4.970245361328125E-1   7.505005598068237E-1  -1.035465247696266E-4  -5.900008138269186E-3  -6.721855606883764E-5  -5.814157426357269E-3  -9.526351690292358E-1  -1.425508856773377E-1  
 6.936936936936936E8    -4.843277335166931E-1   7.577139735221863E-1  -3.829821071121842E-4  -6.954038050025702E-3  -4.132197936996818E-4  -6.842591799795628E-3  -9.537714123725891E-1  -1.328945904970169E-1  
 6.960960960960960E8    -4.713411629199982E-1   7.654104828834534E-1  -1.260069431737065E-3  -7.930123247206211E-3  -1.230634748935700E-3  -7.937307469546795E-3  -9.549445509910584E-1  -1.232526004314423E-1  
 6.984984984984984E8    -4.574755728244782E-1   7.741610407829285E-1  -2.274202648550272E-3  -8.649969473481178E-3  -2.352189039811492E-3  -8.634008467197418E-3  -9.562178254127502E-1  -1.105264052748680E-1  
 7.009009009009008E8    -4.425163865089417E-1   7.828078866004944E-1  -3.475213656201959E-3  -9.133648127317429E-3  -3.558158176019788E-3  -8.939648978412151E-3  -9.571357369422913E-1  -9.886978566646576E-2  
 7.033033033033032E8    -4.262251555919647E-1   7.906546592712402E-1  -4.623903892934322E-3  -9.170969016849995E-3  -4.728321451693773E-3  -9.126788936555386E-3  -9.574187994003296E-1  -8.985023945569992E-2  
 7.057057057057056E8    -4.091661870479584E-1   7.972875237464905E-1  -5.704063922166824E-3  -9.156803600490093E-3  -5.721575114876032E-3  -9.165455587208271E-3  -9.574323892593384E-1  -8.446129411458969E-2  
 7.081081081081080E8    -3.900117874145508E-1   8.038224577903748E-1  -6.744358688592911E-3  -9.050946682691574E-3  -6.691202055662870E-3  -9.172414429485798E-3  -9.576627612113953E-1  -7.756797969341278E-2  
 7.105105105105104E8    -3.701024055480957E-1   8.105186223983765E-1  -7.753766607493162E-3  -8.861195296049118E-3  -7.579741533845663E-3  -8.905359543859959E-3  -9.581692218780518E-1  -6.994668394327164E-2  
 7.129129129129129E8    -3.514515459537506E-1   8.156803846359253E-1  -8.578500710427761E-3  -8.590595796704292E-3  -8.457689546048641E-3  -8.776696398854256E-3  -9.584831595420837E-1  -6.019366160035133E-2  
 7.153153153153153E8    -3.329820930957794E-1   8.199226260185242E-1  -9.326077066361904E-3  -8.372644893825054E-3  -9.325730614364147E-3  -8.558132685720921E-3  -9.587206244468689E-1  -4.881371557712555E-2  
 7.177177177177178E8    -3.134637773036957E-1   8.240454196929932E-1  -1.015691086649895E-2  -8.164954371750355E-3  -1.003046333789825E-2  -8.180296979844570E-3  -9.591818451881409E-1  -3.679079189896584E-2  
 7.201201201201202E8    -2.915380895137787E-1   8.275625109672546E-1  -1.098278816789389E-2  -7.895230315625668E-3  -1.081958785653114E-2  -7.992902770638466E-3  -9.593579173088074E-1  -2.550212293863297E-2  
 7.225225225225226E8    -2.699441611766815E-1   8.303409218788147E-1  -1.176217105239630E-2  -7.632557768374682E-3  -1.168536860495806E-2  -7.769502699375153E-3  -9.594683647155762E-1  -1.400938350707293E-2  
 7.249249249249250E8    -2.482985407114029E-1   8.319888710975647E-1  -1.272688247263432E-2  -7.269203197211027E-3  -1.252642646431923E-2  -7.489460054785013E-3  -9.589836001396179E-1  -5.181348416954279E-3  
 7.273273273273274E8    -2.277473807334900E-1   8.330265283584595E-1  -1.360635086894035E-2  -6.799519993364811E-3  -1.344072818756104E-2  -7.171913050115109E-3  -9.585442543029785E-1   4.579911474138498E-3  
 7.297297297297298E8    -2.093485593795776E-1   8.330782651901245E-1  -1.445538271218538E-2  -6.481777410954237E-3  -1.426478940993547E-2  -6.679706741124392E-3  -9.580894112586975E-1   1.471667643636465E-2  
 7.321321321321322E8    -1.911367923021317E-1   8.327404856681824E-1  -1.512687653303146E-2  -6.091443821787834E-3  -1.524957735091448E-2  -6.140021141618490E-3  -9.573609828948975E-1   2.596339024603367E-2  
 7.345345345345346E8    -1.711245775222778E-1   8.321989178657532E-1  -1.588975638151169E-2  -5.730758886784315E-3  -1.596996374428272E-2  -5.688740406185389E-3  -9.562776088714600E-1   3.619704023003578E-2  
 7.369369369369370E8    -1.494954973459244E-1   8.312065601348877E-1  -1.674364879727364E-2  -5.427242722362280E-3  -1.677392795681953E-2  -5.248148925602436E-3  -9.550954699516296E-1   4.735009372234345E-2  
 7.393393393393394E8    -1.273929178714752E-1   8.288073539733887E-1  -1.774815283715725E-2  -5.049710627645254E-3  -1.776169240474701E-2  -4.925102926790714E-3  -9.541147947311401E-1   5.804942920804024E-2  
 7.417417417417418E8    -1.048056781291962E-1   8.251945376396179E-1  -1.890178769826889E-2  -4.569203127175570E-3  -1.886732503771782E-2  -4.595793783664703E-3  -9.532267451286316E-1   6.803700327873230E-2  
 7.441441441441442E8    -8.165866136550903E-2   8.207454085350037E-1  -2.020059525966644E-2  -3.936560358852148E-3  -2.008326724171639E-2  -4.076733719557524E-3  -9.521002173423767E-1   7.694976031780243E-2  
 7.465465465465466E8    -5.990586429834366E-2   8.161115050315857E-1  -2.143742702901363E-2  -3.212502459064126E-3  -2.141172438859940E-2  -3.328499617055059E-3  -9.502695202827454E-1   8.720214664936066E-2  
 7.489489489489490E8    -3.742517158389092E-2   8.100318312644959E-1  -2.281549759209156E-2  -2.236511558294296E-3  -2.274811267852783E-2  -2.497431356459856E-3  -9.493157267570496E-1   9.687601774930954E-2  
 7.513513513513514E8    -1.364226918667555E-2   8.018000721931458E-1  -2.416154183447361E-2  -1.074165687896311E-3  -2.420119382441044E-2  -1.364635420031846E-3  -9.479269385337830E-1   1.071347966790199E-1  
 7.537537537537538E8     1.097979024052620E-2   7.916221022605896E-1  -2.537721768021584E-2   4.199850372970104E-4  -2.545532956719399E-2   8.344884554389864E-5  -9.461964368820190E-1   1.187999099493027E-1  
 7.561561561561562E8     3.475241735577583E-2   7.789740562438965E-1  -2.654032409191132E-2   1.944278948940337E-3  -2.656422555446625E-2   1.697074971161783E-3  -9.436276555061340E-1   1.295803338289261E-1  
 7.585585585585586E8     5.691883713006973E-2   7.657777667045593E-1  -2.750548720359802E-2   3.533026669174433E-3  -2.752321586012840E-2   3.336662659421563E-3  -9.401044845581055E-1   1.420225650072098E-1  
 7.609609609609610E8     7.830833643674851E-2   7.509784698486328E-1  -2.858810499310494E-2   5.208881571888924E-3  -2.843122556805611E-2   4.936515353620052E-3  -9.368081688880920E-1   1.543678641319275E-1  
 7.633633633633634E8     9.878452122211456E-2   7.356936335563660E-1  -2.971792966127396E-2   7.096515502780676E-3  -2.947161346673966E-2   6.770565174520016E-3  -9.343059659004211E-1   1.654080301523209E-1  
 7.657657657657658E8     1.183702871203423E-1   7.197226881980896E-1  -3.057370334863663E-2   9.165738709270954E-3  -3.053762577474117E-2   8.679538965225220E-3  -9.325110912322998E-1   1.750061362981796E-1  
 7.681681681681682E8     1.371428519487381E-1   7.028640508651733E-1  -3.143926337361336E-2   1.128522958606482E-2  -3.149365261197090E-2   1.088176947087050E-2  -9.316829442977905E-1   1.834659278392792E-1  
 7.705705705705706E8     1.538322120904923E-1   6.852893829345703E-1  -3.217888996005058E-2   1.353611331433058E-2  -3.236427530646324E-2   1.309159398078919E-2  -9.290532469749451E-1   1.920999437570572E-1  
 7.729729729729730E8     1.717023551464081E-1   6.651552915573120E-1  -3.267389163374901E-2   1.606404036283493E-2  -3.313273191452026E-2   1.556520536541939E-2  -9.279014468193054E-1   2.023412138223648E-1  
 7.753753753753754E8     1.879622787237167E-1   6.425918340682983E-1  -3.318756818771362E-2   1.863737218081951E-2  -3.360609710216522E-2   1.821216009557247E-2  -9.251955151557922E-1   2.141225486993790E-1  
 7.777777777777778E8     2.014495730400085E-1   6.183428764343262E-1  -3.355393186211586E-2   2.136935107409954E-2  -3.381798416376114E-2   2.096586115658283E-2  -9.199147224426270E-1   2.260578870773315E-1  
 7.801801801801802E8     2.125030010938644E-1   5.929641723632813E-1  -3.382095322012901E-2   2.421337738633156E-2  -3.377096727490425E-2   2.375992946326733E-2  -9.116769433021545E-1   2.366530746221542E-1  
 7.825825825825826E8     2.223180979490280E-1   5.671043395996094E-1  -3.375968337059021E-2   2.719687670469284E-2  -3.373123332858086E-2   2.689230069518089E-2  -9.060927033424377E-1   2.485208809375763E-1  
 7.849849849849850E8     2.296459227800369E-1   5.422646999359131E-1  -3.353219106793404E-2   3.047480247914791E-2  -3.357945755124092E-2   3.024424612522125E-2  -9.010245203971863E-1   2.564003467559815E-1  
 7.873873873873874E8     2.362249642610550E-1   5.181988477706909E-1  -3.290480747818947E-2   3.396259993314743E-2  -3.288649022579193E-2   3.344386443495750E-2  -8.970760107040405E-1   2.644081711769104E-1  
 7.897897897897898E8     2.433128505945206E-1   4.930186569690704E-1  -3.202463686466217E-2   3.735798597335815E-2  -3.210315480828285E-2   3.678425401449204E-2  -8.949043154716492E-1   2.737504541873932E-1  
 7.921921921921922E8     2.493964135646820E-1   4.651008248329163E-1  -3.101782873272896E-2   4.082802310585976E-2  -3.124900162220001E-2   4.050398990511894E-2  -8.936096429824829E-1   2.846760451793671E-1  
 7.945945945945946E8     2.513541281223297E-1   4.394274055957794E-1  -2.946049720048904E-2   4.465128108859062E-2  -2.990149147808552E-2   4.423826187849045E-2  -8.881312608718872E-1   2.947330176830292E-1  
 7.969969969969970E8     2.517839372158051E-1   4.132491052150726E-1  -2.747285366058350E-2   4.822756722569466E-2  -2.804703079164028E-2   4.783716425299645E-2  -8.829510211944580E-1   3.055888712406158E-1  
 7.993993993993994E8     2.499915063381195E-1   3.845505714416504E-1  -2.525728009641171E-2   5.162953957915306E-2  -2.582344040274620E-2   5.136419460177422E-2  -8.776636123657227E-1   3.169538378715515E-1  
 8.018018018018018E8     2.442190498113632E-1   3.540444672107697E-1  -2.292630821466446E-2   5.499472469091415E-2  -2.329716458916664E-2   5.485331639647484E-2  -8.715302348136902E-1   3.289248049259186E-1  
 8.042042042042042E8     2.356103062629700E-1   3.268577158451080E-1  -2.013457939028740E-2   5.844467133283615E-2  -2.037016861140728E-2   5.834040045738220E-2  -8.656892180442810E-1   3.390895128250122E-1  
 8.066066066066066E8     2.251146137714386E-1   3.018369674682617E-1  -1.709108613431454E-2   6.168569624423981E-2  -1.735697500407696E-2   6.167304143309593E-2  -8.598840832710266E-1   3.506112694740295E-1  
 8.090090090090090E8     2.125811725854874E-1   2.782645523548126E-1  -1.372093427926302E-2   6.503664702177048E-2  -1.387619506567717E-2   6.514465063810349E-2  -8.532976508140564E-1   3.615614175796509E-1  
 8.114114114114114E8     1.984323859214783E-1   2.547486722469330E-1  -9.978843852877617E-3   6.830921024084091E-2  -1.004128530621529E-2   6.837239861488342E-2  -8.466198444366455E-1   3.721286654472351E-1  
 8.138138138138138E8     1.799007505178452E-1   2.308244258165360E-1  -5.587868858128786E-3   7.170209288597107E-2  -5.871116649359465E-3   7.180735468864441E-2  -8.399906754493713E-1   3.829344213008881E-1  
 8.162162162162162E8     1.568935066461563E-1   2.102982699871063E-1  -4.160815151408315E-4   7.513581216335297E-2  -7.851937552914023E-4   7.507082074880600E-2  -8.331172466278076E-1   3.930675387382507E-1  
 8.186186186186186E8     1.308529376983643E-1   1.969882696866989E-1   5.802518222481012E-3   7.759857177734375E-2   5.338400602340698E-3   7.761042565107346E-2  -8.260349631309509E-1   4.037888646125794E-1  
 8.210210210210210E8     1.064337790012360E-1   1.893463581800461E-1   1.238481979817152E-2   7.892213761806488E-2   1.198847312480211E-2   7.892417162656784E-2  -8.183552622795105E-1   4.148384630680084E-1  
 8.234234234234234E8     8.647214621305466E-2   1.852879822254181E-1   1.862968318164349E-2   7.938558608293533E-2   1.823223009705544E-2   7.935208082199097E-2  -8.102696537971497E-1   4.261129498481751E-1  
