#  HZ   S   RI   R     50.00 
! Rohde & Schwarz ZVB8 2Ports - Version 2.81 - 1145.1010k08 SN: 100113
! Date: 2016-05-04 02:49:25
! Measurements: S11 S21 S12 S22 
! 
 6.000000000000000E8    -8.747618198394775E-1   3.589405417442322E-1   1.047059049597010E-4  -4.788449732586741E-4   1.445897214580327E-4  -5.492109921760857E-4  -8.427147865295410E-1  -4.802603721618652E-1  
 6.024024024024024E8    -8.681316971778870E-1   3.717843294143677E-1   1.615247165318579E-4  -5.247298395261169E-4   1.294203393626958E-4  -5.120722344145179E-4  -8.474056124687195E-1  -4.717466831207275E-1  
 6.048048048048048E8    -8.614751100540161E-1   3.850018382072449E-1   1.423046342097223E-4  -6.172722787596285E-4   1.647482276894152E-4  -4.704152233898640E-4  -8.519604802131653E-1  -4.627726674079895E-1  
 6.072072072072072E8    -8.541862368583679E-1   3.988645970821381E-1   1.980959641514346E-4  -5.134587991051376E-4   1.350714446743950E-4  -5.767992697656155E-4  -8.563385605812073E-1  -4.541348218917847E-1  
 6.096096096096096E8    -8.464190363883972E-1   4.124950170516968E-1   2.196867135353386E-4  -5.461322143673897E-4   1.914489985210821E-4  -5.214053089730442E-4  -8.612488508224487E-1  -4.445591270923615E-1  
 6.120120120120120E8    -8.400709629058838E-1   4.234772324562073E-1   2.404763799859211E-4  -5.721786874346435E-4   2.684924693312496E-4  -4.760284791700542E-4  -8.647876977920532E-1  -4.372772276401520E-1  
 6.144144144144144E8    -8.324831128120422E-1   4.358135759830475E-1   3.886641934514046E-4  -5.018309457227588E-4   3.981023619417101E-4  -4.421655321493745E-4  -8.683824539184570E-1  -4.292142093181610E-1  
 6.168168168168168E8    -8.241718411445618E-1   4.482982456684113E-1   4.880937049165368E-4  -4.842057533096522E-4   5.736952880397439E-4  -5.188539507798851E-4  -8.721131682395935E-1  -4.207024276256561E-1  
 6.192192192192192E8    -8.156345486640930E-1   4.600111246109009E-1   6.467022467404604E-4  -5.631495732814074E-4   6.403880543075502E-4  -5.847594584338367E-4  -8.768048286437988E-1  -4.120911359786987E-1  
 6.216216216216216E8    -8.070507645606995E-1   4.716918170452118E-1   8.488163584843278E-4  -6.241213413886726E-4   8.654094999656081E-4  -5.028306622989476E-4  -8.812820911407471E-1  -4.018436074256897E-1  
 6.240240240240240E8    -7.981303930282593E-1   4.832048416137695E-1   9.660071227699518E-4  -7.753893150947988E-4   1.011306652799249E-3  -6.978428573347628E-4  -8.858293890953064E-1  -3.913781642913818E-1  
 6.264264264264264E8    -7.891973257064819E-1   4.952875375747681E-1   1.196483150124550E-3  -9.588917018845677E-4   1.235667034052312E-3  -8.798967464827001E-4  -8.902004361152649E-1  -3.809870779514313E-1  
 6.288288288288288E8    -7.802434563636780E-1   5.066770315170288E-1   1.477427314966917E-3  -1.364857074804604E-3   1.464570639654994E-3  -1.265771803446114E-3  -8.935242891311646E-1  -3.715796470642090E-1  
 6.312312312312312E8    -7.721149921417236E-1   5.173271894454956E-1   1.571911969222128E-3  -1.722222426906228E-3   1.542216399684548E-3  -1.717826700769365E-3  -8.968416452407837E-1  -3.634596168994904E-1  
 6.336336336336336E8    -7.644767165184021E-1   5.278674364089966E-1   1.500650309026241E-3  -2.197622554376721E-3   1.596439862623811E-3  -2.154923044145107E-3  -8.999612927436829E-1  -3.552612364292145E-1  
 6.360360360360360E8    -7.567023038864136E-1   5.388454794883728E-1   1.431963522918522E-3  -2.695613307878375E-3   1.379588618874550E-3  -2.637890633195639E-3  -9.026444554328919E-1  -3.479130566120148E-1  
 6.384384384384384E8    -7.477574944496155E-1   5.511934757232666E-1   1.099599641747773E-3  -3.025936894118786E-3   1.155974227003753E-3  -3.057279391214252E-3  -9.059118628501892E-1  -3.390105366706848E-1  
 6.408408408408408E8    -7.383506298065186E-1   5.639697313308716E-1   8.062816923484206E-4  -3.348596626892686E-3   8.491610642522574E-4  -3.286482766270638E-3  -9.091291427612305E-1  -3.302154541015625E-1  
 6.432432432432432E8    -7.282746434211731E-1   5.763287544250488E-1   4.514783795457333E-4  -3.465330461040139E-3   4.886256065219641E-4  -3.565550083294511E-3  -9.123718738555908E-1  -3.213801085948944E-1  
 6.456456456456456E8    -7.177453041076660E-1   5.877331495285034E-1   1.684396702330560E-4  -3.660995047539473E-3   1.365143107250333E-4  -3.632207401096821E-3  -9.158793091773987E-1  -3.129612207412720E-1  
 6.480480480480480E8    -7.068518400192261E-1   5.989775657653809E-1  -2.057496749330312E-4  -3.754235571250320E-3  -2.021290129050612E-4  -3.742696251720190E-3  -9.190260767936707E-1  -3.044396638870239E-1  
 6.504504504504504E8    -6.944999098777771E-1   6.111630201339722E-1  -4.880212654825300E-4  -3.780582454055548E-3  -4.744922625832260E-4  -3.800173988565803E-3  -9.210453629493713E-1  -2.948524653911591E-1  
 6.528528528528528E8    -6.822435259819031E-1   6.229341626167297E-1  -7.417126325890422E-4  -3.753801807761192E-3  -7.659859256818891E-4  -3.703630296513438E-3  -9.233689308166504E-1  -2.850992381572723E-1  
 6.552552552552552E8    -6.699727177619934E-1   6.336545348167419E-1  -9.908037027344108E-4  -3.720981534570456E-3  -9.697104105725884E-4  -3.742029424756765E-3  -9.259689450263977E-1  -2.765980064868927E-1  
 6.576576576576576E8    -6.576155424118042E-1   6.435489654541016E-1  -1.119991997256875E-3  -3.670601872727275E-3  -1.059276633895934E-3  -3.674559062346816E-3  -9.286690354347229E-1  -2.683897614479065E-1  
 6.600600600600600E8    -6.439059376716614E-1   6.538853049278259E-1  -1.286146696656942E-3  -3.703650319948793E-3  -1.262905308976769E-3  -3.684871131554246E-3  -9.316252470016480E-1  -2.598457634449005E-1  
 6.624624624624624E8    -6.295201182365418E-1   6.655153632164002E-1  -1.408355194143951E-3  -3.635768080130220E-3  -1.371870050206780E-3  -3.679669927805662E-3  -9.339511990547180E-1  -2.495248615741730E-1  
 6.648648648648648E8    -6.151592135429382E-1   6.760959029197693E-1  -1.486712601035833E-3  -3.643915290012956E-3  -1.487786299549043E-3  -3.672299208119512E-3  -9.363319873809815E-1  -2.397732734680176E-1  
 6.672672672672672E8    -6.003502011299133E-1   6.856034994125366E-1  -1.528472639620304E-3  -3.588150488212705E-3  -1.482992433011532E-3  -3.619710914790630E-3  -9.384027123451233E-1  -2.300887703895569E-1  
 6.696696696696696E8    -5.852013230323792E-1   6.950750350952148E-1  -1.572339562699199E-3  -3.633843036368489E-3  -1.523741870187223E-3  -3.617008216679096E-3  -9.404534101486206E-1  -2.206758856773377E-1  
 6.720720720720720E8    -5.694687366485596E-1   7.033413648605347E-1  -1.611701794900000E-3  -3.683648305013776E-3  -1.564178965054452E-3  -3.647474106401205E-3  -9.421394467353821E-1  -2.119513601064682E-1  
 6.744744744744744E8    -5.528065562248230E-1   7.119747400283814E-1  -1.564766280353069E-3  -3.753843717277050E-3  -1.590123283676803E-3  -3.698403248563409E-3  -9.436581134796143E-1  -2.020573019981384E-1  
 6.768768768768768E8    -5.362295508384705E-1   7.197703123092651E-1  -1.489471411332488E-3  -3.885727841407061E-3  -1.427337643690407E-3  -3.798061050474644E-3  -9.453842043876648E-1  -1.928628087043762E-1  
 6.792792792792792E8    -5.198538899421692E-1   7.271380424499512E-1  -1.322407275438309E-3  -3.990299068391323E-3  -1.320094219408929E-3  -3.986836876720190E-3  -9.470646381378174E-1  -1.833272427320480E-1  
 6.816816816816816E8    -5.037836432456970E-1   7.337650656700134E-1  -1.193425036035478E-3  -4.277594853192568E-3  -1.108588534407318E-3  -4.298934713006020E-3  -9.489071965217590E-1  -1.734928637742996E-1  
 6.840840840840840E8    -4.871726036071777E-1   7.400586009025574E-1  -8.957307436503470E-4  -4.687382373958826E-3  -8.627177448943257E-4  -4.733998794108629E-3  -9.505743980407715E-1  -1.634364873170853E-1  
 6.864864864864864E8    -4.703108072280884E-1   7.457071542739868E-1  -6.489270599558950E-4  -5.407865159213543E-3  -5.745412781834602E-4  -5.379347596317530E-3  -9.509804844856262E-1  -1.544459909200668E-1  
 6.888888888888888E8    -4.542268812656403E-1   7.510867714881897E-1  -6.019470747560263E-4  -6.418380886316299E-3  -5.224906490184367E-4  -6.348926573991776E-3  -9.515261650085449E-1  -1.441643387079239E-1  
 6.912912912912912E8    -4.396223127841950E-1   7.563286423683167E-1  -8.779013878665865E-4  -7.612140383571386E-3  -7.924566743895412E-4  -7.578060030937195E-3  -9.522810578346252E-1  -1.339559108018875E-1  
 6.936936936936936E8    -4.252577722072601E-1   7.628801465034485E-1  -1.563107129186392E-3  -8.903714828193188E-3  -1.467877649702132E-3  -8.855623193085194E-3  -9.531189203262329E-1  -1.242372766137123E-1  
 6.960960960960960E8    -4.097705483436585E-1   7.701470255851746E-1  -2.636569784954190E-3  -1.011756900697947E-2  -2.608039649203420E-3  -1.009208336472511E-2  -9.541354179382324E-1  -1.142467930912972E-1  
 6.984984984984984E8    -3.931936323642731E-1   7.780340313911438E-1  -4.110642708837986E-3  -1.108274143189192E-2  -4.106084350496531E-3  -1.097040064632893E-2  -9.552379846572876E-1  -1.010065972805023E-1  
 7.009009009009008E8    -3.750227689743042E-1   7.860350012779236E-1  -5.744372028857470E-3  -1.154254470020533E-2  -5.863217171281576E-3  -1.143080461770296E-2  -9.557043313980103E-1  -8.924926072359085E-2  
 7.033033033033032E8    -3.547444641590118E-1   7.925973534584045E-1  -7.361018564552069E-3  -1.166051998734474E-2  -7.443051785230637E-3  -1.151662413030863E-2  -9.560551047325134E-1  -8.010389655828476E-2  
 7.057057057057056E8    -3.337308168411255E-1   7.977977395057678E-1  -8.896668441593647E-3  -1.150183193385601E-2  -8.846987038850784E-3  -1.143393479287624E-2  -9.558063149452210E-1  -7.439931482076645E-2  
 7.081081081081080E8    -3.104999661445618E-1   8.022530674934387E-1  -1.036759186536074E-2  -1.120096258819103E-2  -1.023674570024014E-2  -1.123779173940420E-2  -9.562124609947205E-1  -6.722597032785416E-2  
 7.105105105105104E8    -2.862384319305420E-1   8.063678741455078E-1  -1.168216764926910E-2  -1.079914905130863E-2  -1.152465865015984E-2  -1.092830020934343E-2  -9.563260078430176E-1  -5.919886007905006E-2  
 7.129129129129129E8    -2.632418274879456E-1   8.085761666297913E-1  -1.297918055206537E-2  -1.030960120260716E-2  -1.282255165278912E-2  -1.062031742185354E-2  -9.563911557197571E-1  -4.923389852046967E-2  
 7.153153153153153E8    -2.403057217597961E-1   8.092012405395508E-1  -1.417692471295595E-2  -9.868608787655830E-3  -1.403063256293535E-2  -1.006240304559469E-2  -9.566671252250671E-1  -3.734967857599258E-2  
 7.177177177177178E8    -2.161515802145004E-1   8.091731667518616E-1  -1.541046518832445E-2  -9.411890059709549E-3  -1.533465925604105E-2  -9.508162736892700E-3  -9.564903974533081E-1  -2.490689978003502E-2  
 7.201201201201202E8    -1.896252781152725E-1   8.075061440467835E-1  -1.658634841442108E-2  -8.884737268090248E-3  -1.655931770801544E-2  -9.026131592690945E-3  -9.567623734474182E-1  -1.344300154596567E-2  
 7.225225225225226E8    -1.633375287055969E-1   8.044904470443726E-1  -1.793579943478108E-2  -8.262739516794682E-3  -1.783382333815098E-2  -8.367716334760189E-3  -9.565558433532715E-1  -1.450324431061745E-3  
 7.249249249249250E8    -1.372682750225067E-1   7.997980117797852E-1  -1.917999237775803E-2  -7.488210219889879E-3  -1.909645088016987E-2  -7.884883321821690E-3  -9.557200074195862E-1   7.761622779071331E-3  
 7.273273273273274E8    -1.126488521695137E-1   7.937178611755371E-1  -2.054501511156559E-2  -6.562822498381138E-3  -2.037517353892326E-2  -7.075309287756681E-3  -9.551860094070435E-1   1.769110746681690E-2  
 7.297297297297298E8    -8.982267230749130E-2   7.866321802139282E-1  -2.176183089613915E-2  -5.782217718660832E-3  -2.160011790692806E-2  -6.211943924427033E-3  -9.540730118751526E-1   2.844687737524509E-2  
 7.321321321321322E8    -6.760053336620331E-2   7.788826823234558E-1  -2.294069156050682E-2  -5.034013651311398E-3  -2.291291579604149E-2  -5.013536661863327E-3  -9.530535936355591E-1   4.026619344949722E-2  
 7.345345345345346E8    -4.382695630192757E-2   7.700409889221191E-1  -2.413108013570309E-2  -4.086392931640148E-3  -2.413613721728325E-2  -3.994646016508341E-3  -9.517303705215454E-1   5.085658282041550E-2  
 7.369369369369370E8    -1.844752952456474E-2   7.600824832916260E-1  -2.545117214322090E-2  -3.199780127033591E-3  -2.542293630540371E-2  -3.008946310728788E-3  -9.503203034400940E-1   6.245649233460426E-2  
 7.393393393393394E8     6.821031216531992E-3   7.481693029403687E-1  -2.699329331517220E-2  -2.102847211062908E-3  -2.699150145053864E-2  -1.924411044456065E-3  -9.486271142959595E-1   7.366401702165604E-2  
 7.417417417417418E8     3.116534650325775E-2   7.344955205917358E-1  -2.859811298549175E-2  -7.128499564714730E-4  -2.862364053726196E-2  -6.811177008785307E-4  -9.476325511932373E-1   8.390925824642181E-2  
 7.441441441441442E8     5.682160705327988E-2   7.183908224105835E-1  -3.025696612894535E-2   8.992761140689254E-4  -3.021338209509850E-2   7.918570190668106E-4  -9.458185434341431E-1   9.350463747978210E-2  
 7.465465465465466E8     8.106321096420288E-2   7.012826204299927E-1  -3.196205571293831E-2   2.733531873673201E-3  -3.196921199560165E-2   2.498799469321966E-3  -9.437400102615356E-1   1.040695905685425E-1  
 7.489489489489490E8     1.052648723125458E-1   6.804306507110596E-1  -3.366429358720779E-2   4.982267506420612E-3  -3.381115570664406E-2   4.606941249221563E-3  -9.418358206748962E-1   1.141285523772240E-1  
 7.513513513513514E8     1.291347146034241E-1   6.553922891616821E-1  -3.533586487174034E-2   7.575673516839743E-3  -3.541709110140801E-2   7.216433994472027E-3  -9.400361180305481E-1   1.250973492860794E-1  
 7.537537537537538E8     1.518861204385757E-1   6.268911361694336E-1  -3.658837080001831E-2   1.083182170987129E-2  -3.675959631800652E-2   1.027567498385906E-2  -9.377273917198181E-1   1.372697949409485E-1  
 7.561561561561562E8     1.710303127765656E-1   5.956751108169556E-1  -3.754615038633347E-2   1.414045039564371E-2  -3.757514804601669E-2   1.362295914441347E-2  -9.343187212944031E-1   1.486891955137253E-1  
 7.585585585585586E8     1.860911697149277E-1   5.646303296089172E-1  -3.824059665203095E-2   1.742537319660187E-2  -3.810892626643181E-2   1.694031991064549E-2  -9.300913214683533E-1   1.614027321338654E-1  
 7.609609609609610E8     1.980411857366562E-1   5.334143042564392E-1  -3.860536962747574E-2   2.081131748855114E-2  -3.846742957830429E-2   2.041063830256462E-2  -9.262536168098450E-1   1.742109358310700E-1  
 7.633633633633634E8     2.076559811830521E-1   5.022757649421692E-1  -3.876914083957672E-2   2.435835450887680E-2  -3.880224749445915E-2   2.394761517643929E-2  -9.230903387069702E-1   1.858130842447281E-1  
 7.657657657657658E8     2.149065732955933E-1   4.685622155666351E-1  -3.865894675254822E-2   2.825705334544182E-2  -3.882781788706780E-2   2.781190350651741E-2  -9.204993247985840E-1   1.960522681474686E-1  
 7.681681681681682E8     2.194279432296753E-1   4.339867234230042E-1  -3.817757219076157E-2   3.199296072125435E-2  -3.868459165096283E-2   3.185198083519936E-2  -9.190751910209656E-1   2.049606740474701E-1  
 7.705705705705706E8     2.195197641849518E-1   3.989929258823395E-1  -3.757443279027939E-2   3.601188585162163E-2  -3.814763948321343E-2   3.563163429498673E-2  -9.157067537307739E-1   2.143593281507492E-1  
 7.729729729729730E8     2.168934941291809E-1   3.622534871101379E-1  -3.654540702700615E-2   4.023773595690727E-2  -3.742124512791634E-2   3.979141637682915E-2  -9.137220978736877E-1   2.256138473749161E-1  
 7.753753753753754E8     2.094155102968216E-1   3.256733417510986E-1  -3.511543571949005E-2   4.464111849665642E-2  -3.597188740968704E-2   4.428318142890930E-2  -9.100736379623413E-1   2.379487454891205E-1  
 7.777777777777778E8     1.973900645971298E-1   2.897319793701172E-1  -3.326547890901566E-2   4.913770034909248E-2  -3.395925834774971E-2   4.871775954961777E-2  -9.038169980049133E-1   2.504312396049500E-1  
 7.801801801801802E8     1.814556121826172E-1   2.563770413398743E-1  -3.109007328748703E-2   5.359812080860138E-2  -3.133131936192513E-2   5.298423767089844E-2  -8.943833708763123E-1   2.615159153938294E-1  
 7.825825825825826E8     1.618974059820175E-1   2.278248518705368E-1  -2.810364216566086E-2   5.808659642934799E-2  -2.806855365633965E-2   5.759055912494659E-2  -8.878940343856812E-1   2.736046016216278E-1  
 7.849849849849850E8     1.404484808444977E-1   2.046003490686417E-1  -2.418204024434090E-2   6.227029860019684E-2  -2.429226413369179E-2   6.181138753890991E-2  -8.818322420120239E-1   2.824618220329285E-1  
 7.873873873873874E8     1.191727891564369E-1   1.828969269990921E-1  -1.977229490876198E-2   6.594914942979813E-2  -2.013883739709854E-2   6.510220468044281E-2  -8.768147230148315E-1   2.913118004798889E-1  
 7.897897897897898E8     9.717564284801483E-2   1.610862463712692E-1  -1.540387328714132E-2   6.916848570108414E-2  -1.595140807330608E-2   6.839963793754578E-2  -8.730925321578980E-1   3.019151091575623E-1  
 7.921921921921922E8     7.240554690361023E-2   1.413144916296005E-1  -1.059871539473534E-2   7.224734872579575E-2  -1.135449297726154E-2   7.207730412483215E-2  -8.706148862838745E-1   3.138645291328430E-1  
 7.945945945945946E8     4.730100557208061E-2   1.269819736480713E-1  -5.121600814163685E-3   7.521285116672516E-2  -6.264511030167341E-3   7.491809874773026E-2  -8.636196851730347E-1   3.248066902160645E-1  
 7.969969969969970E8     2.214285731315613E-2   1.136688068509102E-1   7.448536343872547E-4   7.729437947273254E-2  -2.955986710730940E-4   7.728976756334305E-2  -8.569615483283997E-1   3.370106816291809E-1  
 7.993993993993994E8    -5.334674380719662E-3   9.949164837598801E-2   6.674062460660934E-3   7.864838838577271E-2   5.674090236425400E-3   7.882713526487351E-2  -8.497785329818726E-1   3.493251204490662E-1  
 8.018018018018018E8    -3.464934974908829E-2   8.867596089839935E-2   1.213457342237234E-2   7.964360713958740E-2   1.171709783375263E-2   7.987424731254578E-2  -8.415953516960144E-1   3.625098764896393E-1  
 8.042042042042042E8    -6.464389711618424E-2   8.382169902324677E-2   1.788381859660149E-2   8.053746819496155E-2   1.788839325308800E-2   8.067807555198669E-2  -8.338695764541626E-1   3.737328648567200E-1  
 8.066066066066066E8    -9.538272023200989E-2   8.353114128112793E-2   2.392527461051941E-2   8.102527260780335E-2   2.398899756371975E-2   8.111847192049027E-2  -8.253943920135498E-1   3.864835202693939E-1  
 8.090090090090090E8    -1.248370707035065E-1   8.708611130714417E-2   3.044733777642250E-2   8.109600841999054E-2   3.021170012652874E-2   8.119306713342667E-2  -8.163973093032837E-1   3.987662494182587E-1  
 8.114114114114114E8    -1.518995016813278E-1   9.087521582841873E-2   3.672588989138603E-2   8.039989322423935E-2   3.639881685376167E-2   8.054373413324356E-2  -8.072510957717896E-1   4.105732440948486E-1  
 8.138138138138138E8    -1.809419989585877E-1   9.660123288631439E-2   4.314037039875984E-2   7.959501445293427E-2   4.264378920197487E-2   7.990998029708862E-2  -7.976654171943665E-1   4.224911928176880E-1  
 8.162162162162162E8    -2.094033658504486E-1   1.081019267439842E-1   4.985614866018295E-2   7.853253185749054E-2   4.924999549984932E-2   7.875529676675797E-2  -7.875847816467285E-1   4.341184496879578E-1  
 8.186186186186186E8    -2.334592938423157E-1   1.249804794788361E-1   5.674212425947189E-2   7.646945863962174E-2   5.613936483860016E-2   7.671849429607391E-2  -7.766537070274353E-1   4.460402727127075E-1  
 8.210210210210210E8    -2.504953444004059E-1   1.424225717782974E-1   6.325890123844147E-2   7.373464852571487E-2   6.289385259151459E-2   7.386098802089691E-2  -7.647456526756287E-1   4.583216309547424E-1  
 8.234234234234234E8    -2.638744711875916E-1   1.589390784502029E-1   6.954098492860794E-2   7.051448523998261E-2   6.935715675354004E-2   7.040533423423767E-2  -7.516202926635742E-1   4.712026119232178E-1  
