#  HZ   S   RI   R     50.00 
! Rohde & Schwarz ZVB8 2Ports - Version 2.81 - 1145.1010k08 SN: 100113
! Date: 2016-05-04 02:50:49
! Measurements: S11 S21 S12 S22 
! 
 6.000000000000000E8    -8.669114708900452E-1   3.693646490573883E-1   4.553600228973664E-5  -1.034454675391316E-3   6.806190503994003E-5  -9.930331725627184E-4  -8.531142473220825E-1  -4.489180147647858E-1  
 6.024024024024024E8    -8.598684072494507E-1   3.824828267097473E-1   8.638025610707700E-5  -1.083764247596264E-3   1.192367562907748E-4  -1.095031271688640E-3  -8.575572371482849E-1  -4.389757812023163E-1  
 6.048048048048048E8    -8.524602651596069E-1   3.960413634777069E-1   1.758913422236219E-4  -1.152589800767601E-3   1.473568554501981E-4  -1.050069346092641E-3  -8.622628450393677E-1  -4.286768436431885E-1  
 6.072072072072072E8    -8.443297147750855E-1   4.100390970706940E-1   1.904425298562273E-4  -1.099009648896754E-3   1.521672675153241E-4  -1.110407058149576E-3  -8.666479587554932E-1  -4.182496070861816E-1  
 6.096096096096096E8    -8.359212875366211E-1   4.244096577167511E-1   2.449107996653765E-4  -1.160931773483753E-3   2.157384151360020E-4  -1.109377946704626E-3  -8.713659048080444E-1  -4.069941639900208E-1  
 6.120120120120120E8    -8.291508555412293E-1   4.354985058307648E-1   3.812411741819233E-4  -1.081302179954946E-3   3.488351940177381E-4  -1.095031271688640E-3  -8.748849034309387E-1  -3.974019289016724E-1  
 6.144144144144144E8    -8.204866051673889E-1   4.479297101497650E-1   5.190852680243552E-4  -1.146126771345735E-3   5.631489329971373E-4  -1.154249999672175E-3  -8.783370256423950E-1  -3.877412080764771E-1  
 6.168168168168168E8    -8.117668628692627E-1   4.606768488883972E-1   8.327467367053032E-4  -1.180339022539556E-3   8.155381656251848E-4  -1.152251497842372E-3  -8.823279142379761E-1  -3.769411742687225E-1  
 6.192192192192192E8    -8.023116588592529E-1   4.728820919990540E-1   1.082042348571122E-3  -1.401904970407486E-3   1.107236719690263E-3  -1.252938993275166E-3  -8.863776326179504E-1  -3.658428192138672E-1  
 6.216216216216216E8    -7.930014133453369E-1   4.844189882278442E-1   1.451639807783067E-3  -1.524879131466150E-3   1.507876440882683E-3  -1.558326999656856E-3  -8.906418085098267E-1  -3.534042835235596E-1  
 6.240240240240240E8    -7.826133966445923E-1   4.961706697940826E-1   1.891119405627251E-3  -1.944342511706054E-3   1.831538975238800E-3  -1.853674999438226E-3  -8.944714665412903E-1  -3.405342996120453E-1  
 6.264264264264264E8    -7.727677226066589E-1   5.082663893699646E-1   2.414224436506629E-3  -2.508369274437428E-3   2.303682733327150E-3  -2.530787838622928E-3  -8.982228040695190E-1  -3.270327746868134E-1  
 6.288288288288288E8    -7.630299925804138E-1   5.192304849624634E-1   2.678493969142437E-3  -3.386897966265678E-3   2.727119950577617E-3  -3.315866459161043E-3  -9.014147520065308E-1  -3.149763345718384E-1  
 6.312312312312312E8    -7.540965080261231E-1   5.300434827804565E-1   2.707666717469692E-3  -4.407674539834261E-3   2.800143789499998E-3  -4.283036105334759E-3  -9.036820530891419E-1  -3.037770688533783E-1  
 6.336336336336336E8    -7.457814812660217E-1   5.408313870429993E-1   2.592578064650297E-3  -5.453237798064947E-3   2.610552590340376E-3  -5.403283983469009E-3  -9.060204625129700E-1  -2.935514152050018E-1  
 6.360360360360360E8    -7.370362281799316E-1   5.517932772636414E-1   2.126995474100113E-3  -6.525344680994749E-3   2.130474895238876E-3  -6.460563745349646E-3  -9.080480337142944E-1  -2.831214964389801E-1  
 6.384384384384384E8    -7.272121310234070E-1   5.642874836921692E-1   1.330260653048754E-3  -7.497340906411409E-3   1.456062658689916E-3  -7.414516992866993E-3  -9.104772210121155E-1  -2.716540396213532E-1  
 6.408408408408408E8    -7.168154716491699E-1   5.771710872650147E-1   4.624098073691130E-4  -8.189987391233444E-3   5.253034178167582E-4  -8.155391551554203E-3  -9.129495024681091E-1  -2.593255639076233E-1  
 6.432432432432432E8    -7.056154012680054E-1   5.898352265357971E-1  -4.927391419187188E-4  -8.698355406522751E-3  -4.309452197048813E-4  -8.727581240236759E-3  -9.154362678527832E-1  -2.471494376659393E-1  
 6.456456456456456E8    -6.936669349670410E-1   6.016367673873901E-1  -1.444536377675831E-3  -9.063689038157463E-3  -1.446974230930209E-3  -9.039280004799366E-3  -9.177942872047424E-1  -2.341599613428116E-1  
 6.480480480480480E8    -6.813168525695801E-1   6.129325032234192E-1  -2.337327459827066E-3  -9.295006282627583E-3  -2.249761018902063E-3  -9.316057898104191E-3  -9.196673035621643E-1  -2.217195928096771E-1  
 6.504504504504504E8    -6.672932505607605E-1   6.255075335502625E-1  -3.240351798012853E-3  -9.485913440585136E-3  -3.226194763556123E-3  -9.424702264368534E-3  -9.206112623214722E-1  -2.078114598989487E-1  
 6.528528528528528E8    -6.533312201499939E-1   6.371876597404480E-1  -4.154826980084181E-3  -9.556987322866917E-3  -4.063128959387541E-3  -9.559653699398041E-3  -9.212349653244019E-1  -1.935700178146362E-1  
 6.552552552552552E8    -6.391315460205078E-1   6.478062272071838E-1  -4.997500684112310E-3  -9.544796310365200E-3  -4.895952530205250E-3  -9.575532749295235E-3  -9.221068024635315E-1  -1.797166913747788E-1  
 6.576576576576576E8    -6.249153017997742E-1   6.578530073165894E-1  -5.785042885690928E-3  -9.503819979727268E-3  -5.654450971633196E-3  -9.494754485785961E-3  -9.227093458175659E-1  -1.661439687013626E-1  
 6.600600600600600E8    -6.091756820678711E-1   6.680361628532410E-1  -6.458985153585672E-3  -9.391988627612591E-3  -6.370123941451311E-3  -9.442423470318317E-3  -9.232840538024902E-1  -1.518154144287109E-1  
 6.624624624624624E8    -5.925891995429993E-1   6.792302131652832E-1  -7.136712316423655E-3  -9.350018575787544E-3  -7.027394603937864E-3  -9.379892610013485E-3  -9.223652482032776E-1  -1.350039988756180E-1  
 6.648648648648648E8    -5.762391686439514E-1   6.893567442893982E-1  -7.735536899417639E-3  -9.300477802753449E-3  -7.673188112676144E-3  -9.424218907952309E-3  -9.211728572845459E-1  -1.178142130374908E-1  
 6.672672672672672E8    -5.590879917144775E-1   6.985228657722473E-1  -8.295218460261822E-3  -9.320226497948170E-3  -8.229588158428669E-3  -9.420500136911869E-3  -9.194009900093079E-1  -1.011397168040276E-1  
 6.696696696696696E8    -5.411424040794373E-1   7.069910764694214E-1  -8.848664350807667E-3  -9.434487670660019E-3  -8.663834072649479E-3  -9.412768296897411E-3  -9.167096018791199E-1  -8.452270179986954E-2  
 6.720720720720720E8    -5.225066542625427E-1   7.145319581031799E-1  -9.333476424217224E-3  -9.680799208581448E-3  -9.207133203744888E-3  -9.659706614911556E-3  -9.131208658218384E-1  -6.727075576782227E-2  
 6.744744744744744E8    -5.029343962669373E-1   7.217665314674377E-1  -9.826770052313805E-3  -9.874612092971802E-3  -9.731240570545197E-3  -9.947281330823898E-3  -9.084318876266480E-1  -4.875873774290085E-2  
 6.768768768768768E8    -4.836842119693756E-1   7.280272841453552E-1  -1.030470151454210E-2  -1.030645985156298E-2  -1.012327987700701E-2  -1.031001470983028E-2  -9.025514125823975E-1  -2.945869974792004E-2  
 6.792792792792792E8    -4.648917317390442E-1   7.334663271903992E-1  -1.054034940898418E-2  -1.105571910738945E-2  -1.040070224553347E-2  -1.106163114309311E-2  -8.952258229255676E-1  -9.970067068934441E-3  
 6.816816816816816E8    -4.466770887374878E-1   7.384894490242004E-1  -1.081310026347637E-2  -1.241939421743155E-2  -1.069098897278309E-2  -1.236825529485941E-2  -8.860008716583252E-1   1.042139250785112E-2  
 6.840840840840840E8    -4.281086623668671E-1   7.425374984741211E-1  -1.139152981340885E-2  -1.437357719987631E-2  -1.131010428071022E-2  -1.444517076015472E-2  -8.742778301239014E-1   3.148122876882553E-2  
 6.864864864864864E8    -4.083165824413300E-1   7.463207840919495E-1  -1.260976679623127E-2  -1.737411506474018E-2  -1.240908075124025E-2  -1.744842529296875E-2  -8.592117428779602E-1   5.083046853542328E-2  
 6.888888888888888E8    -3.894191980361939E-1   7.496226429939270E-1  -1.525280252099037E-2  -2.135820686817169E-2  -1.497137267142534E-2  -2.138420753180981E-2  -8.418111801147461E-1   6.992897391319275E-2  
 6.912912912912912E8    -3.715756833553314E-1   7.530414462089539E-1  -2.014162018895149E-2  -2.550079859793186E-2  -1.989129558205605E-2  -2.572168037295342E-2  -8.225646615028381E-1   8.696275949478149E-2  
 6.936936936936936E8    -3.537786900997162E-1   7.576878666877747E-1  -2.772033587098122E-2  -2.878950908780098E-2  -2.751394920051098E-2  -2.896577864885330E-2  -8.021962642669678E-1   1.023208647966385E-1  
 6.960960960960960E8    -3.344147503376007E-1   7.630327939987183E-1  -3.731010854244232E-2  -2.994888275861740E-2  -3.735681995749474E-2  -2.998828329145908E-2  -7.814070582389832E-1   1.165910735726357E-1  
 6.984984984984984E8    -3.134607672691345E-1   7.684729695320129E-1  -4.798347130417824E-2  -2.825662866234779E-2  -4.840777069330216E-2  -2.777306176722050E-2  -7.596114873886108E-1   1.329527348279953E-1  
 7.009009009009008E8    -2.907306849956513E-1   7.721052169799805E-1  -5.867109447717667E-2  -2.332763932645321E-2  -5.916896834969521E-2  -2.243103645741940E-2  -7.357098460197449E-1   1.480151861906052E-1  
 7.033033033033032E8    -2.655220329761505E-1   7.735217809677124E-1  -6.815223395824432E-2  -1.546588633209467E-2  -6.847022473812103E-2  -1.452352199703455E-2  -7.083592414855957E-1   1.599813997745514E-1  
 7.057057057057056E8    -2.398237586021423E-1   7.723321914672852E-1  -7.626550644636154E-2  -5.503067746758461E-3  -7.595339417457581E-2  -5.518785212188959E-3  -6.797446608543396E-1   1.680164486169815E-1  
 7.081081081081080E8    -2.122374325990677E-1   7.690972089767456E-1  -8.295781910419464E-2   6.090607028454542E-3  -8.250909298658371E-2   5.066835787147284E-3  -6.451848149299622E-1   1.744776368141174E-1  
 7.105105105105104E8    -1.850576251745224E-1   7.648104429244995E-1  -8.813545852899551E-2   1.974037662148476E-2  -8.807837218046188E-2   1.777908578515053E-2  -6.058580875396729E-1   1.768142580986023E-1  
 7.129129129129129E8    -1.599266678094864E-1   7.582744956016541E-1  -9.094478935003281E-2   3.473650664091110E-2  -9.133692830801010E-2   3.265954554080963E-2  -5.625517964363098E-1   1.736579835414887E-1  
 7.153153153153153E8    -1.365103572607040E-1   7.507408261299133E-1  -9.116820991039276E-2   5.034363642334938E-2  -9.173797070980072E-2   4.904492571949959E-2  -5.177026391029358E-1   1.640263646841049E-1  
 7.177177177177178E8    -1.119038835167885E-1   7.414836287498474E-1  -8.882725983858109E-2   6.695278733968735E-2  -8.931598067283630E-2   6.649185717105866E-2  -4.732493758201599E-1   1.465699076652527E-1  
 7.201201201201202E8    -8.684864640235901E-2   7.308957576751709E-1  -8.259653300046921E-2   8.499852567911148E-2  -8.331696689128876E-2   8.438185602426529E-2  -4.287519454956055E-1   1.175420507788658E-1  
 7.225225225225226E8    -6.305620074272156E-2   7.187610864639282E-1  -7.251190394163132E-2   1.021883040666580E-1  -7.305830717086792E-2   1.018660143017769E-1  -3.890641629695892E-1   7.770176976919174E-2  
 7.249249249249250E8    -3.987095132470131E-2   7.061620354652405E-1  -5.753276124596596E-2   1.180028542876244E-1  -5.918318405747414E-2   1.168100088834763E-1  -3.582857251167297E-1   2.693129517138004E-2  
 7.273273273273274E8    -1.820403710007668E-2   6.931989789009094E-1  -3.891821205615997E-2   1.302845478057861E-1  -4.100105166435242E-2   1.292089074850082E-1  -3.402423858642578E-1  -3.200037032365799E-2  
 7.297297297297298E8     2.768004545941949E-3   6.802660226821899E-1  -1.888754032552242E-2   1.378002762794495E-1  -1.981086097657681E-2   1.371165364980698E-1  -3.361085355281830E-1  -9.155856817960739E-2  
 7.321321321321322E8     2.462224103510380E-2   6.662248373031616E-1   1.635280554182828E-3   1.407211720943451E-1   2.484523924067617E-3   1.401434391736984E-1  -3.449291586875916E-1  -1.481509953737259E-1  
 7.345345345345346E8     4.845250397920609E-2   6.507076025009155E-1   2.172414585947990E-2   1.393303871154785E-1   2.254484593868256E-2   1.387317627668381E-1  -3.631517589092255E-1  -1.983319818973541E-1  
 7.369369369369370E8     7.360710203647614E-2   6.325212717056274E-1   4.038598015904427E-2   1.352163702249527E-1   4.106876999139786E-2   1.349457651376724E-1  -3.913046419620514E-1  -2.430097609758377E-1  
 7.393393393393394E8     9.861946851015091E-2   6.093025803565979E-1   5.869888886809349E-2   1.286971420049667E-1   5.890438333153725E-2   1.287971436977387E-1  -4.274305999279022E-1  -2.800387144088745E-1  
 7.417417417417418E8     1.219860464334488E-1   5.841613411903381E-1   7.558169960975647E-2   1.190291270613670E-1   7.559602707624435E-2   1.195540875196457E-1  -4.692375659942627E-1  -3.086104094982147E-1  
 7.441441441441442E8     1.452348679304123E-1   5.537423491477966E-1   9.035289287567139E-2   1.067099422216415E-1   8.951365202665329E-2   1.079939603805542E-1  -5.120472908020020E-1  -3.278853297233582E-1  
 7.465465465465466E8     1.654282361268997E-1   5.206332206726074E-1   1.020364090800285E-1   9.416384249925613E-2   1.009229198098183E-1   9.502661973237991E-2  -5.529137849807739E-1  -3.377821743488312E-1  
 7.489489489489490E8     1.830946207046509E-1   4.833752512931824E-1   1.118709817528725E-1   8.033902943134308E-2   1.106036156415939E-1   8.135241270065308E-2  -5.902204513549805E-1  -3.410470783710480E-1  
 7.513513513513514E8     1.970308125019074E-1   4.413973093032837E-1   1.197083890438080E-1   6.529443711042404E-2   1.185306236147881E-1   6.639276444911957E-2  -6.249820590019226E-1  -3.401074111461639E-1  
 7.537537537537538E8     2.055764198303223E-1   3.956115543842316E-1   1.253540366888046E-1   4.897778108716011E-2   1.239220872521401E-1   5.004652589559555E-2  -6.575332880020142E-1  -3.348159492015839E-1  
 7.561561561561562E8     2.087182402610779E-1   3.513372242450714E-1   1.272385716438294E-1   3.285659849643707E-2   1.262915283441544E-1   3.387659415602684E-2  -6.845221519470215E-1  -3.283239305019379E-1  
 7.585585585585586E8     2.057843208312988E-1   3.068769574165344E-1   1.266289949417114E-1   1.768945716321468E-2   1.258828192949295E-1   1.859890669584274E-2  -7.089282870292664E-1  -3.185572624206543E-1  
 7.609609609609610E8     1.978327780961990E-1   2.642576396465302E-1   1.242897957563400E-1   4.017503000795841E-3   1.237165257334709E-1   4.830993246287108E-3  -7.326963543891907E-1  -3.072482347488403E-1  
 7.633633633633634E8     1.847711801528931E-1   2.192023247480393E-1   1.208615526556969E-1  -9.078314527869225E-3   1.206843480467796E-1  -7.691269274801016E-3  -7.552168369293213E-1  -2.946632802486420E-1  
 7.657657657657658E8     1.647378802299500E-1   1.748353987932205E-1   1.162957176566124E-1  -2.130246162414551E-2   1.163530871272087E-1  -1.937665790319443E-2  -7.760066390037537E-1  -2.828508019447327E-1  
 7.681681681681682E8     1.380415558815002E-1   1.332758665084839E-1   1.102222055196762E-1  -3.223042190074921E-2   1.110407039523125E-1  -3.027963638305664E-2  -7.950220704078674E-1  -2.722209692001343E-1  
 7.705705705705706E8     1.064731851220131E-1   9.765332192182541E-2   1.032228618860245E-1  -4.173834621906281E-2   1.042491793632507E-1  -3.991050273180008E-2  -8.107100129127502E-1  -2.604719698429108E-1  
 7.729729729729730E8     7.234103232622147E-2   6.696917861700058E-2   9.580371528863907E-2  -4.985662922263145E-2   9.681575745344162E-2  -4.846673831343651E-2  -8.272292017936707E-1  -2.477155327796936E-1  
 7.753753753753754E8     3.629628941416740E-2   4.094828665256500E-2   8.787439018487930E-2  -5.638768896460533E-2   8.900968730449677E-2  -5.552627146244049E-2  -8.418050408363342E-1  -2.333296984434128E-1  
 7.777777777777778E8    -3.506498876959086E-3   1.908884197473526E-2   7.966143637895584E-2  -6.170829012989998E-2   8.041334152221680E-2  -6.122810393571854E-2  -8.533233404159546E-1  -2.172450423240662E-1  
 7.801801801801802E8    -4.528039321303368E-2   2.121013123542070E-3   7.214313000440598E-2  -6.597629189491272E-2   7.157987356185913E-2  -6.534069776535034E-2  -8.616980314254761E-1  -2.007019221782684E-1  
 7.825825825825826E8    -9.133034944534302E-2  -7.434641942381859E-3   6.409860402345657E-2  -6.950798630714417E-2   6.344375759363174E-2  -6.905106455087662E-2  -8.710597157478333E-1  -1.852088868618012E-1  
 7.849849849849850E8    -1.359592974185944E-1  -8.792066015303135E-3   5.574443563818932E-2  -7.253924012184143E-2   5.592631548643112E-2  -7.150508463382721E-2  -8.779225945472717E-1  -1.724012345075607E-1  
 7.873873873873874E8    -1.766619980335236E-1  -5.963371600955725E-3   4.756080359220505E-2  -7.426956295967102E-2   4.820867255330086E-2  -7.308654487133026E-2  -8.847450017929077E-1  -1.606718599796295E-1  
 7.897897897897898E8    -2.153534442186356E-1  -5.005365237593651E-4   3.975803405046463E-2  -7.470838725566864E-2   4.071057960391045E-2  -7.397244870662689E-2  -8.927567005157471E-1  -1.488639712333679E-1  
 7.921921921921922E8    -2.527817189693451E-1   8.692733012139797E-3   3.276414051651955E-2  -7.458020001649857E-2   3.381135314702988E-2  -7.424516230821610E-2  -9.020483493804932E-1  -1.365372240543366E-1  
 7.945945945945946E8    -2.853638231754303E-1   2.082007564604282E-2   2.631145715713501E-2  -7.410005480051041E-2   2.720693312585354E-2  -7.388179749250412E-2  -9.069952368736267E-1  -1.229974776506424E-1  
 7.969969969969970E8    -3.167487978935242E-1   3.437948971986771E-2   2.015594020485878E-2  -7.311150431632996E-2   2.093910053372383E-2  -7.294151932001114E-2  -9.121012091636658E-1  -1.089613437652588E-1  
 7.993993993993994E8    -3.487159311771393E-1   5.097454041242600E-2   1.453994214534760E-2  -7.126203924417496E-2   1.497032959014177E-2  -7.129575312137604E-2  -9.169149994850159E-1  -9.466691315174103E-2  
 8.018018018018018E8    -3.788316845893860E-1   7.312899827957153E-2   9.384908713400364E-3  -6.930559128522873E-2   9.722663089632988E-3  -6.946180015802383E-2  -9.210075139999390E-1  -8.009092509746552E-2  
 8.042042042042042E8    -4.044263064861298E-1   9.869235754013062E-2   4.673158749938011E-3  -6.723543256521225E-2   5.164988338947296E-3  -6.731442362070084E-2  -9.244805574417114E-1  -6.770578771829605E-2  
 8.066066066066066E8    -4.256113469600678E-1   1.264259815216065E-1   4.102450911886990E-4  -6.494878977537155E-2   9.366072481498122E-4  -6.503479927778244E-2  -9.278632402420044E-1  -5.415280908346176E-2  
 8.090090090090090E8    -4.418846964836121E-1   1.536461710929871E-1  -3.475624136626720E-3  -6.271564215421677E-2  -3.085020696744323E-3  -6.282428652048111E-2  -9.307034015655518E-1  -4.032939672470093E-2  
 8.114114114114114E8    -4.562040269374847E-1   1.788280755281448E-1  -7.022620644420385E-3  -6.022072210907936E-2  -6.675847340375185E-3  -6.021355465054512E-2  -9.328965544700623E-1  -2.876782231032848E-2  
 8.138138138138138E8    -4.690456688404083E-1   2.033316493034363E-1  -1.002913154661655E-2  -5.783364921808243E-2  -9.689550846815109E-3  -5.773322284221649E-2  -9.350834488868713E-1  -1.618939638137817E-2  
 8.162162162162162E8    -4.796063005924225E-1   2.302405536174774E-1  -1.282662618905306E-2  -5.565176904201508E-2  -1.256375759840012E-2  -5.552954226732254E-2  -9.370455145835877E-1  -5.297431722283363E-3  
 8.186186186186186E8    -4.855206310749054E-1   2.579670250415802E-1  -1.563574932515621E-2  -5.326500907540321E-2  -1.550438906997442E-2  -5.312566086649895E-2  -9.381482005119324E-1   6.789505481719971E-3  
 8.210210210210210E8    -4.888389110565186E-1   2.857668101787567E-1  -1.836208999156952E-2  -5.030359327793121E-2  -1.805259846150875E-2  -5.045646056532860E-2  -9.392014741897583E-1   1.881286501884460E-2  
 8.234234234234234E8    -4.891494810581207E-1   3.101407885551453E-1  -2.059746906161308E-2  -4.737295210361481E-2  -2.021411992609501E-2  -4.749377444386482E-2  -9.397379755973816E-1   3.087204135954380E-2  
