#  HZ   S   RI   R     50.00 
! Rohde & Schwarz ZVB8 2Ports - Version 2.81 - 1145.1010k08 SN: 100113
! Date: 2016-05-17 22:37:10
! Measurements: S11 S21 S12 S22 
! 
 6.000000000000000E8    -8.038265109062195E-1   4.912525415420532E-1  -8.035604842007160E-4  -1.600946881808341E-3  -7.930747815407813E-4  -1.591080450452864E-3  -9.449260234832764E-1   2.384143769741058E-1  
 6.024024024024024E8    -7.960993647575378E-1   5.017882585525513E-1  -7.256839890033007E-4  -1.597683061845601E-3  -7.163550471886993E-4  -1.577535178512335E-3  -9.416268467903137E-1   2.492856830358505E-1  
 6.048048048048048E8    -7.873613834381104E-1   5.130199193954468E-1  -7.302476442418993E-4  -1.674560364335775E-3  -6.834538653492928E-4  -1.583126140758395E-3  -9.382432103157044E-1   2.598314285278320E-1  
 6.072072072072072E8    -7.783057093620300E-1   5.249332785606384E-1  -7.237131940200925E-4  -1.761430641636252E-3  -7.196884835138917E-4  -1.651330501772463E-3  -9.350354075431824E-1   2.699600160121918E-1  
 6.096096096096096E8    -7.682582139968872E-1   5.370405912399292E-1  -6.366703892126679E-4  -1.757899299263954E-3  -6.752402987331152E-4  -1.752127311192453E-3  -9.316962957382202E-1   2.803423404693604E-1  
 6.120120120120120E8    -7.604479789733887E-1   5.462661981582642E-1  -6.574791623279452E-4  -1.838394789956510E-3  -6.993220886215568E-4  -1.898703514598310E-3  -9.288414120674133E-1   2.879382669925690E-1  
 6.144144144144144E8    -7.517603039741516E-1   5.565641522407532E-1  -5.319479969330132E-4  -1.926751341670752E-3  -5.854722694493830E-4  -1.936073298566043E-3  -9.258126616477966E-1   2.979308366775513E-1  
 6.168168168168168E8    -7.420700192451477E-1   5.675764679908752E-1  -5.051110056228936E-4  -2.051669871434569E-3  -4.594356869347394E-4  -2.055494114756584E-3  -9.225142002105713E-1   3.076651692390442E-1  
 6.192192192192192E8    -7.326073646545410E-1   5.774238705635071E-1  -3.765566216316074E-4  -2.313067670911551E-3  -2.994266978930682E-4  -2.250336343422532E-3  -9.188079833984375E-1   3.175772726535797E-1  
 6.216216216216216E8    -7.221022248268127E-1   5.874493122100830E-1  -2.532732905820012E-4  -2.616431796923280E-3  -2.502700954210013E-4  -2.618005499243736E-3  -9.149698019027710E-1   3.272077739238739E-1  
 6.240240240240240E8    -7.118647098541260E-1   5.971480607986450E-1  -2.134896494681016E-4  -3.059175563976169E-3  -1.230951020261273E-4  -3.001044970005751E-3  -9.107390642166138E-1   3.367782235145569E-1  
 6.264264264264264E8    -7.019839882850647E-1   6.064840555191040E-1  -2.552701043896377E-4  -3.449283307418227E-3  -2.030778414336965E-4  -3.480066778138280E-3  -9.067394733428955E-1   3.482799828052521E-1  
 6.288288288288288E8    -6.926444172859192E-1   6.152837276458740E-1  -3.738779341802001E-4  -4.120240453630686E-3  -3.340107214171439E-4  -4.047770053148270E-3  -9.025777578353882E-1   3.583320975303650E-1  
 6.312312312312312E8    -6.837006807327271E-1   6.239539980888367E-1  -7.379974122159183E-4  -4.683959297835827E-3  -8.021693211048842E-4  -4.686957225203514E-3  -8.984370827674866E-1   3.676810860633850E-1  
 6.336336336336336E8    -6.753760576248169E-1   6.327794194221497E-1  -1.310437335632742E-3  -5.155174527317286E-3  -1.265602069906890E-3  -5.157114006578922E-3  -8.941734433174133E-1   3.757389187812805E-1  
 6.360360360360360E8    -6.667294502258301E-1   6.420134305953980E-1  -1.952934777364135E-3  -5.550262518227100E-3  -1.892829546704888E-3  -5.614727269858122E-3  -8.906924724578857E-1   3.835448324680328E-1  
 6.384384384384384E8    -6.574476957321167E-1   6.516561508178711E-1  -2.650701208040118E-3  -5.792139098048210E-3  -2.678587567061186E-3  -5.816853139549494E-3  -8.869534730911255E-1   3.925332725048065E-1  
 6.408408408408408E8    -6.470899581909180E-1   6.613677740097046E-1  -3.372518811374903E-3  -5.831824615597725E-3  -3.257734933868051E-3  -5.868377164006233E-3  -8.827251195907593E-1   4.017479419708252E-1  
 6.432432432432432E8    -6.364566683769226E-1   6.708154082298279E-1  -4.036755766719580E-3  -5.864898208528757E-3  -4.015406128019095E-3  -5.863065831363201E-3  -8.781612515449524E-1   4.101622104644775E-1  
 6.456456456456456E8    -6.249472498893738E-1   6.800718903541565E-1  -4.635479301214218E-3  -5.685254931449890E-3  -4.653111100196838E-3  -5.709616001695395E-3  -8.735714554786682E-1   4.188501238822937E-1  
 6.480480480480480E8    -6.134997010231018E-1   6.890578866004944E-1  -5.197434686124325E-3  -5.460759624838829E-3  -5.167181137949228E-3  -5.539122037589550E-3  -8.689509630203247E-1   4.272036850452423E-1  
 6.504504504504504E8    -6.007555127143860E-1   6.990962624549866E-1  -5.693174898624420E-3  -5.320674274116755E-3  -5.677962675690651E-3  -5.313474219292402E-3  -8.600897192955017E-1   4.365779459476471E-1  
 6.528528528528528E8    -5.877823829650879E-1   7.085713148117065E-1  -6.106502842158079E-3  -5.145673174411058E-3  -6.115508265793324E-3  -5.167878232896328E-3  -8.524551391601563E-1   4.478493928909302E-1  
 6.552552552552552E8    -5.745754241943359E-1   7.172508835792542E-1  -6.602638866752386E-3  -5.003360565751791E-3  -6.538569461554289E-3  -5.015764385461807E-3  -8.478305339813232E-1   4.591479599475861E-1  
 6.576576576576576E8    -5.608212351799011E-1   7.253206372261047E-1  -6.969112437218428E-3  -4.855132196098566E-3  -6.984620820730925E-3  -4.855643026530743E-3  -8.453355431556702E-1   4.679375886917114E-1  
 6.600600600600600E8    -5.454235672950745E-1   7.332403659820557E-1  -7.477240171283484E-3  -4.623144399374723E-3  -7.476061582565308E-3  -4.703512880951166E-3  -8.422297239303589E-1   4.735378623008728E-1  
 6.624624624624624E8    -5.309442281723023E-1   7.413576841354370E-1  -7.980312220752239E-3  -4.433108959347010E-3  -7.886904291808605E-3  -4.470309242606163E-3  -8.365406394004822E-1   4.828679561614990E-1  
 6.648648648648648E8    -5.167658925056458E-1   7.489566802978516E-1  -8.424124680459499E-3  -4.146739374846220E-3  -8.343823254108429E-3  -4.248043056577444E-3  -8.304857015609741E-1   4.918498396873474E-1  
 6.672672672672672E8    -5.020504593849182E-1   7.558421492576599E-1  -8.824402466416359E-3  -3.923208452761173E-3  -8.780150674283505E-3  -3.931815735995770E-3  -8.247952461242676E-1   5.003861188888550E-1  
 6.696696696696696E8    -4.869821071624756E-1   7.626431584358215E-1  -9.150839410722256E-3  -3.706425195559859E-3  -9.207270108163357E-3  -3.691421356052160E-3  -8.192901611328125E-1   5.088784098625183E-1  
 6.720720720720720E8    -4.702119231224060E-1   7.692545652389526E-1  -9.548759087920189E-3  -3.511118004098535E-3  -9.593160822987557E-3  -3.538592485710979E-3  -8.136352300643921E-1   5.169458985328674E-1  
 6.744744744744744E8    -4.535888135433197E-1   7.750062346458435E-1  -1.009013224393129E-2  -3.211018629372120E-3  -1.004354655742645E-2  -3.215989330783486E-3  -8.068317770957947E-1   5.264004468917847E-1  
 6.768768768768768E8    -4.363914132118225E-1   7.802940607070923E-1  -1.050970889627934E-2  -2.872822573408485E-3  -1.039609964936972E-2  -2.954730996862054E-3  -8.000926375389099E-1   5.351815223693848E-1  
 6.792792792792792E8    -4.190430641174316E-1   7.851444482803345E-1  -1.086046453565359E-2  -2.591174095869064E-3  -1.081949379295111E-2  -2.600702224299312E-3  -7.935696840286255E-1   5.437030196189880E-1  
 6.816816816816816E8    -4.010785520076752E-1   7.893415689468384E-1  -1.123177353292704E-2  -2.287550363689661E-3  -1.128656696528196E-2  -2.336292760446668E-3  -7.864154577255249E-1   5.528646707534790E-1  
 6.840840840840840E8    -3.828358948230743E-1   7.928442358970642E-1  -1.162403356283903E-2  -2.004286274313927E-3  -1.156373042613268E-2  -2.054903190582991E-3  -7.794194221496582E-1   5.617399811744690E-1  
 6.864864864864864E8    -3.637748956680298E-1   7.963021993637085E-1  -1.198917161673307E-2  -1.712935860268772E-3  -1.196577120572329E-2  -1.759794075042009E-3  -7.719089984893799E-1   5.703592896461487E-1  
 6.888888888888888E8    -3.451426923274994E-1   7.998223304748535E-1  -1.242019329220057E-2  -1.425764639861882E-3  -1.241577602922916E-2  -1.539168762974441E-3  -7.639212012290955E-1   5.793402194976807E-1  
 6.912912912912912E8    -3.263744413852692E-1   8.024588823318481E-1  -1.300048455595970E-2  -1.066266791895032E-3  -1.286910474300385E-2  -1.190079259686172E-3  -7.563355565071106E-1   5.887189507484436E-1  
 6.936936936936936E8    -3.071485459804535E-1   8.044679164886475E-1  -1.344263926148415E-2  -6.539031164720655E-4  -1.351121440529823E-2  -8.128382614813745E-4  -7.485083937644959E-1   5.976075530052185E-1  
 6.960960960960960E8    -2.871502041816711E-1   8.056774139404297E-1  -1.389231998473406E-2  -2.746273239608854E-4  -1.382323633879423E-2  -2.472144842613488E-4  -7.407241463661194E-1   6.068488359451294E-1  
 6.984984984984984E8    -2.676779627799988E-1   8.057402968406677E-1  -1.426353771239519E-2   6.768797902623192E-5  -1.420628279447556E-2   2.242049231426790E-4  -7.302187681198120E-1   6.185166239738464E-1  
 7.009009009009008E8    -2.475345432758331E-1   8.044279217720032E-1  -1.456434652209282E-2   4.130691522732377E-4  -1.459594722837210E-2   6.875444087199867E-4  -7.201272249221802E-1   6.290975213050842E-1  
 7.033033033033032E8    -2.269117534160614E-1   8.017939329147339E-1  -1.493679825216532E-2   6.747727748006582E-4  -1.480888947844505E-2   9.428522898815572E-4  -7.116399407386780E-1   6.371515393257141E-1  
 7.057057057057056E8    -2.063805907964706E-1   7.974372506141663E-1  -1.518517732620239E-2   8.583177113905549E-4  -1.520439051091671E-2   9.928960353136063E-4  -7.055878043174744E-1   6.421973705291748E-1  
 7.081081081081080E8    -1.839330494403839E-1   7.921856641769409E-1  -1.567754708230496E-2   1.050097984261811E-3  -1.557593327015638E-2   9.746665018610656E-4  -6.988364458084106E-1   6.480305790901184E-1  
 7.105105105105104E8    -1.627300679683685E-1   7.859641313552856E-1  -1.611743681132793E-2   1.296602189540863E-3  -1.614891737699509E-2   9.469814249314368E-4  -6.912641525268555E-1   6.547580957412720E-1  
 7.129129129129129E8    -1.439626961946487E-1   7.782697081565857E-1  -1.664403267204762E-2   1.177361351437867E-3  -1.675648987293243E-2   8.444676059298217E-4  -6.825373768806458E-1   6.626744866371155E-1  
 7.153153153153153E8    -1.265989094972611E-1   7.685078978538513E-1  -1.742869988083839E-2   8.860257803462446E-4  -1.747192814946175E-2   7.564491825178266E-4  -6.720616221427918E-1   6.716391444206238E-1  
 7.177177177177178E8    -1.102947741746903E-1   7.582045793533325E-1  -1.833141036331654E-2   3.896830603480339E-4  -1.838966459035873E-2   3.150049305986613E-4  -6.602463722229004E-1   6.808720231056213E-1  
 7.201201201201202E8    -9.447594732046127E-2   7.481946945190430E-1  -1.991990022361279E-2  -2.385182160651311E-4  -1.989039778709412E-2  -3.029573999810964E-4  -6.486825942993164E-1   6.895515918731690E-1  
 7.225225225225226E8    -8.126806467771530E-2   7.389016747474670E-1  -2.219862677156925E-2  -9.900074219331145E-4  -2.220284380018711E-2  -1.025759382173419E-3  -6.361732482910156E-1   6.983951330184937E-1  
 7.249249249249250E8    -6.781741976737976E-2   7.317767143249512E-1  -2.544933557510376E-2  -1.088170218281448E-3  -2.545954100787640E-2  -1.401195651851594E-3  -6.255298852920532E-1   7.045366168022156E-1  
 7.273273273273274E8    -5.313495546579361E-2   7.267000675201416E-1  -2.956817299127579E-2  -4.888340481556952E-5  -2.951688878238201E-2  -6.198670016601682E-4  -6.149840950965881E-1   7.101221680641174E-1  
 7.297297297297298E8    -3.587770089507103E-2   7.213408946990967E-1  -3.370624780654907E-2   2.021188382059336E-3  -3.370719403028488E-2   1.499497564509511E-3  -6.044912934303284E-1   7.154265642166138E-1  
 7.321321321321322E8    -1.700180023908615E-2   7.133912444114685E-1  -3.765672445297241E-2   5.132021848112345E-3  -3.765622526407242E-2   5.107108037918806E-3  -5.938729643821716E-1   7.216322422027588E-1  
 7.345345345345346E8     2.789612393826246E-3   7.028049826622009E-1  -4.099889099597931E-2   9.351090528070927E-3  -4.089367017149925E-2   9.627872146666050E-3  -5.833275914192200E-1   7.281959056854248E-1  
 7.369369369369370E8     2.314415946602821E-2   6.888083815574646E-1  -4.337034001946449E-2   1.433230377733707E-2  -4.320871457457542E-2   1.480495836585760E-2  -5.725166201591492E-1   7.351508140563965E-1  
 7.393393393393394E8     4.387939721345902E-2   6.710265874862671E-1  -4.501270502805710E-2   1.990292035043240E-2  -4.476831108331680E-2   2.023684419691563E-2  -5.617535114288330E-1   7.419449090957642E-1  
 7.417417417417418E8     6.239176541566849E-2   6.495764255523682E-1  -4.563925415277481E-2   2.577537484467030E-2  -4.549342393875122E-2   2.589124441146851E-2  -5.513662099838257E-1   7.481050491333008E-1  
 7.441441441441442E8     7.920397073030472E-2   6.255859732627869E-1  -4.527265578508377E-2   3.154113888740540E-2  -4.539356753230095E-2   3.136060386896133E-2  -5.410953760147095E-1   7.536857128143311E-1  
 7.465465465465466E8     9.080070257186890E-2   6.016311645507813E-1  -4.449692368507385E-2   3.698496147990227E-2  -4.478600248694420E-2   3.678014129400253E-2  -5.286442041397095E-1   7.609269618988037E-1  
 7.489489489489490E8     1.002744361758232E-1   5.757698416709900E-1  -4.324962943792343E-2   4.236384108662605E-2  -4.365715011954308E-2   4.212403297424316E-2  -5.179179906845093E-1   7.670789957046509E-1  
 7.513513513513514E8     1.074794381856918E-1   5.480843186378479E-1  -4.163172468543053E-2   4.769610613584518E-2  -4.211701080203056E-2   4.738732054829598E-2  -5.070164203643799E-1   7.728028893470764E-1  
 7.537537537537538E8     1.127257645130158E-1   5.198817849159241E-1  -3.944449126720429E-2   5.308170989155769E-2  -4.010407254099846E-2   5.286851897835732E-2  -4.946449398994446E-1   7.788646221160889E-1  
 7.561561561561562E8     1.156696826219559E-1   4.914407134056091E-1  -3.698686882853508E-2   5.844109132885933E-2  -3.735109418630600E-2   5.829402804374695E-2  -4.812589883804321E-1   7.836524844169617E-1  
 7.585585585585586E8     1.154322028160095E-1   4.651783704757690E-1  -3.393150493502617E-2   6.370564550161362E-2  -3.387741371989250E-2   6.355214864015579E-2  -4.654488563537598E-1   7.904827594757080E-1  
 7.609609609609610E8     1.128857359290123E-1   4.380805194377899E-1  -3.032354451715946E-2   6.886233389377594E-2  -3.015030547976494E-2   6.855105608701706E-2  -4.511384069919586E-1   7.967025041580200E-1  
 7.633633633633634E8     1.074356064200401E-1   4.094651937484741E-1  -2.623863145709038E-2   7.412231713533402E-2  -2.619910985231400E-2   7.361059635877609E-2  -4.376783072948456E-1   8.017877340316773E-1  
 7.657657657657658E8     9.823852032423019E-2   3.800867795944214E-1  -2.137936465442181E-2   7.942745089530945E-2  -2.185213565826416E-2   7.890316098928452E-2  -4.254363775253296E-1   8.061496019363403E-1  
 7.681681681681682E8     8.346919715404511E-2   3.514203131198883E-1  -1.584495045244694E-2   8.451361209154129E-2  -1.650849170982838E-2   8.432184904813767E-2  -4.140464365482330E-1   8.096572160720825E-1  
 7.705705705705706E8     6.154561415314674E-2   3.277231752872467E-1  -9.244690649211407E-3   8.914981037378311E-2  -1.009473577141762E-2   8.922017365694046E-2  -4.020921587944031E-1   8.124791383743286E-1  
 7.729729729729730E8     3.813434019684792E-2   3.095490038394928E-1  -1.377646811306477E-3   9.269911795854569E-2  -2.384520601481199E-3   9.351698309183121E-2  -3.889486491680145E-1   8.181015253067017E-1  
 7.753753753753754E8     1.402774825692177E-2   2.951025962829590E-1   7.043656893074513E-3   9.548091888427734E-2   6.174465175718069E-3   9.650370478630066E-2  -3.730659186840057E-1   8.234305381774902E-1  
 7.777777777777778E8    -1.015690620988607E-2   2.851364612579346E-1   1.593687944114208E-2   9.714046865701675E-2   1.518217381089926E-2   9.784217178821564E-2  -3.544766306877136E-1   8.271561264991760E-1  
 7.801801801801802E8    -3.370483592152596E-2   2.791579067707062E-1   2.501030266284943E-2   9.735240042209625E-2   2.414718642830849E-2   9.733988344669342E-2  -3.347041606903076E-1   8.276593089103699E-1  
 7.825825825825826E8    -5.314973741769791E-2   2.774227261543274E-1   3.311761468648911E-2   9.616494923830032E-2   3.281350433826447E-2   9.614564478397369E-2  -3.150698840618134E-1   8.306587338447571E-1  
 7.849849849849850E8    -7.162161916494370E-2   2.780671715736389E-1   4.065337404608727E-2   9.458561986684799E-2   4.025907441973686E-2   9.439351409673691E-2  -2.992374300956726E-1   8.314369320869446E-1  
 7.873873873873874E8    -8.829548954963684E-2   2.796922922134399E-1   4.762995615601540E-2   9.290141612291336E-2   4.689044132828713E-2   9.279268980026245E-2  -2.846070826053619E-1   8.328108787536621E-1  
 7.897897897897898E8    -1.035392656922340E-1   2.797496616840363E-1   5.459715425968170E-2   9.169477969408035E-2   5.362028256058693E-2   9.162461757659912E-2  -2.693677842617035E-1   8.360924124717712E-1  
 7.921921921921922E8    -1.195158287882805E-1   2.808232307434082E-1   6.249788403511047E-2   8.984424918889999E-2   6.175516918301582E-2   9.020711481571198E-2  -2.531071901321411E-1   8.406244516372681E-1  
 7.945945945945946E8    -1.370876282453537E-1   2.848655283451080E-1   7.055511325597763E-2   8.683741092681885E-2   6.957668066024780E-2   8.746761083602905E-2  -2.348139137029648E-1   8.418652415275574E-1  
 7.969969969969970E8    -1.537936925888062E-1   2.910932004451752E-1   7.817675918340683E-2   8.292237669229507E-2   7.733222842216492E-2   8.394883573055267E-2  -2.152629792690277E-1   8.431679010391235E-1  
 7.993993993993994E8    -1.678240001201630E-1   2.993172407150269E-1   8.524732291698456E-2   7.843638211488724E-2   8.493704348802567E-2   7.920947670936585E-2  -1.939939111471176E-1   8.438454270362854E-1  
 8.018018018018018E8    -1.788769960403442E-1   3.074301183223724E-1   9.139665961265564E-2   7.368332147598267E-2   9.146810322999954E-2   7.373934239149094E-2  -1.728799939155579E-1   8.433715105056763E-1  
 8.042042042042042E8    -1.900640875101090E-1   3.167755901813507E-1   9.763029962778091E-2   6.885183602571487E-2   9.769959747791290E-2   6.891834735870361E-2  -1.522935330867767E-1   8.417580723762512E-1  
 8.066066066066066E8    -1.992112994194031E-1   3.280294835567474E-1   1.039728373289108E-1   6.311941891908646E-2   1.041022688150406E-1   6.333161145448685E-2  -1.292128562927246E-1   8.395623564720154E-1  
 8.090090090090090E8    -2.066264599561691E-1   3.392674028873444E-1   1.101419404149056E-1   5.667526647448540E-2   1.102880313992500E-1   5.689221993088722E-2  -1.071458533406258E-1   8.361990451812744E-1  
 8.114114114114114E8    -2.117203623056412E-1   3.505116403102875E-1   1.157511696219444E-1   4.940173402428627E-2   1.161603406071663E-1   4.976234212517738E-2  -8.442546427249908E-2   8.315843343734741E-1  
 8.138138138138138E8    -2.143644839525223E-1   3.591672480106354E-1   1.206550002098084E-1   4.146851226687431E-2   1.208472847938538E-1   4.195925220847130E-2  -6.245308369398117E-2   8.264999985694885E-1  
 8.162162162162162E8    -2.184660881757736E-1   3.657172918319702E-1   1.245684847235680E-1   3.364099562168121E-2   1.248076930642128E-1   3.409880027174950E-2  -3.932755813002586E-2   8.206321597099304E-1  
 8.186186186186186E8    -2.246395200490952E-1   3.735824525356293E-1   1.281594187021256E-1   2.580770663917065E-2   1.282396614551544E-1   2.620069682598114E-2  -1.520043984055519E-2   8.143217563629150E-1  
 8.210210210210210E8    -2.267878353595734E-1   3.818403780460358E-1   1.316593289375305E-1   1.730087213218212E-2   1.314698010683060E-1   1.743716001510620E-2   1.003314554691315E-2   8.054958581924439E-1  
 8.234234234234234E8    -2.290671765804291E-1   3.878990709781647E-1   1.335467398166657E-1   8.030713535845280E-3   1.336126029491425E-1   8.352352306246758E-3   3.554704412817955E-2   7.949203252792358E-1  
