#  HZ   S   RI   R     50.00 
! Rohde & Schwarz ZVB8 2Ports - Version 2.81 - 1145.1010k08 SN: 100113
! Date: 2016-04-20 02:59:12
! Measurements: S11 S21 S12 S22 
! 
 6.000000000000000E8     7.798888087272644E-1   3.920064270496368E-1  -1.815366744995117E-2   3.109262697398663E-2  -1.820399239659309E-2   3.105382062494755E-2   5.580402612686157E-1   7.569204568862915E-1  
 6.024024024024024E8     7.945917844772339E-1   3.515717983245850E-1  -1.716817356646061E-2   3.316712006926537E-2  -1.731056720018387E-2   3.308914601802826E-2   5.740904211997986E-1   7.443541288375855E-1  
 6.048048048048048E8     8.077149391174316E-1   3.085120320320129E-1  -1.588626205921173E-2   3.530864790081978E-2  -1.590784452855587E-2   3.530431166291237E-2   5.895556807518005E-1   7.318031191825867E-1  
 6.072072072072072E8     8.177321553230286E-1   2.637389898300171E-1  -1.421042066067457E-2   3.739280626177788E-2  -1.420742925256491E-2   3.737193718552589E-2   6.051241159439087E-1   7.189919948577881E-1  
 6.096096096096096E8     8.255549073219299E-1   2.174153476953507E-1  -1.218695752322674E-2   3.931666165590286E-2  -1.217983663082123E-2   3.929304331541061E-2   6.205109357833862E-1   7.051932215690613E-1  
 6.120120120120120E8     8.298124670982361E-1   1.742393374443054E-1  -1.011991780251265E-2   4.087834060192108E-2  -1.016767043620348E-2   4.091925919055939E-2   6.342362165451050E-1   6.929435729980469E-1  
 6.144144144144144E8     8.320567607879639E-1   1.307441145181656E-1  -7.965189404785633E-3   4.226233065128326E-2  -8.036005310714245E-3   4.233734682202339E-2   6.481183767318726E-1   6.801801919937134E-1  
 6.168168168168168E8     8.319732546806335E-1   8.646518737077713E-2  -5.863558035343885E-3   4.347777739167213E-2  -5.871227942407131E-3   4.346197843551636E-2   6.618633270263672E-1   6.663373708724976E-1  
 6.192192192192192E8     8.292745947837830E-1   4.197157174348831E-2  -3.729228395968676E-3   4.458715394139290E-2  -3.754244418814778E-3   4.463971033692360E-2   6.760985255241394E-1   6.516007184982300E-1  
 6.216216216216216E8     8.240448236465454E-1  -2.476570196449757E-3  -1.528482884168625E-3   4.574671760201454E-2  -1.530451467260718E-3   4.575436189770699E-2   6.902325749397278E-1   6.358801722526550E-1  
 6.240240240240240E8     8.168299198150635E-1  -4.688651114702225E-2   7.076914771459997E-4   4.675147309899330E-2   8.256540168076754E-4   4.669563472270966E-2   7.037357091903687E-1   6.194912791252136E-1  
 6.264264264264264E8     8.080824017524719E-1  -8.990050107240677E-2   3.134311875328422E-3   4.776673018932343E-2   3.161677625030279E-3   4.770368710160255E-2   7.176452875137329E-1   6.026748418807983E-1  
 6.288288288288288E8     7.968077659606934E-1  -1.332263648509979E-1   5.674567539244890E-3   4.860223829746246E-2   5.680710077285767E-3   4.863363131880760E-2   7.304788827896118E-1   5.862486362457275E-1  
 6.312312312312312E8     7.838141918182373E-1  -1.762554347515106E-1   8.074619807302952E-3   4.935680702328682E-2   8.098735474050045E-3   4.933024570345879E-2   7.421049475669861E-1   5.698144435882568E-1  
 6.336336336336336E8     7.685703039169312E-1  -2.199176549911499E-1   1.061538700014353E-2   5.025642365217209E-2   1.062188483774662E-2   5.015515908598900E-2   7.535430788993835E-1   5.531241893768311E-1  
 6.360360360360360E8     7.497029304504395E-1  -2.637667953968048E-1   1.333091035485268E-2   5.096639692783356E-2   1.331140287220478E-2   5.101738497614861E-2   7.640322446823120E-1   5.363788604736328E-1  
 6.384384384384384E8     7.283363342285156E-1  -3.053897917270660E-1   1.618017256259918E-2   5.171321704983711E-2   1.615964435040951E-2   5.169677361845970E-2   7.749922871589661E-1   5.197386741638184E-1  
 6.408408408408408E8     7.034032344818115E-1  -3.472333848476410E-1   1.917755417525768E-2   5.225855112075806E-2   1.912475191056728E-2   5.225320905447006E-2   7.856019139289856E-1   5.028811693191528E-1  
 6.432432432432432E8     6.748125553131104E-1  -3.881318867206574E-1   2.224144339561462E-2   5.268201977014542E-2   2.220728807151318E-2   5.279407277703285E-2   7.958123087882996E-1   4.852974116802216E-1  
 6.456456456456456E8     6.429567933082581E-1  -4.274998903274536E-1   2.538811042904854E-2   5.328051373362541E-2   2.535936795175076E-2   5.327375978231430E-2   8.053048253059387E-1   4.671711921691895E-1  
 6.480480480480480E8     6.085982322692871E-1  -4.650267064571381E-1   2.886386029422283E-2   5.370982363820076E-2   2.886086702346802E-2   5.369168519973755E-2   8.144855499267578E-1   4.484650492668152E-1  
 6.504504504504504E8     5.711108446121216E-1  -4.999694824218750E-1   3.258552774786949E-2   5.415687337517738E-2   3.256643190979958E-2   5.407359078526497E-2   8.240818381309509E-1   4.304067492485046E-1  
 6.528528528528528E8     5.295815467834473E-1  -5.326841473579407E-1   3.665010258555412E-2   5.436260625720024E-2   3.676323965191841E-2   5.426350980997086E-2   8.324678540229797E-1   4.121741354465485E-1  
 6.552552552552552E8     4.850621223449707E-1  -5.621461868286133E-1   4.114644229412079E-2   5.414771288633347E-2   4.124508053064346E-2   5.413336679339409E-2   8.398558497428894E-1   3.938579261302948E-1  
 6.576576576576576E8     4.386488199234009E-1  -5.880175828933716E-1   4.594509676098824E-2   5.367144197225571E-2   4.601064696907997E-2   5.347986891865730E-2   8.466528654098511E-1   3.748026788234711E-1  
 6.600600600600600E8     3.896373212337494E-1  -6.103917956352234E-1   5.101630464196205E-2   5.228411778807640E-2   5.107166990637779E-2   5.222238972783089E-2   8.532444238662720E-1   3.542993664741516E-1  
 6.624624624624624E8     3.402295112609863E-1  -6.270781159400940E-1   5.612573772668839E-2   5.036936700344086E-2   5.612749978899956E-2   5.035390704870224E-2   8.599429726600647E-1   3.349229395389557E-1  
 6.648648648648648E8     2.888319790363312E-1  -6.399977207183838E-1   6.104739382863045E-2   4.782753810286522E-2   6.095208227634430E-2   4.788763448596001E-2   8.658862709999085E-1   3.156067430973053E-1  
 6.672672672672672E8     2.374320477247238E-1  -6.487032175064087E-1   6.557071954011917E-2   4.473932087421417E-2   6.553803384304047E-2   4.487878084182739E-2   8.712131977081299E-1   2.963387370109558E-1  
 6.696696696696696E8     1.866436600685120E-1  -6.545749902725220E-1   6.948774307966232E-2   4.136789962649345E-2   6.947720050811768E-2   4.141753539443016E-2   8.757067322731018E-1   2.769849300384522E-1  
 6.720720720720720E8     1.355290561914444E-1  -6.585441231727600E-1   7.306859642267227E-2   3.802115097641945E-2   7.312241941690445E-2   3.803864866495132E-2   8.796130418777466E-1   2.568990290164948E-1  
 6.744744744744744E8     8.306755125522614E-2  -6.583759188652039E-1   7.666083425283432E-2   3.489679843187332E-2   7.667109370231628E-2   3.481122851371765E-2   8.838557600975037E-1   2.371757626533508E-1  
 6.768768768768768E8     2.864999324083328E-2  -6.543169021606445E-1   8.047875761985779E-2   3.161851689219475E-2   8.057131618261337E-2   3.159862011671066E-2   8.872810602188110E-1   2.176104038953781E-1  
 6.792792792792792E8    -2.592038549482822E-2  -6.447552442550659E-1   8.458458632230759E-2   2.809457667171955E-2   8.443192392587662E-2   2.809838764369488E-2   8.900287747383118E-1   1.974758654832840E-1  
 6.816816816816816E8    -7.962045818567276E-2  -6.299822330474854E-1   8.878353983163834E-2   2.415833249688149E-2   8.872347325086594E-2   2.416232228279114E-2   8.923192620277405E-1   1.768165379762650E-1  
 6.840840840840840E8    -1.317072063684464E-1  -6.092553138732910E-1   9.314052760601044E-2   1.973065547645092E-2   9.306225180625916E-2   1.979501731693745E-2   8.935744166374207E-1   1.554311811923981E-1  
 6.864864864864864E8    -1.812803745269775E-1  -5.817933678627014E-1   9.756618738174439E-2   1.447707228362560E-2   9.747239202260971E-2   1.469312328845263E-2   8.942515254020691E-1   1.355831921100617E-1  
 6.888888888888888E8    -2.264883220195770E-1  -5.500332713127136E-1   1.017200127243996E-1   8.171034976840019E-3   1.014144942164421E-1   8.751851506531239E-3   8.940106034278870E-1   1.146532818675041E-1  
 6.912912912912912E8    -2.668803334236145E-1  -5.155151486396790E-1   1.052157133817673E-1   1.331236213445664E-3   1.051037609577179E-1   1.988908275961876E-3   8.931299448013306E-1   9.353085607290268E-2  
 6.936936936936936E8    -3.033624589443207E-1  -4.790412783622742E-1   1.080349907279015E-1  -5.524953827261925E-3   1.080014333128929E-1  -5.202837288379669E-3   8.916971087455750E-1   7.237330079078674E-2  
 6.960960960960960E8    -3.361698389053345E-1  -4.398393034934998E-1   1.107689961791039E-1  -1.271486654877663E-2   1.106207668781281E-1  -1.292064692825079E-2   8.893043398857117E-1   5.089714378118515E-2  
 6.984984984984984E8    -3.641621172428131E-1  -3.975411355495453E-1   1.131951510906220E-1  -2.020057104527950E-2   1.128470301628113E-1  -2.184767089784145E-2   8.870888948440552E-1   2.774341031908989E-2  
 7.009009009009008E8    -3.867648541927338E-1  -3.538277745246887E-1   1.147014200687408E-1  -2.842338010668755E-2   1.139826104044914E-1  -3.112726472318173E-2   8.838719129562378E-1   5.128519609570503E-3  
 7.033033033033032E8    -4.037332832813263E-1  -3.100126385688782E-1   1.154003813862801E-1  -3.708438202738762E-2   1.145195662975311E-1  -3.952285274863243E-2   8.797189593315125E-1  -1.509045250713825E-2  
 7.057057057057056E8    -4.165205061435700E-1  -2.671256065368652E-1   1.155270040035248E-1  -4.589628800749779E-2   1.149995326995850E-1  -4.736344516277313E-2   8.750011324882507E-1  -3.288176283240318E-2  
 7.081081081081080E8    -4.254498481750488E-1  -2.234732806682587E-1   1.152210161089897E-1  -5.534863471984863E-2   1.154031977057457E-1  -5.529523268342018E-2   8.694071173667908E-1  -5.161368101835251E-2  
 7.105105105105104E8    -4.294506907463074E-1  -1.801326274871826E-1   1.147009208798409E-1  -6.529091298580170E-2   1.156012192368507E-1  -6.375547498464584E-2   8.632327914237976E-1  -6.912210583686829E-2  
 7.129129129129129E8    -4.292305707931519E-1  -1.401109844446182E-1   1.138115599751473E-1  -7.525990158319473E-2   1.150970831513405E-1  -7.348340749740601E-2   8.556267023086548E-1  -8.827292174100876E-2  
 7.153153153153153E8    -4.261808097362518E-1  -1.031506806612015E-1   1.124779954552651E-1  -8.548764139413834E-2   1.135489717125893E-1  -8.433406800031662E-2   8.468290567398071E-1  -1.089442446827889E-1  
 7.177177177177178E8    -4.204000234603882E-1  -6.844193488359451E-2   1.103872582316399E-1  -9.624958038330078E-2   1.108194291591644E-1  -9.596496075391769E-2   8.368924856185913E-1  -1.303841173648834E-1  
 7.201201201201202E8    -4.130468368530273E-1  -3.579939901828766E-2   1.071127578616142E-1  -1.081831902265549E-1   1.072068884968758E-1  -1.081241890788078E-1   8.257144689559937E-1  -1.517419666051865E-1  
 7.225225225225226E8    -4.050881266593933E-1  -4.312040749937296E-3   1.025578603148460E-1  -1.207102611660957E-1   1.022964045405388E-1  -1.209314987063408E-1   8.136023283004761E-1  -1.712299883365631E-1  
 7.249249249249250E8    -3.957422971725464E-1   2.762962877750397E-2   9.542819857597351E-2  -1.346220821142197E-1   9.661658853292465E-2  -1.335983872413635E-1   7.997618317604065E-1  -1.874756217002869E-1  
 7.273273273273274E8    -3.827865421772003E-1   5.791918560862541E-2   8.612142503261566E-2  -1.484080851078033E-1   8.875355124473572E-2  -1.468628495931625E-1   7.847940325737000E-1  -2.026199847459793E-1  
 7.297297297297298E8    -3.671511411666870E-1   8.475938439369202E-2   7.569749653339386E-2  -1.613079905509949E-1   7.803007960319519E-2  -1.602459549903870E-1   7.684516310691834E-1  -2.172183990478516E-1  
 7.321321321321322E8    -3.490912318229675E-1   1.086936071515083E-1   6.457971036434174E-2  -1.740857660770416E-1   6.461737304925919E-2  -1.742438077926636E-1   7.508029341697693E-1  -2.308653295040131E-1  
 7.345345345345346E8    -3.264468312263489E-1   1.305104494094849E-1   4.929827898740768E-2  -1.876142621040344E-1   4.826277121901512E-2  -1.879582852125168E-1   7.322871685028076E-1  -2.401710897684097E-1  
 7.369369369369370E8    -3.025505542755127E-1   1.441394686698914E-1   2.956467121839523E-2  -1.997490972280502E-1   2.745842374861240E-2  -1.999712884426117E-1   7.123438715934753E-1  -2.465411126613617E-1  
 7.393393393393394E8    -2.816868424415588E-1   1.500597745180130E-1   5.110674537718296E-3  -2.089987397193909E-1   2.799971960484982E-3  -2.088627219200134E-1   6.927123665809631E-1  -2.485903054475784E-1  
 7.417417417417418E8    -2.667174339294434E-1   1.507553905248642E-1  -2.340809628367424E-2  -2.131577134132385E-1  -2.485856041312218E-2  -2.127817869186401E-1   6.751964092254639E-1  -2.455251067876816E-1  
 7.441441441441442E8    -2.586478292942047E-1   1.500220149755478E-1  -5.411363020539284E-2  -2.110418230295181E-1  -5.407145619392395E-2  -2.108350396156311E-1   6.614764928817749E-1  -2.374580651521683E-1  
 7.465465465465466E8    -2.576985359191895E-1   1.518988907337189E-1  -8.505807071924210E-2  -2.020314931869507E-1  -8.484250307083130E-2  -2.018965035676956E-1   6.540602445602417E-1  -2.244886010885239E-1  
 7.489489489489490E8    -2.633047997951508E-1   1.577606648206711E-1  -1.142683997750282E-1  -1.840382069349289E-1  -1.139534115791321E-1  -1.842590421438217E-1   6.546529531478882E-1  -2.084560394287109E-1  
 7.513513513513514E8    -2.720650434494019E-1   1.719827950000763E-1  -1.376667320728302E-1  -1.574758142232895E-1  -1.374395787715912E-1  -1.580696105957031E-1   6.658061146736145E-1  -1.942474395036697E-1  
 7.537537537537538E8    -2.787997722625732E-1   1.955380737781525E-1  -1.519514918327332E-1  -1.250721663236618E-1  -1.517413258552551E-1  -1.258653849363327E-1   6.870477795600891E-1  -1.883982270956039E-1  
 7.561561561561562E8    -2.792328000068665E-1   2.265455424785614E-1  -1.548655331134796E-1  -9.213439375162125E-2  -1.546587496995926E-1  -9.206729382276535E-2   7.149438261985779E-1  -1.937783211469650E-1  
 7.585585585585586E8    -2.706997394561768E-1   2.625239789485931E-1  -1.474697589874268E-1  -6.253727525472641E-2  -1.471069753170013E-1  -6.183481961488724E-2   7.453195452690125E-1  -2.111997604370117E-1  
 7.609609609609610E8    -2.537035644054413E-1   2.974353730678558E-1  -1.324454396963120E-1  -3.982917219400406E-2  -1.318061947822571E-1  -3.922155499458313E-2   7.703490257263184E-1  -2.412503957748413E-1  
 7.633633633633634E8    -2.301595360040665E-1   3.294911086559296E-1  -1.138001754879952E-1  -2.621013484895229E-2  -1.131505742669106E-1  -2.589284628629684E-2   7.864246368408203E-1  -2.801340520381928E-1  
 7.657657657657658E8    -1.994958817958832E-1   3.577079772949219E-1  -9.572906047105789E-2  -2.098651602864265E-2  -9.526211768388748E-2  -2.103796228766441E-2   7.929567098617554E-1  -3.231478333473206E-1  
 7.681681681681682E8    -1.637797802686691E-1   3.789718449115753E-1  -8.066712319850922E-2  -2.228032797574997E-2  -8.075742423534393E-2  -2.223142236471176E-2   7.917885780334473E-1  -3.665165603160858E-1  
 7.705705705705706E8    -1.260407418012619E-1   3.946415781974793E-1  -6.985189765691757E-2  -2.740337885916233E-2  -6.990089267492294E-2  -2.749259956181049E-2   7.841672301292419E-1  -4.054864645004273E-1  
 7.729729729729730E8    -8.717272430658341E-2   4.024590849876404E-1  -6.323577463626862E-2  -3.433391079306603E-2  -6.357178092002869E-2  -3.461534902453423E-2   7.708101272583008E-1  -4.446958303451538E-1  
 7.753753753753754E8    -4.985527694225311E-2   4.040936529636383E-1  -6.049252301454544E-2  -4.172058403491974E-2  -6.079477444291115E-2  -4.211996123194695E-2   7.511742711067200E-1  -4.828187227249146E-1  
 7.777777777777778E8    -1.474055461585522E-2   4.000851511955261E-1  -6.099050864577293E-2  -4.898237437009811E-2  -6.110056489706039E-2  -4.918636754155159E-2   7.258890867233276E-1  -5.170510411262512E-1  
 7.801801801801802E8     1.647408492863178E-2   3.925435245037079E-1  -6.386569887399674E-2  -5.519993230700493E-2  -6.383296102285385E-2  -5.515315756201744E-2   6.972501873970032E-1  -5.465762615203857E-1  
 7.825825825825826E8     4.565369710326195E-2   3.821460008621216E-1  -6.878108531236649E-2  -6.009339541196823E-2  -6.872899085283279E-2  -6.002217903733254E-2   6.686466336250305E-1  -5.744667053222656E-1  
 7.849849849849850E8     7.079791277647018E-2   3.708540797233582E-1  -7.520810514688492E-2  -6.352689862251282E-2  -7.497975975275040E-2  -6.369760632514954E-2   6.397856473922730E-1  -5.986415147781372E-1  
 7.873873873873874E8     9.396552294492722E-2   3.598797917366028E-1  -8.260308951139450E-2  -6.589283794164658E-2  -8.210066705942154E-2  -6.587117165327072E-2   6.087891459465027E-1  -6.215527057647705E-1  
 7.897897897897898E8     1.178095266222954E-1   3.470934033393860E-1  -9.075509011745453E-2  -6.706658750772476E-2  -9.032461047172546E-2  -6.683142483234406E-2   5.755266547203064E-1  -6.435270309448242E-1  
 7.921921921921922E8     1.405701488256455E-1   3.306359648704529E-1  -1.000169664621353E-1  -6.657200306653976E-2  -9.979636967182159E-2  -6.659371405839920E-2   5.414143800735474E-1  -6.637850999832153E-1  
 7.945945945945946E8     1.583094447851181E-1   3.135565817356110E-1  -1.097517609596252E-1  -6.435143947601318E-2  -1.094326972961426E-1  -6.461849808692932E-2   5.060282349586487E-1  -6.796934604644775E-1  
 7.969969969969970E8     1.718438267707825E-1   2.966946959495544E-1  -1.192362233996391E-1  -5.999745428562164E-2  -1.189829409122467E-1  -6.049893423914909E-2   4.692089855670929E-1  -6.934537291526794E-1  
 7.993993993993994E8     1.841371059417725E-1   2.810043394565582E-1  -1.277002692222595E-1  -5.469348281621933E-2  -1.276603788137436E-1  -5.494078621268272E-2   4.306562542915344E-1  -7.057253718376160E-1  
 8.018018018018018E8     1.962469816207886E-1   2.636955976486206E-1  -1.357537806034088E-1  -4.831008985638619E-2  -1.358842849731445E-1  -4.831944033503532E-2   3.904508352279663E-1  -7.155585885047913E-1  
 8.042042042042042E8     2.070789188146591E-1   2.461396157741547E-1  -1.434258669614792E-1  -4.120271652936935E-2  -1.435962468385696E-1  -4.102056846022606E-2   3.504828214645386E-1  -7.225486040115356E-1  
 8.066066066066066E8     2.165701538324356E-1   2.282745689153671E-1  -1.507376432418823E-1  -3.300971165299416E-2  -1.509857326745987E-1  -3.287164121866226E-2   3.086643517017365E-1  -7.273827195167542E-1  
 8.090090090090090E8     2.243913412094116E-1   2.088501155376434E-1  -1.575368046760559E-1  -2.428403496742249E-2  -1.578018218278885E-1  -2.410798147320747E-2   2.655195295810700E-1  -7.290509939193726E-1  
 8.114114114114114E8     2.293940484523773E-1   1.872608363628388E-1  -1.644860506057739E-1  -1.475328672677279E-2  -1.647354066371918E-1  -1.460743695497513E-2   2.214402109384537E-1  -7.271212339401245E-1  
 8.138138138138138E8     2.291465848684311E-1   1.647740304470062E-1  -1.711990088224411E-1  -3.485250053927302E-3  -1.714714765548706E-1  -3.317256458103657E-3   1.770056635141373E-1  -7.215434312820435E-1  
 8.162162162162162E8     2.240315973758698E-1   1.446765214204788E-1  -1.767568886280060E-1   9.605638682842255E-3  -1.768779009580612E-1   9.671448729932308E-3   1.328005045652390E-1  -7.123768329620361E-1  
 8.186186186186186E8     2.151057571172714E-1   1.291392743587494E-1  -1.804111897945404E-1   2.369036525487900E-2  -1.805507689714432E-1   2.376717329025269E-2   8.942131698131561E-2  -6.994069814682007E-1  
 8.210210210210210E8     2.044945806264877E-1   1.180048137903214E-1  -1.819033920764923E-1   3.845952451229096E-2  -1.821155399084091E-1   3.840065002441406E-2   4.571227356791496E-2  -6.826192140579224E-1  
 8.234234234234234E8     1.945460140705109E-1   1.111738234758377E-1  -1.816571503877640E-1   5.316464602947235E-2  -1.817956864833832E-1   5.301431939005852E-2   2.265810733661056E-3  -6.622137427330017E-1  
