#  HZ   S   RI   R     50.00 
! Rohde & Schwarz ZVB8 2Ports - Version 2.81 - 1145.1010k08 SN: 100113
! Date: 2016-04-20 02:16:05
! Measurements: S11 S21 S12 S22 
! 
 6.000000000000000E8     7.549376487731934E-1   4.045830368995667E-1  -2.048958651721478E-2   3.253103047609329E-2  -2.052583172917366E-2   3.247430920600891E-2   5.484449267387390E-1   7.621483802795410E-1  
 6.024024024024024E8     7.713953852653503E-1   3.656683266162872E-1  -1.935712434351444E-2   3.436185419559479E-2  -1.944633759558201E-2   3.443187847733498E-2   5.644751787185669E-1   7.495040893554688E-1  
 6.048048048048048E8     7.863180041313171E-1   3.246106803417206E-1  -1.804615557193756E-2   3.633338958024979E-2  -1.805319450795651E-2   3.630663827061653E-2   5.801167488098145E-1   7.374411225318909E-1  
 6.072072072072072E8     7.990458011627197E-1   2.819362282752991E-1  -1.639110036194325E-2   3.812064975500107E-2  -1.648788154125214E-2   3.814552351832390E-2   5.955526828765869E-1   7.248946428298950E-1  
 6.096096096096096E8     8.094485998153687E-1   2.378998249769211E-1  -1.464137900620699E-2   3.987646847963333E-2  -1.468138396739960E-2   3.984655812382698E-2   6.107727289199829E-1   7.113565802574158E-1  
 6.120120120120120E8     8.174378871917725E-1   1.962312757968903E-1  -1.289485860615969E-2   4.151947423815727E-2  -1.291773375123739E-2   4.156240820884705E-2   6.247172951698303E-1   6.992552280426025E-1  
 6.144144144144144E8     8.231041431427002E-1   1.540084183216095E-1  -1.097993552684784E-2   4.306817799806595E-2  -1.099206600338221E-2   4.309554025530815E-2   6.387386918067932E-1   6.864181160926819E-1  
 6.168168168168168E8     8.264722824096680E-1   1.103921830654144E-1  -8.989153429865837E-3   4.457633569836617E-2  -8.986830711364746E-3   4.460633173584938E-2   6.526471972465515E-1   6.727732419967651E-1  
 6.192192192192192E8     8.268690705299377E-1   6.571309268474579E-2  -6.765092257410288E-3   4.605202749371529E-2  -6.865824107080698E-3   4.606416821479797E-2   6.665877103805542E-1   6.585869789123535E-1  
 6.216216216216216E8     8.240972161293030E-1   2.087634801864624E-2  -4.468838684260845E-3   4.734475910663605E-2  -4.481819458305836E-3   4.739435762166977E-2   6.808362603187561E-1   6.431956887245178E-1  
 6.240240240240240E8     8.184019923210144E-1  -2.317904122173786E-2  -2.009746618568897E-3   4.860804975032806E-2  -1.919682486914098E-3   4.861408844590187E-2   6.945179104804993E-1   6.273177266120911E-1  
 6.264264264264264E8     8.112635612487793E-1  -6.505975872278214E-2   7.237595273181796E-4   4.977852106094360E-2   7.214247598312795E-4   4.971430450677872E-2   7.084151506423950E-1   6.109711527824402E-1  
 6.288288288288288E8     8.022783994674683E-1  -1.068504452705383E-1   3.495662240311503E-3   5.067851766943932E-2   3.438286483287811E-3   5.066230893135071E-2   7.212588191032410E-1   5.949137210845947E-1  
 6.312312312312312E8     7.912143468856812E-1  -1.484051048755646E-1   6.270558573305607E-3   5.146601796150208E-2   6.317092105746269E-3   5.144339427351952E-2   7.335230112075806E-1   5.787667632102966E-1  
 6.336336336336336E8     7.779519557952881E-1  -1.902781724929810E-1   9.199376218020916E-3   5.211227387189865E-2   9.212773293256760E-3   5.205955728888512E-2   7.449759244918823E-1   5.624041557312012E-1  
 6.360360360360360E8     7.613880634307861E-1  -2.319021373987198E-1   1.221693120896816E-2   5.263938754796982E-2   1.220642309635878E-2   5.260336771607399E-2   7.557342648506165E-1   5.459311604499817E-1  
 6.384384384384384E8     7.418924570083618E-1  -2.708483636379242E-1   1.534201111644507E-2   5.297002196311951E-2   1.541314832866192E-2   5.298892408609390E-2   7.670705318450928E-1   5.299852490425110E-1  
 6.408408408408408E8     7.192862033843994E-1  -3.082859516143799E-1   1.865062862634659E-2   5.299653485417366E-2   1.858145184814930E-2   5.296442285180092E-2   7.778513431549072E-1   5.134446620941162E-1  
 6.432432432432432E8     6.947916746139526E-1  -3.436712026596069E-1   2.188584581017494E-2   5.273714289069176E-2   2.187024056911469E-2   5.271822214126587E-2   7.883162498474121E-1   4.962957799434662E-1  
 6.456456456456456E8     6.692524552345276E-1  -3.773157298564911E-1   2.493783272802830E-2   5.228703841567040E-2   2.485353313386440E-2   5.222691595554352E-2   7.983052134513855E-1   4.786262512207031E-1  
 6.480480480480480E8     6.422398686408997E-1  -4.096997082233429E-1   2.788523025810719E-2   5.180288478732109E-2   2.795450203120709E-2   5.177021399140358E-2   8.080281615257263E-1   4.601514637470245E-1  
 6.504504504504504E8     6.139693856239319E-1  -4.394106566905975E-1   3.099778294563294E-2   5.117961019277573E-2   3.104888089001179E-2   5.107259005308151E-2   8.182458281517029E-1   4.424268007278442E-1  
 6.528528528528528E8     5.842182040214539E-1  -4.676755964756012E-1   3.416002169251442E-2   5.035971477627754E-2   3.416462242603302E-2   5.028418451547623E-2   8.272603750228882E-1   4.246412515640259E-1  
 6.552552552552552E8     5.537753701210022E-1  -4.943964481353760E-1   3.707493096590042E-2   4.924695938825607E-2   3.710103034973145E-2   4.918962344527245E-2   8.351175189018250E-1   4.062736034393311E-1  
 6.576576576576576E8     5.225299000740051E-1  -5.200784802436829E-1   3.986294567584992E-2   4.812630265951157E-2   3.983172774314880E-2   4.805023223161697E-2   8.425729274749756E-1   3.877077400684357E-1  
 6.600600600600600E8     4.898273348808289E-1  -5.454311966896057E-1   4.262005537748337E-2   4.682505875825882E-2   4.270138591527939E-2   4.677490517497063E-2   8.502243757247925E-1   3.670792579650879E-1  
 6.624624624624624E8     4.558481276035309E-1  -5.674442052841187E-1   4.525894299149513E-2   4.555290564894676E-2   4.524014517664909E-2   4.556846246123314E-2   8.578794002532959E-1   3.479227423667908E-1  
 6.648648648648648E8     4.198110103607178E-1  -5.882095694541931E-1   4.788651689887047E-2   4.435813799500465E-2   4.771462082862854E-2   4.443446174263954E-2   8.646528124809265E-1   3.283783793449402E-1  
 6.672672672672672E8     3.824206888675690E-1  -6.068350672721863E-1   5.031340941786766E-2   4.323690757155418E-2   5.025262385606766E-2   4.325722157955170E-2   8.705872893333435E-1   3.086114823818207E-1  
 6.696696696696696E8     3.440393507480621E-1  -6.240803003311157E-1   5.283767357468605E-2   4.237100854516029E-2   5.278375372290611E-2   4.238862544298172E-2   8.757596611976624E-1   2.885091304779053E-1  
 6.720720720720720E8     3.043084740638733E-1  -6.401579976081848E-1   5.552028864622116E-2   4.145104438066483E-2   5.552534386515617E-2   4.141500964760780E-2   8.801898956298828E-1   2.681965529918671E-1  
 6.744744744744744E8     2.623589038848877E-1  -6.533432006835938E-1   5.846395716071129E-2   4.070579260587692E-2   5.854083597660065E-2   4.066262766718864E-2   8.849397897720337E-1   2.482855916023254E-1  
 6.768768768768768E8     2.185579836368561E-1  -6.636004447937012E-1   6.180913373827934E-2   4.000228270888329E-2   6.187288463115692E-2   4.001109674572945E-2   8.887429237365723E-1   2.281441688537598E-1  
 6.792792792792792E8     1.733928173780441E-1  -6.705116629600525E-1   6.563605368137360E-2   3.918914496898651E-2   6.565894931554794E-2   3.917178139090538E-2   8.920739293098450E-1   2.075962871313095E-1  
 6.816816816816816E8     1.273251026868820E-1  -6.738623380661011E-1   7.001233100891113E-2   3.811281919479370E-2   7.000582665205002E-2   3.820533677935600E-2   8.945864439010620E-1   1.863722354173660E-1  
 6.840840840840840E8     8.137614279985428E-2  -6.726540327072144E-1   7.467122375965118E-2   3.661812096834183E-2   7.457230985164642E-2   3.672107309103012E-2   8.964604139328003E-1   1.648446023464203E-1  
 6.864864864864864E8     3.549195453524590E-2  -6.664648652076721E-1   7.984314113855362E-2   3.464228287339211E-2   7.967793196439743E-2   3.487705811858177E-2   8.971734642982483E-1   1.443343609571457E-1  
 6.888888888888888E8    -8.597351610660553E-3  -6.566918492317200E-1   8.531133830547333E-2   3.170663118362427E-2   8.503416925668716E-2   3.228687867522240E-2   8.974978327751160E-1   1.232264935970306E-1  
 6.912912912912912E8    -5.066946893930435E-2  -6.450825333595276E-1   9.084431082010269E-2   2.847163751721382E-2   9.055041521787643E-2   2.894057705998421E-2   8.968245387077332E-1   1.016500145196915E-1  
 6.936936936936936E8    -9.240622073411942E-2  -6.313208341598511E-1   9.649059176445007E-2   2.464373409748077E-2   9.628244489431381E-2   2.492156252264977E-2   8.957539200782776E-1   8.016186952590942E-2  
 6.960960960960960E8    -1.335489451885223E-1  -6.141831278800964E-1   1.022880598902702E-1   2.031270600855351E-2   1.021491810679436E-1   2.017862163484097E-2   8.940194845199585E-1   5.803356319665909E-2  
 6.984984984984984E8    -1.727519035339356E-1  -5.932662487030029E-1   1.084171384572983E-1   1.542245317250490E-2   1.085171848535538E-1   1.385650038719177E-2   8.917300105094910E-1   3.416585549712181E-2  
 7.009009009009008E8    -2.101394832134247E-1  -5.689049959182739E-1   1.143112704157829E-1   9.026234969496727E-3   1.144125312566757E-1   6.447986699640751E-3   8.881719112396240E-1   1.129486877471209E-2  
 7.033033033033032E8    -2.452776730060577E-1  -5.415109395980835E-1   1.197742968797684E-1   1.473004231229425E-3   1.197124347090721E-1  -1.096107997000217E-3   8.838678598403931E-1  -9.197007864713669E-3  
 7.057057057057056E8    -2.773989439010620E-1  -5.116361379623413E-1   1.247938424348831E-1  -7.291202433407307E-3   1.246956065297127E-1  -8.660621941089630E-3   8.788671493530273E-1  -2.665525861084461E-2  
 7.081081081081080E8    -3.077988326549530E-1  -4.790848791599274E-1   1.294363886117935E-1  -1.709045097231865E-2   1.295238137245178E-1  -1.694564521312714E-2   8.731644153594971E-1  -4.537521302700043E-2  
 7.105105105105104E8    -3.356946408748627E-1  -4.425213038921356E-1   1.337327957153320E-1  -2.809894084930420E-2   1.341898739337921E-1  -2.628906443715096E-2   8.670665621757507E-1  -6.244784221053124E-2  
 7.129129129129129E8    -3.596303164958954E-1  -4.032790362834930E-1   1.372391879558563E-1  -3.950878977775574E-2   1.380158513784409E-1  -3.740802779793739E-2   8.599753975868225E-1  -8.119243383407593E-2  
 7.153153153153153E8    -3.777830004692078E-1  -3.606396913528442E-1   1.403851211071014E-1  -5.169437080621719E-2   1.410326659679413E-1  -5.034370347857475E-2   8.515350222587585E-1  -1.017220318317413E-1  
 7.177177177177178E8    -3.878353834152222E-1  -3.174707293510437E-1   1.423045098781586E-1  -6.546366959810257E-2   1.425395756959915E-1  -6.508591026067734E-2   8.417004942893982E-1  -1.232111155986786E-1  
 7.201201201201202E8    -3.921127021312714E-1  -2.767275869846344E-1   1.422432065010071E-1  -8.080179244279862E-2   1.422872096300125E-1  -8.069857954978943E-2   8.310585618019104E-1  -1.436858773231506E-1  
 7.225225225225226E8    -3.932490944862366E-1  -2.374627590179443E-1   1.400914490222931E-1  -9.667564183473587E-2   1.398400515317917E-1  -9.685634821653366E-2   8.195379972457886E-1  -1.619083583354950E-1  
 7.249249249249250E8    -3.910781443119049E-1  -1.991855204105377E-1   1.353641897439957E-1  -1.134998276829720E-1   1.363575458526611E-1  -1.121287420392036E-1   8.076257705688477E-1  -1.775491386651993E-1  
 7.273273273273274E8    -3.841212987899780E-1  -1.632020920515060E-1   1.290940046310425E-1  -1.305880844593048E-1   1.312916725873947E-1  -1.282383948564529E-1   7.944505810737610E-1  -1.927968561649323E-1  
 7.297297297297298E8    -3.721232414245606E-1  -1.322588771581650E-1   1.213896572589874E-1  -1.471469104290009E-1   1.233085915446281E-1  -1.455328464508057E-1   7.803449630737305E-1  -2.077278047800064E-1  
 7.321321321321322E8    -3.568792641162872E-1  -1.073294654488564E-1   1.122521609067917E-1  -1.637612283229828E-1   1.120843142271042E-1  -1.640715301036835E-1   7.646493315696716E-1  -2.222145497798920E-1  
 7.345345345345346E8    -3.410539627075195E-1  -8.593763411045075E-2   9.873560070991516E-2  -1.813803166151047E-1   9.756071865558624E-2  -1.821394115686417E-1   7.484721541404724E-1  -2.320669144392014E-1  
 7.369369369369370E8    -3.256220519542694E-1  -7.045968621969223E-2   8.059573173522949E-2  -1.980251371860504E-1   7.821801304817200E-2  -1.989161670207977E-1   7.316629886627197E-1  -2.402898371219635E-1  
 7.393393393393394E8    -3.134216964244843E-1  -6.041137129068375E-2   5.758064240217209E-2  -2.118840813636780E-1   5.507192015647888E-2  -2.123483568429947E-1   7.149112224578857E-1  -2.456598132848740E-1  
 7.417417417417418E8    -3.052213788032532E-1  -5.380002409219742E-2   3.093350864946842E-2  -2.216745764017105E-1   2.926381491124630E-2  -2.216072678565979E-1   6.990948319435120E-1  -2.474313676357269E-1  
 7.441441441441442E8    -3.010696470737457E-1  -4.877321794629097E-2   1.502615050412715E-3  -2.267620861530304E-1   1.459151622839272E-3  -2.263462543487549E-1   6.853455901145935E-1  -2.447124272584915E-1  
 7.465465465465466E8    -3.025062680244446E-1  -4.339230060577393E-2  -2.916696481406689E-2  -2.258751839399338E-1  -2.898130752146244E-2  -2.257460355758667E-1   6.766696572303772E-1  -2.371262907981873E-1  
 7.489489489489490E8    -3.093726634979248E-1  -3.541624918580055E-2  -6.007640063762665E-2  -2.178823202848434E-1  -5.978993698954582E-2  -2.179020941257477E-1   6.736992001533508E-1  -2.271289527416229E-1  
 7.513513513513514E8    -3.195638060569763E-1  -2.288916334509850E-2  -8.927171677350998E-2  -2.021406292915344E-1  -8.903056383132935E-2  -2.025719732046127E-1   6.784390211105347E-1  -2.175666540861130E-1  
 7.537537537537538E8    -3.319247066974640E-1  -4.679382778704166E-3  -1.141460835933685E-1  -1.787487566471100E-1  -1.136981472373009E-1  -1.793905496597290E-1   6.907441020011902E-1  -2.133963406085968E-1  
 7.561561561561562E8    -3.437629342079163E-1   2.054163813591003E-2  -1.307069808244705E-1  -1.499875038862228E-1  -1.306546032428742E-1  -1.497738808393478E-1   7.101570963859558E-1  -2.159066498279572E-1  
 7.585585585585586E8    -3.527040183544159E-1   5.493523553013802E-2  -1.372307538986206E-1  -1.186739131808281E-1  -1.370775550603867E-1  -1.177893877029419E-1   7.352401018142700E-1  -2.267422974109650E-1  
 7.609609609609610E8    -3.556624054908752E-1   9.505726397037506E-2  -1.332565844058991E-1  -8.949865400791168E-2  -1.328424662351608E-1  -8.853753656148911E-2   7.590326070785523E-1  -2.501020431518555E-1  
 7.633633633633634E8    -3.501139283180237E-1   1.378396153450012E-1  -1.214316263794899E-1  -6.694561243057251E-2  -1.207517459988594E-1  -6.631297618150711E-2   7.764489650726318E-1  -2.835695445537567E-1  
 7.657657657657658E8    -3.364427685737610E-1   1.798068284988403E-1  -1.061336845159531E-1  -5.249645560979843E-2  -1.057703569531441E-1  -5.232860893011093E-2   7.856709957122803E-1  -3.232633769512177E-1  
 7.681681681681682E8    -3.154607415199280E-1   2.197548747062683E-1  -9.052930027246475E-2  -4.544247686862946E-2  -9.063225239515305E-2  -4.534777998924255E-2   7.874317765235901E-1  -3.645957708358765E-1  
 7.705705705705706E8    -2.885532379150391E-1   2.589498460292816E-1  -7.663635909557343E-2  -4.397402331233025E-2  -7.681247591972351E-2  -4.401605576276779E-2   7.822973728179932E-1  -4.026698172092438E-1  
 7.729729729729730E8    -2.529819905757904E-1   2.945046126842499E-1  -6.564199924468994E-2  -4.634329676628113E-2  -6.588161736726761E-2  -4.668600484728813E-2   7.707487940788269E-1  -4.421060383319855E-1  
 7.753753753753754E8    -2.109820693731308E-1   3.215942680835724E-1  -5.787376686930656E-2  -5.154123157262802E-2  -5.810038745403290E-2  -5.202100425958633E-2   7.522601485252380E-1  -4.808750152587891E-1  
 7.777777777777778E8    -1.671673357486725E-1   3.398852944374085E-1  -5.331380292773247E-2  -5.817998200654984E-2  -5.349492281675339E-2  -5.853193625807762E-2   7.280244827270508E-1  -5.157341957092285E-1  
 7.801801801801802E8    -1.230313852429390E-1   3.505865931510925E-1  -5.164060369133949E-2  -6.559517979621887E-2  -5.160871520638466E-2  -6.549107283353806E-2   6.997945904731751E-1  -5.462279319763184E-1  
 7.825825825825826E8    -8.015512675046921E-2   3.551733493804932E-1  -5.267710611224175E-2  -7.282073795795441E-2  -5.268040299415588E-2  -7.284508645534515E-2   6.721933484077454E-1  -5.742533802986145E-1  
 7.849849849849850E8    -4.003977403044701E-2   3.552613258361816E-1  -5.615956336259842E-2  -7.959055900573731E-2  -5.587692558765411E-2  -7.968784123659134E-2   6.436495184898377E-1  -5.988683104515076E-1  
 7.873873873873874E8    -3.211037721484900E-3   3.519365787506104E-1  -6.157650053501129E-2  -8.566541969776154E-2  -6.112604960799217E-2  -8.550748974084854E-2   6.134625673294067E-1  -6.221554279327393E-1  
 7.897897897897898E8     3.195669874548912E-2   3.462568223476410E-1  -6.857259571552277E-2  -9.056168794631958E-2  -6.822878122329712E-2  -9.025799483060837E-2   5.804334878921509E-1  -6.448071599006653E-1  
 7.921921921921922E8     6.593520939350128E-2   3.381986021995544E-1  -7.679472863674164E-2  -9.398294240236282E-2  -7.665439695119858E-2  -9.391133487224579E-2   5.469322800636292E-1  -6.656187176704407E-1  
 7.945945945945946E8     9.673307090997696E-2   3.301625549793243E-1  -8.596735447645187E-2  -9.619735926389694E-2  -8.548860251903534E-2  -9.631794691085815E-2   5.120167732238770E-1  -6.819441914558411E-1  
 7.969969969969970E8     1.262217611074448E-1   3.208559751510620E-1  -9.534575790166855E-2  -9.707669168710709E-2  -9.491994231939316E-2  -9.737867861986160E-2   4.755020439624786E-1  -6.964182257652283E-1  
 7.993993993993994E8     1.555077880620956E-1   3.097134530544281E-1  -1.050183176994324E-1  -9.714521467685700E-2  -1.048581004142761E-1  -9.736492484807968E-2   4.372880458831787E-1  -7.095846533775330E-1  
 8.018018018018018E8     1.843289732933044E-1   2.960834205150604E-1  -1.151684820652008E-1  -9.606650471687317E-2  -1.153919398784638E-1  -9.603248536586762E-2   3.974431157112122E-1  -7.201427221298218E-1  
 8.042042042042042E8     2.129488289356232E-1   2.813228070735931E-1  -1.254288703203201E-1  -9.396632760763168E-2  -1.256526112556458E-1  -9.383015334606171E-2   3.575517833232880E-1  -7.278642058372498E-1  
 8.066066066066066E8     2.422100305557251E-1   2.651290595531464E-1  -1.360868215560913E-1  -9.133663773536682E-2  -1.362324655056000E-1  -9.125996381044388E-2   3.158250153064728E-1  -7.335253953933716E-1  
 8.090090090090090E8     2.714809775352478E-1   2.436314225196838E-1  -1.476279497146606E-1  -8.803847432136536E-2  -1.478563398122788E-1  -8.793181926012039E-2   2.727346420288086E-1  -7.358977794647217E-1  
 8.114114114114114E8     2.971540689468384E-1   2.172476053237915E-1  -1.600836813449860E-1  -8.306977897882462E-2  -1.603379994630814E-1  -8.296989649534226E-2   2.285763770341873E-1  -7.349812984466553E-1  
 8.138138138138138E8     3.185803890228272E-1   1.882234662771225E-1  -1.728099286556244E-1  -7.625432312488556E-2  -1.730495840311050E-1  -7.610739022493362E-2   1.838367581367493E-1  -7.308498024940491E-1  
 8.162162162162162E8     3.359823822975159E-1   1.579317301511765E-1  -1.853926032781601E-1  -6.767453998327255E-2  -1.855376958847046E-1  -6.761302053928375E-2   1.387488842010498E-1  -7.230339646339417E-1  
 8.186186186186186E8     3.490292429924011E-1   1.276187747716904E-1  -1.980139911174774E-1  -5.747307837009430E-2  -1.980879306793213E-1  -5.752605199813843E-2   9.364220499992371E-2  -7.107299566268921E-1  
 8.210210210210210E8     3.577973842620850E-1   9.723035246133804E-2  -2.098294049501419E-1  -4.500290751457214E-2  -2.099352478981018E-1  -4.511180147528648E-2   4.824014008045197E-2  -6.939204335212708E-1  
 8.234234234234234E8     3.637924194335938E-1   6.794128566980362E-2  -2.206100672483444E-1  -3.091288730502129E-2  -2.207668721675873E-1  -3.104245103895664E-2   3.227877197787166E-3  -6.733874082565308E-1  
