#  HZ   S   RI   R     50.00 
! Rohde & Schwarz ZVB8 2Ports - Version 2.81 - 1145.1010k08 SN: 100113
! Date: 2016-04-20 02:48:30
! Measurements: S11 S21 S12 S22 
! 
 6.000000000000000E8     7.493952512741089E-1   3.889930248260498E-1  -1.887177675962448E-2   2.547015063464642E-2  -1.891645230352879E-2   2.542437054216862E-2   5.649128556251526E-1   7.511304020881653E-1  
 6.024024024024024E8     7.633904814720154E-1   3.518796563148499E-1  -1.839054189622402E-2   2.721930295228958E-2  -1.841576583683491E-2   2.727047912776470E-2   5.806639790534973E-1   7.389072775840759E-1  
 6.048048048048048E8     7.759705781936646E-1   3.129685819149017E-1  -1.777152903378010E-2   2.921176329255104E-2  -1.778691262006760E-2   2.926944382488728E-2   5.961924791336060E-1   7.266764044761658E-1  
 6.072072072072072E8     7.863397002220154E-1   2.722617685794830E-1  -1.678367145359516E-2   3.141555935144424E-2  -1.675606332719326E-2   3.144305571913719E-2   6.116580367088318E-1   7.137176394462585E-1  
 6.096096096096096E8     7.950636744499207E-1   2.303160727024078E-1  -1.546529028564692E-2   3.356070816516876E-2  -1.540432311594486E-2   3.357469290494919E-2   6.269934177398682E-1   6.997140049934387E-1  
 6.120120120120120E8     8.012552857398987E-1   1.908413767814636E-1  -1.399642415344715E-2   3.539679571986198E-2  -1.392479054629803E-2   3.544204309582710E-2   6.408307552337647E-1   6.873140335083008E-1  
 6.144144144144144E8     8.059955239295960E-1   1.516132801771164E-1  -1.229354739189148E-2   3.724166378378868E-2  -1.238003466278315E-2   3.718801587820053E-2   6.543293595314026E-1   6.743388175964356E-1  
 6.168168168168168E8     8.088412880897522E-1   1.109474748373032E-1  -1.052282750606537E-2   3.881079703569412E-2  -1.051037013530731E-2   3.884446993470192E-2   6.681361198425293E-1   6.604290008544922E-1  
 6.192192192192192E8     8.099688887596130E-1   6.985072046518326E-2  -8.702794089913368E-3   4.024989530444145E-2  -8.729826658964157E-3   4.030244797468185E-2   6.816908717155457E-1   6.456943750381470E-1  
 6.216216216216216E8     8.093389868736267E-1   2.751721255481243E-2  -6.831800099462271E-3   4.163983464241028E-2  -6.823810748755932E-3   4.160221666097641E-2   6.954857110977173E-1   6.299968957901001E-1  
 6.240240240240240E8     8.064734935760498E-1  -1.612317562103272E-2  -5.064247176051140E-3   4.294699802994728E-2  -5.044906865805388E-3   4.292619228363037E-2   7.087569236755371E-1   6.139888167381287E-1  
 6.264264264264264E8     8.015709519386292E-1  -5.894129350781441E-2  -3.178059356287122E-3   4.443765431642532E-2  -3.189188195392489E-3   4.440031945705414E-2   7.223082780838013E-1   5.974158644676209E-1  
 6.288288288288288E8     7.934034466743469E-1  -1.028243079781532E-1  -1.137177110649645E-3   4.594788327813149E-2  -1.152353710494936E-3   4.590727016329765E-2   7.346655130386353E-1   5.812231302261353E-1  
 6.312312312312312E8     7.823476791381836E-1  -1.468383520841599E-1   1.162496046163142E-3   4.732744023203850E-2   1.125810085795820E-3   4.732636734843254E-2   7.464177012443543E-1   5.649039745330811E-1  
 6.336336336336336E8     7.675909399986267E-1  -1.901510208845139E-1   3.517766948789358E-3   4.870893433690071E-2   3.580218646675348E-3   4.865283891558647E-2   7.574096322059631E-1   5.483611226081848E-1  
 6.360360360360360E8     7.493142485618591E-1  -2.322429716587067E-1   6.140508688986301E-3   4.999693483114243E-2   6.193350534886122E-3   4.996952041983604E-2   7.681513428688049E-1   5.316455364227295E-1  
 6.384384384384384E8     7.290248274803162E-1  -2.705466747283936E-1   8.863326162099838E-3   5.118717998266220E-2   8.861788548529148E-3   5.119257420301437E-2   7.790845632553101E-1   5.153245925903320E-1  
 6.408408408408408E8     7.070664763450623E-1  -3.084366917610169E-1   1.174195483326912E-2   5.231506377458572E-2   1.165850926190615E-2   5.228234082460403E-2   7.894609570503235E-1   4.985012114048004E-1  
 6.432432432432432E8     6.834337115287781E-1  -3.456024229526520E-1   1.470550894737244E-2   5.323294177651405E-2   1.472984068095684E-2   5.329374969005585E-2   7.994570732116699E-1   4.808687865734100E-1  
 6.456456456456456E8     6.575110554695129E-1  -3.823026418685913E-1   1.784113794565201E-2   5.420529842376709E-2   1.776329427957535E-2   5.422811955213547E-2   8.088404536247253E-1   4.625127017498016E-1  
 6.480480480480480E8     6.297490596771240E-1  -4.182715713977814E-1   2.110086195170879E-2   5.519649386405945E-2   2.105620689690113E-2   5.522435531020165E-2   8.181487321853638E-1   4.437379837036133E-1  
 6.504504504504504E8     5.991069674491882E-1  -4.522814154624939E-1   2.477471157908440E-2   5.607546493411064E-2   2.490983158349991E-2   5.608148872852325E-2   8.273044824600220E-1   4.257090985774994E-1  
 6.528528528528528E8     5.651672482490540E-1  -4.850938022136688E-1   2.877772599458695E-2   5.673735588788986E-2   2.887833490967751E-2   5.666479095816612E-2   8.354496359825134E-1   4.072344303131104E-1  
 6.552552552552552E8     5.289695262908936E-1  -5.156607627868652E-1   3.294780477881432E-2   5.711925029754639E-2   3.308946639299393E-2   5.706084147095680E-2   8.423382043838501E-1   3.888060152530670E-1  
 6.576576576576576E8     4.909967184066773E-1  -5.439448952674866E-1   3.733730316162109E-2   5.699308961629868E-2   3.738281875848770E-2   5.695416778326035E-2   8.488445878028870E-1   3.695290088653565E-1  
 6.600600600600600E8     4.510051906108856E-1  -5.703499913215637E-1   4.194740206003189E-2   5.664463341236115E-2   4.194861277937889E-2   5.656211450695992E-2   8.552555441856384E-1   3.489675819873810E-1  
 6.624624624624624E8     4.091481864452362E-1  -5.927054882049561E-1   4.652981832623482E-2   5.610455200076103E-2   4.653481021523476E-2   5.605430528521538E-2   8.616915941238403E-1   3.289572000503540E-1  
 6.648648648648648E8     3.649078905582428E-1  -6.127191781997681E-1   5.140671133995056E-2   5.522349104285240E-2   5.127655342221260E-2   5.528125539422035E-2   8.670244216918945E-1   3.093116879463196E-1  
 6.672672672672672E8     3.189720809459686E-1  -6.299015879631043E-1   5.620390549302101E-2   5.402967706322670E-2   5.613018199801445E-2   5.409933999180794E-2   8.716599345207214E-1   2.894403040409088E-1  
 6.696696696696696E8     2.718478143215179E-1  -6.444957852363586E-1   6.107457727193832E-2   5.272995680570602E-2   6.099533662199974E-2   5.282910913228989E-2   8.752134442329407E-1   2.693973481655121E-1  
 6.720720720720720E8     2.238539904356003E-1  -6.561123728752136E-1   6.630306690931320E-2   5.125810205936432E-2   6.628131121397018E-2   5.120500177145004E-2   8.780340552330017E-1   2.489836066961289E-1  
 6.744744744744744E8     1.741940826177597E-1  -6.641072630882263E-1   7.195718586444855E-2   4.927324503660202E-2   7.200070470571518E-2   4.925964772701263E-2   8.807666897773743E-1   2.295485883951187E-1  
 6.768768768768768E8     1.222861707210541E-1  -6.689079999923706E-1   7.791458815336227E-2   4.675588011741638E-2   7.795275002717972E-2   4.674044996500015E-2   8.828073740005493E-1   2.102893590927124E-1  
 6.792792792792792E8     6.941771507263184E-2  -6.687475442886353E-1   8.420036733150482E-2   4.351069033145905E-2   8.426787704229355E-2   4.357838258147240E-2   8.841236829757690E-1   1.909115165472031E-1  
 6.816816816816816E8     1.642497256398201E-2  -6.634716391563416E-1   9.065602719783783E-2   3.924960270524025E-2   9.059937298297882E-2   3.929454088211060E-2   8.849921822547913E-1   1.711662858724594E-1  
 6.840840840840840E8    -3.478325530886650E-2  -6.530089378356934E-1   9.671012312173843E-2   3.392143920063973E-2   9.660482406616211E-2   3.399683162570000E-2   8.853202462196350E-1   1.513247489929199E-1  
 6.864864864864864E8    -8.497150242328644E-2  -6.384567618370056E-1   1.021553575992584E-1   2.811630256474018E-2   1.020017936825752E-1   2.839179337024689E-2   8.856226205825806E-1   1.331564188003540E-1  
 6.888888888888888E8    -1.348190009593964E-1  -6.199284195899963E-1   1.078576967120171E-1   2.161519415676594E-2   1.076313927769661E-1   2.226500399410725E-2   8.852647542953491E-1   1.137394234538078E-1  
 6.912912912912912E8    -1.828967779874802E-1  -5.969233512878418E-1   1.131964698433876E-1   1.419378072023392E-2   1.129370853304863E-1   1.479094754904509E-2   8.842179179191589E-1   9.392742812633514E-2  
 6.936936936936936E8    -2.283155024051666E-1  -5.693901777267456E-1   1.178243830800057E-1   5.781285464763641E-3   1.176740154623985E-1   6.208444945514202E-3   8.828192949295044E-1   7.453468441963196E-2  
 6.960960960960960E8    -2.699619829654694E-1  -5.386236310005188E-1   1.212177425622940E-1  -2.892333548516035E-3   1.210808008909226E-1  -3.079028800129890E-3   8.810438513755798E-1   5.479198694229126E-2  
 6.984984984984984E8    -3.090234994888306E-1  -5.042665004730225E-1   1.241983398795128E-1  -1.123453862965107E-2   1.238939464092255E-1  -1.291148830205202E-2   8.792757987976074E-1   3.298247605562210E-2  
 7.009009009009008E8    -3.453937768936157E-1  -4.657063782215118E-1   1.270175576210022E-1  -2.003870345652103E-2   1.264690011739731E-1  -2.286104485392571E-2   8.766768574714661E-1   1.181434001773596E-2  
 7.033033033033032E8    -3.774511516094208E-1  -4.226933419704437E-1   1.296192109584808E-1  -3.044774569571018E-2   1.288909167051315E-1  -3.312919288873673E-2   8.729549646377564E-1  -7.237148936837912E-3  
 7.057057057057056E8    -4.020016193389893E-1  -3.762560784816742E-1   1.307123899459839E-1  -4.217188432812691E-2   1.301968097686768E-1  -4.380826652050018E-2   8.687081336975098E-1  -2.317784167826176E-2  
 7.081081081081080E8    -4.198322892189026E-1  -3.289770185947418E-1   1.299950331449509E-1  -5.480704084038734E-2   1.301845014095306E-1  -5.473043769598007E-2   8.641110658645630E-1  -3.965995833277702E-2  
 7.105105105105104E8    -4.320347607135773E-1  -2.829163670539856E-1   1.278136521577835E-1  -6.703616678714752E-2   1.287730038166046E-1  -6.529717147350311E-2   8.600482344627380E-1  -5.501736328005791E-2  
 7.129129129129129E8    -4.412631094455719E-1  -2.399984747171402E-1   1.256630569696426E-1  -7.772170007228851E-2   1.269402056932449E-1  -7.576742768287659E-2   8.549727797508240E-1  -7.305056601762772E-2  
 7.153153153153153E8    -4.478801190853119E-1  -1.958244591951370E-1   1.239857152104378E-1  -8.924048393964768E-2   1.250747293233872E-1  -8.794178813695908E-2   8.480867147445679E-1  -9.262245148420334E-2  
 7.177177177177178E8    -4.474248290061951E-1  -1.510595530271530E-1   1.205858215689659E-1  -1.020949706435204E-1   1.209945753216744E-1  -1.017502769827843E-1   8.404152393341065E-1  -1.130217611789703E-1  
 7.201201201201202E8    -4.403734505176544E-1  -1.102228611707687E-1   1.145328432321549E-1  -1.154592335224152E-1   1.145203560590744E-1  -1.154636591672897E-1   8.324170708656311E-1  -1.332423985004425E-1  
 7.225225225225226E8    -4.322652220726013E-1  -7.362151145935059E-2   1.065306290984154E-1  -1.277226358652115E-1   1.061777621507645E-1  -1.279093474149704E-1   8.239283561706543E-1  -1.522511690855026E-1  
 7.249249249249250E8    -4.231241643428803E-1  -3.854059055447578E-2   9.690053015947342E-2  -1.393951922655106E-1   9.816493093967438E-2  -1.383509933948517E-1   8.139559626579285E-1  -1.690838038921356E-1  
 7.273273273273274E8    -4.126126468181610E-1  -4.802040755748749E-3   8.710364997386932E-2  -1.506504267454147E-1   8.971399068832398E-2  -1.490385830402374E-1   8.027640581130981E-1  -1.861087977886200E-1  
 7.297297297297298E8    -3.971477448940277E-1   2.792144380509853E-2   7.734119892120361E-2  -1.623402088880539E-1   7.975419610738754E-2  -1.612578183412552E-1   7.900710701942444E-1  -2.033206373453140E-1  
 7.321321321321322E8    -3.763107657432556E-1   5.347056314349175E-2   6.561537832021713E-2  -1.742608398199081E-1   6.553347408771515E-2  -1.744851171970367E-1   7.751979827880859E-1  -2.204743325710297E-1  
 7.345345345345346E8    -3.556843996047974E-1   7.427440583705902E-2   4.976120218634605E-2  -1.854555308818817E-1   4.869616031646729E-2  -1.857333332300186E-1   7.586511373519898E-1  -2.336385101079941E-1  
 7.369369369369370E8    -3.373751044273377E-1   9.001486003398895E-2   3.109192103147507E-2  -1.943378299474716E-1   2.899648807942867E-2  -1.946363896131516E-1   7.406033277511597E-1  -2.451438009738922E-1  
 7.393393393393394E8    -3.225825428962708E-1   1.024629250168800E-1   1.022784598171711E-2  -2.007324695587158E-1   7.897900417447090E-3  -2.006638646125794E-1   7.209954857826233E-1  -2.539183199405670E-1  
 7.417417417417418E8    -3.103266060352325E-1   1.149917170405388E-1  -1.304489839822054E-2  -2.050191164016724E-1  -1.445814128965139E-2  -2.045519649982452E-1   7.001672983169556E-1  -2.576226294040680E-1  
 7.441441441441442E8    -2.984035909175873E-1   1.263970583677292E-1  -3.974614664912224E-2  -2.054367810487747E-1  -3.956573829054833E-2  -2.050855010747910E-1   6.806519031524658E-1  -2.547901868820190E-1  
 7.465465465465466E8    -2.890971899032593E-1   1.385694742202759E-1  -6.774552911520004E-2  -2.001159936189652E-1  -6.744930148124695E-2  -2.000484913587570E-1   6.660188436508179E-1  -2.442463487386704E-1  
 7.489489489489490E8    -2.812879383563995E-1   1.501545608043671E-1  -9.608936309814453E-2  -1.869228482246399E-1  -9.571900963783264E-2  -1.870077848434448E-1   6.587069034576416E-1  -2.278042286634445E-1  
 7.513513513513514E8    -2.772268354892731E-1   1.628052294254303E-1  -1.205474287271500E-1  -1.643289625644684E-1  -1.202488616108894E-1  -1.648379713296890E-1   6.626060009002686E-1  -2.094731777906418E-1  
 7.537537537537538E8    -2.745263874530792E-1   1.821050196886063E-1  -1.364544779062271E-1  -1.350884884595871E-1  -1.362205147743225E-1  -1.357576698064804E-1   6.807245016098023E-1  -1.969221234321594E-1  
 7.561561561561562E8    -2.676763236522675E-1   2.074245065450668E-1  -1.418125182390213E-1  -1.047077104449272E-1  -1.416531354188919E-1  -1.046437472105026E-1   7.097439765930176E-1  -1.969584971666336E-1  
 7.585585585585586E8    -2.524321973323822E-1   2.379238009452820E-1  -1.374355852603912E-1  -7.650040835142136E-2  -1.370784491300583E-1  -7.582410424947739E-2   7.417722344398499E-1  -2.116976529359818E-1  
 7.609609609609610E8    -2.282232493162155E-1   2.643084228038788E-1  -1.250296086072922E-1  -5.437358096241951E-2  -1.244649812579155E-1  -5.367394909262657E-2   7.681345939636231E-1  -2.406039237976074E-1  
 7.633633633633634E8    -2.003447413444519E-1   2.831519544124603E-1  -1.087180823087692E-1  -4.085758328437805E-2  -1.080726683139801E-1  -4.046353697776794E-2   7.849433422088623E-1  -2.782292366027832E-1  
 7.657657657657658E8    -1.725356280803680E-1   2.973771691322327E-1  -9.307308495044708E-2  -3.542328253388405E-2  -9.261003881692886E-2  -3.530876338481903E-2   7.926005721092224E-1  -3.210599720478058E-1  
 7.681681681681682E8    -1.432704776525497E-1   3.087664246559143E-1  -8.042913675308228E-2  -3.567263484001160E-2  -8.051507920026779E-2  -3.558305650949478E-2   7.920068502426148E-1  -3.638736903667450E-1  
 7.705705705705706E8    -1.120386049151421E-1   3.177244365215302E-1  -7.118785381317139E-2  -3.915924206376076E-2  -7.124380767345429E-2  -3.918591514229775E-2   7.849357724189758E-1  -4.020203053951263E-1  
 7.729729729729730E8    -7.841479778289795E-2   3.192682266235352E-1  -6.547244638204575E-2  -4.426449909806252E-2  -6.579109281301498E-2  -4.458537697792053E-2   7.724386453628540E-1  -4.410665929317474E-1  
 7.753753753753754E8    -4.824087768793106E-2   3.127222657203674E-1  -6.332461535930634E-2  -4.991748183965683E-2  -6.368671357631683E-2  -5.036667361855507E-2   7.532199025154114E-1  -4.795380234718323E-1  
 7.777777777777778E8    -2.390326559543610E-2   3.013793826103210E-1  -6.386101990938187E-2  -5.521533638238907E-2  -6.409477442502976E-2  -5.557060986757278E-2   7.286673784255981E-1  -5.136451125144959E-1  
 7.801801801801802E8    -7.355900015681982E-3   2.893825173377991E-1  -6.621613353490830E-2  -5.958075821399689E-2  -6.620851159095764E-2  -5.950663611292839E-2   7.006605267524719E-1  -5.433995723724365E-1  
 7.825825825825826E8     6.421062629669905E-3   2.812528908252716E-1  -6.963276863098145E-2  -6.293286383152008E-2  -6.971805542707443E-2  -6.290765851736069E-2   6.725496649742127E-1  -5.716620087623596E-1  
 7.849849849849850E8     1.887501403689385E-2   2.751367986202240E-1  -7.448111474514008E-2  -6.573270261287689E-2  -7.412672787904739E-2  -6.589241325855255E-2   6.443189382553101E-1  -5.960785150527954E-1  
 7.873873873873874E8     3.180824592709541E-2   2.706671059131622E-1  -8.033883571624756E-2  -6.802845746278763E-2  -7.985395938158035E-2  -6.809709966182709E-2   6.138695478439331E-1  -6.194486021995544E-1  
 7.897897897897898E8     4.572341963648796E-2   2.632340490818024E-1  -8.749806880950928E-2  -6.912103295326233E-2  -8.706340938806534E-2  -6.896544247865677E-2   5.810098648071289E-1  -6.419363021850586E-1  
 7.921921921921922E8     5.568870157003403E-2   2.558401226997376E-1  -9.498591721057892E-2  -6.813963502645493E-2  -9.489918500185013E-2  -6.802362203598023E-2   5.470240712165833E-1  -6.630738377571106E-1  
 7.945945945945946E8     6.403309851884842E-2   2.531423568725586E-1  -1.021111682057381E-1  -6.623407453298569E-2  -1.017064154148102E-1  -6.645227968692780E-2   5.120074152946472E-1  -6.797516345977783E-1  
 7.969969969969970E8     7.364773750305176E-2   2.518143951892853E-1  -1.088989302515984E-1  -6.385599821805954E-2  -1.085686758160591E-1  -6.427878141403198E-2   4.750182926654816E-1  -6.949486732482910E-1  
 7.993993993993994E8     8.511923253536224E-2   2.506921887397766E-1  -1.157489195466042E-1  -6.131896376609802E-2  -1.155920028686523E-1  -6.159824505448341E-2   4.362432360649109E-1  -7.077559232711792E-1  
 8.018018018018018E8     9.999420493841171E-2   2.469722628593445E-1  -1.230831220746040E-1  -5.857232958078384E-2  -1.233610436320305E-1  -5.849627777934074E-2   3.951672911643982E-1  -7.186179161071777E-1  
 8.042042042042042E8     1.135911718010902E-1   2.374778240919113E-1  -1.322787553071976E-1  -5.427371338009834E-2  -1.324071437120438E-1  -5.406159907579422E-2   3.543770611286163E-1  -7.253683805465698E-1  
 8.066066066066066E8     1.193197667598724E-1   2.302731871604919E-1  -1.404006928205490E-1  -4.669905081391335E-2  -1.405648440122604E-1  -4.670179262757301E-2   3.124813735485077E-1  -7.303985357284546E-1  
 8.090090090090090E8     1.263103038072586E-1   2.297920733690262E-1  -1.461283266544342E-1  -3.912650421261787E-2  -1.462805122137070E-1  -3.901129588484764E-2   2.689125537872315E-1  -7.326392531394959E-1  
 8.114114114114114E8     1.388514488935471E-1   2.296245992183685E-1  -1.515999883413315E-1  -3.278659284114838E-2  -1.519858390092850E-1  -3.254351764917374E-2   2.238032817840576E-1  -7.313077449798584E-1  
 8.138138138138138E8     1.540321409702301E-1   2.252126783132553E-1  -1.584532111883164E-1  -2.606457099318504E-2  -1.587209254503250E-1  -2.600453794002533E-2   1.785514354705811E-1  -7.256183624267578E-1  
 8.162162162162162E8     1.676191836595535E-1   2.174165099859238E-1  -1.656678318977356E-1  -1.758884079754353E-2  -1.658755689859390E-1  -1.749474368989468E-2   1.334522813558579E-1  -7.166523337364197E-1  
 8.186186186186186E8     1.786385625600815E-1   2.094968557357788E-1  -1.723896265029907E-1  -7.735765073448420E-3  -1.724139153957367E-1  -7.744413800537586E-3   8.861607313156128E-2  -7.035659551620483E-1  
 8.210210210210210E8     1.871092617511749E-1   2.030511498451233E-1  -1.777021586894989E-1   3.583680139854550E-3  -1.777867823839188E-1   3.589895088225603E-3   4.343393445014954E-2  -6.865528821945190E-1  
 8.234234234234234E8     2.000586241483688E-1   1.995281130075455E-1  -1.814999431371689E-1   1.444554515182972E-2  -1.815497428178787E-1   1.429016795009375E-2  -1.893184613436461E-3  -6.653155684471130E-1  
