#  HZ   S   RI   R     50.00 
! Rohde & Schwarz ZVB8 2Ports - Version 2.81 - 1145.1010k08 SN: 100113
! Date: 2016-05-03 01:36:53
! Measurements: S11 S21 S12 S22 
! 
 6.000000000000000E8     2.856056392192841E-1   7.780479788780212E-1  -3.638837486505508E-3  -1.487370696850121E-3  -3.622192423790693E-3  -1.432651653885841E-3  -9.689623713493347E-1  -1.109036952257156E-1  
 6.024024024024024E8     3.010519742965698E-1   7.663089036941528E-1  -3.592998720705509E-3  -1.419321633875370E-3  -3.609506879001856E-3  -1.462415209971368E-3  -9.700185060501099E-1  -9.949690103530884E-2  
 6.048048048048048E8     3.168657124042511E-1   7.539007067680359E-1  -3.593550762161613E-3  -1.477426849305630E-3  -3.563722129911184E-3  -1.484071603044868E-3  -9.710400700569153E-1  -8.811029046773911E-2  
 6.072072072072072E8     3.320874273777008E-1   7.403302788734436E-1  -3.528414526954293E-3  -1.521755475550890E-3  -3.550367662683129E-3  -1.533236936666071E-3  -9.716472029685974E-1  -7.722283899784088E-2  
 6.096096096096096E8     3.470828235149384E-1   7.254500389099121E-1  -3.444458823651075E-3  -1.598804490640760E-3  -3.511125920340419E-3  -1.635137828998268E-3  -9.720001816749573E-1  -6.606999039649963E-2  
 6.120120120120120E8     3.578774631023407E-1   7.122341394424439E-1  -3.359355730935931E-3  -1.818979973904789E-3  -3.377513727173209E-3  -1.778751029632986E-3  -9.717652201652527E-1  -5.703902617096901E-2  
 6.144144144144144E8     3.676523268222809E-1   6.999874114990234E-1  -3.272508271038532E-3  -2.145370235666633E-3  -3.227623179554939E-3  -2.123808255419135E-3  -9.726982116699219E-1  -4.680727049708366E-2  
 6.168168168168168E8     3.773559331893921E-1   6.878988146781921E-1  -3.220979589968920E-3  -2.617508638650179E-3  -3.204840468242765E-3  -2.624039538204670E-3  -9.730790257453919E-1  -3.568428382277489E-2  
 6.192192192192192E8     3.867187798023224E-1   6.760362982749939E-1  -3.332660533487797E-3  -3.182750893756747E-3  -3.277856856584549E-3  -3.108397591859102E-3  -9.731704592704773E-1  -2.454213239252567E-2  
 6.216216216216216E8     3.956317305564880E-1   6.650199890136719E-1  -3.522734856233001E-3  -3.840773133561015E-3  -3.518428420647979E-3  -3.847169457003474E-3  -9.730632901191711E-1  -1.250146888196468E-2  
 6.240240240240240E8     4.043571352958679E-1   6.550223827362061E-1  -4.003243986517191E-3  -4.595060367137194E-3  -4.005404189229012E-3  -4.659729078412056E-3  -9.723176360130310E-1  -1.316786394454539E-3  
 6.264264264264264E8     4.137611389160156E-1   6.478365659713745E-1  -4.801036790013313E-3  -5.372304003685713E-3  -4.760829731822014E-3  -5.378782749176025E-3  -9.725669622421265E-1   1.077066641300917E-2  
 6.288288288288288E8     4.250167608261108E-1   6.414021849632263E-1  -5.860675591975451E-3  -5.979858804494143E-3  -5.881003569811583E-3  -5.989565514028072E-3  -9.721495509147644E-1   2.183630876243115E-2  
 6.312312312312312E8     4.383310675621033E-1   6.354631781578064E-1  -7.224074564874172E-3  -6.327910348773003E-3  -7.167395204305649E-3  -6.325195077806711E-3  -9.714795351028442E-1   3.182739019393921E-2  
 6.336336336336336E8     4.542981386184692E-1   6.285782456398010E-1  -8.592355065047741E-3  -6.274221930652857E-3  -8.668540976941586E-3  -6.314483005553484E-3  -9.709916710853577E-1   4.107198119163513E-2  
 6.360360360360360E8     4.728519618511200E-1   6.192672848701477E-1  -9.946716949343681E-3  -5.875704810023308E-3  -9.861582890152931E-3  -5.886476952582598E-3  -9.699456691741943E-1   4.983852058649063E-2  
 6.384384384384384E8     4.915136396884918E-1   6.084145903587341E-1  -1.114988420158625E-2  -5.333790089935064E-3  -1.111929118633270E-2  -5.285920575261116E-3  -9.692305922508240E-1   6.018935889005661E-2  
 6.408408408408408E8     5.111253857612610E-1   5.940344333648682E-1  -1.215485017746687E-2  -4.600566346198320E-3  -1.208158861845732E-2  -4.569526761770248E-3  -9.683426022529602E-1   7.049980014562607E-2  
 6.432432432432432E8     5.298767685890198E-1   5.767616629600525E-1  -1.304484810680151E-2  -3.729392308741808E-3  -1.294794119894505E-2  -3.762719919905067E-3  -9.673858284950256E-1   8.069595694541931E-2  
 6.456456456456456E8     5.477344989776611E-1   5.570769906044006E-1  -1.370061468333006E-2  -2.812114078551531E-3  -1.370624173432589E-2  -2.901759464293718E-3  -9.662815928459168E-1   9.024327248334885E-2  
 6.480480480480480E8     5.638992786407471E-1   5.355253815650940E-1  -1.429356727749109E-2  -1.930579659529030E-3  -1.416317652910948E-2  -2.048190217465162E-3  -9.649531245231628E-1   9.922947734594345E-2  
 6.504504504504504E8     5.784552097320557E-1   5.144439339637756E-1  -1.480878144502640E-2  -1.048059668391943E-3  -1.475487463176251E-2  -1.103210845030844E-3  -9.610647559165955E-1   1.091922000050545E-1  
 6.528528528528528E8     5.916395783424377E-1   4.922241866588593E-1  -1.518386509269476E-2  -4.615125726559199E-5  -1.512177009135485E-2  -1.615690562175587E-4  -9.578114151954651E-1   1.207635402679443E-1  
 6.552552552552552E8     6.031610965728760E-1   4.687584042549133E-1  -1.540246419608593E-2   8.132004877552390E-4  -1.539871934801340E-2   7.282576989382505E-4  -9.565773010253906E-1   1.323159933090210E-1  
 6.576576576576576E8     6.131215691566467E-1   4.443889856338501E-1  -1.558764651417732E-2   1.751116360537708E-3  -1.552914734929800E-2   1.566098304465413E-3  -9.571300745010376E-1   1.422058790922165E-1  
 6.600600600600600E8     6.223632097244263E-1   4.184406697750092E-1  -1.564065925776959E-2   2.588208764791489E-3  -1.555217988789082E-2   2.521467860788107E-3  -9.581500291824341E-1   1.500402241945267E-1  
 6.624624624624624E8     6.297011971473694E-1   3.943841159343720E-1  -1.553147286176682E-2   3.321280702948570E-3  -1.557274069637060E-2   3.238611156120896E-3  -9.564459919929504E-1   1.606676280498505E-1  
 6.648648648648648E8     6.355669498443604E-1   3.694058060646057E-1  -1.547835394740105E-2   3.978634253144264E-3  -1.549934502691031E-2   3.784013446420431E-3  -9.543702602386475E-1   1.709682047367096E-1  
 6.672672672672672E8     6.396747231483460E-1   3.433147370815277E-1  -1.546117849647999E-2   4.409011453390122E-3  -1.545240450650454E-2   4.310374148190022E-3  -9.519255161285400E-1   1.808467507362366E-1  
 6.696696696696696E8     6.417767405509949E-1   3.167748749256134E-1  -1.533019915223122E-2   4.917383659631014E-3  -1.530293375253677E-2   4.795899614691734E-3  -9.496746063232422E-1   1.902438253164291E-1  
 6.720720720720720E8     6.422877907752991E-1   2.907188236713409E-1  -1.518828887492418E-2   5.368979647755623E-3  -1.517189107835293E-2   5.296789575368166E-3  -9.470657110214233E-1   1.999104768037796E-1  
 6.744744744744744E8     6.412054300308228E-1   2.672388255596161E-1  -1.500570494681597E-2   5.576084833592176E-3  -1.503708492964506E-2   5.482576787471771E-3  -9.445171952247620E-1   2.104320526123047E-1  
 6.768768768768768E8     6.383665800094605E-1   2.440593093633652E-1  -1.485071238130331E-2   5.635764449834824E-3  -1.484519522637129E-2   5.583765916526318E-3  -9.416101574897766E-1   2.205868661403656E-1  
 6.792792792792792E8     6.337367296218872E-1   2.227810174226761E-1  -1.482813525944948E-2   5.306396167725325E-3  -1.472746673971415E-2   5.318248178809881E-3  -9.387649893760681E-1   2.307209074497223E-1  
 6.816816816816816E8     6.284161210060120E-1   2.037725448608398E-1  -1.509263273328543E-2   4.582636523991823E-3  -1.506913732737303E-2   4.565748851746321E-3  -9.356094002723694E-1   2.412156462669373E-1  
 6.840840840840840E8     6.237101554870606E-1   1.874113529920578E-1  -1.602083817124367E-2   3.730502445250750E-3  -1.599154062569141E-2   3.688394324854016E-3  -9.323874115943909E-1   2.516045868396759E-1  
 6.864864864864864E8     6.203548312187195E-1   1.740709692239761E-1  -1.779871061444283E-2   2.986194100230932E-3  -1.775693334639072E-2   2.851742552593350E-3  -9.282709360122681E-1   2.607711851596832E-1  
 6.888888888888888E8     6.203367710113525E-1   1.616560965776444E-1  -2.022424712777138E-2   2.842269605025649E-3  -2.024172805249691E-2   2.611703239381313E-3  -9.237765669822693E-1   2.710443437099457E-1  
 6.912912912912912E8     6.241980791091919E-1   1.488995254039764E-1  -2.316562458872795E-2   3.590666921809316E-3  -2.309210039675236E-2   3.344745142385364E-3  -9.194551110267639E-1   2.809630930423737E-1  
 6.936936936936936E8     6.315068006515503E-1   1.329016983509064E-1  -2.607591450214386E-2   5.293517839163542E-3  -2.609519660472870E-2   5.103228148072958E-3  -9.158324003219605E-1   2.905373573303223E-1  
 6.960960960960960E8     6.395774483680725E-1   1.115221679210663E-1  -2.856696583330631E-2   7.923580706119537E-3  -2.859612554311752E-2   7.831497117877007E-3  -9.118936657905579E-1   3.001227974891663E-1  
 6.984984984984984E8     6.464350819587708E-1   8.668423444032669E-2  -3.041449561715126E-2   1.107097696512938E-2  -3.033902868628502E-2   1.144244335591793E-2  -9.069947600364685E-1   3.135091066360474E-1  
 7.009009009009008E8     6.492496132850647E-1   5.742971971631050E-2  -3.153762221336365E-2   1.453273370862007E-2  -3.122033737599850E-2   1.501260232180357E-2  -9.021113514900208E-1   3.257057070732117E-1  
 7.033033033033032E8     6.474421620368958E-1   2.610189840197563E-2  -3.187111020088196E-2   1.807032525539398E-2  -3.147887811064720E-2   1.852601394057274E-2  -8.978534936904907E-1   3.353899419307709E-1  
 7.057057057057056E8     6.409355998039246E-1  -5.362519994378090E-3  -3.167971596121788E-2   2.148146741092205E-2  -3.147139400243759E-2   2.166735194623470E-2  -8.948405385017395E-1   3.413364291191101E-1  
 7.081081081081080E8     6.305063366889954E-1  -3.676945343613625E-2  -3.119550459086895E-2   2.478919178247452E-2  -3.121277317404747E-2   2.461570501327515E-2  -8.915750980377197E-1   3.481450080871582E-1  
 7.105105105105104E8     6.172791123390198E-1  -6.530725210905075E-2  -3.024364821612835E-2   2.811628952622414E-2  -3.075052984058857E-2   2.756748534739018E-2  -8.884625434875488E-1   3.564427196979523E-1  
 7.129129129129129E8     6.020290255546570E-1  -9.067202359437943E-2  -2.926266752183437E-2   3.106217086315155E-2  -2.979282103478909E-2   3.053564764559269E-2  -8.841500282287598E-1   3.661135137081146E-1  
 7.153153153153153E8     5.858542323112488E-1  -1.140031740069389E-1  -2.812673151493073E-2   3.375681862235069E-2  -2.848423831164837E-2   3.335948288440704E-2  -8.790607452392578E-1   3.772486746311188E-1  
 7.177177177177178E8     5.687157511711121E-1  -1.368448436260223E-1  -2.690131403505802E-2   3.625223413109779E-2  -2.702565677464008E-2   3.611932322382927E-2  -8.730008006095886E-1   3.894096016883850E-1  
 7.201201201201202E8     5.499801635742188E-1  -1.592084467411041E-1  -2.551123686134815E-2   3.887712955474854E-2  -2.563226409256458E-2   3.869815543293953E-2  -8.674042224884033E-1   4.007373750209808E-1  
 7.225225225225226E8     5.296677947044373E-1  -1.797776669263840E-1  -2.403124980628490E-2   4.147032275795937E-2  -2.394120022654533E-2   4.134152457118034E-2  -8.613893389701843E-1   4.128535091876984E-1  
 7.249249249249250E8     5.069305896759033E-1  -1.988100260496140E-1  -2.195557206869125E-2   4.420501366257668E-2  -2.250939421355724E-2   4.377311468124390E-2  -8.559461236000061E-1   4.213162362575531E-1  
 7.273273273273274E8     4.840235710144043E-1  -2.148247063159943E-1  -1.981084048748016E-2   4.671130701899529E-2  -2.066337689757347E-2   4.612739756703377E-2  -8.504483699798584E-1   4.300036728382111E-1  
 7.297297297297298E8     4.619647860527039E-1  -2.279214113950729E-1  -1.771509833633900E-2   4.895778745412827E-2  -1.837572641670704E-2   4.856232926249504E-2  -8.448523879051209E-1   4.389255940914154E-1  
 7.321321321321322E8     4.405781626701355E-1  -2.396463006734848E-1  -1.573954895138741E-2   5.084946379065514E-2  -1.563595980405808E-2   5.063913017511368E-2  -8.391134142875671E-1   4.484261274337769E-1  
 7.345345345345346E8     4.181866943836212E-1  -2.506144940853119E-1  -1.338392216712236E-2   5.262542888522148E-2  -1.312321517616510E-2   5.247526243329048E-2  -8.331224918365479E-1   4.588022232055664E-1  
 7.369369369369370E8     3.943264186382294E-1  -2.608721256256104E-1  -1.097887847572565E-2   5.416930839419365E-2  -1.046625059098005E-2   5.414515361189842E-2  -8.266157507896423E-1   4.695810377597809E-1  
 7.393393393393394E8     3.702078163623810E-1  -2.691049873828888E-1  -8.565372787415981E-3   5.582642927765846E-2  -8.081534877419472E-3   5.574467033147812E-2  -8.200637102127075E-1   4.796976745128632E-1  
 7.417417417417418E8     3.463900089263916E-1  -2.758217453956604E-1  -5.941514391452074E-3   5.731083452701569E-2  -5.684892646968365E-3   5.711369588971138E-2  -8.135549426078796E-1   4.887937903404236E-1  
 7.441441441441442E8     3.230269849300385E-1  -2.806597650051117E-1  -3.281007753685117E-3   5.861994251608849E-2  -3.479702631011605E-3   5.851657688617706E-2  -8.077579736709595E-1   4.965785145759583E-1  
 7.465465465465466E8     3.005925714969635E-1  -2.826538681983948E-1  -7.913283188827336E-4   6.009437143802643E-2  -1.068800454959273E-3   5.993088707327843E-2  -8.002737760543823E-1   5.069073438644409E-1  
 7.489489489489490E8     2.784499824047089E-1  -2.840018272399902E-1   1.740769366733730E-3   6.153762340545654E-2   1.236037933267653E-3   6.141004338860512E-2  -7.943595051765442E-1   5.159665942192078E-1  
 7.513513513513514E8     2.567950785160065E-1  -2.851321995258331E-1   4.301364999264479E-3   6.294644623994827E-2   3.740088315680623E-3   6.290721148252487E-2  -7.884270548820496E-1   5.253570675849915E-1  
 7.537537537537538E8     2.349953353404999E-1  -2.860627472400665E-1   7.258989848196507E-3   6.447700411081314E-2   6.550389342010021E-3   6.455339491367340E-2  -7.816911935806274E-1   5.347161293029785E-1  
 7.561561561561562E8     2.137652486562729E-1  -2.853700518608093E-1   1.021378487348557E-2   6.620234251022339E-2   9.625679813325405E-3   6.613212823867798E-2  -7.739356160163879E-1   5.424782633781433E-1  
 7.585585585585586E8     1.916467249393463E-1  -2.824831008911133E-1   1.356400270015001E-2   6.783182919025421E-2   1.314500533044338E-2   6.754738837480545E-2  -7.639828920364380E-1   5.531198978424072E-1  
 7.609609609609610E8     1.698183268308640E-1  -2.777823805809021E-1   1.723946630954742E-2   6.937544792890549E-2   1.675214059650898E-2   6.887998431921005E-2  -7.546520829200745E-1   5.624240040779114E-1  
 7.633633633633634E8     1.497549861669540E-1  -2.712856233119965E-1   2.127275615930557E-2   7.080677151679993E-2   2.062542736530304E-2   7.032719254493713E-2  -7.463931441307068E-1   5.709166526794434E-1  
 7.657657657657658E8     1.324099898338318E-1  -2.636476457118988E-1   2.568216621875763E-2   7.184327393770218E-2   2.493254467844963E-2   7.165025174617767E-2  -7.393340468406677E-1   5.778499245643616E-1  
 7.681681681681682E8     1.178122237324715E-1  -2.553913593292236E-1   3.028100728988648E-2   7.267422974109650E-2   2.977522835135460E-2   7.279226183891296E-2  -7.338354587554932E-1   5.840540528297424E-1  
 7.705705705705706E8     1.054355874657631E-1  -2.447648197412491E-1   3.541651368141174E-2   7.294464111328125E-2   3.477941453456879E-2   7.328470796346664E-2  -7.279112339019775E-1   5.900686979293823E-1  
 7.729729729729730E8     9.502666443586350E-2  -2.361534833908081E-1   4.062815010547638E-2   7.224244624376297E-2   4.020966589450836E-2   7.313492894172669E-2  -7.221306562423706E-1   5.991346836090088E-1  
 7.753753753753754E8     8.547291159629822E-2  -2.297100573778153E-1   4.566565155982971E-2   7.096540927886963E-2   4.527858644723892E-2   7.201085984706879E-2  -7.139708995819092E-1   6.095138788223267E-1  
 7.777777777777778E8     7.617939263582230E-2  -2.247921526432037E-1   5.015020072460175E-2   6.949300318956375E-2   4.990009590983391E-2   7.016734033823013E-2  -7.031879425048828E-1   6.186884045600891E-1  
 7.801801801801802E8     6.646115332841873E-2  -2.209636569023132E-1   5.430638790130615E-2   6.815357506275177E-2   5.369725450873375E-2   6.823524087667465E-2  -6.906177401542664E-1   6.252924203872681E-1  
 7.825825825825826E8     5.513954535126686E-2  -2.158780992031097E-1   5.825230106711388E-2   6.651824712753296E-2   5.787667259573937E-2   6.644496321678162E-2  -6.786658763885498E-1   6.333439350128174E-1  
 7.849849849849850E8     4.434376955032349E-2  -2.114028334617615E-1   6.227763742208481E-2   6.491095572710037E-2   6.146465986967087E-2   6.483002007007599E-2  -6.691063642501831E-1   6.384178400039673E-1  
 7.873873873873874E8     3.252910077571869E-2  -2.073929160833359E-1   6.617953628301621E-2   6.345219910144806E-2   6.515207141637802E-2   6.340265274047852E-2  -6.612936854362488E-1   6.433240175247192E-1  
 7.897897897897898E8     1.991324871778488E-2  -2.022925615310669E-1   7.025694847106934E-2   6.213813275098801E-2   6.944712251424789E-2   6.211802363395691E-2  -6.538563370704651E-1   6.506480574607849E-1  
 7.921921921921922E8     7.214775308966637E-3  -1.956123113632202E-1   7.466540485620499E-2   6.031576916575432E-2   7.407578825950623E-2   6.072372570633888E-2  -6.471991539001465E-1   6.594836115837097E-1  
 7.945945945945946E8    -4.729066975414753E-3  -1.859448552131653E-1   7.932633161544800E-2   5.834687501192093E-2   7.866405695676804E-2   5.891984328627586E-2  -6.366109251976013E-1   6.665107607841492E-1  
 7.969969969969970E8    -1.473651267588139E-2  -1.753258109092712E-1   8.412155508995056E-2   5.588556826114655E-2   8.360941708087921E-2   5.662242695689201E-2  -6.258949637413025E-1   6.739329099655151E-1  
 7.993993993993994E8    -2.323086000978947E-2  -1.645473241806030E-1   8.893325179815292E-2   5.308499932289124E-2   8.860023319721222E-2   5.377471074461937E-2  -6.147370934486389E-1   6.813206076622009E-1  
 8.018018018018018E8    -2.996783889830113E-2  -1.534576863050461E-1   9.398099780082703E-2   4.977244883775711E-2   9.371104836463928E-2   5.015939474105835E-2  -6.028060317039490E-1   6.888594031333923E-1  
 8.042042042042042E8    -3.462218865752220E-2  -1.430884003639221E-1   9.896843880414963E-2   4.574995487928391E-2   9.864735603332520E-2   4.590898379683495E-2  -5.925012826919556E-1   6.947795152664185E-1  
 8.066066066066066E8    -3.806006535887718E-2  -1.328389197587967E-1   1.034065410494804E-1   4.059657081961632E-2   1.032022312283516E-1   4.078908264636993E-2  -5.802447199821472E-1   7.027655839920044E-1  
 8.090090090090090E8    -4.014537483453751E-2  -1.239599511027336E-1   1.072318702936173E-1   3.539766371250153E-2   1.069708094000816E-1   3.546807914972305E-2  -5.679485797882080E-1   7.097198367118835E-1  
 8.114114114114114E8    -4.112005978822708E-2  -1.172927469015122E-1   1.104465574026108E-1   2.985305152833462E-2   1.102432832121849E-1   3.012871183454990E-2  -5.559854507446289E-1   7.158102393150330E-1  
 8.138138138138138E8    -4.260215908288956E-2  -1.128422617912293E-1   1.132907494902611E-1   2.433575130999088E-2   1.130629703402519E-1   2.461105957627296E-2  -5.441281199455261E-1   7.216869592666626E-1  
 8.162162162162162E8    -4.522712528705597E-2  -1.094201803207398E-1   1.156858354806900E-1   1.886439695954323E-2   1.152962595224381E-1   1.920194923877716E-2  -5.320525169372559E-1   7.276554703712463E-1  
 8.186186186186186E8    -4.898110404610634E-2  -1.052195876836777E-1   1.178615987300873E-1   1.337288133800030E-2   1.175394728779793E-1   1.382361352443695E-2  -5.196884274482727E-1   7.338538169860840E-1  
 8.210210210210210E8    -5.282089486718178E-2  -1.013348102569580E-1   1.196388602256775E-1   7.852820679545403E-3   1.193720549345017E-1   8.188272826373577E-3  -5.057379603385925E-1   7.400652170181274E-1  
 8.234234234234234E8    -5.703039094805718E-2  -9.851424396038055E-2   1.210335716605187E-1   2.189478604122996E-3   1.208065301179886E-1   2.641572384163737E-3  -4.921006858348846E-1   7.457145452499390E-1  
