#  HZ   S   RI   R     50.00 
! Rohde & Schwarz ZVB8 2Ports - Version 2.81 - 1145.1010k08 SN: 100113
! Date: 2016-05-03 01:37:25
! Measurements: S11 S21 S12 S22 
! 
 6.000000000000000E8     4.631893038749695E-1   5.197248458862305E-1  -6.325166206806898E-3  -6.542839691974223E-4  -6.353662349283695E-3  -6.769201718270779E-4  -9.690890312194824E-1  -9.795664250850678E-2  
 6.024024024024024E8     4.714379906654358E-1   4.955180883407593E-1  -6.290505640208721E-3  -5.744859809055924E-4  -6.283377297222614E-3  -5.174028920009732E-4  -9.699739813804627E-1  -8.639658987522125E-2  
 6.048048048048048E8     4.787516295909882E-1   4.705688357353210E-1  -6.265039090067148E-3  -5.553685477934778E-4  -6.249678786844015E-3  -5.686054937541485E-4  -9.705058336257935E-1  -7.458218932151794E-2  
 6.072072072072072E8     4.850000739097595E-1   4.443190693855286E-1  -6.263064220547676E-3  -6.327996961772442E-4  -6.292567122727633E-3  -6.862863083370030E-4  -9.707601070404053E-1  -6.333204358816147E-2  
 6.096096096096096E8     4.887899160385132E-1   4.176082015037537E-1  -6.303679663687944E-3  -7.980297668837011E-4  -6.271590944379568E-3  -7.663039141334593E-4  -9.711819887161255E-1  -5.133197829127312E-2  
 6.120120120120120E8     4.887561798095703E-1   3.937566280364990E-1  -6.314119789749384E-3  -1.044956734403968E-3  -6.291017401963472E-3  -1.031456165947020E-3  -9.708727002143860E-1  -4.220677167177200E-2  
 6.144144144144144E8     4.870684742927551E-1   3.727151155471802E-1  -6.383846048265696E-3  -1.413432648405433E-3  -6.360695231705904E-3  -1.393824932165444E-3  -9.713101983070374E-1  -3.132954239845276E-2  
 6.168168168168168E8     4.849322140216827E-1   3.538463711738586E-1  -6.575928535312414E-3  -1.876282505691052E-3  -6.501885131001473E-3  -1.989251701161265E-3  -9.716967940330505E-1  -2.002217434346676E-2  
 6.192192192192192E8     4.835620522499085E-1   3.370926976203919E-1  -6.886662915349007E-3  -2.635234734043479E-3  -6.846160162240267E-3  -2.645827829837799E-3  -9.715681672096252E-1  -8.178298361599445E-3  
 6.216216216216216E8     4.835375845432282E-1   3.214132785797119E-1  -7.452275604009628E-3  -3.410659963265061E-3  -7.359274197369814E-3  -3.446096088737249E-3  -9.708582162857056E-1   4.201118834316731E-3  
 6.240240240240240E8     4.847308099269867E-1   3.068829476833344E-1  -8.506177924573422E-3  -4.247097764164209E-3  -8.420069701969624E-3  -4.303987603634596E-3  -9.697822332382202E-1   1.584609597921372E-2  
 6.264264264264264E8     4.891436994075775E-1   2.950190901756287E-1  -9.950089268386364E-3  -5.050824023783207E-3  -9.971305727958679E-3  -5.100762005895376E-3  -9.697841405868530E-1   2.872410789132118E-2  
 6.288288288288288E8     4.969947636127472E-1   2.825038135051727E-1  -1.193432323634625E-2  -5.400307476520538E-3  -1.187421288341284E-2  -5.425341427326202E-3  -9.691515564918518E-1   3.990789502859116E-2  
 6.312312312312312E8     5.084221363067627E-1   2.674953639507294E-1  -1.405204366892576E-2  -5.237472709268332E-3  -1.402286253869534E-2  -5.206704605370760E-3  -9.681560397148132E-1   5.063334479928017E-2  
 6.336336336336336E8     5.220824480056763E-1   2.477871477603912E-1  -1.628067344427109E-2  -4.452781286090612E-3  -1.619588397443295E-2  -4.486018791794777E-3  -9.669392704963684E-1   6.023571267724037E-2  
 6.360360360360360E8     5.361333489418030E-1   2.231988608837128E-1  -1.827880181372166E-2  -3.201448824256659E-3  -1.817898452281952E-2  -3.197794081643224E-3  -9.657859206199646E-1   6.933408230543137E-2  
 6.384384384384384E8     5.483039021492004E-1   1.936532557010651E-1  -1.996403560042381E-2  -1.424646005034447E-3  -1.992809213697910E-2  -1.535294693894684E-3  -9.644607305526733E-1   7.996731996536255E-2  
 6.408408408408408E8     5.574607849121094E-1   1.596562415361404E-1  -2.130775153636932E-2   4.765753692481667E-4  -2.122564241290093E-2   4.286283801775426E-4  -9.631972908973694E-1   9.104941785335541E-2  
 6.432432432432432E8     5.620171427726746E-1   1.219209730625153E-1  -2.229175716638565E-2   2.643198240548372E-3  -2.223699167370796E-2   2.451865002512932E-3  -9.619327187538147E-1   1.014491692185402E-1  
 6.456456456456456E8     5.618287920951843E-1   8.203336596488953E-2  -2.291285060346127E-2   4.725473001599312E-3  -2.275198884308338E-2   4.604493267834187E-3  -9.604073166847229E-1   1.117534488439560E-1  
 6.480480480480480E8     5.569738149642944E-1   4.244195669889450E-2  -2.322989329695702E-2   6.889129523187876E-3  -2.313218452036381E-2   6.764349061995745E-3  -9.587095379829407E-1   1.212965399026871E-1  
 6.504504504504504E8     5.479043126106262E-1   4.825607407838106E-3  -2.315164357423782E-2   9.010044857859612E-3  -2.317980304360390E-2   8.864535018801689E-3  -9.544034004211426E-1   1.316657364368439E-1  
 6.528528528528528E8     5.351767539978027E-1  -3.221779689192772E-2  -2.297332137823105E-2   1.101467944681644E-2  -2.289541065692902E-2   1.094871293753386E-2  -9.506263732910156E-1   1.441135704517365E-1  
 6.552552552552552E8     5.183140039443970E-1  -6.904201954603195E-2  -2.242642454802990E-2   1.290423702448607E-2  -2.239593118429184E-2   1.275951974093914E-2  -9.488002061843872E-1   1.561119258403778E-1  
 6.576576576576576E8     4.979368150234222E-1  -1.040058359503746E-1  -2.183551527559757E-2   1.448754966259003E-2  -2.178020961582661E-2   1.433956343680620E-2  -9.489083290100098E-1   1.664538383483887E-1  
 6.600600600600600E8     4.743065834045410E-1  -1.371690332889557E-1  -2.096294239163399E-2   1.600100845098496E-2  -2.099824137985706E-2   1.579348929226399E-2  -9.492753744125366E-1   1.748208850622177E-1  
 6.624624624624624E8     4.481381475925446E-1  -1.662884503602982E-1  -2.009402588009834E-2   1.724351570010185E-2  -2.015683241188526E-2   1.709685660898686E-2  -9.470434188842773E-1   1.862854510545731E-1  
 6.648648648648648E8     4.191467761993408E-1  -1.936433017253876E-1  -1.918686926364899E-2   1.827724650502205E-2  -1.934795081615448E-2   1.810218207538128E-2  -9.443704485893250E-1   1.971364617347717E-1  
 6.672672672672672E8     3.880547881126404E-1  -2.172494828701019E-1  -1.847488246858120E-2   1.918335631489754E-2  -1.854119636118412E-2   1.897596567869186E-2  -9.417691826820374E-1   2.077522128820419E-1  
 6.696696696696696E8     3.555423021316528E-1  -2.365930974483490E-1  -1.762072928249836E-2   1.991889253258705E-2  -1.769767329096794E-2   1.983017288148403E-2  -9.384735226631165E-1   2.180394083261490E-1  
 6.720720720720720E8     3.228789567947388E-1  -2.519268989562988E-1  -1.682971417903900E-2   2.042312361299992E-2  -1.685988716781139E-2   2.032718248665333E-2  -9.349615573883057E-1   2.283197343349457E-1  
 6.744744744744744E8     2.895683646202087E-1  -2.629385292530060E-1  -1.612195372581482E-2   2.059553936123848E-2  -1.612420380115509E-2   2.056166343390942E-2  -9.315316081047058E-1   2.396946251392365E-1  
 6.768768768768768E8     2.568301558494568E-1  -2.702171802520752E-1  -1.565271429717541E-2   2.039198577404022E-2  -1.568533852696419E-2   2.042211033403873E-2  -9.278735518455505E-1   2.506160140037537E-1  
 6.792792792792792E8     2.261948436498642E-1  -2.728590369224548E-1  -1.572106592357159E-2   1.994307711720467E-2  -1.580210775136948E-2   1.988470740616322E-2  -9.240911006927490E-1   2.615805268287659E-1  
 6.816816816816816E8     1.998319178819656E-1  -2.724552154541016E-1  -1.663699559867382E-2   1.934687234461308E-2  -1.672769896686077E-2   1.920497044920921E-2  -9.198726415634155E-1   2.727620303630829E-1  
 6.840840840840840E8     1.779053360223770E-1  -2.704181373119354E-1  -1.869383454322815E-2   1.907072588801384E-2  -1.869774796068668E-2   1.895531453192234E-2  -9.153641462326050E-1   2.840699553489685E-1  
 6.864864864864864E8     1.608125269412994E-1  -2.680913805961609E-1  -2.152674458920956E-2   1.975282840430737E-2  -2.161120250821114E-2   1.960034854710102E-2  -9.097490310668945E-1   2.942697405815125E-1  
 6.888888888888888E8     1.483005583286285E-1  -2.701462507247925E-1  -2.488973923027515E-2   2.196969650685787E-2  -2.508013322949410E-2   2.164361253380776E-2  -9.037439823150635E-1   3.048446476459503E-1  
 6.912912912912912E8     1.383047550916672E-1  -2.778266668319702E-1  -2.810832485556603E-2   2.589752152562141E-2  -2.834737114608288E-2   2.553264982998371E-2  -8.981907963752747E-1   3.150559961795807E-1  
 6.936936936936936E8     1.264188438653946E-1  -2.925661802291870E-1  -3.024327382445335E-2   3.126687929034233E-2  -3.050770983099937E-2   3.105875849723816E-2  -8.929970264434815E-1   3.247986733913422E-1  
 6.960960960960960E8     1.080028489232063E-1  -3.121131062507629E-1  -3.090753592550755E-2   3.766644001007080E-2  -3.083112835884094E-2   3.756576776504517E-2  -8.878442049026489E-1   3.348476588726044E-1  
 6.984984984984984E8     8.091389387845993E-2  -3.318099081516266E-1  -2.974372170865536E-2   4.418238252401352E-2  -2.922074124217033E-2   4.450943693518639E-2  -8.817397356033325E-1   3.483302891254425E-1  
 7.009009009009008E8     4.551822319626808E-2  -3.480641245841980E-1  -2.689493261277676E-2   5.017699673771858E-2  -2.576248720288277E-2   5.056472867727280E-2  -8.756446242332459E-1   3.608189225196838E-1  
 7.033033033033032E8     4.738750867545605E-3  -3.577390313148499E-1  -2.280848287045956E-2   5.523860827088356E-2  -2.182462252676487E-2   5.549120530486107E-2  -8.703997135162354E-1   3.706743419170380E-1  
 7.057057057057056E8    -3.863587230443955E-2  -3.606417179107666E-1  -1.813055947422981E-2   5.931169912219048E-2  -1.776914112269878E-2   5.932326987385750E-2  -8.668485879898071E-1   3.774267137050629E-1  
 7.081081081081080E8    -8.240962773561478E-2  -3.560160994529724E-1  -1.304595079272986E-2   6.261290609836578E-2  -1.342383120208979E-2   6.240753456950188E-2  -8.624623417854309E-1   3.852534294128418E-1  
 7.105105105105104E8    -1.238445788621903E-1  -3.442803323268890E-1  -7.837448269128799E-3   6.522330641746521E-2  -9.011905640363693E-3   6.500080227851868E-2  -8.580345511436462E-1   3.942106068134308E-1  
 7.129129129129129E8    -1.615001708269119E-1  -3.284614384174347E-1  -2.817934378981590E-3   6.719847023487091E-2  -4.150758963078260E-3   6.704282015562058E-2  -8.525769710540772E-1   4.047180712223053E-1  
 7.153153153153153E8    -1.941329687833786E-1  -3.104928433895111E-1   1.770866918377578E-3   6.868441402912140E-2   9.078328730538487E-4   6.857360154390335E-2  -8.459165692329407E-1   4.168662130832672E-1  
 7.177177177177178E8    -2.246065884828568E-1  -2.912476062774658E-1   6.383081898093224E-3   6.984438002109528E-2   5.927293095737696E-3   6.982399523258209E-2  -8.383182287216187E-1   4.296718537807465E-1  
 7.201201201201202E8    -2.526848018169403E-1  -2.696452140808106E-1   1.119402144104242E-2   7.084991037845612E-2   1.098646689206362E-2   7.070262730121613E-2  -8.305684328079224E-1   4.418125152587891E-1  
 7.225225225225226E8    -2.798706889152527E-1  -2.453898787498474E-1   1.637275889515877E-2   7.140244543552399E-2   1.613920554518700E-2   7.136565446853638E-2  -8.227102160453796E-1   4.546359181404114E-1  
 7.249249249249250E8    -3.045580387115479E-1  -2.187151610851288E-1   2.171548083424568E-2   7.134280353784561E-2   2.070710808038712E-2   7.138312608003616E-2  -8.152867555618286E-1   4.641450345516205E-1  
 7.273273273273274E8    -3.255425989627838E-1  -1.914930045604706E-1   2.685923874378204E-2   7.084884494543076E-2   2.533899433910847E-2   7.118406891822815E-2  -8.083204030990601E-1   4.736306071281433E-1  
 7.297297297297298E8    -3.432652652263641E-1  -1.647399365901947E-1   3.135083243250847E-2   7.016223669052124E-2   3.012957982718945E-2   7.052179425954819E-2  -8.007027506828308E-1   4.834420979022980E-1  
 7.321321321321322E8    -3.581430315971375E-1  -1.386493593454361E-1   3.544219210743904E-2   6.945474445819855E-2   3.523625060915947E-2   6.930173933506012E-2  -7.927748560905457E-1   4.942104518413544E-1  
 7.345345345345346E8    -3.713763058185577E-1  -1.113582178950310E-1   3.959044814109802E-2   6.794909387826920E-2   3.974030911922455E-2   6.779141724109650E-2  -7.843182682991028E-1   5.053645372390747E-1  
 7.369369369369370E8    -3.833954632282257E-1  -8.300623297691345E-2   4.346660152077675E-2   6.648909300565720E-2   4.379370063543320E-2   6.597673147916794E-2  -7.751969099044800E-1   5.168185830116272E-1  
 7.393393393393394E8    -3.919154703617096E-1  -5.478186905384064E-2   4.712613672018051E-2   6.495805829763413E-2   4.744658619165421E-2   6.443807482719421E-2  -7.657890915870667E-1   5.278450250625610E-1  
 7.417417417417418E8    -3.974125981330872E-1  -2.819326892495155E-2   5.083204060792923E-2   6.342981755733490E-2   5.083285644650459E-2   6.304715573787689E-2  -7.565875053405762E-1   5.375674962997437E-1  
 7.441441441441442E8    -4.005412757396698E-1  -3.020810661837459E-3   5.444354563951492E-2   6.192526966333389E-2   5.411289259791374E-2   6.182538717985153E-2  -7.476925849914551E-1   5.463535189628601E-1  
 7.465465465465466E8    -4.035543203353882E-1   2.198524214327335E-2   5.789376795291901E-2   6.055852025747299E-2   5.747801810503006E-2   6.065287068486214E-2  -7.372015118598938E-1   5.576097965240479E-1  
 7.489489489489490E8    -4.057349562644959E-1   4.649727046489716E-2   6.155230849981308E-2   5.938701704144478E-2   6.104956567287445E-2   5.980579182505608E-2  -7.280470728874207E-1   5.676755905151367E-1  
 7.513513513513514E8    -4.060740768909454E-1   7.042031735181809E-2   6.550807505846024E-2   5.815348774194717E-2   6.495395302772522E-2   5.870980769395828E-2  -7.183952331542969E-1   5.774182677268982E-1  
 7.537537537537538E8    -4.047636091709137E-1   9.396940469741821E-2   7.000636309385300E-2   5.649714544415474E-2   6.934057176113129E-2   5.739878490567207E-2  -7.078719735145569E-1   5.873826742172241E-1  
 7.561561561561562E8    -4.016762971878052E-1   1.162400171160698E-1   7.441161572933197E-2   5.483346059918404E-2   7.385135442018509E-2   5.534542724490166E-2  -6.961128711700440E-1   5.958694219589233E-1  
 7.585585585585586E8    -3.977831900119782E-1   1.393511146306992E-1   7.899069041013718E-2   5.265385657548904E-2   7.833788543939591E-2   5.292459577322006E-2  -6.820282340049744E-1   6.062881350517273E-1  
 7.609609609609610E8    -3.925906419754028E-1   1.598430275917053E-1   8.362714946269989E-2   5.033798888325691E-2   8.281521499156952E-2   5.042717978358269E-2  -6.687454581260681E-1   6.159166097640991E-1  
 7.633633633633634E8    -3.870809078216553E-1   1.785201430320740E-1   8.859157562255859E-2   4.757878929376602E-2   8.754899352788925E-2   4.778600856661797E-2  -6.558254361152649E-1   6.250274777412415E-1  
 7.657657657657658E8    -3.810019791126251E-1   1.960453987121582E-1   9.338774532079697E-2   4.435336217284203E-2   9.253067523241043E-2   4.484428092837334E-2  -6.437713503837585E-1   6.325560808181763E-1  
 7.681681681681682E8    -3.735066950321198E-1   2.122860848903656E-1   9.820559620857239E-2   4.095545038580895E-2   9.786218404769898E-2   4.156579449772835E-2  -6.332877278327942E-1   6.389837265014648E-1  
 7.705705705705706E8    -3.651332557201386E-1   2.272745072841644E-1   1.032127067446709E-1   3.682071343064308E-2   1.030472740530968E-1   3.763714060187340E-2  -6.219061017036438E-1   6.456254720687866E-1  
 7.729729729729730E8    -3.566430509090424E-1   2.402270883321762E-1   1.077596470713615E-1   3.169308230280876E-2   1.082805097103119E-1   3.291072323918343E-2  -6.098964214324951E-1   6.546659469604492E-1  
 7.753753753753754E8    -3.498560190200806E-1   2.511779963970184E-1   1.120320633053780E-1   2.601546421647072E-2   1.125805079936981E-1   2.729588560760021E-2  -5.948408246040344E-1   6.646160483360291E-1  
 7.777777777777778E8    -3.440218567848206E-1   2.611232399940491E-1   1.158406212925911E-1   2.036562375724316E-2   1.163107231259346E-1   2.124651521444321E-2  -5.778419375419617E-1   6.727876663208008E-1  
 7.801801801801802E8    -3.394518494606018E-1   2.712001502513886E-1   1.194121092557907E-1   1.464486774057150E-2   1.189564242959023E-1   1.535202469676733E-2  -5.586485266685486E-1   6.776927113533020E-1  
 7.825825825825826E8    -3.341751992702484E-1   2.830754518508911E-1   1.224593594670296E-1   8.790628053247929E-3   1.221002265810967E-1   9.244169108569622E-3  -5.397177934646606E-1   6.837316751480103E-1  
 7.849849849849850E8    -3.296702504158020E-1   2.951212227344513E-1   1.256907135248184E-1   2.426419639959931E-3   1.251628845930100E-1   3.467955393716693E-3  -5.232257246971130E-1   6.870205998420715E-1  
 7.873873873873874E8    -3.260090649127960E-1   3.075590729713440E-1   1.289036720991135E-1  -3.889932530000806E-3   1.280176341533661E-1  -2.823193091899157E-3  -5.077406167984009E-1   6.904613971710205E-1  
 7.897897897897898E8    -3.211685419082642E-1   3.210449814796448E-1   1.321142464876175E-1  -1.060032844543457E-2   1.312557309865952E-1  -9.672366082668304E-3  -4.919301569461823E-1   6.955760121345520E-1  
 7.921921921921922E8    -3.139452636241913E-1   3.348074853420258E-1   1.350928097963333E-1  -1.810930110514164E-2   1.348523497581482E-1  -1.719916239380837E-2  -4.758303463459015E-1   7.017706632614136E-1  
 7.945945945945946E8    -3.065198361873627E-1   3.483738601207733E-1   1.377048045396805E-1  -2.639544941484928E-2   1.376477181911469E-1  -2.505697496235371E-2  -4.562507271766663E-1   7.051681280136108E-1  
 7.969969969969970E8    -2.980020046234131E-1   3.599837124347687E-1   1.396290957927704E-1  -3.516946732997894E-2   1.397257745265961E-1  -3.393232077360153E-2  -4.357871711254120E-1   7.079350352287293E-1  
 7.993993993993994E8    -2.893415093421936E-1   3.702459037303925E-1   1.409158110618591E-1  -4.402891546487808E-2   1.410590112209320E-1  -4.317165911197662E-2  -4.146046936511993E-1   7.102422714233398E-1  
 8.018018018018018E8    -2.793795764446259E-1   3.795577287673950E-1   1.416503340005875E-1  -5.350162088871002E-2   1.418530344963074E-1  -5.312111601233482E-2  -3.925410509109497E-1   7.114709019660950E-1  
 8.042042042042042E8    -2.696916460990906E-1   3.881601989269257E-1   1.418309658765793E-1  -6.355453282594681E-2   1.418726444244385E-1  -6.330145895481110E-2  -3.718429505825043E-1   7.109073996543884E-1  
 8.066066066066066E8    -2.604500055313110E-1   3.963370323181152E-1   1.407062113285065E-1  -7.393007725477219E-2   1.408844739198685E-1  -7.362830638885498E-2  -3.489986360073090E-1   7.110097408294678E-1  
 8.090090090090090E8    -2.515402734279633E-1   4.034861326217651E-1   1.388583481311798E-1  -8.440648764371872E-2   1.390859335660934E-1  -8.399702608585358E-2  -3.254145979881287E-1   7.089458703994751E-1  
 8.114114114114114E8    -2.436584383249283E-1   4.095025658607483E-1   1.364566832780838E-1  -9.497241675853729E-2   1.366248428821564E-1  -9.445488452911377E-2  -3.022607564926148E-1   7.047189474105835E-1  
 8.138138138138138E8    -2.367558330297470E-1   4.154778420925140E-1   1.332900375127792E-1  -1.058040782809258E-1   1.336286216974258E-1  -1.050939261913300E-1  -2.793452143669128E-1   6.987635493278503E-1  
 8.162162162162162E8    -2.305717170238495E-1   4.207404255867004E-1   1.291787475347519E-1  -1.170674115419388E-1   1.295125633478165E-1  -1.162596270442009E-1  -2.565147876739502E-1   6.910232901573181E-1  
 8.186186186186186E8    -2.257395386695862E-1   4.263424277305603E-1   1.234215721487999E-1  -1.279678940773010E-1   1.237116605043411E-1  -1.270892471075058E-1  -2.339584231376648E-1   6.824984550476074E-1  
 8.210210210210210E8    -2.216224521398544E-1   4.312319159507752E-1   1.166147217154503E-1  -1.382627636194229E-1   1.168241351842880E-1  -1.375996172428131E-1  -2.106216847896576E-1   6.719387769699097E-1  
 8.234234234234234E8    -2.177838087081909E-1   4.370363950729370E-1   1.084139049053192E-1  -1.480740457773209E-1   1.086314767599106E-1  -1.474519371986389E-1  -1.882174015045166E-1   6.604571342468262E-1  
