#  HZ   S   RI   R     50.00 
! Rohde & Schwarz ZVB8 2Ports - Version 2.81 - 1145.1010k08 SN: 100113
! Date: 2016-05-03 01:37:55
! Measurements: S11 S21 S12 S22 
! 
 6.000000000000000E8     4.999100863933563E-1   2.376283407211304E-1  -8.851519785821438E-3   1.512621063739061E-3  -8.801707997918129E-3   1.479552476666868E-3  -9.681516885757446E-1  -8.074539154767990E-2  
 6.024024024024024E8     4.935244321823120E-1   2.056952565908432E-1  -8.776433765888214E-3   1.609278493560851E-3  -8.743536658585072E-3   1.589522813446820E-3  -9.686364531517029E-1  -6.872866302728653E-2  
 6.048048048048048E8     4.847054779529572E-1   1.733854562044144E-1  -8.685044944286346E-3   1.593375811353326E-3  -8.690500631928444E-3   1.610113075003028E-3  -9.691640734672546E-1  -5.648041889071465E-2  
 6.072072072072072E8     4.729648828506470E-1   1.415928751230240E-1  -8.664956316351891E-3   1.518469885922968E-3  -8.748034015297890E-3   1.520008780062199E-3  -9.691712856292725E-1  -4.465617612004280E-2  
 6.096096096096096E8     4.581128060817719E-1   1.117489859461784E-1  -8.773786947131157E-3   1.377991517074406E-3  -8.771479129791260E-3   1.378125278279185E-3  -9.688276052474976E-1  -3.190099075436592E-2  
 6.120120120120120E8     4.411719441413879E-1   8.742275089025497E-2  -8.900066837668419E-3   1.126821851357818E-3  -8.797791786491871E-3   1.055955654010177E-3  -9.683099389076233E-1  -2.200762555003166E-2  
 6.144144144144144E8     4.241757392883301E-1   6.727558374404907E-2  -9.082295000553131E-3   7.104550604708493E-4  -9.016276337206364E-3   6.275427294895053E-4  -9.686620235443115E-1  -1.015658769756556E-2  
 6.168168168168168E8     4.075222611427307E-1   4.951884970068932E-2  -9.505669586360455E-3   3.022474447789136E-5  -9.467561729252338E-3   9.152794518740848E-6  -9.683591723442078E-1   1.633823616430163E-3  
 6.192192192192192E8     3.926939666271210E-1   3.522379323840141E-2  -1.018808875232935E-2  -7.057515904307365E-4  -1.023940555751324E-2  -7.805292843841016E-4  -9.678466320037842E-1   1.428702473640442E-2  
 6.216216216216216E8     3.804993927478790E-1   2.231113612651825E-2  -1.144404802471399E-2  -1.507832086645067E-3  -1.144047453999519E-2  -1.561806770041585E-3  -9.666529893875122E-1   2.736873924732208E-2  
 6.240240240240240E8     3.706236779689789E-1   1.031560171395540E-2  -1.320997811853886E-2  -2.128021093085408E-3  -1.322963088750839E-2  -2.252899575978518E-3  -9.651407003402710E-1   4.027505591511726E-2  
 6.264264264264264E8     3.662142753601074E-1  -2.204269840149209E-4  -1.566457934677601E-2  -2.384874736890197E-3  -1.562244351953268E-2  -2.469621133059263E-3  -9.641074538230896E-1   5.381120741367340E-2  
 6.288288288288288E8     3.658347129821777E-1  -1.452934183180332E-2  -1.841935142874718E-2  -1.889739185571671E-3  -1.838222518563271E-2  -1.987179275602102E-3  -9.630271196365356E-1   6.573323160409927E-2  
 6.312312312312312E8     3.681576251983643E-1  -3.333508595824242E-2  -2.138796634972096E-2  -5.329025443643332E-4  -2.126452513039112E-2  -7.233608630485833E-4  -9.613294005393982E-1   7.717562466859818E-2  
 6.336336336336336E8     3.709486126899719E-1  -5.902311205863953E-2  -2.400817535817623E-2   1.592448214069009E-3  -2.397728338837624E-2   1.483618165366352E-3  -9.594860076904297E-1   8.751073479652405E-2  
 6.360360360360360E8     3.702089488506317E-1  -9.149371832609177E-2  -2.616704814136028E-2   4.471291787922382E-3  -2.608946710824966E-2   4.413420334458351E-3  -9.574667811393738E-1   9.713019430637360E-2  
 6.384384384384384E8     3.627658188343048E-1  -1.284949034452438E-1  -2.762632258236408E-2   7.895781658589840E-3  -2.753988839685917E-2   7.840186357498169E-3  -9.555808305740356E-1   1.087336540222168E-1  
 6.408408408408408E8     3.474149107933044E-1  -1.685401201248169E-1  -2.829318679869175E-2   1.163891144096851E-2  -2.824361808598042E-2   1.140663214027882E-2  -9.534261226654053E-1   1.204586625099182E-1  
 6.432432432432432E8     3.241091668605804E-1  -2.084884792566299E-1  -2.819280512630940E-2   1.512027438730001E-2  -2.822271175682545E-2   1.493555493652821E-2  -9.515309333801270E-1   1.317052692174912E-1  
 6.456456456456456E8     2.919833064079285E-1  -2.464888989925385E-1  -2.763951197266579E-2   1.853841543197632E-2  -2.765943668782711E-2   1.826153695583344E-2  -9.490675330162048E-1   1.426459550857544E-1  
 6.480480480480480E8     2.567276954650879E-1  -2.782423198223114E-1  -2.664970606565476E-2   2.165278792381287E-2  -2.662248164415360E-2   2.142983861267567E-2  -9.468851685523987E-1   1.531992852687836E-1  
 6.504504504504504E8     2.176005840301514E-1  -3.031572103500366E-1  -2.520665898919106E-2   2.454878203570843E-2  -2.522126212716103E-2   2.429643459618092E-2  -9.417306780815125E-1   1.646538674831390E-1  
 6.528528528528528E8     1.767125725746155E-1  -3.233811557292938E-1  -2.341159805655479E-2   2.707254514098167E-2  -2.345198579132557E-2   2.692510001361370E-2  -9.372170567512512E-1   1.776874810457230E-1  
 6.552552552552552E8     1.323901861906052E-1  -3.392772078514099E-1  -2.143755741417408E-2   2.920680865645409E-2  -2.149059623479843E-2   2.907393686473370E-2  -9.344078302383423E-1   1.910594552755356E-1  
 6.576576576576576E8     8.813164383172989E-2  -3.500940501689911E-1  -1.942262612283230E-2   3.095152229070664E-2  -1.940744370222092E-2   3.082757629454136E-2  -9.334803223609924E-1   2.026973068714142E-1  
 6.600600600600600E8     4.326959699392319E-2  -3.560173809528351E-1  -1.713934168219566E-2   3.230358287692070E-2  -1.727193221449852E-2   3.216526657342911E-2  -9.329438209533691E-1   2.121677100658417E-1  
 6.624624624624624E8    -5.839049699716270E-4  -3.561429381370544E-1  -1.504466217011213E-2   3.342615440487862E-2  -1.522694062441587E-2   3.320058807730675E-2  -9.291982054710388E-1   2.249238342046738E-1  
 6.648648648648648E8    -4.580991715192795E-2  -3.522760868072510E-1  -1.305666938424110E-2   3.406025469303131E-2  -1.331224758177996E-2   3.384643793106079E-2  -9.252095818519592E-1   2.371412813663483E-1  
 6.672672672672672E8    -8.578831702470779E-2  -3.438445329666138E-1  -1.131613831967115E-2   3.458624705672264E-2  -1.147518400102854E-2   3.442373126745224E-2  -9.208675026893616E-1   2.491870969533920E-1  
 6.696696696696696E8    -1.220797300338745E-1  -3.321656286716461E-1  -9.600347839295864E-3   3.470561653375626E-2  -9.733106940984726E-3   3.463894501328468E-2  -9.161735773086548E-1   2.609907686710358E-1  
 6.720720720720720E8    -1.556852757930756E-1  -3.182270824909210E-1  -8.218176662921906E-3   3.456077724695206E-2  -8.235396817326546E-3   3.455762192606926E-2  -9.111939072608948E-1   2.724188268184662E-1  
 6.744744744744744E8    -1.887282282114029E-1  -3.001353144645691E-1  -7.115051615983248E-3   3.415609896183014E-2  -7.226966321468353E-3   3.410494327545166E-2  -9.057347774505615E-1   2.852874994277954E-1  
 6.768768768768768E8    -2.180359065532684E-1  -2.799540460109711E-1  -6.695208605378866E-3   3.343164920806885E-2  -6.750071421265602E-3   3.339026495814323E-2  -9.000395536422730E-1   2.979186475276947E-1  
 6.792792792792792E8    -2.426712363958359E-1  -2.583439350128174E-1  -7.145911455154419E-3   3.271973505616188E-2  -7.352316752076149E-3   3.261910378932953E-2  -8.937970995903015E-1   3.104135692119598E-1  
 6.816816816816816E8    -2.627495825290680E-1  -2.365937530994415E-1  -8.781851269304752E-3   3.242963552474976E-2  -8.916852995753288E-3   3.232886269688606E-2  -8.869872689247131E-1   3.229293823242188E-1  
 6.840840840840840E8    -2.768223583698273E-1  -2.170625925064087E-1  -1.150304358452559E-2   3.330096974968910E-2  -1.165038626641035E-2   3.313524276018143E-2  -8.795758485794067E-1   3.356205224990845E-1  
 6.864864864864864E8    -2.862932384014130E-1  -2.008993774652481E-1  -1.472503505647183E-2   3.594742715358734E-2  -1.492897514253855E-2   3.573345765471458E-2  -8.709666728973389E-1   3.468621969223023E-1  
 6.888888888888888E8    -2.953821420669556E-1  -1.903520822525024E-1  -1.765044778585434E-2   4.086030647158623E-2  -1.788472756743431E-2   4.055948555469513E-2  -8.616930246353149E-1   3.581546247005463E-1  
 6.912912912912912E8    -3.077036440372467E-1  -1.845252811908722E-1  -1.919689960777760E-2   4.783299565315247E-2  -1.957123167812824E-2   4.754721373319626E-2  -8.528752326965332E-1   3.689895570278168E-1  
 6.936936936936936E8    -3.260237276554108E-1  -1.819704174995422E-1  -1.825502514839172E-2   5.629716441035271E-2  -1.864165253937244E-2   5.613995343446732E-2  -8.446291089057922E-1   3.792324364185333E-1  
 6.960960960960960E8    -3.506248295307159E-1  -1.785762161016464E-1  -1.445252634584904E-2   6.477717310190201E-2  -1.457068137824535E-2   6.468323618173599E-2  -8.368217349052429E-1   3.894130885601044E-1  
 6.984984984984984E8    -3.818164169788361E-1  -1.692178547382355E-1  -8.157009258866310E-3   7.192022353410721E-2  -7.488307077437639E-3   7.196269184350967E-2  -8.277720212936401E-1   4.034520387649536E-1  
 7.009009009009008E8    -4.147354066371918E-1  -1.524125486612320E-1  -3.312101762276143E-4   7.709279656410217E-2   9.198003681376576E-4   7.687097787857056E-2  -8.191876411437988E-1   4.164964556694031E-1  
 7.033033033033032E8    -4.455675780773163E-1  -1.281734257936478E-1   8.111752569675446E-3   8.022611588239670E-2   9.221754036843777E-3   7.982733845710754E-2  -8.113524317741394E-1   4.273891746997833E-1  
 7.057057057057056E8    -4.725883305072784E-1  -9.875520318746567E-2   1.653189025819302E-2   8.174538612365723E-2   1.689763367176056E-2   8.149864524602890E-2  -8.045659065246582E-1   4.358262717723846E-1  
 7.081081081081080E8    -4.941249787807465E-1  -6.507859379053116E-2   2.481937035918236E-2   8.203075081110001E-2   2.425789833068848E-2   8.212536573410034E-2  -7.970065474510193E-1   4.452199339866638E-1  
 7.105105105105104E8    -5.097796916961670E-1  -2.882910519838333E-2   3.275497257709503E-2   8.141245692968369E-2   3.135250136256218E-2   8.196352422237396E-2  -7.887491583824158E-1   4.561420679092407E-1  
 7.129129129129129E8    -5.201114416122437E-1   5.029839463531971E-3   3.981328383088112E-2   8.025950193405151E-2   3.844952955842018E-2   8.087796717882156E-2  -7.789762020111084E-1   4.682911336421967E-1  
 7.153153153153153E8    -5.269430279731751E-1   3.689893707633019E-2   4.623659700155258E-2   7.879263907670975E-2   4.534965008497238E-2   7.926845550537109E-2  -7.672934532165527E-1   4.819218814373016E-1  
 7.177177177177178E8    -5.323652625083923E-1   6.930135190486908E-2   5.250139534473419E-2   7.722528278827667E-2   5.224395915865898E-2   7.728712260723114E-2  -7.543864250183106E-1   4.962639510631561E-1  
 7.201201201201202E8    -5.352278351783752E-1   1.027669906616211E-1   5.882785469293594E-2   7.496360689401627E-2   5.852809175848961E-2   7.508847117424011E-2  -7.409009933471680E-1   5.096272826194763E-1  
 7.225225225225226E8    -5.356553792953491E-1   1.352717578411102E-1   6.501047313213348E-2   7.239524275064468E-2   6.481039524078369E-2   7.259516417980194E-2  -7.268106937408447E-1   5.231924057006836E-1  
 7.249249249249250E8    -5.333307981491089E-1   1.672306209802628E-1   7.155971229076386E-2   6.900773197412491E-2   7.041046768426895E-2   6.996638327836990E-2  -7.133974432945252E-1   5.336751341819763E-1  
 7.273273273273274E8    -5.289287567138672E-1   1.965932399034500E-1   7.761941850185394E-2   6.535071879625320E-2   7.595545798540115E-2   6.690494716167450E-2  -6.995355486869812E-1   5.439755320549011E-1  
 7.297297297297298E8    -5.234240889549255E-1   2.231953740119934E-1   8.308927714824677E-2   6.181656196713448E-2   8.175748586654663E-2   6.312930583953857E-2  -6.848540306091309E-1   5.542947053909302E-1  
 7.321321321321322E8    -5.172765851020813E-1   2.464787513017654E-1   8.796238899230957E-2   5.838937312364578E-2   8.746637403964996E-2   5.840209871530533E-2  -6.693125963211060E-1   5.649664402008057E-1  
 7.345345345345346E8    -5.099623203277588E-1   2.705552875995636E-1   9.254849702119827E-2   5.424816906452179E-2   9.243909269571304E-2   5.376400426030159E-2  -6.524146795272827E-1   5.765283703804016E-1  
 7.369369369369370E8    -5.016167163848877E-1   2.939939796924591E-1   9.697452187538147E-2   5.000944435596466E-2   9.700857847929001E-2   4.913345351815224E-2  -6.343340873718262E-1   5.878087282180786E-1  
 7.393393393393394E8    -4.918173253536224E-1   3.167256414890289E-1   1.015010029077530E-1   4.573434591293335E-2   1.014967858791351E-1   4.471295699477196E-2  -6.151959300041199E-1   5.982226133346558E-1  
 7.417417417417418E8    -4.807933568954468E-1   3.373392522335053E-1   1.063770949840546E-1   4.113122820854187E-2   1.061162650585175E-1   4.046040028333664E-2  -5.955941081047058E-1   6.072657108306885E-1  
 7.441441441441442E8    -4.687232971191406E-1   3.570227026939392E-1   1.111560091376305E-1   3.583583235740662E-2   1.106965467333794E-1   3.622350469231606E-2  -5.753633379936218E-1   6.144481301307678E-1  
 7.465465465465466E8    -4.581128656864166E-1   3.749728500843048E-1   1.157456263899803E-1   3.083293512463570E-2   1.153665408492088E-1   3.146931156516075E-2  -5.523006916046143E-1   6.232607364654541E-1  
 7.489489489489490E8    -4.474309682846069E-1   3.918098509311676E-1   1.204841509461403E-1   2.563858404755592E-2   1.203368976712227E-1   2.669517695903778E-2  -5.300841927528381E-1   6.301633119583130E-1  
 7.513513513513514E8    -4.355893433094025E-1   4.084933996200562E-1   1.255732327699661E-1   1.986400596797466E-2   1.256076395511627E-1   2.103373967111111E-2  -5.066398382186890E-1   6.356602907180786E-1  
 7.537537537537538E8    -4.214786589145660E-1   4.247055649757385E-1   1.310854852199554E-1   1.296238321810961E-2   1.314032524824143E-1   1.449084840714932E-2  -4.810355603694916E-1   6.401557326316834E-1  
 7.561561561561562E8    -4.067855179309845E-1   4.383706450462341E-1   1.367685645818710E-1   5.199377425014973E-3   1.367778033018112E-1   6.270152982324362E-3  -4.540205597877502E-1   6.413231492042542E-1  
 7.585585585585586E8    -3.926949799060822E-1   4.510171413421631E-1   1.415966600179672E-1  -3.448088653385639E-3   1.412595808506012E-1  -2.900734776630998E-3  -4.236834645271301E-1   6.426819562911987E-1  
 7.609609609609610E8    -3.798492252826691E-1   4.607192873954773E-1   1.461900770664215E-1  -1.294680219143629E-2   1.453740596771240E-1  -1.237736735492945E-2  -3.936703801155090E-1   6.415495276451111E-1  
 7.633633633633634E8    -3.683953881263733E-1   4.695749878883362E-1   1.502841711044312E-1  -2.357649803161621E-2   1.491844207048416E-1  -2.255641855299473E-2  -3.645969033241272E-1   6.373324394226074E-1  
 7.657657657657658E8    -3.577878773212433E-1   4.782740771770477E-1   1.534706056118012E-1  -3.495964407920837E-2   1.527723819017410E-1  -3.354366496205330E-2  -3.361747562885284E-1   6.303473114967346E-1  
 7.681681681681682E8    -3.474903702735901E-1   4.866934120655060E-1   1.558591872453690E-1  -4.698240756988525E-2   1.558724939823151E-1  -4.580081254243851E-2  -3.089994788169861E-1   6.203248500823975E-1  
 7.705705705705706E8    -3.380351662635803E-1   4.951488971710205E-1   1.570359319448471E-1  -6.007320433855057E-2   1.576572954654694E-1  -5.863095447421074E-2  -2.810425460338593E-1   6.084511280059815E-1  
 7.729729729729730E8    -3.283775448799133E-1   5.025777816772461E-1   1.564589738845825E-1  -7.437846064567566E-2   1.580703705549240E-1  -7.287266105413437E-2  -2.517734467983246E-1   5.963152050971985E-1  
 7.753753753753754E8    -3.196366429328919E-1   5.093259215354919E-1   1.543131321668625E-1  -8.874789625406265E-2   1.565030515193939E-1  -8.771544694900513E-2  -2.201812416315079E-1   5.812465548515320E-1  
 7.777777777777778E8    -3.120784461498261E-1   5.155774354934692E-1   1.506882607936859E-1  -1.030790060758591E-1   1.523941755294800E-1  -1.021573692560196E-1  -1.879215240478516E-1   5.603460669517517E-1  
 7.801801801801802E8    -3.056169748306274E-1   5.222691297531128E-1   1.461188197135925E-1  -1.172798052430153E-1   1.466729491949081E-1  -1.161249279975891E-1  -1.559090316295624E-1   5.327527523040772E-1  
 7.825825825825826E8    -2.978930473327637E-1   5.302760601043701E-1   1.395628601312637E-1  -1.313685923814774E-1   1.398825794458389E-1  -1.309312283992767E-1  -1.266848444938660E-1   5.015571713447571E-1  
 7.849849849849850E8    -2.919654250144959E-1   5.387225151062012E-1   1.312758326530457E-1  -1.458986103534699E-1   1.318837851285934E-1  -1.449761092662811E-1  -1.033821552991867E-1   4.664593636989594E-1  
 7.873873873873874E8    -2.868264019489288E-1   5.491512417793274E-1   1.212659329175949E-1  -1.595325320959091E-1   1.218543648719788E-1  -1.581253856420517E-1  -8.381593972444534E-2   4.302552342414856E-1  
 7.897897897897898E8    -2.800205647945404E-1   5.610467791557312E-1   1.099984273314476E-1  -1.724771857261658E-1   1.103049293160439E-1  -1.712083965539932E-1  -6.642759591341019E-2   3.909116983413696E-1  
 7.921921921921922E8    -2.703210413455963E-1   5.733998417854309E-1   9.664898365736008E-2  -1.845616102218628E-1   9.710130840539932E-2  -1.839979439973831E-1  -5.311042442917824E-2   3.486870825290680E-1  
 7.945945945945946E8    -2.614028453826904E-1   5.859414935112000E-1   8.169262856245041E-2  -1.956005543470383E-1   8.267361670732498E-2  -1.945763677358627E-1  -4.518647491931915E-2   3.020178973674774E-1  
 7.969969969969970E8    -2.520757019519806E-1   5.970638394355774E-1   6.486520916223526E-2  -2.048972398042679E-1   6.603185087442398E-2  -2.040486037731171E-1  -4.438091069459915E-2   2.535429298877716E-1  
 7.993993993993994E8    -2.420060336589813E-1   6.081458330154419E-1   4.656833782792091E-2  -2.121675610542297E-1   4.832690209150314E-2  -2.115283906459808E-1  -5.024032667279244E-2   2.071030735969544E-1  
 8.018018018018018E8    -2.307401001453400E-1   6.185958385467529E-1   2.737081237137318E-2  -2.174268215894699E-1   2.876421064138413E-2  -2.171432673931122E-1  -6.252484023571014E-2   1.605412214994431E-1  
 8.042042042042042E8    -2.179192900657654E-1   6.302636265754700E-1   6.799293681979179E-3  -2.205695658922195E-1   8.043700829148293E-3  -2.203138172626495E-1  -8.174944669008255E-2   1.158200651407242E-1  
 8.066066066066066E8    -2.044689953327179E-1   6.415654420852661E-1  -1.464754343032837E-2  -2.202208489179611E-1  -1.329919323325157E-2  -2.202931046485901E-1  -1.062376126646996E-1   7.509559392929077E-2  
 8.090090090090090E8    -1.909815818071365E-1   6.509194374084473E-1  -3.555244207382202E-2  -2.170632779598236E-1  -3.447841852903366E-2  -2.172024846076965E-1  -1.361309885978699E-1   3.851949796080589E-2  
 8.114114114114114E8    -1.773609668016434E-1   6.595867872238159E-1  -5.542252212762833E-2  -2.109376788139343E-1  -5.463405326008797E-2  -2.109859436750412E-1  -1.705824732780457E-1   7.273674942553043E-3  
 8.138138138138138E8    -1.635880470275879E-1   6.678892374038696E-1  -7.370129227638245E-2  -2.022932171821594E-1  -7.321662455797195E-2  -2.021211385726929E-1  -2.077364623546600E-1  -1.810499280691147E-2  
 8.162162162162162E8    -1.491414457559586E-1   6.765275597572327E-1  -9.005614370107651E-2  -1.913417428731918E-1  -8.959529548883438E-2  -1.911933273077011E-1  -2.462039887905121E-1  -3.747454285621643E-2  
 8.186186186186186E8    -1.353347003459930E-1   6.839574575424194E-1  -1.040029525756836E-1  -1.793220639228821E-1  -1.036915332078934E-1  -1.787515580654144E-1  -2.846628427505493E-1  -5.120991915464401E-2  
 8.210210210210210E8    -1.203546598553658E-1   6.903957128524780E-1  -1.163710951805115E-1  -1.658200621604919E-1  -1.157181784510613E-1  -1.656447350978851E-1  -3.221526443958283E-1  -5.996324494481087E-2  
 8.234234234234234E8    -1.054047271609306E-1   6.962745785713196E-1  -1.265618354082108E-1  -1.512546390295029E-1  -1.257891058921814E-1  -1.515386998653412E-1  -3.589119911193848E-1  -6.462778151035309E-2  
