#  HZ   S   RI   R     50.00 
! Rohde & Schwarz ZVB8 2Ports - Version 2.81 - 1145.1010k08 SN: 100113
! Date: 2016-05-03 01:37:18
! Measurements: S11 S21 S12 S22 
! 
 6.000000000000000E8     4.263244569301605E-1   6.067335009574890E-1  -5.356638692319393E-3  -1.145419548265636E-3  -5.409200675785542E-3  -1.124096335843206E-3  -9.689750671386719E-1  -1.018957570195198E-1  
 6.024024024024024E8     4.381589889526367E-1   5.858854055404663E-1  -5.377674009650946E-3  -1.129198237322271E-3  -5.377699155360460E-3  -1.075468957424164E-3  -9.697944521903992E-1  -9.044690430164337E-2  
 6.048048048048048E8     4.493989348411560E-1   5.635437369346619E-1  -5.326916463673115E-3  -1.148251583799720E-3  -5.359893664717674E-3  -1.189846196211875E-3  -9.704545140266419E-1  -7.873047143220902E-2  
 6.072072072072072E8     4.597581028938294E-1   5.400988459587097E-1  -5.372024606913328E-3  -1.275495509617031E-3  -5.337154958397150E-3  -1.267189974896610E-3  -9.712381362915039E-1  -6.740465760231018E-2  
 6.096096096096096E8     4.682800769805908E-1   5.155039429664612E-1  -5.378119181841612E-3  -1.418604864738882E-3  -5.388541612774134E-3  -1.440856140106916E-3  -9.713403582572937E-1  -5.607534572482109E-2  
 6.120120120120120E8     4.727537930011749E-1   4.932590425014496E-1  -5.382544826716185E-3  -1.687037292867899E-3  -5.358229856938124E-3  -1.691146870143712E-3  -9.712191224098206E-1  -4.677761718630791E-2  
 6.144144144144144E8     4.752896428108215E-1   4.728690385818481E-1  -5.365072749555111E-3  -2.006798749789596E-3  -5.432407371699810E-3  -2.105937572196126E-3  -9.717484116554260E-1  -3.588255867362022E-2  
 6.168168168168168E8     4.765527844429016E-1   4.535844624042511E-1  -5.497630219906569E-3  -2.572302706539631E-3  -5.505820270627737E-3  -2.586900489404798E-3  -9.721693396568298E-1  -2.465809322893620E-2  
 6.192192192192192E8     4.772167503833771E-1   4.369975328445435E-1  -5.839196499437094E-3  -3.281645476818085E-3  -5.828489083796740E-3  -3.293626708909869E-3  -9.721660614013672E-1  -1.338128186762333E-2  
 6.216216216216216E8     4.784864485263825E-1   4.219289124011993E-1  -6.283903028815985E-3  -4.095150157809258E-3  -6.315194536000490E-3  -4.220224451273680E-3  -9.714664816856384E-1  -1.050299615599215E-3  
 6.240240240240240E8     4.809016585350037E-1   4.093243181705475E-1  -7.215043529868126E-3  -4.946006927639246E-3  -7.253043353557587E-3  -4.997435025870800E-3  -9.706432819366455E-1   1.109300553798676E-2  
 6.264264264264264E8     4.860174357891083E-1   4.000285863876343E-1  -8.630963042378426E-3  -5.753188394010067E-3  -8.579553104937077E-3  -5.758610088378191E-3  -9.703871011734009E-1   2.394373156130314E-2  
 6.288288288288288E8     4.949229657649994E-1   3.907300233840942E-1  -1.029900554567576E-2  -6.189074832946062E-3  -1.027202326804400E-2  -6.183357909321785E-3  -9.700794219970703E-1   3.484039381146431E-2  
 6.312312312312312E8     5.076772570610046E-1   3.797908127307892E-1  -1.232045236974955E-2  -6.195597816258669E-3  -1.231791079044342E-2  -6.209624931216240E-3  -9.690352678298950E-1   4.520681872963905E-2  
 6.336336336336336E8     5.237389206886292E-1   3.651318848133087E-1  -1.440785080194473E-2  -5.658178124576807E-3  -1.432881690561771E-2  -5.617944989353418E-3  -9.681285023689270E-1   5.468641966581345E-2  
 6.360360360360360E8     5.412979125976563E-1   3.455082774162293E-1  -1.629932224750519E-2  -4.610548261553049E-3  -1.620591059327126E-2  -4.675583448261023E-3  -9.670549631118774E-1   6.342902034521103E-2  
 6.384384384384384E8     5.580837130546570E-1   3.222151696681976E-1  -1.785364560782909E-2  -3.209860529750586E-3  -1.776876486837864E-2  -3.330645151436329E-3  -9.660574197769165E-1   7.429885864257813E-2  
 6.408408408408408E8     5.730487108230591E-1   2.939929366111755E-1  -1.920578815042973E-2  -1.629515085369349E-3  -1.903249882161617E-2  -1.689017633907497E-3  -9.650126695632935E-1   8.495119959115982E-2  
 6.432432432432432E8     5.852674841880798E-1   2.618934810161591E-1  -2.010132186114788E-2   1.391059049637988E-4  -2.000157907605171E-2  -3.832938091363758E-6  -9.637777209281921E-1   9.558057039976120E-2  
 6.456456456456456E8     5.939257144927979E-1   2.271051406860352E-1  -2.079925686120987E-2   1.867526560090482E-3  -2.077478170394898E-2   1.729603274725378E-3  -9.620163440704346E-1   1.054001003503799E-1  
 6.480480480480480E8     5.988560318946838E-1   1.912122070789337E-1  -2.123927697539330E-2   3.534698858857155E-3  -2.121541276574135E-2   3.468279959633946E-3  -9.607619643211365E-1   1.148128062486649E-1  
 6.504504504504504E8     5.998433232307434E-1   1.559168994426727E-1  -2.161838486790657E-2   5.272549111396074E-3  -2.151985466480255E-2   5.195956211537123E-3  -9.565993547439575E-1   1.252088844776154E-1  
 6.528528528528528E8     5.973836779594421E-1   1.199019849300385E-1  -2.169837243855000E-2   6.995829287916422E-3  -2.160246297717094E-2   6.929948925971985E-3  -9.531925320625305E-1   1.371117830276489E-1  
 6.552552552552552E8     5.913037657737732E-1   8.392442017793655E-2  -2.157484926283360E-2   8.604438975453377E-3  -2.156136184930801E-2   8.573841303586960E-3  -9.512180089950562E-1   1.492954194545746E-1  
 6.576576576576576E8     5.820352435112000E-1   4.845955222845078E-2  -2.134120278060436E-2   1.022551581263542E-2  -2.135992050170898E-2   1.012049987912178E-2  -9.516957402229309E-1   1.595080047845841E-1  
 6.600600600600600E8     5.698928833007813E-1   1.375208422541618E-2  -2.084531262516975E-2   1.170958671718836E-2  -2.090964280068874E-2   1.161099504679442E-2  -9.520673751831055E-1   1.676241457462311E-1  
 6.624624624624624E8     5.553171038627625E-1  -1.807828061282635E-2  -2.027529850602150E-2   1.306961383670569E-2  -2.023849077522755E-2   1.280600391328335E-2  -9.498968124389648E-1   1.786254048347473E-1  
 6.648648648648648E8     5.378872156143189E-1  -4.956433549523354E-2  -1.958890818059444E-2   1.412128005176783E-2  -1.966487430036068E-2   1.390174310654402E-2  -9.474239349365234E-1   1.894730031490326E-1  
 6.672672672672672E8     5.174319148063660E-1  -7.900940626859665E-2  -1.894079893827438E-2   1.502527482807636E-2  -1.901897042989731E-2   1.486884150654078E-2  -9.449580311775208E-1   1.999197453260422E-1  
 6.696696696696696E8     4.951184689998627E-1  -1.049819439649582E-1  -1.832904852926731E-2   1.577960327267647E-2  -1.836316287517548E-2   1.559832133352757E-2  -9.419308304786682E-1   2.098965048789978E-1  
 6.720720720720720E8     4.718050062656403E-1  -1.286470890045166E-1  -1.768629811704159E-2   1.630727574229240E-2  -1.763050444424152E-2   1.621191389858723E-2  -9.388077259063721E-1   2.197836190462112E-1  
 6.744744744744744E8     4.478397071361542E-1  -1.479884684085846E-1  -1.702871546149254E-2   1.644962839782238E-2  -1.694547198712826E-2   1.645772345364094E-2  -9.356474280357361E-1   2.308478504419327E-1  
 6.768768768768768E8     4.226237237453461E-1  -1.649719923734665E-1  -1.654957234859467E-2   1.642427407205105E-2  -1.651023142039776E-2   1.636595837771893E-2  -9.322126507759094E-1   2.418024539947510E-1  
 6.792792792792792E8     3.971903324127197E-1  -1.777895838022232E-1  -1.654293388128281E-2   1.596967875957489E-2  -1.654018089175224E-2   1.590131036937237E-2  -9.286474585533142E-1   2.523880302906036E-1  
 6.816816816816816E8     3.739000558853149E-1  -1.871390193700790E-1  -1.718874089419842E-2   1.526718121021986E-2  -1.723102107644081E-2   1.506700925529003E-2  -9.248483180999756E-1   2.633191347122192E-1  
 6.840840840840840E8     3.543140292167664E-1  -1.935550123453140E-1  -1.882594451308250E-2   1.465078815817833E-2  -1.884927228093147E-2   1.454613916575909E-2  -9.207177162170410E-1   2.742635607719421E-1  
 6.864864864864864E8     3.391130566596985E-1  -1.984035968780518E-1  -2.146480232477188E-2   1.471360120922327E-2  -2.152943611145020E-2   1.457044575363398E-2  -9.156329631805420E-1   2.841919362545013E-1  
 6.888888888888888E8     3.284407854080200E-1  -2.059108316898346E-1  -2.468685247004032E-2   1.591163314878941E-2  -2.486342936754227E-2   1.566428691148758E-2  -9.102923870086670E-1   2.944299280643463E-1  
 6.912912912912912E8     3.210079073905945E-1  -2.177274376153946E-1  -2.825938165187836E-2   1.873954385519028E-2  -2.838275209069252E-2   1.845002360641956E-2  -9.049273729324341E-1   3.045450747013092E-1  
 6.936936936936936E8     3.136425316333771E-1  -2.360609322786331E-1  -3.113689459860325E-2   2.308377623558044E-2  -3.126541525125504E-2   2.288836985826492E-2  -9.001255631446838E-1   3.144645988941193E-1  
 6.960960960960960E8     3.024177551269531E-1  -2.606095075607300E-1  -3.281251341104507E-2   2.857034467160702E-2  -3.289890289306641E-2   2.838156558573246E-2  -8.957305550575256E-1   3.242861926555634E-1  
 6.984984984984984E8     2.846312522888184E-1  -2.881496548652649E-1  -3.293924778699875E-2   3.443431109189987E-2  -3.256932646036148E-2   3.475170955061913E-2  -8.900166153907776E-1   3.379780650138855E-1  
 7.009009009009008E8     2.572169005870819E-1  -3.153955936431885E-1  -3.164010122418404E-2   4.022315889596939E-2  -3.082897141575813E-2   4.078856855630875E-2  -8.843900561332703E-1   3.503215909004211E-1  
 7.033033033033032E8     2.234004139900208E-1  -3.375834822654724E-1  -2.909019961953163E-2   4.544105008244515E-2  -2.827431261539459E-2   4.574424028396606E-2  -8.793550133705139E-1   3.602490723133087E-1  
 7.057057057057056E8     1.854993104934692E-1  -3.543556630611420E-1  -2.568751201033592E-2   4.984981939196587E-2  -2.531378343701363E-2   4.995390027761459E-2  -8.758549094200134E-1   3.666114509105682E-1  
 7.081081081081080E8     1.450874358415604E-1  -3.653313815593720E-1  -2.188234589993954E-2   5.374502390623093E-2  -2.212924323976040E-2   5.349775776267052E-2  -8.721444606781006E-1   3.738111257553101E-1  
 7.105105105105104E8     1.046967282891274E-1  -3.698266446590424E-1  -1.768435724079609E-2   5.702108517289162E-2  -1.855075918138027E-2   5.665532499551773E-2  -8.679133057594299E-1   3.825656473636627E-1  
 7.129129129129129E8     6.515480577945709E-2  -3.690913319587708E-1  -1.361156906932592E-2   5.952576547861099E-2  -1.465008873492479E-2   5.925215035676956E-2  -8.630241751670837E-1   3.929329514503479E-1  
 7.153153153153153E8     2.838110923767090E-2  -3.648905754089356E-1  -9.872029535472393E-3   6.166379898786545E-2  -1.059688720852137E-2   6.144827231764793E-2  -8.568333387374878E-1   4.046812951564789E-1  
 7.177177177177178E8    -6.827510427683592E-3  -3.588880300521851E-1  -6.065482273697853E-3   6.355309486389160E-2  -6.454546470195055E-3   6.340224295854569E-2  -8.497523069381714E-1   4.171467721462250E-1  
 7.201201201201202E8    -4.163633286952972E-2  -3.503593802452087E-1  -1.998072490096092E-3   6.523922830820084E-2  -2.292015822604299E-3   6.510292738676071E-2  -8.426914215087891E-1   4.292660653591156E-1  
 7.225225225225226E8    -7.591185718774796E-2  -3.387761414051056E-1   2.218557987362146E-3   6.671255081892014E-2   2.023831009864807E-3   6.653459370136261E-2  -8.354091048240662E-1   4.416095018386841E-1  
 7.249249249249250E8    -1.089000776410103E-1  -3.238161802291870E-1   6.923388224095106E-3   6.773662567138672E-2   5.901258438825607E-3   6.756915152072907E-2  -8.288497328758240E-1   4.512128531932831E-1  
 7.273273273273274E8    -1.387328058481216E-1  -3.066049814224243E-1   1.138558983802795E-2   6.835964322090149E-2   9.890017099678516E-3   6.834090501070023E-2  -8.223160505294800E-1   4.600983858108521E-1  
 7.297297297297298E8    -1.647822111845017E-1  -2.890863716602325E-1   1.535573881119490E-2   6.885066628456116E-2   1.419489271938801E-2   6.886614114046097E-2  -8.155408501625061E-1   4.697291254997253E-1  
 7.321321321321322E8    -1.883209794759750E-1  -2.710788249969482E-1   1.885919645428658E-2   6.906081736087799E-2   1.878201775252819E-2   6.891907751560211E-2  -8.084318041801453E-1   4.798859655857086E-1  
 7.345345345345346E8    -2.110922485589981E-1  -2.505313158035278E-1   2.274757996201515E-2   6.902551651000977E-2   2.300239540636540E-2   6.867756694555283E-2  -8.007901906967163E-1   4.911682009696960E-1  
 7.369369369369370E8    -2.330547720193863E-1  -2.281477600336075E-1   2.650987543165684E-2   6.870807707309723E-2   2.702460624277592E-2   6.829006969928742E-2  -7.924881577491760E-1   5.022667646408081E-1  
 7.393393393393394E8    -2.522681951522827E-1  -2.049872875213623E-1   3.014351800084114E-2   6.828480958938599E-2   3.063766285777092E-2   6.796364486217499E-2  -7.844119071960449E-1   5.132654309272766E-1  
 7.417417417417418E8    -2.690502703189850E-1  -1.818965673446655E-1   3.390498831868172E-2   6.805215775966644E-2   3.390392661094666E-2   6.774844974279404E-2  -7.759743928909302E-1   5.228143930435181E-1  
 7.441441441441442E8    -2.837546765804291E-1  -1.587275862693787E-1   3.765410929918289E-2   6.765893101692200E-2   3.721328824758530E-2   6.765503436326981E-2  -7.682017087936401E-1   5.312353968620300E-1  
 7.465465465465466E8    -2.973665297031403E-1  -1.350211054086685E-1   4.140043631196022E-2   6.753567606210709E-2   4.089140146970749E-2   6.769828498363495E-2  -7.588942646980286E-1   5.421314239501953E-1  
 7.489489489489490E8    -3.094859123229981E-1  -1.113137975335121E-1   4.540273547172546E-2   6.742946803569794E-2   4.476079344749451E-2   6.774601340293884E-2  -7.507278323173523E-1   5.517714619636536E-1  
 7.513513513513514E8    -3.195081055164337E-1  -8.652125298976898E-2   4.986305534839630E-2   6.721890717744827E-2   4.911309480667114E-2   6.762922555208206E-2  -7.424933910369873E-1   5.615000128746033E-1  
 7.537537537537538E8    -3.264613151550293E-1  -6.075068190693855E-2   5.460919439792633E-2   6.652750074863434E-2   5.392226576805115E-2   6.718209385871887E-2  -7.333164811134338E-1   5.715674161911011E-1  
 7.561561561561562E8    -3.297543823719025E-1  -3.645333647727966E-2   5.948353931307793E-2   6.578149646520615E-2   5.893260613083839E-2   6.603752821683884E-2  -7.232622504234314E-1   5.796504616737366E-1  
 7.585585585585586E8    -3.318542242050171E-1  -1.141129154711962E-2   6.447373330593109E-2   6.454173475503922E-2   6.386189162731171E-2   6.444387137889862E-2  -7.106832265853882E-1   5.903560519218445E-1  
 7.609609609609610E8    -3.320226371288300E-1   1.152567286044359E-2   6.967790424823761E-2   6.292669475078583E-2   6.885951012372971E-2   6.283489614725113E-2  -6.987723708152771E-1   5.998822450637817E-1  
 7.633633633633634E8    -3.311065733432770E-1   3.216179087758064E-2   7.503198832273483E-2   6.083181872963905E-2   7.405035197734833E-2   6.087207794189453E-2  -6.876871585845947E-1   6.088669300079346E-1  
 7.657657657657658E8    -3.293941915035248E-1   5.142901465296745E-2   8.033492416143417E-2   5.822315812110901E-2   7.941955327987671E-2   5.867531523108482E-2  -6.776843070983887E-1   6.162000298500061E-1  
 7.681681681681682E8    -3.257450163364410E-1   6.916582584381104E-2   8.548112958669663E-2   5.536624044179916E-2   8.511619269847870E-2   5.601990222930908E-2  -6.691465973854065E-1   6.224181056022644E-1  
 7.705705705705706E8    -3.207628130912781E-1   8.547478914260864E-2   9.075894951820374E-2   5.166995897889137E-2   9.047380089759827E-2   5.272901803255081E-2  -6.599539518356323E-1   6.288747787475586E-1  
 7.729729729729730E8    -3.166864216327667E-1   9.863024950027466E-2   9.565962105989456E-2   4.704806581139565E-2   9.573439508676529E-2   4.848908632993698E-2  -6.506417393684387E-1   6.383935809135437E-1  
 7.753753753753754E8    -3.138262033462524E-1   1.102817282080650E-1   9.994496405124664E-2   4.217017814517021E-2   1.003210768103600E-1   4.364501312375069E-2  -6.388233900070190E-1   6.484838724136353E-1  
 7.777777777777778E8    -3.120306134223938E-1   1.213413774967194E-1   1.038274019956589E-1   3.737513348460197E-2   1.039847880601883E-1   3.837946429848671E-2  -6.244527697563171E-1   6.571486592292786E-1  
 7.801801801801802E8    -3.108726739883423E-1   1.320784091949463E-1   1.073613911867142E-1   3.277196735143662E-2   1.067798808217049E-1   3.323603793978691E-2  -6.081641316413879E-1   6.631386280059815E-1  
 7.825825825825826E8    -3.095653653144836E-1   1.457892954349518E-1   1.105256304144859E-1   2.795192971825600E-2   1.099965646862984E-1   2.821215428411961E-2  -5.922313928604126E-1   6.705288887023926E-1  
 7.849849849849850E8    -3.085159063339233E-1   1.590803861618042E-1   1.138084977865219E-1   2.294410951435566E-2   1.130932569503784E-1   2.362580969929695E-2  -5.784482359886169E-1   6.751335263252258E-1  
 7.873873873873874E8    -3.079512715339661E-1   1.726878434419632E-1   1.171585842967033E-1   1.811387017369270E-2   1.162122711539269E-1   1.897759363055229E-2  -5.660067796707153E-1   6.799227595329285E-1  
 7.897897897897898E8    -3.059178590774536E-1   1.876029074192047E-1   1.208243593573570E-1   1.306802686303854E-2   1.199805513024330E-1   1.384091656655073E-2  -5.538064837455750E-1   6.865214705467224E-1  
 7.921921921921922E8    -3.016181588172913E-1   2.023786008358002E-1   1.242838203907013E-1   7.114898413419724E-3   1.241132318973541E-1   7.873888127505779E-3  -5.411179065704346E-1   6.946142315864563E-1  
 7.945945945945946E8    -2.972105145454407E-1   2.163226753473282E-1   1.275958120822907E-1   7.359621231444180E-4   1.272891014814377E-1   1.913692452944815E-3  -5.249814987182617E-1   7.002767920494080E-1  
 7.969969969969970E8    -2.920867502689362E-1   2.286623418331146E-1   1.304547339677811E-1  -5.978209432214499E-3   1.302682161331177E-1  -4.807925317436457E-3  -5.085865855216980E-1   7.059310674667358E-1  
 7.993993993993994E8    -2.869428694248200E-1   2.400953322649002E-1   1.330236494541168E-1  -1.271299086511135E-2   1.330702304840088E-1  -1.181773096323013E-2  -4.911451637744904E-1   7.112914919853210E-1  
 8.018018018018018E8    -2.803246676921845E-1   2.513886094093323E-1   1.354309767484665E-1  -2.002636715769768E-2   1.354972571134567E-1  -1.971488632261753E-2  -4.728438854217529E-1   7.161560654640198E-1  
 8.042042042042042E8    -2.733885347843170E-1   2.622194886207581E-1   1.377127319574356E-1  -2.827130816876888E-2   1.376039236783981E-1  -2.800638787448406E-2  -4.558680653572083E-1   7.194252014160156E-1  
 8.066066066066066E8    -2.661265134811401E-1   2.724031805992127E-1   1.389241963624954E-1  -3.717209026217461E-2   1.389936655759811E-1  -3.685894235968590E-2  -4.366312921047211E-1   7.240658402442932E-1  
 8.090090090090090E8    -2.588197588920593E-1   2.811006605625153E-1   1.394459307193756E-1  -4.621517285704613E-2   1.394314765930176E-1  -4.593275114893913E-2  -4.168519973754883E-1   7.270905971527100E-1  
 8.114114114114114E8    -2.523163855075836E-1   2.882815301418304E-1   1.392375379800797E-1  -5.543399602174759E-2   1.392583549022675E-1  -5.502489581704140E-2  -3.979275822639465E-1   7.283955812454224E-1  
 8.138138138138138E8    -2.467750757932663E-1   2.946606874465942E-1   1.382749676704407E-1  -6.463267654180527E-2   1.382882297039032E-1  -6.414049863815308E-2  -3.787069022655487E-1   7.288442850112915E-1  
 8.162162162162162E8    -2.422983199357987E-1   3.009948134422302E-1   1.367689818143845E-1  -7.381355017423630E-2   1.368127167224884E-1  -7.316687703132629E-2  -3.591406345367432E-1   7.291192412376404E-1  
 8.186186186186186E8    -2.386924326419830E-1   3.077595233917236E-1   1.346025466918945E-1  -8.280050754547119E-2   1.346260905265808E-1  -8.196342736482620E-2  -3.388937413692474E-1   7.290785908699036E-1  
 8.210210210210210E8    -2.349905371665955E-1   3.148698508739471E-1   1.316697448492050E-1  -9.188224375247955E-2   1.318372189998627E-1  -9.096211940050125E-2  -3.173137009143829E-1   7.278206348419190E-1  
 8.234234234234234E8    -2.320969253778458E-1   3.206814229488373E-1   1.281943172216415E-1  -1.005830243229866E-1   1.283523887395859E-1  -9.987170994281769E-2  -2.956497669219971E-1   7.253569364547730E-1  
