#  HZ   S   RI   R     50.00 
! Rohde & Schwarz ZVB8 2Ports - Version 2.81 - 1145.1010k08 SN: 100113
! Date: 2016-05-03 01:38:39
! Measurements: S11 S21 S12 S22 
! 
 6.000000000000000E8     5.023589134216309E-1   2.360841035842896E-1  -1.349358912557364E-2   3.190965624526143E-3  -1.354110147804022E-2   3.085821634158492E-3  -9.603978395462036E-1  -2.424049004912376E-2  
 6.024024024024024E8     4.956376552581787E-1   2.031348645687103E-1  -1.351630873978138E-2   3.486774861812592E-3  -1.344505511224270E-2   3.401905065402389E-3  -9.594251513481140E-1  -9.268633089959621E-3  
 6.048048048048048E8     4.869284629821777E-1   1.710897237062454E-1  -1.344142388552427E-2   3.565762657672167E-3  -1.351453829556704E-2   3.598457202315331E-3  -9.580516815185547E-1   5.770052783191204E-3  
 6.072072072072072E8     4.758046865463257E-1   1.406369805335999E-1  -1.361323613673449E-2   3.556367009878159E-3  -1.359317172318697E-2   3.568674903362989E-3  -9.562724232673645E-1   2.075671032071114E-2  
 6.096096096096096E8     4.619652628898621E-1   1.111045405268669E-1  -1.383654866367579E-2   3.454048419371247E-3  -1.384527608752251E-2   3.455257276073098E-3  -9.541222453117371E-1   3.637104108929634E-2  
 6.120120120120120E8     4.459636807441711E-1   8.492017537355423E-2  -1.421012543141842E-2   3.035030560567975E-3  -1.413088850677013E-2   3.008689731359482E-3  -9.514882564544678E-1   4.972629621624947E-2  
 6.144144144144144E8     4.282813072204590E-1   6.201259791851044E-2  -1.472181733697653E-2   2.496657660230994E-3  -1.468870509415865E-2   2.433244604617357E-3  -9.496409296989441E-1   6.431122124195099E-2  
 6.168168168168168E8     4.096729755401611E-1   4.185294359922409E-2  -1.575117558240891E-2   1.663826056756079E-3  -1.567660272121429E-2   1.574344583787024E-3  -9.467620849609375E-1   8.016791194677353E-2  
 6.192192192192192E8     3.919764757156372E-1   2.639130130410194E-2  -1.721616089344025E-2   7.188856834545732E-4  -1.716239191591740E-2   5.367118865251541E-4  -9.428308606147766E-1   9.633237123489380E-2  
 6.216216216216216E8     3.764608204364777E-1   1.399623043835163E-2  -1.964277215301991E-2  -3.928608784917742E-4  -1.951380819082260E-2  -5.043639685027301E-4  -9.381047487258911E-1   1.130909174680710E-1  
 6.240240240240240E8     3.642264008522034E-1   3.369044279679656E-3  -2.308475039899349E-2  -1.132450532168150E-3  -2.295816130936146E-2  -1.243880251422525E-3  -9.328158497810364E-1   1.298154890537262E-1  
 6.264264264264264E8     3.584283888339996E-1  -4.508581012487412E-3  -2.761115506291390E-2  -9.453988168388605E-4  -2.757051028311253E-2  -1.180202350951731E-3  -9.274829626083374E-1   1.470008194446564E-1  
 6.288288288288288E8     3.584848642349243E-1  -1.552370097488165E-2  -3.296244889497757E-2   7.233251235447824E-4  -3.284787759184837E-2   4.998950753360987E-4  -9.212740659713745E-1   1.629674434661865E-1  
 6.312312312312312E8     3.625436723232269E-1  -3.243979066610336E-2  -3.844446688890457E-2   4.111366812139750E-3  -3.833905607461929E-2   3.932239953428507E-3  -9.145956635475159E-1   1.782650649547577E-1  
 6.336336336336336E8     3.658155202865601E-1  -5.846142396330833E-2  -4.319031536579132E-2   9.364943020045757E-3  -4.321461915969849E-2   9.247900918126106E-3  -9.074408411979675E-1   1.927335411310196E-1  
 6.360360360360360E8     3.650009632110596E-1  -9.175834059715271E-2  -4.675615206360817E-2   1.595222391188145E-2  -4.675570502877235E-2   1.581644080579281E-2  -9.002466201782227E-1   2.064125537872315E-1  
 6.384384384384384E8     3.572819530963898E-1  -1.293297708034515E-1  -4.874392971396446E-2   2.347118034958839E-2  -4.881894960999489E-2   2.333258092403412E-2  -8.924658894538879E-1   2.222134470939636E-1  
 6.408408408408408E8     3.415697813034058E-1  -1.694193035364151E-1  -4.925733804702759E-2   3.132437169551849E-2  -4.936528205871582E-2   3.106792271137238E-2  -8.840911984443665E-1   2.382045090198517E-1  
 6.432432432432432E8     3.168220818042755E-1  -2.094004005193710E-1  -4.826608672738075E-2   3.921422734856606E-2  -4.828452318906784E-2   3.872983530163765E-2  -8.754630684852600E-1   2.538906931877136E-1  
 6.456456456456456E8     2.862324714660645E-1  -2.452037334442139E-1  -4.622200876474381E-2   4.660707339644432E-2  -4.631165415048599E-2   4.606963694095612E-2  -8.663993477821350E-1   2.697785496711731E-1  
 6.480480480480480E8     2.516214251518250E-1  -2.756028175354004E-1  -4.335317760705948E-2   5.363667383790016E-2  -4.337554797530174E-2   5.314075201749802E-2  -8.556163907051086E-1   2.855688035488129E-1  
 6.504504504504504E8     2.110589146614075E-1  -3.002736270427704E-1  -3.940870240330696E-2   6.026188284158707E-2  -3.939819708466530E-2   5.994561687111855E-2  -8.408231139183044E-1   3.027589321136475E-1  
 6.528528528528528E8     1.681762486696243E-1  -3.201325237751007E-1  -3.456102311611176E-2   6.623824685811997E-2  -3.468423709273338E-2   6.593844294548035E-2  -8.255113363265991E-1   3.222634494304657E-1  
 6.552552552552552E8     1.236027553677559E-1  -3.354111313819885E-1  -2.920849993824959E-2   7.137230038642883E-2  -2.945784293115139E-2   7.125800102949143E-2  -8.110939860343933E-1   3.415686488151550E-1  
 6.576576576576576E8     7.785657793283463E-2  -3.449670672416687E-1  -2.341534011065960E-2   7.595209777355194E-2  -2.378400042653084E-2   7.596952468156815E-2  -7.969341278076172E-1   3.593245744705200E-1  
 6.600600600600600E8     3.266206011176109E-2  -3.490468859672546E-1  -1.704108528792858E-2   8.003448694944382E-2  -1.748262159526348E-2   7.997089624404907E-2  -7.813755273818970E-1   3.748192191123962E-1  
 6.624624624624624E8    -1.102642901241779E-2  -3.468234539031982E-1  -1.040890812873840E-2   8.321852236986160E-2  -1.099501084536314E-2   8.302842080593109E-2  -7.611506581306458E-1   3.928882777690888E-1  
 6.648648648648648E8    -4.978198185563088E-2  -3.414466977119446E-1  -4.093191586434841E-3   8.577615767717362E-2  -4.606558475643396E-3   8.541654795408249E-2  -7.383593916893005E-1   4.104733765125275E-1  
 6.672672672672672E8    -9.034329652786255E-2  -3.317741751670837E-1   2.297948114573956E-3   8.793396502733231E-2   1.848489046096802E-3   8.764515817165375E-2  -7.121271491050720E-1   4.279576539993286E-1  
 6.696696696696696E8    -1.276430785655975E-1  -3.179455101490021E-1   8.913623169064522E-3   8.935894072055817E-2   8.640569634735584E-3   8.926189690828323E-2  -6.821449995040894E-1   4.433765113353729E-1  
 6.720720720720720E8    -1.606560498476028E-1  -3.018260002136231E-1   1.548640523105860E-2   8.986750245094299E-2   1.532550062984228E-2   8.990044891834259E-2  -6.488174796104431E-1   4.567796885967255E-1  
 6.744744744744744E8    -1.906720846891403E-1  -2.826192378997803E-1   2.150377817451954E-2   8.940646052360535E-2   2.139733731746674E-2   8.975198119878769E-2  -6.107057929039002E-1   4.683097302913666E-1  
 6.768768768768768E8    -2.168521583080292E-1  -2.622032761573792E-1   2.629444561898708E-2   8.859102427959442E-2   2.630994468927383E-2   8.897206187248230E-2  -5.686389803886414E-1   4.757319092750549E-1  
 6.792792792792792E8    -2.394585013389587E-1  -2.411379963159561E-1   2.945318445563316E-2   8.841282874345779E-2   2.926120907068253E-2   8.861418813467026E-2  -5.236142873764038E-1   4.774553775787354E-1  
 6.816816816816816E8    -2.565504014492035E-1  -2.216703146696091E-1   3.096539899706841E-2   9.029271453619003E-2   3.063337132334709E-2   9.035852551460266E-2  -4.757256507873535E-1   4.715104699134827E-1  
 6.840840840840840E8    -2.695698738098145E-1  -2.042021155357361E-1   3.196666017174721E-2   9.573405236005783E-2   3.172788769006729E-2   9.561823308467865E-2  -4.281215965747833E-1   4.568362236022949E-1  
 6.864864864864864E8    -2.812651395797730E-1  -1.876212954521179E-1   3.573360294103622E-2   1.056617796421051E-1   3.494421392679215E-2   1.053867563605309E-1  -3.831996321678162E-1   4.316245615482330E-1  
 6.888888888888888E8    -2.935395836830139E-1  -1.735812127590179E-1   4.541449621319771E-2   1.187729537487030E-1   4.388806596398354E-2   1.188716590404511E-1  -3.438527286052704E-1   3.975129425525665E-1  
 6.912912912912912E8    -3.058957755565643E-1  -1.621367931365967E-1   6.330717355012894E-2   1.319942176342011E-1   6.131321191787720E-2   1.322040557861328E-1  -3.135111629962921E-1   3.592584133148193E-1  
 6.936936936936936E8    -3.201571404933929E-1  -1.528825610876083E-1   8.842413127422333E-2   1.403148621320725E-1   8.711800724267960E-2   1.408339589834213E-1  -2.918323576450348E-1   3.214243352413178E-1  
 6.960960960960960E8    -3.371834456920624E-1  -1.433963179588318E-1   1.181064620614052E-1   1.405902355909348E-1   1.180271878838539E-1   1.407854110002518E-1  -2.750804722309113E-1   2.864934802055359E-1  
 6.984984984984984E8    -3.562096357345581E-1  -1.313840448856354E-1   1.485752165317535E-1   1.321050673723221E-1   1.504502147436142E-1   1.301323473453522E-1  -2.585496306419373E-1   2.550608515739441E-1  
 7.009009009009008E8    -3.758261203765869E-1  -1.168257892131805E-1   1.768479794263840E-1   1.145401895046234E-1   1.797172278165817E-1   1.104071885347366E-1  -2.419398277997971E-1   2.226907461881638E-1  
 7.033033033033032E8    -3.938822448253632E-1  -1.002036854624748E-1   2.005840539932251E-1   8.940275013446808E-2   2.022818475961685E-1   8.547153323888779E-2  -2.256492078304291E-1   1.875686049461365E-1  
 7.057057057057056E8    -4.099709391593933E-1  -8.398872613906860E-2   2.180609405040741E-1   5.967108905315399E-2   2.182834148406982E-1   5.768044665455818E-2  -2.114305794239044E-1   1.462533324956894E-1  
 7.081081081081080E8    -4.255732595920563E-1  -6.477047502994537E-2   2.288595885038376E-1   2.593738026916981E-2   2.283464670181274E-1   2.738923951983452E-2  -2.021806687116623E-1   9.813155233860016E-2  
 7.105105105105104E8    -4.396610260009766E-1  -4.481647536158562E-2   2.322709113359451E-1  -8.662834763526917E-3   2.320811897516251E-1  -3.829467575997114E-3  -2.000636905431747E-1   4.684454947710037E-2  
 7.129129129129129E8    -4.536141157150269E-1  -2.575338818132877E-2   2.287582010030747E-1  -4.128798469901085E-2   2.293758988380432E-1  -3.636048734188080E-2  -2.091005593538284E-1  -9.811711497604847E-3  
 7.153153153153153E8    -4.677145183086395E-1  -5.693437531590462E-3   2.194922417402268E-1  -7.086173444986343E-2   2.206052541732788E-1  -6.732534617185593E-2  -2.301223278045654E-1  -6.431000679731369E-2  
 7.177177177177178E8    -4.820767045021057E-1   1.611567847430706E-2   2.061184346675873E-1  -9.708496928215027E-2   2.069952189922333E-1  -9.533540159463882E-2  -2.625557780265808E-1  -1.128973960876465E-1  
 7.201201201201202E8    -4.953621923923492E-1   4.071136936545372E-2   1.896142959594727E-1  -1.202710941433907E-1   1.895960271358490E-1  -1.196255534887314E-1  -3.027354180812836E-1  -1.534401327371597E-1  
 7.225225225225226E8    -5.078057050704956E-1   6.698884814977646E-2   1.696370244026184E-1  -1.399131864309311E-1   1.688738614320755E-1  -1.396901607513428E-1  -3.473278284072876E-1  -1.841834932565689E-1  
 7.249249249249250E8    -5.185135602951050E-1   9.522481262683868E-2   1.465311348438263E-1  -1.555684953927994E-1   1.468943208456039E-1  -1.535866856575012E-1  -3.942677080631256E-1  -2.070909142494202E-1  
 7.273273273273274E8    -5.263931751251221E-1   1.225062012672424E-1   1.229135245084763E-1  -1.660858541727066E-1   1.246696487069130E-1  -1.632712036371231E-1  -4.407318234443665E-1  -2.213324904441834E-1  
 7.297297297297298E8    -5.329902768135071E-1   1.509050428867340E-1   1.005613952875137E-1  -1.714731305837631E-1   1.020049750804901E-1  -1.693922728300095E-1  -4.851788282394409E-1  -2.280081808567047E-1  
 7.321321321321322E8    -5.370508432388306E-1   1.784419119358063E-1   8.027687668800354E-2  -1.727574616670609E-1   7.944110780954361E-2  -1.722160428762436E-1  -5.281218886375427E-1  -2.288519591093063E-1  
 7.345345345345346E8    -5.380575060844421E-1   2.086781859397888E-1   6.080586090683937E-2  -1.712855994701386E-1   5.952785164117813E-2  -1.711749434471130E-1  -5.686830878257752E-1  -2.248954921960831E-1  
 7.369369369369370E8    -5.363217592239380E-1   2.389470487833023E-1   4.350761696696281E-2  -1.677738130092621E-1   4.199703410267830E-2  -1.679558753967285E-1  -6.068617105484009E-1  -2.159869372844696E-1  
 7.393393393393394E8    -5.317080616950989E-1   2.683950364589691E-1   2.788243815302849E-2  -1.630089581012726E-1   2.695460803806782E-2  -1.632732748985291E-1  -6.419306397438049E-1  -2.037459313869476E-1  
 7.417417417417418E8    -5.251602530479431E-1   2.953471541404724E-1   1.392730232328177E-2  -1.573345512151718E-1   1.380710955709219E-2  -1.575043350458145E-1  -6.746116280555725E-1  -1.890364587306976E-1  
 7.441441441441442E8    -5.169920325279236E-1   3.207712173461914E-1   1.707974472083151E-3  -1.507663279771805E-1   2.739413408562541E-3  -1.510460674762726E-1  -7.041484117507935E-1  -1.733478009700775E-1  
 7.465465465465466E8    -5.093579888343811E-1   3.443240523338318E-1  -7.788571994751692E-3  -1.442515701055527E-1  -6.743745412677527E-3  -1.443041414022446E-1  -7.293792963027954E-1  -1.542631685733795E-1  
 7.489489489489490E8    -5.008907318115234E-1   3.670227229595184E-1  -1.605599932372570E-2  -1.377927064895630E-1  -1.493407972157002E-2  -1.379207074642181E-1  -7.530161738395691E-1  -1.346042454242706E-1  
 7.513513513513514E8    -4.910860061645508E-1   3.887424767017365E-1  -2.342117018997669E-2  -1.317231059074402E-1  -2.231238409876823E-2  -1.316808015108109E-1  -7.740907073020935E-1  -1.144566610455513E-1  
 7.537537537537538E8    -4.797580242156982E-1   4.099887311458588E-1  -3.017100878059864E-2  -1.257056891918182E-1  -2.899850346148014E-2  -1.254869401454926E-1  -7.934831380844116E-1  -9.335169196128845E-2  
 7.561561561561562E8    -4.670068919658661E-1   4.295728206634522E-1  -3.599163517355919E-2  -1.197151690721512E-1  -3.512130305171013E-2  -1.193524003028870E-1  -8.087002635002136E-1  -7.428090274333954E-2  
 7.585585585585586E8    -4.541859030723572E-1   4.483654201030731E-1  -4.097054153680801E-2  -1.137391403317452E-1  -4.040116444230080E-2  -1.129414364695549E-1  -8.209055662155151E-1  -5.147835984826088E-2  
 7.609609609609610E8    -4.412479996681213E-1   4.664206802845001E-1  -4.520872607827187E-2  -1.082565113902092E-1  -4.457778483629227E-2  -1.072885766625404E-1  -8.319528102874756E-1  -2.953265421092510E-2  
 7.633633633633634E8    -4.287336468696594E-1   4.830982387065888E-1  -4.949322715401650E-2  -1.030673310160637E-1  -4.852228984236717E-2  -1.023222133517265E-1  -8.413824439048767E-1  -8.886052295565605E-3  
 7.657657657657658E8    -4.161697328090668E-1   4.997231662273407E-1  -5.354502797126770E-2  -9.798897057771683E-2  -5.243169888854027E-2  -9.789381176233292E-2  -8.499457836151123E-1   9.790347889065743E-3  
 7.681681681681682E8    -4.031637310981751E-1   5.156294107437134E-1  -5.728436633944511E-2  -9.279089421033859E-2  -5.644839629530907E-2  -9.365287423133850E-2  -8.582568764686585E-1   2.584877610206604E-2  
 7.705705705705706E8    -3.903665542602539E-1   5.311194062232971E-1  -6.089849025011063E-2  -8.773667365312576E-2  -6.017187610268593E-2  -8.876222372055054E-2  -8.644825220108032E-1   4.249310493469238E-2  
 7.729729729729730E8    -3.757182657718658E-1   5.450606346130371E-1  -6.456319987773895E-2  -8.187673985958099E-2  -6.390566378831863E-2  -8.343298733234406E-2  -8.713892698287964E-1   6.024140492081642E-2  
 7.753753753753754E8    -3.611451089382172E-1   5.570821762084961E-1  -6.746152788400650E-2  -7.590167969465256E-2  -6.700666993856430E-2  -7.737997174263001E-2  -8.767539262771606E-1   7.955180853605270E-2  
 7.777777777777778E8    -3.471259176731110E-1   5.665366053581238E-1  -6.956455856561661E-2  -7.023427635431290E-2  -6.918835639953613E-2  -7.107513397932053E-2  -8.795982003211975E-1   9.854043275117874E-2  
 7.801801801801802E8    -3.339028358459473E-1   5.750250816345215E-1  -7.107100635766983E-2  -6.486033648252487E-2  -7.037376612424851E-2  -6.472565978765488E-2  -8.789459466934204E-1   1.165172085165978E-1  
 7.825825825825826E8    -3.195510804653168E-1   5.850667953491211E-1  -7.192409038543701E-2  -5.945276841521263E-2  -7.144239544868469E-2  -5.908560380339623E-2  -8.796365857124329E-1   1.349077522754669E-1  
 7.849849849849850E8    -3.066980242729187E-1   5.956928730010986E-1  -7.250601798295975E-2  -5.419113487005234E-2  -7.192073017358780E-2  -5.422244966030121E-2  -8.794485330581665E-1   1.489304900169373E-1  
 7.873873873873874E8    -2.944609522819519E-1   6.072753667831421E-1  -7.303488254547119E-2  -4.936031252145767E-2  -7.229553908109665E-2  -4.961877688765526E-2  -8.795444965362549E-1   1.613756269216538E-1  
 7.897897897897898E8    -2.801652848720551E-1   6.195477247238159E-1  -7.332970201969147E-2  -4.476330056786537E-2  -7.264251261949539E-2  -4.497972503304482E-2  -8.815383315086365E-1   1.744340509176254E-1  
 7.921921921921922E8    -2.634240984916687E-1   6.314139962196350E-1  -7.322027534246445E-2  -4.013151675462723E-2  -7.288043200969696E-2  -4.051969572901726E-2  -8.847112059593201E-1   1.884631961584091E-1  
 7.945945945945946E8    -2.487365156412125E-1   6.421201229095459E-1  -7.294785231351852E-2  -3.606735542416573E-2  -7.253573089838028E-2  -3.662199154496193E-2  -8.837012052536011E-1   2.024918496608734E-1  
 7.969969969969970E8    -2.328038960695267E-1   6.513092517852783E-1  -7.262483984231949E-2  -3.210064396262169E-2  -7.217082381248474E-2  -3.275231271982193E-2  -8.829547762870789E-1   2.171423882246018E-1  
 7.993993993993994E8    -2.170347273349762E-1   6.579796075820923E-1  -7.214704155921936E-2  -2.839690819382668E-2  -7.192675024271011E-2  -2.897852472960949E-2  -8.816739320755005E-1   2.315463870763779E-1  
 8.018018018018018E8    -2.006086111068726E-1   6.634750962257385E-1  -7.146313041448593E-2  -2.478396147489548E-2  -7.144590467214584E-2  -2.509332634508610E-2  -8.800156712532044E-1   2.464628517627716E-1  
 8.042042042042042E8    -1.836422383785248E-1   6.696897149085999E-1  -7.086831331253052E-2  -2.133918181061745E-2  -7.081620395183563E-2  -2.151033282279968E-2  -8.785478472709656E-1   2.590460479259491E-1  
 8.066066066066066E8    -1.666841953992844E-1   6.754382252693176E-1  -7.008242607116699E-2  -1.785219833254814E-2  -7.008472084999085E-2  -1.806524954736233E-2  -8.767744898796082E-1   2.736845016479492E-1  
 8.090090090090090E8    -1.498064249753952E-1   6.800085902214050E-1  -6.917379796504974E-2  -1.449793018400669E-2  -6.920827180147171E-2  -1.477425172924995E-2  -8.741431832313538E-1   2.877109646797180E-1  
 8.114114114114114E8    -1.334235668182373E-1   6.835643053054810E-1  -6.830061972141266E-2  -1.145256403833628E-2  -6.826151162385941E-2  -1.165532786399126E-2  -8.714321851730347E-1   3.007797002792358E-1  
 8.138138138138138E8    -1.183636561036110E-1   6.861330866813660E-1  -6.749609112739563E-2  -8.442316204309464E-3  -6.722153723239899E-2  -8.702055551111698E-3  -8.683980703353882E-1   3.128322362899780E-1  
 8.162162162162162E8    -1.031937822699547E-1   6.884796619415283E-1  -6.635177880525589E-2  -5.498419981449843E-3  -6.615590304136276E-2  -5.637729540467262E-3  -8.656708002090454E-1   3.246360421180725E-1  
 8.186186186186186E8    -8.991754800081253E-2   6.903938055038452E-1  -6.509139388799667E-2  -2.579041058197618E-3  -6.488455086946487E-2  -2.787696430459619E-3  -8.625596761703491E-1   3.373986482620239E-1  
 8.210210210210210E8    -7.783117890357971E-2   6.904844045639038E-1  -6.375095248222351E-2   2.488023310434073E-4  -6.359221786260605E-2   4.373525371192955E-5  -8.591148853302002E-1   3.490015268325806E-1  
 8.234234234234234E8    -6.497945636510849E-2   6.912880539894104E-1  -6.205753982067108E-2   3.018728457391262E-3  -6.193898245692253E-2   2.842829562723637E-3  -8.553033471107483E-1   3.610385358333588E-1  
