#  HZ   S   RI   R     50.00 
! Rohde & Schwarz ZVB8 2Ports - Version 2.81 - 1145.1010k08 SN: 100113
! Date: 2016-05-03 01:37:44
! Measurements: S11 S21 S12 S22 
! 
 6.000000000000000E8     5.001101493835449E-1   2.350087761878967E-1  -8.261447772383690E-3   1.209698966704309E-3  -8.335944265127182E-3   1.177426427602768E-3  -9.687128067016602E-1  -8.812700957059860E-2  
 6.024024024024024E8     4.922595322132111E-1   2.024580538272858E-1  -8.200678974390030E-3   1.313452259637415E-3  -8.174046874046326E-3   1.312432694248855E-3  -9.692522287368774E-1  -7.635844498872757E-2  
 6.048048048048048E8     4.827383458614349E-1   1.700605452060700E-1  -8.153355680406094E-3   1.388196018524468E-3  -8.098847232758999E-3   1.316544832661748E-3  -9.698263406753540E-1  -6.425662338733673E-2  
 6.072072072072072E8     4.715355038642883E-1   1.404246240854263E-1  -8.197590708732605E-3   1.289010862819850E-3  -8.160598576068878E-3   1.253800932317972E-3  -9.702121019363403E-1  -5.248073488473892E-2  
 6.096096096096096E8     4.576315283775330E-1   1.129210367798805E-1  -8.209768682718277E-3   1.154693542048335E-3  -8.179949596524239E-3   1.157624064944685E-3  -9.699541926383972E-1  -4.047179594635963E-2  
 6.120120120120120E8     4.411956667900085E-1   8.899430185556412E-2  -8.314603939652443E-3   8.796190959401429E-4  -8.233511820435524E-3   8.947883616201580E-4  -9.697777628898621E-1  -3.067345172166824E-2  
 6.144144144144144E8     4.246044754981995E-1   6.924079358577728E-2  -8.427379652857781E-3   5.046424921602011E-4  -8.372530341148377E-3   4.747711354866624E-4  -9.699826240539551E-1  -1.940827071666718E-2  
 6.168168168168168E8     4.084530770778656E-1   5.140732973814011E-2  -8.768948726356030E-3   6.471409506048076E-6  -8.728496730327606E-3  -8.902679110178724E-5  -9.700462818145752E-1  -7.625315338373184E-3  
 6.192192192192192E8     3.939097225666046E-1   3.628290072083473E-2  -9.402562864124775E-3  -7.051166612654924E-4  -9.473829530179501E-3  -8.152959635481238E-4  -9.696501493453980E-1   4.335527773946524E-3  
 6.216216216216216E8     3.814794421195984E-1   2.281176857650280E-2  -1.046216208487749E-2  -1.508895424194634E-3  -1.040614023804665E-2  -1.604014425538480E-3  -9.686597585678101E-1   1.721694134175777E-2  
 6.240240240240240E8     3.714841008186340E-1   1.068135350942612E-2  -1.203329954296351E-2  -2.170679857954383E-3  -1.200538501143456E-2  -2.318094950169325E-3  -9.673191905021668E-1   2.978409267961979E-2  
 6.264264264264264E8     3.666976094245911E-1  -4.115927731618285E-4  -1.422745734453201E-2  -2.496889093890786E-3  -1.413913816213608E-2  -2.688542008399963E-3  -9.668534398078919E-1   4.292650520801544E-2  
 6.288288288288288E8     3.659923970699310E-1  -1.525807939469814E-2  -1.680175028741360E-2  -2.236185362562537E-3  -1.676425337791443E-2  -2.423638477921486E-3  -9.658401012420654E-1   5.465525016188622E-2  
 6.312312312312312E8     3.674548864364624E-1  -3.518129512667656E-2  -1.952851004898548E-2  -1.047079451382160E-3  -1.942805945873261E-2  -1.201327890157700E-3  -9.644528031349182E-1   6.568849831819534E-2  
 6.336336336336336E8     3.699122369289398E-1  -6.031109765172005E-2  -2.199332602322102E-2   7.781839231029153E-4  -2.188432402908802E-2   7.497180486097932E-4  -9.630774259567261E-1   7.564151287078857E-2  
 6.360360360360360E8     3.691677749156952E-1  -9.236434102058411E-2  -2.402768470346928E-2   3.388468408957124E-3  -2.399505116045475E-2   3.236500080674887E-3  -9.613378643989563E-1   8.510721474885941E-2  
 6.384384384384384E8     3.620260953903198E-1  -1.288360357284546E-1  -2.550490014255047E-2   6.460104603320360E-3  -2.541884779930115E-2   6.269741803407669E-3  -9.597626328468323E-1   9.641520678997040E-2  
 6.408408408408408E8     3.475696444511414E-1  -1.682705879211426E-1  -2.623443305492401E-2   9.773805737495422E-3  -2.616678364574909E-2   9.612253867089748E-3  -9.582003355026245E-1   1.074984297156334E-1  
 6.432432432432432E8     3.240497410297394E-1  -2.082166075706482E-1  -2.633916027843952E-2   1.304875779896975E-2  -2.627481520175934E-2   1.289289072155953E-2  -9.564643502235413E-1   1.184622868895531E-1  
 6.456456456456456E8     2.919707596302033E-1  -2.459247708320618E-1  -2.586758323013783E-2   1.621316559612751E-2  -2.587147057056427E-2   1.602251455187798E-2  -9.544510841369629E-1   1.290419399738312E-1  
 6.480480480480480E8     2.562583982944489E-1  -2.780891656875610E-1  -2.495464123785496E-2   1.923616603016853E-2  -2.499406412243843E-2   1.894554868340492E-2  -9.525643587112427E-1   1.388849318027496E-1  
 6.504504504504504E8     2.163343429565430E-1  -3.037892580032349E-1  -2.375188097357750E-2   2.189367264509201E-2  -2.373877540230751E-2   2.169587090611458E-2  -9.477694630622864E-1   1.500239372253418E-1  
 6.528528528528528E8     1.743342876434326E-1  -3.245290219783783E-1  -2.210130356252194E-2   2.430601045489311E-2  -2.217426523566246E-2   2.403294481337071E-2  -9.434822797775269E-1   1.626823246479034E-1  
 6.552552552552552E8     1.331435889005661E-1  -3.399840891361237E-1  -2.033477276563644E-2   2.619683369994164E-2  -2.026726491749287E-2   2.608603239059448E-2  -9.413263797760010E-1   1.754672080278397E-1  
 6.576576576576576E8     8.801575750112534E-2  -3.510369956493378E-1  -1.846674643456936E-2   2.783171087503433E-2  -1.847138442099094E-2   2.781116962432861E-2  -9.409874081611633E-1   1.865687966346741E-1  
 6.600600600600600E8     4.206011444330216E-2  -3.567187786102295E-1  -1.644720323383808E-2   2.916698530316353E-2  -1.651092059910297E-2   2.901606820523739E-2  -9.408441185951233E-1   1.957386136054993E-1  
 6.624624624624624E8    -2.739438787102699E-3  -3.561183810234070E-1  -1.428077463060617E-2   3.021468222141266E-2  -1.449677720665932E-2   2.993658743798733E-2  -9.376868605613709E-1   2.075037956237793E-1  
 6.648648648648648E8    -4.731646552681923E-2  -3.514458537101746E-1  -1.238732319325209E-2   3.071448393166065E-2  -1.259302720427513E-2   3.058491647243500E-2  -9.343592524528503E-1   2.193644940853119E-1  
 6.672672672672672E8    -8.786650002002716E-2  -3.424736559391022E-1  -1.069080550223589E-2   3.112158365547657E-2  -1.091721467673779E-2   3.102007694542408E-2  -9.309386014938355E-1   2.307852953672409E-1  
 6.696696696696696E8    -1.243629902601242E-1  -3.299079537391663E-1  -9.134057909250259E-3   3.114609234035015E-2  -9.247075766324997E-3   3.110120445489883E-2  -9.269278645515442E-1   2.417400181293488E-1  
 6.720720720720720E8    -1.568166017532349E-1  -3.153420388698578E-1  -7.801275234669447E-3   3.087144903838635E-2  -7.857414893805981E-3   3.079723753035069E-2  -9.226599335670471E-1   2.525603771209717E-1  
 6.744744744744744E8    -1.881153583526611E-1  -2.969949543476105E-1  -6.847669370472431E-3   3.036929294466972E-2  -6.859702989459038E-3   3.031037934124470E-2  -9.184066057205200E-1   2.645642161369324E-1  
 6.768768768768768E8    -2.159176170825958E-1  -2.770277261734009E-1  -6.439667195081711E-3   2.959706261754036E-2  -6.516539026051760E-3   2.956102974712849E-2  -9.137959480285645E-1   2.763883769512177E-1  
 6.792792792792792E8    -2.386857420206070E-1  -2.562620937824249E-1  -6.846430245786905E-3   2.879192121326923E-2  -6.926503498107195E-3   2.871130965650082E-2  -9.085653424263001E-1   2.880704104900360E-1  
 6.816816816816816E8    -2.575008273124695E-1  -2.356412261724472E-1  -8.322427980601788E-3   2.844681777060032E-2  -8.421991020441055E-3   2.834953367710114E-2  -9.030628800392151E-1   3.002092838287354E-1  
 6.840840840840840E8    -2.722824811935425E-1  -2.168799042701721E-1  -1.070704776793718E-2   2.902599237859249E-2  -1.081085763871670E-2   2.892172522842884E-2  -8.970949649810791E-1   3.121006786823273E-1  
 6.864864864864864E8    -2.833990156650543E-1  -2.006120383739471E-1  -1.358534954488277E-2   3.117357380688191E-2  -1.380468066781759E-2   3.103583864867687E-2  -8.903591036796570E-1   3.228341042995453E-1  
 6.888888888888888E8    -2.938992381095886E-1  -1.900316178798676E-1  -1.621728017926216E-2   3.529676049947739E-2  -1.656910777091980E-2   3.502397611737251E-2  -8.828289508819580E-1   3.338560760021210E-1  
 6.912912912912912E8    -3.064096868038178E-1  -1.846243888139725E-1  -1.759899407625198E-2   4.122797399759293E-2  -1.797685027122498E-2   4.095923528075218E-2  -8.754864931106567E-1   3.443291783332825E-1  
 6.936936936936936E8    -3.223078846931458E-1  -1.847269386053085E-1  -1.714847981929779E-2   4.828958958387375E-2  -1.734044775366783E-2   4.813529178500176E-2  -8.690010905265808E-1   3.544830381870270E-1  
 6.960960960960960E8    -3.475009500980377E-1  -1.825845539569855E-1  -1.403394434601069E-2   5.544887483119965E-2  -1.395922061055899E-2   5.530191212892532E-2  -8.627286553382874E-1   3.644415736198425E-1  
 6.984984984984984E8    -3.794819116592407E-1  -1.736180484294891E-1  -8.972326293587685E-3   6.153228506445885E-2  -8.207475766539574E-3   6.142563372850418E-2  -8.553084731101990E-1   3.782111704349518E-1  
 7.009009009009008E8    -4.134463071823120E-1  -1.562831699848175E-1  -2.437523566186428E-3   6.585527211427689E-2  -1.206759130582213E-3   6.567662954330444E-2  -8.479249477386475E-1   3.909485042095184E-1  
 7.033033033033032E8    -4.448233842849731E-1  -1.311223506927490E-1   4.632992669939995E-3   6.839509308338165E-2   5.606883205473423E-3   6.816948950290680E-2  -8.417514562606812E-1   4.017702639102936E-1  
 7.057057057057056E8    -4.717890322208405E-1  -1.010279282927513E-1   1.159622240811586E-2   6.944252550601959E-2   1.190167106688023E-2   6.924466788768768E-2  -8.365764617919922E-1   4.092691242694855E-1  
 7.081081081081080E8    -4.933492243289948E-1  -6.669889390468597E-2   1.822572946548462E-2   6.946944445371628E-2   1.769593171775341E-2   6.960525363683701E-2  -8.310613632202148E-1   4.181560575962067E-1  
 7.105105105105104E8    -5.079581141471863E-1  -3.249879926443100E-2   2.439220249652863E-2   6.899492442607880E-2   2.320862188935280E-2   6.929274648427963E-2  -8.249318599700928E-1   4.282653331756592E-1  
 7.129129129129129E8    -5.182352662086487E-1   3.889089275617153E-4   2.978872694075108E-2   6.805136054754257E-2   2.863361500203610E-2   6.853229552507401E-2  -8.173226714134216E-1   4.396901130676270E-1  
 7.153153153153153E8    -5.257750749588013E-1   3.211997449398041E-2   3.463547304272652E-2   6.690519303083420E-2   3.391657397150993E-2   6.729796528816223E-2  -8.086224198341370E-1   4.529457092285156E-1  
 7.177177177177178E8    -5.317760109901428E-1   6.353922933340073E-2   3.914089500904083E-2   6.573744118213654E-2   3.889077529311180E-2   6.576863676309586E-2  -7.985010743141174E-1   4.662563800811768E-1  
 7.201201201201202E8    -5.356904268264771E-1   9.542302042245865E-2   4.392673447728157E-2   6.427807360887528E-2   4.362618923187256E-2   6.435901671648026E-2  -7.884187698364258E-1   4.794323444366455E-1  
 7.225225225225226E8    -5.377652049064636E-1   1.268060505390167E-1   4.853527247905731E-2   6.266288459300995E-2   4.834818840026856E-2   6.263175606727600E-2  -7.777846455574036E-1   4.930976331233978E-1  
 7.249249249249250E8    -5.379473567008972E-1   1.592450141906738E-1   5.346920341253281E-2   6.041648238897324E-2   5.240781977772713E-2   6.102273613214493E-2  -7.680703401565552E-1   5.033718943595886E-1  
 7.273273273273274E8    -5.357761383056641E-1   1.901623755693436E-1   5.807120725512505E-2   5.801419168710709E-2   5.656943470239639E-2   5.911328643560410E-2  -7.577733993530273E-1   5.136739611625671E-1  
 7.297297297297298E8    -5.316800475120544E-1   2.180934250354767E-1   6.216457486152649E-2   5.582658201456070E-2   6.103054806590080E-2   5.669748783111572E-2  -7.469432950019836E-1   5.242042541503906E-1  
 7.321321321321322E8    -5.261791348457336E-1   2.426032274961472E-1   6.581864506006241E-2   5.374649167060852E-2   6.546878814697266E-2   5.363219603896141E-2  -7.357933521270752E-1   5.353409051895142E-1  
 7.345345345345346E8    -5.190792679786682E-1   2.674346566200256E-1   6.944402307271957E-2   5.096136406064034E-2   6.936963647603989E-2   5.047508329153061E-2  -7.235177755355835E-1   5.475447177886963E-1  
 7.369369369369370E8    -5.108196735382080E-1   2.919261455535889E-1   7.287572324275971E-2   4.817599058151245E-2   7.301502674818039E-2   4.726077243685722E-2  -7.104191780090332E-1   5.594943761825562E-1  
 7.393393393393394E8    -5.012941956520081E-1   3.156737685203552E-1   7.618962973356247E-2   4.525567963719368E-2   7.626791298389435E-2   4.438725858926773E-2  -6.968443989753723E-1   5.708888173103333E-1  
 7.417417417417418E8    -4.908686280250549E-1   3.379555642604828E-1   7.962327450513840E-2   4.228464141488075E-2   7.953502982854843E-2   4.173407703638077E-2  -6.829742789268494E-1   5.811376571655273E-1  
 7.441441441441442E8    -4.795373380184174E-1   3.585155904293060E-1   8.297904580831528E-2   3.909324854612351E-2   8.265039324760437E-2   3.932407125830650E-2  -6.690595746040344E-1   5.901163816452026E-1  
 7.465465465465466E8    -4.693915545940399E-1   3.781069219112396E-1   8.623600006103516E-2   3.634912520647049E-2   8.585217595100403E-2   3.680063039064407E-2  -6.533973217010498E-1   6.012458205223084E-1  
 7.489489489489490E8    -4.585063755512238E-1   3.969826102256775E-1   8.987681567668915E-2   3.378925472497940E-2   8.961795270442963E-2   3.450519964098930E-2  -6.383966803550720E-1   6.113241314888001E-1  
 7.513513513513514E8    -4.462512433528900E-1   4.152601659297943E-1   9.406713396310806E-2   3.092630580067635E-2   9.393026679754257E-2   3.184140473604202E-2  -6.225322484970093E-1   6.206781864166260E-1  
 7.537537537537538E8    -4.318338334560394E-1   4.329936802387238E-1   9.882719814777374E-2   2.716830186545849E-2   9.870522469282150E-2   2.846014313399792E-2  -6.056789755821228E-1   6.297749280929565E-1  
 7.561561561561562E8    -4.165692031383514E-1   4.489906132221222E-1   1.037724539637566E-1   2.295736037194729E-2   1.034117490053177E-1   2.390536293387413E-2  -5.870471000671387E-1   6.368851661682129E-1  
 7.585585585585586E8    -4.016600549221039E-1   4.627435803413391E-1   1.084141507744789E-1   1.812222599983215E-2   1.077951714396477E-1   1.860873401165009E-2  -5.658961534500122E-1   6.453391909599304E-1  
 7.609609609609610E8    -3.873904347419739E-1   4.746293723583221E-1   1.130586788058281E-1   1.273360289633274E-2   1.120895668864250E-1   1.315079256892204E-2  -5.444511771202087E-1   6.527303457260132E-1  
 7.633633633633634E8    -3.744071424007416E-1   4.849204421043396E-1   1.176396682858467E-1   6.644493434578180E-3   1.164335086941719E-1   7.166715804487467E-3  -5.232124328613281E-1   6.585102081298828E-1  
 7.657657657657658E8    -3.614154160022736E-1   4.959273934364319E-1   1.217200681567192E-1  -2.113800292136148E-5   1.209435760974884E-1   9.511214448139072E-4  -5.029647350311279E-1   6.622021794319153E-1  
 7.681681681681682E8    -3.482449948787689E-1   5.059869885444641E-1   1.256084591150284E-1  -7.147507742047310E-3   1.257528215646744E-1  -6.200449075549841E-3  -4.835072755813599E-1   6.645885705947876E-1  
 7.705705705705706E8    -3.360289037227631E-1   5.150919556617737E-1   1.291649341583252E-1  -1.527886465191841E-2   1.296901404857636E-1  -1.414498314261437E-2  -4.629531502723694E-1   6.663693189620972E-1  
 7.729729729729730E8    -3.233250081539154E-1   5.228258371353149E-1   1.317171156406403E-1  -2.453754842281342E-2   1.331484168767929E-1  -2.322158031165600E-2  -4.414583444595337E-1   6.697609424591065E-1  
 7.753753753753754E8    -3.115026652812958E-1   5.294075012207031E-1   1.333598941564560E-1  -3.419811651110649E-2   1.350991576910019E-1  -3.305270895361900E-2  -4.169408977031708E-1   6.726181507110596E-1  
 7.777777777777778E8    -3.008671104907990E-1   5.351604819297791E-1   1.343987882137299E-1  -4.396128654479981E-2   1.357080191373825E-1  -4.309552162885666E-2  -3.895684778690338E-1   6.722533702850342E-1  
 7.801801801801802E8    -2.918612360954285E-1   5.391502976417542E-1   1.351250410079956E-1  -5.357160419225693E-2   1.351004689931870E-1  -5.276226997375488E-2  -3.610569834709168E-1   6.672049164772034E-1  
 7.825825825825826E8    -2.817082107067108E-1   5.448284745216370E-1   1.346848011016846E-1  -6.370513886213303E-2   1.345840096473694E-1  -6.310242414474487E-2  -3.327358663082123E-1   6.621712446212769E-1  
 7.849849849849850E8    -2.732865810394287E-1   5.510058403015137E-1   1.337925344705582E-1  -7.436566799879074E-2   1.335440427064896E-1  -7.328861951828003E-2  -3.072054088115692E-1   6.539821028709412E-1  
 7.873873873873874E8    -2.658210396766663E-1   5.586952567100525E-1   1.321495920419693E-1  -8.512628078460693E-2   1.316654980182648E-1  -8.345011621713638E-2  -2.825526297092438E-1   6.451629996299744E-1  
 7.897897897897898E8    -2.568196952342987E-1   5.675155520439148E-1   1.297123581171036E-1  -9.600132703781128E-2   1.292090564966202E-1  -9.447444975376129E-2  -2.563773393630981E-1   6.357678771018982E-1  
 7.921921921921922E8    -2.458785474300385E-1   5.771664381027222E-1   1.260590404272080E-1  -1.072455793619156E-1   1.263480335474014E-1  -1.061504408717156E-1  -2.296516001224518E-1   6.253374814987183E-1  
 7.945945945945946E8    -2.361533045768738E-1   5.866798162460327E-1   1.217188686132431E-1  -1.187910288572311E-1   1.223329976201057E-1  -1.172649860382080E-1  -2.011301070451737E-1   6.093810200691223E-1  
 7.969969969969970E8    -2.261442691087723E-1   5.942315459251404E-1   1.159408763051033E-1  -1.304565519094467E-1   1.169291287660599E-1  -1.289898157119751E-1  -1.730001717805862E-1   5.903253555297852E-1  
 7.993993993993994E8    -2.164985984563828E-1   6.014179587364197E-1   1.090497821569443E-1  -1.419958919286728E-1   1.102239489555359E-1  -1.408822387456894E-1  -1.460550278425217E-1   5.679835081100464E-1  
 8.018018018018018E8    -2.056032270193100E-1   6.076970696449280E-1   1.008003354072571E-1  -1.532305479049683E-1   1.015855744481087E-1  -1.528843641281128E-1  -1.202064976096153E-1   5.422250032424927E-1  
 8.042042042042042E8    -1.950768232345581E-1   6.150867342948914E-1   9.114819020032883E-2  -1.646584719419479E-1   9.149420261383057E-2  -1.645103394985199E-1  -9.779375046491623E-2   5.127999782562256E-1  
 8.066066066066066E8    -1.841795593500137E-1   6.224731802940369E-1   7.893359661102295E-2  -1.754562258720398E-1   7.925774902105331E-2  -1.755934804677963E-1  -7.718418538570404E-2   4.809541106224060E-1  
 8.090090090090090E8    -1.737814843654633E-1   6.287771463394165E-1   6.492273509502411E-2  -1.851878762245178E-1   6.524299085140228E-2  -1.850679516792297E-1  -6.068563461303711E-2   4.471479952335358E-1  
 8.114114114114114E8    -1.645409464836121E-1   6.350091099739075E-1   4.929364845156670E-2  -1.929600983858109E-1   4.957883059978485E-2  -1.927263587713242E-1  -4.834029823541641E-2   4.105127453804016E-1  
 8.138138138138138E8    -1.552901864051819E-1   6.421932578086853E-1   3.281090036034584E-2  -1.983507722616196E-1   3.303545713424683E-2  -1.979903429746628E-1  -4.042508453130722E-2   3.725920319557190E-1  
 8.162162162162162E8    -1.447520405054092E-1   6.503494977951050E-1   1.580540090799332E-2  -2.018662244081497E-1   1.619872637093067E-2  -2.013564854860306E-1  -3.639898449182510E-2   3.342661857604981E-1  
 8.186186186186186E8    -1.348175406455994E-1   6.579883098602295E-1  -1.212355680763722E-3  -2.031431645154953E-1  -7.365088094957173E-4  -2.025078684091568E-1  -3.611382469534874E-2   2.957738637924194E-1  
 8.210210210210210E8    -1.231838911771774E-1   6.660503745079041E-1  -1.874728128314018E-2  -2.022846043109894E-1  -1.748278550803661E-2  -2.021610885858536E-1  -3.975205868482590E-2   2.568273842334747E-1  
 8.234234234234234E8    -1.118718236684799E-1   6.732510328292847E-1  -3.563647344708443E-2  -1.995705813169479E-1  -3.466934710741043E-2  -1.994717419147492E-1  -4.787643253803253E-2   2.179799377918243E-1  
