#  HZ   S   RI   R     50.00 
! Rohde & Schwarz ZVB8 2Ports - Version 2.81 - 1145.1010k08 SN: 100113
! Date: 2016-05-03 01:38:02
! Measurements: S11 S21 S12 S22 
! 
 6.000000000000000E8     5.013542175292969E-1   2.328093349933624E-1  -9.603354148566723E-3   1.273358124308288E-3  -9.564860723912716E-3   1.288602361455560E-3  -9.677252173423767E-1  -7.418061047792435E-2  
 6.024024024024024E8     4.930440485477448E-1   1.996971368789673E-1  -9.507032111287117E-3   1.464517205022275E-3  -9.499005042016506E-3   1.476024859584868E-3  -9.681414365768433E-1  -6.177222728729248E-2  
 6.048048048048048E8     4.825821518898010E-1   1.680344492197037E-1  -9.532418102025986E-3   1.535123796202242E-3  -9.430023841559887E-3   1.496720942668617E-3  -9.683653712272644E-1  -4.938783869147301E-2  
 6.072072072072072E8     4.699425399303436E-1   1.371172517538071E-1  -9.611763060092926E-3   1.503063831478357E-3  -9.619948454201222E-3   1.483087311498821E-3  -9.682356119155884E-1  -3.695994243025780E-2  
 6.096096096096096E8     4.546488821506500E-1   1.077757328748703E-1  -9.656186215579510E-3   1.396092469803989E-3  -9.653442539274693E-3   1.376459607854486E-3  -9.679979681968689E-1  -2.416058443486691E-2  
 6.120120120120120E8     4.384016394615173E-1   8.593251556158066E-2  -9.794608689844608E-3   1.104975934140384E-3  -9.760042652487755E-3   1.229725079610944E-3  -9.674070477485657E-1  -1.395521499216557E-2  
 6.144144144144144E8     4.216650724411011E-1   6.665871292352676E-2  -9.959861636161804E-3   6.999948527663946E-4  -1.001925580203533E-2   6.943660555407405E-4  -9.672044515609741E-1  -2.027850132435560E-3  
 6.168168168168168E8     4.049109816551209E-1   4.913370311260223E-2  -1.057278178632259E-2   1.787611108738929E-5  -1.051789056509733E-2   1.758856888045557E-5  -9.667661190032959E-1   1.055836118757725E-2  
 6.192192192192192E8     3.892863392829895E-1   3.545230627059937E-2  -1.143913995474577E-2  -5.960191483609378E-4  -1.149314083158970E-2  -6.532480474561453E-4  -9.660044312477112E-1   2.348634228110313E-2  
 6.216216216216216E8     3.767071068286896E-1   2.408596500754356E-2  -1.281810272485018E-2  -1.418536412529647E-3  -1.270257122814655E-2  -1.425950904376805E-3  -9.645482897758484E-1   3.691568598151207E-2  
 6.240240240240240E8     3.671647608280182E-1   1.366662792861462E-2  -1.469945814460516E-2  -1.919574686326087E-3  -1.466426160186529E-2  -2.006010850891471E-3  -9.627318382263184E-1   5.014412850141525E-2  
 6.264264264264264E8     3.635493218898773E-1   3.765610745176673E-3  -1.725169643759728E-2  -2.061114180833101E-3  -1.718688383698463E-2  -2.140128752216697E-3  -9.614008665084839E-1   6.392309814691544E-2  
 6.288288288288288E8     3.640928864479065E-1  -1.082743424922228E-2  -2.016868442296982E-2  -1.420654007233679E-3  -2.007670328021050E-2  -1.605032710358501E-3  -9.598598480224609E-1   7.616781443357468E-2  
 6.312312312312312E8     3.670299053192139E-1  -3.110202774405479E-2  -2.317437343299389E-2   1.315812405664474E-4  -2.309379167854786E-2  -7.156057836255059E-5  -9.579344987869263E-1   8.798099309206009E-2  
 6.336336336336336E8     3.698565661907196E-1  -5.768836289644241E-2  -2.596716210246086E-2   2.545926952734590E-3  -2.587931603193283E-2   2.336500212550163E-3  -9.557693004608154E-1   9.878938645124435E-2  
 6.360360360360360E8     3.697333931922913E-1  -9.012293070554733E-2  -2.815655432641506E-2   5.613941699266434E-3  -2.814101986587048E-2   5.474684759974480E-3  -9.535848498344421E-1   1.087870821356773E-1  
 6.384384384384384E8     3.626394867897034E-1  -1.270781457424164E-1  -2.975008264183998E-2   9.185319766402245E-3  -2.967562898993492E-2   9.054704569280148E-3  -9.512959718704224E-1   1.206156611442566E-1  
 6.408408408408408E8     3.485503792762756E-1  -1.667877435684204E-1  -3.049722313880920E-2   1.302719675004482E-2  -3.044120222330093E-2   1.297182776033878E-2  -9.489417076110840E-1   1.328562349081039E-1  
 6.432432432432432E8     3.247138261795044E-1  -2.074396014213562E-1  -3.050246462225914E-2   1.694151759147644E-2  -3.047104924917221E-2   1.673178747296333E-2  -9.463034272193909E-1   1.444388031959534E-1  
 6.456456456456456E8     2.936972677707672E-1  -2.449094653129578E-1  -2.997573651373386E-2   2.064791694283485E-2  -3.001598268747330E-2   2.044076286256313E-2  -9.438136219978333E-1   1.562007218599320E-1  
 6.480480480480480E8     2.575539946556091E-1  -2.774382531642914E-1  -2.888977155089378E-2   2.428245358169079E-2  -2.896281145513058E-2   2.395845577120781E-2  -9.409186840057373E-1   1.668415367603302E-1  
 6.504504504504504E8     2.167651951313019E-1  -3.033966720104218E-1  -2.737892046570778E-2   2.756217680871487E-2  -2.746099606156349E-2   2.730114199221134E-2  -9.354308247566223E-1   1.787848472595215E-1  
 6.528528528528528E8     1.742534935474396E-1  -3.241911530494690E-1  -2.546969056129456E-2   3.051570430397987E-2  -2.553571201860905E-2   3.018028289079666E-2  -9.301122426986694E-1   1.923349499702454E-1  
 6.552552552552552E8     1.314818263053894E-1  -3.394722938537598E-1  -2.324122190475464E-2   3.300529718399048E-2  -2.332804165780544E-2   3.271191194653511E-2  -9.269259572029114E-1   2.064394354820252E-1  
 6.576576576576576E8     8.759882301092148E-2  -3.500456809997559E-1  -2.099168114364147E-2   3.504262119531632E-2  -2.098787575960159E-2   3.482691198587418E-2  -9.253854751586914E-1   2.186349481344223E-1  
 6.600600600600600E8     4.272664710879326E-2  -3.557349741458893E-1  -1.845710538327694E-2   3.671599552035332E-2  -1.853781566023827E-2   3.662789240479469E-2  -9.238892793655396E-1   2.287803888320923E-1  
 6.624624624624624E8    -1.887056045234203E-3  -3.554657995700836E-1  -1.591374911367893E-2   3.805541247129440E-2  -1.606021262705326E-2   3.779450058937073E-2  -9.194982647895813E-1   2.420423626899719E-1  
 6.648648648648648E8    -4.707434400916100E-2  -3.512488603591919E-1  -1.340695004910231E-2   3.892010077834129E-2  -1.376990601420403E-2   3.872973844408989E-2  -9.146770834922791E-1   2.551898360252380E-1  
 6.672672672672672E8    -8.737649023532867E-2  -3.425476551055908E-1  -1.137507334351540E-2   3.939866647124291E-2  -1.155115943402052E-2   3.929955139756203E-2  -9.095088839530945E-1   2.678845524787903E-1  
 6.696696696696696E8    -1.242535635828972E-1  -3.298786282539368E-1  -9.363913908600807E-3   3.968971967697144E-2  -9.470877237617970E-3   3.953228890895844E-2  -9.037881493568420E-1   2.802388072013855E-1  
 6.720720720720720E8    -1.567219644784927E-1  -3.151032924652100E-1  -7.748926989734173E-3   3.952773287892342E-2  -7.690249942243099E-3   3.941535577178001E-2  -8.977612257003784E-1   2.925796210765839E-1  
 6.744744744744744E8    -1.891589909791946E-1  -2.964845895767212E-1  -6.373582407832146E-3   3.899388760328293E-2  -6.497967988252640E-3   3.898281604051590E-2  -8.911954164505005E-1   3.060483932495117E-1  
 6.768768768768768E8    -2.167581915855408E-1  -2.761134207248688E-1  -5.837001372128725E-3   3.830876573920250E-2  -5.963779520243406E-3   3.821338713169098E-2  -8.839501142501831E-1   3.193445205688477E-1  
 6.792792792792792E8    -2.401963472366333E-1  -2.549329102039337E-1  -6.342007778584957E-3   3.758413344621658E-2  -6.482976488769054E-3   3.759526088833809E-2  -8.763293027877808E-1   3.325965106487274E-1  
 6.816816816816816E8    -2.589806318283081E-1  -2.341187298297882E-1  -8.009353652596474E-3   3.757427260279656E-2  -8.261358365416527E-3   3.746414557099342E-2  -8.677425980567932E-1   3.460324704647064E-1  
 6.840840840840840E8    -2.735414206981659E-1  -2.153037935495377E-1  -1.083203032612801E-2   3.884331136941910E-2  -1.105446182191372E-2   3.863630443811417E-2  -8.584927916526794E-1   3.593929409980774E-1  
 6.864864864864864E8    -2.839445173740387E-1  -1.996487528085709E-1  -1.416459493339062E-2   4.217785596847534E-2  -1.446335855871439E-2   4.199821874499321E-2  -8.479188084602356E-1   3.709492683410645E-1  
 6.888888888888888E8    -2.931251823902130E-1  -1.904016286134720E-1  -1.685783825814724E-2   4.790557920932770E-2  -1.730632223188877E-2   4.767469689249992E-2  -8.366742730140686E-1   3.826523423194885E-1  
 6.912912912912912E8    -3.055440485477448E-1  -1.858419477939606E-1  -1.788047142326832E-2   5.596034601330757E-2  -1.832494139671326E-2   5.571453645825386E-2  -8.254446983337402E-1   3.934787511825562E-1  
 6.936936936936936E8    -3.237510025501251E-1  -1.841975301504135E-1  -1.603825949132443E-2   6.541959196329117E-2  -1.633967831730843E-2   6.516308337450028E-2  -8.149696588516235E-1   4.034779667854309E-1  
 6.960960960960960E8    -3.504397869110107E-1  -1.803129166364670E-1  -1.097944658249617E-2   7.467079162597656E-2  -1.099176146090031E-2   7.455056905746460E-2  -8.052787780761719E-1   4.134433567523956E-1  
 6.984984984984984E8    -3.820623755455017E-1  -1.700418889522553E-1  -3.247350687161088E-3   8.227751404047012E-2  -2.373085124418140E-3   8.210005611181259E-2  -7.942938208580017E-1   4.267590641975403E-1  
 7.009009009009008E8    -4.152491092681885E-1  -1.517251729965210E-1   6.106902845203877E-3   8.746168017387390E-2   7.632588967680931E-3   8.710969239473343E-2  -7.838255763053894E-1   4.396001994609833E-1  
 7.033033033033032E8    -4.459456205368042E-1  -1.257371604442596E-1   1.617158763110638E-2   9.028311073780060E-2   1.740260235965252E-2   8.993276208639145E-2  -7.742649316787720E-1   4.509062170982361E-1  
 7.057057057057056E8    -4.716943204402924E-1  -9.569762647151947E-2   2.590196952223778E-2   9.119608253240585E-2   2.630940079689026E-2   9.094294160604477E-2  -7.657234668731690E-1   4.596251845359802E-1  
 7.081081081081080E8    -4.922016859054565E-1  -6.160768866539002E-2   3.539697825908661E-2   9.100224077701569E-2   3.467109426856041E-2   9.116110205650330E-2  -7.561470866203308E-1   4.698392748832703E-1  
 7.105105105105104E8    -5.063893198966980E-1  -2.678319066762924E-2   4.433090239763260E-2   8.989844471216202E-2   4.273776337504387E-2   9.037767350673676E-2  -7.448655962944031E-1   4.813808202743530E-1  
 7.129129129129129E8    -5.160630941390991E-1   6.231618579477072E-3   5.239714309573174E-2   8.837056159973145E-2   5.076992511749268E-2   8.912336081266403E-2  -7.319324612617493E-1   4.943987429141998E-1  
 7.153153153153153E8    -5.234357714653015E-1   3.878800943493843E-2   5.978462100028992E-2   8.650258928537369E-2   5.891745910048485E-2   8.708890527486801E-2  -7.164259552955627E-1   5.082477927207947E-1  
 7.177177177177178E8    -5.282523036003113E-1   7.090769708156586E-2   6.720307469367981E-2   8.436324447393417E-2   6.684787571430206E-2   8.466286212205887E-2  -6.993379592895508E-1   5.219850540161133E-1  
 7.201201201201202E8    -5.301936268806458E-1   1.032163426280022E-1   7.502923160791397E-2   8.181478083133698E-2   7.479438185691834E-2   8.193588256835938E-2  -6.817203760147095E-1   5.352399945259094E-1  
 7.225225225225226E8    -5.302487611770630E-1   1.346196830272675E-1   8.274857699871063E-2   7.850492745637894E-2   8.259481936693192E-2   7.849569618701935E-2  -6.627722978591919E-1   5.482670068740845E-1  
 7.249249249249250E8    -5.280995965003967E-1   1.660586595535278E-1   9.085540473461151E-2   7.404223829507828E-2   8.960901200771332E-2   7.517118006944656E-2  -6.446820497512817E-1   5.580752491950989E-1  
 7.273273273273274E8    -5.238636732101440E-1   1.949786543846130E-1   9.853265434503555E-2   6.909787654876709E-2   9.673555195331574E-2   7.110433280467987E-2  -6.255348920822144E-1   5.671942830085754E-1  
 7.297297297297298E8    -5.185759067535400E-1   2.210166603326798E-1   1.056280210614204E-1   6.422763317823410E-2   1.041397377848625E-1   6.591205298900604E-2  -6.053375005722046E-1   5.763742327690125E-1  
 7.321321321321322E8    -5.123530030250549E-1   2.451953589916229E-1   1.121860444545746E-1   5.908603221178055E-2   1.115745604038239E-1   5.931099131703377E-2  -5.834858417510986E-1   5.855019092559815E-1  
 7.345345345345346E8    -5.044097900390625E-1   2.678745388984680E-1   1.181750297546387E-1   5.310159921646118E-2   1.179865300655365E-1   5.254244431853294E-2  -5.597217679023743E-1   5.944089889526367E-1  
 7.369369369369370E8    -4.956710338592529E-1   2.909500896930695E-1   1.238818541169167E-1   4.676258191466332E-2   1.239051520824432E-1   4.565664753317833E-2  -5.341899991035461E-1   6.026163697242737E-1  
 7.393393393393394E8    -4.859058856964111E-1   3.120560050010681E-1   1.296702474355698E-1   4.021786153316498E-2   1.296954154968262E-1   3.900570422410965E-2  -5.074633359909058E-1   6.093228459358215E-1  
 7.417417417417418E8    -4.751780033111572E-1   3.315157592296600E-1   1.356155425310135E-1   3.289741277694702E-2   1.354679763317108E-1   3.218251466751099E-2  -4.789334535598755E-1   6.134557127952576E-1  
 7.441441441441442E8    -4.641417860984802E-1   3.498178720474243E-1   1.414482295513153E-1   2.493891865015030E-2   1.412946581840515E-1   2.506776899099350E-2  -4.492089450359345E-1   6.146106123924255E-1  
 7.465465465465466E8    -4.541805684566498E-1   3.672464191913605E-1   1.471808403730393E-1   1.656250655651093E-2   1.470454633235931E-1   1.713018305599690E-2  -4.170137643814087E-1   6.154031753540039E-1  
 7.489489489489490E8    -4.438404142856598E-1   3.840595781803131E-1   1.528839170932770E-1   7.700940594077110E-3   1.530565619468689E-1   8.762801997363567E-3  -3.855715692043304E-1   6.126041412353516E-1  
 7.513513513513514E8    -4.322106540203095E-1   3.996862471103668E-1   1.588517725467682E-1  -2.475765068084002E-3   1.591075807809830E-1  -8.960896520875394E-4  -3.535261154174805E-1   6.066800951957703E-1  
 7.537537537537538E8    -4.192622601985931E-1   4.147975742816925E-1   1.647035777568817E-1  -1.434923149645329E-2   1.651883274316788E-1  -1.246551331132650E-2  -3.195390701293945E-1   5.974151492118835E-1  
 7.561561561561562E8    -4.056506156921387E-1   4.279878139495850E-1   1.699918061494827E-1  -2.763978764414787E-2   1.701011359691620E-1  -2.626478299498558E-2  -2.844676077365875E-1   5.829901695251465E-1  
 7.585585585585586E8    -3.930320441722870E-1   4.389206469058991E-1   1.738064736127853E-1  -4.232524707913399E-2   1.731776893138886E-1  -4.126897454261780E-2  -2.486597746610642E-1   5.663414597511292E-1  
 7.609609609609610E8    -3.815427124500275E-1   4.485605061054230E-1   1.762567758560181E-1  -5.843913555145264E-2   1.749869436025620E-1  -5.709736794233322E-2  -2.138568460941315E-1   5.450990796089172E-1  
 7.633633633633634E8    -3.715317547321320E-1   4.567260146141052E-1   1.767046451568604E-1  -7.580702006816864E-2   1.754700243473053E-1  -7.401388138532639E-2  -1.816705912351608E-1   5.184552073478699E-1  
 7.657657657657658E8    -3.625139892101288E-1   4.655514359474182E-1   1.748171895742416E-1  -9.397781640291214E-2   1.744106858968735E-1  -9.191101789474487E-2  -1.529737263917923E-1   4.868785738945007E-1  
 7.681681681681682E8    -3.540029227733612E-1   4.739761948585510E-1   1.706604063510895E-1  -1.123183369636536E-1   1.716234236955643E-1  -1.106452122330666E-1  -1.282237321138382E-1   4.504681527614594E-1  
 7.705705705705706E8    -3.472995460033417E-1   4.824263155460358E-1   1.639170795679092E-1  -1.309421062469482E-1   1.656378209590912E-1  -1.292636692523956E-1  -1.065303161740303E-1   4.113323390483856E-1  
 7.729729729729730E8    -3.403792083263397E-1   4.906315207481384E-1   1.536299586296082E-1  -1.495088636875153E-1   1.566120535135269E-1  -1.484520584344864E-1  -8.796589076519013E-2   3.701827228069305E-1  
 7.753753753753754E8    -3.345146775245667E-1   4.989332854747772E-1   1.403729915618897E-1  -1.668917089700699E-1   1.435318142175674E-1  -1.664522141218185E-1  -7.343444973230362E-2   3.248801529407501E-1  
 7.777777777777778E8    -3.294816911220551E-1   5.075137615203857E-1   1.247147023677826E-1  -1.821487396955490E-1   1.270850598812103E-1  -1.817257255315781E-1  -6.476182490587235E-2   2.760172784328461E-1  
 7.801801801801802E8    -3.254382014274597E-1   5.161276459693909E-1   1.077904477715492E-1  -1.946855485439301E-1   1.086598709225655E-1  -1.934884935617447E-1  -6.300050765275955E-2   2.241131216287613E-1  
 7.825825825825826E8    -3.197199106216431E-1   5.267369747161865E-1   8.948755264282227E-2  -2.045752555131912E-1   8.983472734689713E-2  -2.039012759923935E-1  -6.852502375841141E-2   1.734076440334320E-1  
 7.849849849849850E8    -3.148049414157867E-1   5.388871431350708E-1   6.971193850040436E-2  -2.128580957651138E-1   7.057904452085495E-2  -2.117192298173904E-1  -8.200481534004211E-2   1.240666657686234E-1  
 7.873873873873874E8    -3.089745938777924E-1   5.534770488739014E-1   4.974831268191338E-2  -2.184980213642120E-1   5.034777522087097E-2  -2.171511650085449E-1  -1.017193645238876E-1   7.667806744575501E-2  
 7.897897897897898E8    -3.007009625434876E-1   5.697069764137268E-1   2.920299023389816E-2  -2.218391448259354E-1   2.956141345202923E-2  -2.206079661846161E-1  -1.274455040693283E-1   3.177658468484879E-2  
 7.921921921921922E8    -2.888551354408264E-1   5.864911079406738E-1   8.064153604209423E-3  -2.223134487867355E-1   8.428473025560379E-3  -2.220610082149506E-1  -1.600843816995621E-1  -9.358584880828857E-3  
 7.945945945945946E8    -2.775454223155975E-1   6.021990776062012E-1  -1.266698539257050E-2  -2.206624001264572E-1  -1.162914372980595E-2  -2.202734053134918E-1  -1.980485767126083E-1  -4.445875436067581E-2  
 7.969969969969970E8    -2.649548947811127E-1   6.161280274391174E-1  -3.297561407089233E-2  -2.159273326396942E-1  -3.161462768912315E-2  -2.158251106739044E-1  -2.399462014436722E-1  -7.135311514139175E-2  
 7.993993993993994E8    -2.518335282802582E-1   6.285212635993958E-1  -5.157100036740303E-2  -2.086395472288132E-1  -5.034079402685165E-2  -2.088420689105988E-1  -2.835262119770050E-1  -9.077683836221695E-2  
 8.018018018018018E8    -2.368057370185852E-1   6.398127675056458E-1  -6.868964433670044E-2  -1.994637548923492E-1  -6.787855923175812E-2  -1.999473869800568E-1  -3.265731930732727E-1  -1.032329946756363E-1  
 8.042042042042042E8    -2.216321080923080E-1   6.508316993713379E-1  -8.438569307327271E-2  -1.891375482082367E-1  -8.364207297563553E-2  -1.893961578607559E-1  -3.692729771137238E-1  -1.108805090188980E-1  
 8.066066066066066E8    -2.056221961975098E-1   6.609398126602173E-1  -9.839038550853729E-2  -1.770183145999908E-1  -9.765974432229996E-2  -1.772833168506622E-1  -4.115213453769684E-1  -1.118905246257782E-1  
 8.090090090090090E8    -1.886208206415176E-1   6.705386042594910E-1  -1.102953553199768E-1  -1.635520458221436E-1  -1.096723973751068E-1  -1.640524864196777E-1  -4.517713487148285E-1  -1.082148924469948E-1  
 8.114114114114114E8    -1.715531051158905E-1   6.784751415252686E-1  -1.200270429253578E-1  -1.492338776588440E-1  -1.194240599870682E-1  -1.500769555568695E-1  -4.892926514148712E-1  -1.001913249492645E-1  
 8.138138138138138E8    -1.551097631454468E-1   6.856349110603333E-1  -1.273620575666428E-1  -1.348951160907745E-1  -1.268675923347473E-1  -1.355462968349457E-1  -5.230838060379028E-1  -8.896782249212265E-2  
 8.162162162162162E8    -1.384683847427368E-1   6.922036409378052E-1  -1.326763927936554E-1  -1.207358986139298E-1  -1.321560591459274E-1  -1.214511245489121E-1  -5.532485842704773E-1  -7.596999406814575E-2  
 8.186186186186186E8    -1.229256018996239E-1   6.976798772811890E-1  -1.361935734748840E-1  -1.073481366038322E-1  -1.356592774391174E-1  -1.078956574201584E-1  -5.810840129852295E-1  -6.110843643546104E-2  
 8.210210210210210E8    -1.074213311076164E-1   7.014588117599487E-1  -1.386344879865646E-1  -9.484096616506577E-2  -1.380264610052109E-1  -9.462781995534897E-2  -6.065339446067810E-1  -4.447076842188835E-2  
 8.234234234234234E8    -9.212997555732727E-2   7.045319080352783E-1  -1.399898082017899E-1  -8.235576748847961E-2  -1.392275094985962E-1  -8.191440999507904E-2  -6.291333436965942E-1  -2.757462859153748E-2  
