#  HZ   S   RI   R     50.00 
! Rohde & Schwarz ZVB8 2Ports - Version 2.81 - 1145.1010k08 SN: 100113
! Date: 2016-05-03 01:38:20
! Measurements: S11 S21 S12 S22 
! 
 6.000000000000000E8     5.046650767326355E-1   2.364861071109772E-1  -1.099902484565973E-2   1.922912895679474E-3  -1.102878432720900E-2   1.970841316506267E-3  -9.655320048332214E-1  -5.320340022444725E-2  
 6.024024024024024E8     4.981046020984650E-1   2.032423019409180E-1  -1.103449240326881E-2   2.101455582305789E-3  -1.098566967993975E-2   2.046296838670969E-3  -9.653340578079224E-1  -3.979403525590897E-2  
 6.048048048048048E8     4.886117577552795E-1   1.694761216640472E-1  -1.102445833384991E-2   2.136543393135071E-3  -1.102679409086704E-2   2.129747532308102E-3  -9.649460315704346E-1  -2.632417529821396E-2  
 6.072072072072072E8     4.760451912879944E-1   1.370545774698257E-1  -1.111224573105574E-2   2.022622618824244E-3  -1.111550815403462E-2   2.073425333946943E-3  -9.643878340721130E-1  -1.305561140179634E-2  
 6.096096096096096E8     4.606865048408508E-1   1.067694053053856E-1  -1.133297011256218E-2   1.879487303085625E-3  -1.126859523355961E-2   1.916038338094950E-3  -9.635567665100098E-1   5.360858631320298E-4  
 6.120120120120120E8     4.434805512428284E-1   8.121062815189362E-2  -1.157263666391373E-2   1.562355668283999E-3  -1.153336837887764E-2   1.552157336845994E-3  -9.622171521186829E-1   1.234032772481442E-2  
 6.144144144144144E8     4.253591001033783E-1   5.905178934335709E-2  -1.193348690867424E-2   1.045542652718723E-3  -1.191763672977686E-2   9.445156319998205E-4  -9.616046547889710E-1   2.502298913896084E-2  
 6.168168168168168E8     4.062816798686981E-1   4.021187871694565E-2  -1.268004439771175E-2   2.335207100259140E-4  -1.267350465059280E-2   2.221680479124188E-4  -9.604339599609375E-1   3.865913301706314E-2  
 6.192192192192192E8     3.872134089469910E-1   2.550233900547028E-2  -1.389891281723976E-2  -6.196952890604734E-4  -1.391704566776753E-2  -6.835600943304598E-4  -9.586051702499390E-1   5.253420770168304E-2  
 6.216216216216216E8     3.720316290855408E-1   1.583483628928661E-2  -1.578111387789249E-2  -1.496311044320464E-3  -1.574508845806122E-2  -1.652574399486184E-3  -9.561036229133606E-1   6.747362762689591E-2  
 6.240240240240240E8     3.621423244476318E-1   9.107018820941448E-3  -1.838926970958710E-2  -2.197136171162128E-3  -1.835712231695652E-2  -2.249623648822308E-3  -9.531012773513794E-1   8.178175240755081E-2  
 6.264264264264264E8     3.578326404094696E-1   1.317552174441516E-3  -2.177628874778748E-2  -2.050104318186641E-3  -2.169268019497395E-2  -2.217842498794198E-3  -9.507919549942017E-1   9.720458835363388E-2  
 6.288288288288288E8     3.586064875125885E-1  -1.057411078363657E-2  -2.570976316928864E-2  -1.072258688509464E-3  -2.566328831017017E-2  -1.211036462336779E-3  -9.476031064987183E-1   1.108441352844238E-1  
 6.312312312312312E8     3.630545139312744E-1  -2.880908735096455E-2  -2.970679663121700E-2   1.259652315638959E-3  -2.970858104526997E-2   1.084025483578444E-3  -9.443793892860413E-1   1.236122772097588E-1  
 6.336336336336336E8     3.677111864089966E-1  -5.557040497660637E-2  -3.327105194330216E-2   4.888612311333418E-3  -3.317802771925926E-2   4.653995856642723E-3  -9.407570958137512E-1   1.357567161321640E-1  
 6.360360360360360E8     3.671188056468964E-1  -9.017148613929749E-2  -3.588647022843361E-2   9.274284355342388E-3  -3.590766340494156E-2   9.121942333877087E-3  -9.372327923774719E-1   1.473383903503418E-1  
 6.384384384384384E8     3.595390617847443E-1  -1.284289658069611E-1  -3.762672841548920E-2   1.439866423606873E-2  -3.754679486155510E-2   1.418635994195938E-2  -9.332189559936523E-1   1.606709659099579E-1  
 6.408408408408408E8     3.437281250953674E-1  -1.690828502178192E-1  -3.821082413196564E-2   1.979366131126881E-2  -3.822647407650948E-2   1.945390366017819E-2  -9.292364120483398E-1   1.740780472755432E-1  
 6.432432432432432E8     3.209421634674072E-1  -2.079895287752152E-1  -3.789576143026352E-2   2.501747570931912E-2  -3.790180385112763E-2   2.471909858286381E-2  -9.248191118240356E-1   1.875461190938950E-1  
 6.456456456456456E8     2.913132309913635E-1  -2.440569400787354E-1  -3.683385625481606E-2   2.983990311622620E-2  -3.682617098093033E-2   2.961776964366436E-2  -9.205136895179749E-1   2.005062550306320E-1  
 6.480480480480480E8     2.544803917407990E-1  -2.762848436832428E-1  -3.500656783580780E-2   3.460625559091568E-2  -3.518671542406082E-2   3.422158956527710E-2  -9.155098795890808E-1   2.130034714937210E-1  
 6.504504504504504E8     2.134279012680054E-1  -3.018797338008881E-1  -3.277958929538727E-2   3.899793326854706E-2  -3.292044252157211E-2   3.861070796847343E-2  -9.074766635894775E-1   2.270175963640213E-1  
 6.528528528528528E8     1.710024327039719E-1  -3.221691548824310E-1  -2.992738410830498E-2   4.285999387502670E-2  -3.010991588234901E-2   4.256959632039070E-2  -8.997394442558289E-1   2.429097890853882E-1  
 6.552552552552552E8     1.277849078178406E-1  -3.374091684818268E-1  -2.691590599715710E-2   4.612055420875549E-2  -2.715764939785004E-2   4.592891037464142E-2  -8.939117193222046E-1   2.588875591754913E-1  
 6.576576576576576E8     8.331349492073059E-2  -3.476079702377319E-1  -2.359505929052830E-2   4.912577569484711E-2  -2.380500920116901E-2   4.893781989812851E-2  -8.893572688102722E-1   2.734268307685852E-1  
 6.600600600600600E8     4.030927270650864E-2  -3.525603413581848E-1  -2.016213908791542E-2   5.145820602774620E-2  -2.023164741694927E-2   5.128857120871544E-2  -8.845518231391907E-1   2.856899499893189E-1  
 6.624624624624624E8    -2.897421363741159E-3  -3.519490361213684E-1  -1.657768525183201E-2   5.324988439679146E-2  -1.670624502003193E-2   5.309313535690308E-2  -8.764603137969971E-1   3.013211190700531E-1  
 6.648648648648648E8    -4.654386639595032E-2  -3.478083312511444E-1  -1.313136797398329E-2   5.457570403814316E-2  -1.346709765493870E-2   5.439290031790733E-2  -8.674845695495606E-1   3.170032799243927E-1  
 6.672672672672672E8    -8.841508626937866E-2  -3.390606939792633E-1  -1.011574361473322E-2   5.571458488702774E-2  -1.044408790767193E-2   5.552575737237930E-2  -8.578142523765564E-1   3.322451412677765E-1  
 6.696696696696696E8    -1.272718012332916E-1  -3.261376321315765E-1  -7.038703653961420E-3   5.654031410813332E-2  -7.402007933706045E-3   5.634185299277306E-2  -8.468932509422302E-1   3.472394347190857E-1  
 6.720720720720720E8    -1.605382263660431E-1  -3.109195530414581E-1  -4.277800209820271E-3   5.687851831316948E-2  -4.561988171190023E-3   5.670459568500519E-2  -8.350830078125000E-1   3.624321222305298E-1  
 6.744744744744744E8    -1.899169832468033E-1  -2.924034297466278E-1  -1.982509624212980E-3   5.683438107371330E-2  -2.077957382425666E-3   5.673348158597946E-2  -8.216031193733215E-1   3.784183561801910E-1  
 6.768768768768768E8    -2.164220362901688E-1  -2.719174921512604E-1  -4.473686276469380E-4   5.636644363403320E-2  -5.867674481123686E-4   5.625198408961296E-2  -8.069180846214294E-1   3.941649794578552E-1  
 6.792792792792792E8    -2.387638539075851E-1  -2.511321902275085E-1  -3.118640452157706E-4   5.595373734831810E-2  -4.027796094305813E-4   5.569890141487122E-2  -7.906672358512878E-1   4.094558358192444E-1  
 6.816816816816816E8    -2.569135427474976E-1  -2.313780635595322E-1  -1.866203267127276E-3   5.629268288612366E-2  -1.980475615710020E-3   5.609984695911408E-2  -7.726299166679382E-1   4.243466556072235E-1  
 6.840840840840840E8    -2.723649144172669E-1  -2.133036702871323E-1  -4.929234273731709E-3   5.855291709303856E-2  -5.147392861545086E-3   5.852899327874184E-2  -7.524260878562927E-1   4.378211498260498E-1  
 6.864864864864864E8    -2.850468754768372E-1  -1.969703137874603E-1  -8.418626151978970E-3   6.430371105670929E-2  -8.948395960032940E-3   6.422052532434464E-2  -7.304807901382446E-1   4.486341178417206E-1  
 6.888888888888888E8    -2.970526218414307E-1  -1.852219849824905E-1  -1.033611316233873E-2   7.385569810867310E-2  -1.119575556367636E-2   7.374078780412674E-2  -7.072477340698242E-1   4.575374126434326E-1  
 6.912912912912912E8    -3.110202550888062E-1  -1.776105314493179E-1  -8.999987505376339E-3   8.667744696140289E-2  -1.000496465712786E-2   8.651515841484070E-2  -6.853805780410767E-1   4.642201662063599E-1  
 6.936936936936936E8    -3.291805088520050E-1  -1.730412393808365E-1  -2.612982876598835E-3   1.008338630199432E-1  -3.412480233237147E-3   1.008388698101044E-1  -6.652758121490479E-1   4.693073630332947E-1  
 6.960960960960960E8    -3.536256253719330E-1  -1.663630455732346E-1   9.229609742760658E-3   1.140020415186882E-1   8.884338662028313E-3   1.138684749603272E-1  -6.459975838661194E-1   4.747168719768524E-1  
 6.984984984984984E8    -3.816661536693573E-1  -1.538041532039642E-1   2.515629120171070E-2   1.235660389065743E-1   2.625489979982376E-2   1.229841709136963E-1  -6.250148415565491E-1   4.834043383598328E-1  
 7.009009009009008E8    -4.097455441951752E-1  -1.346963495016098E-1   4.325190931558609E-2   1.285909861326218E-1   4.541024938225746E-2   1.272686272859573E-1  -6.039909124374390E-1   4.921130537986755E-1  
 7.033033033033032E8    -4.344735741615295E-1  -1.101509481668472E-1   6.160309910774231E-2   1.292369365692139E-1   6.354522705078125E-2   1.276071667671204E-1  -5.826284289360046E-1   4.996015131473541E-1  
 7.057057057057056E8    -4.562520384788513E-1  -8.111388981342316E-2   7.958746701478958E-2   1.267087757587433E-1   8.010654151439667E-2   1.258883774280548E-1  -5.603424906730652E-1   5.051051378250122E-1  
 7.081081081081080E8    -4.731952548027039E-1  -4.873683303594589E-2   9.680093079805374E-2   1.215967461466789E-1   9.589786082506180E-2   1.222750768065453E-1  -5.349356532096863E-1   5.103054046630859E-1  
 7.105105105105104E8    -4.849514961242676E-1  -1.568712480366230E-2   1.129657477140427E-1   1.145181804895401E-1   1.113050952553749E-1   1.166662275791168E-1  -5.060542821884155E-1   5.151902437210083E-1  
 7.129129129129129E8    -4.931096136569977E-1   1.538412645459175E-2   1.279419064521790E-1   1.065467894077301E-1   1.264254748821259E-1   1.091409400105476E-1  -4.731568992137909E-1   5.184186697006226E-1  
 7.153153153153153E8    -4.982038140296936E-1   4.362489283084869E-2   1.422088146209717E-1   9.786794334650040E-2   1.410106271505356E-1   9.979534149169922E-2  -4.374712705612183E-1   5.190322995185852E-1  
 7.177177177177178E8    -5.014357566833496E-1   7.041908800601959E-2   1.564336717128754E-1   8.768994361162186E-2   1.558754444122315E-1   8.853098005056381E-2  -3.984161317348480E-1   5.153284668922424E-1  
 7.201201201201202E8    -5.024542808532715E-1   9.841581434011459E-2   1.708102226257324E-1   7.467864453792572E-2   1.700868457555771E-1   7.526210695505142E-2  -3.592076897621155E-1   5.066735148429871E-1  
 7.225225225225226E8    -5.014005303382874E-1   1.244122982025147E-1   1.840700656175613E-1   5.927649512887001E-2   1.832241863012314E-1   5.940036103129387E-2  -3.184233009815216E-1   4.925252497196198E-1  
 7.249249249249250E8    -4.991443455219269E-1   1.508744210004807E-1   1.959497779607773E-1   4.003403335809708E-2   1.946181505918503E-1   4.295400530099869E-2  -2.796072661876679E-1   4.713813364505768E-1  
 7.273273273273274E8    -4.958391487598419E-1   1.740484833717346E-1   2.054015696048737E-1   1.882609166204929E-2   2.042802125215530E-1   2.363230474293232E-2  -2.417084276676178E-1   4.439156651496887E-1  
 7.297297297297298E8    -4.930905699729919E-1   1.940289139747620E-1   2.117143124341965E-1  -3.131163772195578E-3   2.111544907093048E-1   9.862955193966627E-4  -2.062098085880280E-1   4.101383686065674E-1  
 7.321321321321322E8    -4.911819100379944E-1   2.126772403717041E-1   2.147179543972015E-1  -2.496557123959065E-2   2.144123911857605E-1  -2.407727204263210E-2  -1.743120998144150E-1   3.712232112884522E-1  
 7.345345345345346E8    -4.887951314449310E-1   2.328152507543564E-1   2.141360640525818E-1  -4.825508221983910E-2   2.138028293848038E-1  -4.839711636304855E-2  -1.460660099983215E-1   3.269837200641632E-1  
 7.369369369369370E8    -4.856860935688019E-1   2.519795298576355E-1   2.107949554920197E-1  -7.172118872404099E-2   2.097252905368805E-1  -7.285722345113754E-2  -1.238379701972008E-1   2.763208746910095E-1  
 7.393393393393394E8    -4.817181527614594E-1   2.699430584907532E-1   2.040410041809082E-1  -9.500078111886978E-2   2.026378810405731E-1  -9.636364877223969E-2  -1.096960306167603E-1   2.205981165170670E-1  
 7.417417417417418E8    -4.776929020881653E-1   2.890560328960419E-1   1.933656632900238E-1  -1.178029701113701E-1   1.922424137592316E-1  -1.183264032006264E-1  -1.051300466060638E-1   1.606782525777817E-1  
 7.441441441441442E8    -4.728530645370483E-1   3.076175153255463E-1   1.794977337121964E-1  -1.384955048561096E-1   1.792305856943131E-1  -1.381549388170242E-1  -1.110337153077126E-1   9.935884177684784E-2  
 7.465465465465466E8    -4.691590666770935E-1   3.259644508361816E-1   1.631573140621185E-1  -1.563926339149475E-1   1.635419875383377E-1  -1.556865125894547E-1  -1.266447454690933E-1   4.092006012797356E-2  
 7.489489489489490E8    -4.650771319866180E-1   3.440291583538055E-1   1.449275910854340E-1  -1.715223044157028E-1   1.456170231103897E-1  -1.709246486425400E-1  -1.539893001317978E-1  -1.384608820080757E-2  
 7.513513513513514E8    -4.603460729122162E-1   3.619484305381775E-1   1.247576698660851E-1  -1.838992387056351E-1   1.260852217674255E-1  -1.830402761697769E-1  -1.894887685775757E-1  -6.146899983286858E-2  
 7.537537537537538E8    -4.542394578456879E-1   3.810962736606598E-1   1.032809391617775E-1  -1.933049857616425E-1   1.054205968976021E-1  -1.923621147871018E-1  -2.313693314790726E-1  -1.022811308503151E-1  
 7.561561561561562E8    -4.473694562911987E-1   3.985962867736816E-1   8.243867009878159E-2  -1.995680034160614E-1   8.342756330966950E-2  -1.985704451799393E-1  -2.776520848274231E-1  -1.364453583955765E-1  
 7.585585585585586E8    -4.399149715900421E-1   4.169359803199768E-1   6.159470230340958E-2  -2.025176733732224E-1   6.167656555771828E-2  -2.010637223720551E-1  -3.259651362895966E-1  -1.598060429096222E-1  
 7.609609609609610E8    -4.319615364074707E-1   4.338470399379730E-1   4.186045750975609E-2  -2.028553485870361E-1   4.193544015288353E-2  -2.009703218936920E-1  -3.747884631156921E-1  -1.741624474525452E-1  
 7.633633633633634E8    -4.238246679306030E-1   4.515338540077210E-1   2.254484035074711E-2  -2.011632323265076E-1   2.389410324394703E-2  -1.994940340518951E-1  -4.233378171920776E-1  -1.809693872928619E-1  
 7.657657657657658E8    -4.156104624271393E-1   4.688988626003265E-1   4.543768707662821E-3  -1.976750791072846E-1   6.638398393988609E-3  -1.968022733926773E-1  -4.708460867404938E-1  -1.822976320981979E-1  
 7.681681681681682E8    -4.066863358020783E-1   4.863631129264832E-1  -1.204327214509249E-2  -1.924415230751038E-1  -1.017014402896166E-2  -1.928733289241791E-1  -5.155004262924194E-1  -1.790512800216675E-1  
 7.705705705705706E8    -3.971670866012573E-1   5.034700632095337E-1  -2.756853960454464E-2  -1.862983256578445E-1  -2.561777643859386E-2  -1.867667287588120E-1  -5.547508001327515E-1  -1.712743490934372E-1  
 7.729729729729730E8    -3.856912851333618E-1   5.200910568237305E-1  -4.253927245736122E-2  -1.780283153057098E-1  -4.072602465748787E-2  -1.794593483209610E-1  -5.915791392326355E-1  -1.595285534858704E-1  
 7.753753753753754E8    -3.736562430858612E-1   5.347742438316345E-1  -5.578056350350380E-2  -1.683014333248138E-1  -5.419507622718811E-2  -1.697224080562592E-1  -6.247170567512512E-1  -1.446251273155212E-1  
 7.777777777777778E8    -3.608503341674805E-1   5.475066900253296E-1  -6.661859899759293E-2  -1.573854386806488E-1  -6.550378352403641E-2  -1.582997739315033E-1  -6.536952853202820E-1  -1.274436861276627E-1  
 7.801801801801802E8    -3.484165668487549E-1   5.586922764778137E-1  -7.515775412321091E-2  -1.463675796985626E-1  -7.415585219860077E-2  -1.459166854619980E-1  -6.784819960594177E-1  -1.085662171244621E-1  
 7.825825825825826E8    -3.353495001792908E-1   5.704821348190308E-1  -8.147649466991425E-2  -1.351693272590637E-1  -8.107023686170578E-2  -1.344987303018570E-1  -7.017210125923157E-1  -8.862432837486267E-2  
 7.849849849849850E8    -3.232829868793488E-1   5.832210779190064E-1  -8.661699295043945E-2  -1.245310381054878E-1  -8.586901426315308E-2  -1.241232007741928E-1  -7.213338613510132E-1  -7.018577307462692E-2  
 7.873873873873874E8    -3.113361299037933E-1   5.967570543289185E-1  -9.075935930013657E-2  -1.147993877530098E-1  -8.962672948837280E-2  -1.145172044634819E-1  -7.386999726295471E-1  -5.268207564949989E-2  
 7.897897897897898E8    -2.973531484603882E-1   6.110889911651611E-1  -9.407377243041992E-2  -1.052812859416008E-1  -9.296915680170059E-2  -1.053647473454475E-1  -7.559883594512940E-1  -3.467665240168572E-2  
 7.921921921921922E8    -2.806830108165741E-1   6.253423094749451E-1  -9.633518010377884E-2  -9.617336839437485E-2  -9.563321620225906E-2  -9.677482396364212E-2  -7.730950117111206E-1  -1.559537183493376E-2  
 7.945945945945946E8    -2.652927637100220E-1   6.385864019393921E-1  -9.811428934335709E-2  -8.804853260517120E-2  -9.712511301040649E-2  -8.897202461957932E-2  -7.857045531272888E-1   4.642585758119822E-3  
 7.969969969969970E8    -2.485690265893936E-1   6.496219038963318E-1  -9.960962831974030E-2  -8.043026179075241E-2  -9.880564361810684E-2  -8.145640790462494E-2  -7.966254353523254E-1   2.587989717721939E-2  
 7.993993993993994E8    -2.316938936710358E-1   6.586079597473145E-1  -1.008942574262619E-1  -7.306955754756928E-2  -1.003579199314117E-1  -7.410639524459839E-2  -8.062335848808289E-1   4.700454324483872E-2  
 8.018018018018018E8    -2.143167108297348E-1   6.658559441566467E-1  -1.018244847655296E-1  -6.597818434238434E-2  -1.015983298420906E-1  -6.648756563663483E-2  -8.135345578193665E-1   6.807029992341995E-2  
 8.042042042042042E8    -1.967742741107941E-1   6.724653244018555E-1  -1.027285084128380E-1  -5.897523835301399E-2  -1.023476794362068E-1  -5.908460170030594E-2  -8.201749324798584E-1   8.704830706119537E-2  
 8.066066066066066E8    -1.788607835769653E-1   6.784585714340210E-1  -1.031317785382271E-1  -5.174474418163300E-2  -1.027969643473625E-1  -5.167329311370850E-2  -8.260208964347839E-1   1.072183921933174E-1  
 8.090090090090090E8    -1.611795872449875E-1   6.833390593528748E-1  -1.028404384851456E-1  -4.440418258309364E-2  -1.024728342890739E-1  -4.450316727161408E-2  -8.298859596252441E-1   1.260763853788376E-1  
 8.114114114114114E8    -1.447946876287460E-1   6.873180270195007E-1  -1.018388718366623E-1  -3.755976259708405E-2  -1.016388982534409E-1  -3.766142204403877E-2  -8.330706954002380E-1   1.440607011318207E-1  
 8.138138138138138E8    -1.292929202318192E-1   6.904372572898865E-1  -1.003831401467323E-1  -3.112029470503330E-2  -1.001276224851608E-1  -3.138177096843720E-2  -8.356408476829529E-1   1.610395014286041E-1  
 8.162162162162162E8    -1.136967092752457E-1   6.940007805824280E-1  -9.845010936260223E-2  -2.524529397487640E-2  -9.823075681924820E-2  -2.554021961987019E-2  -8.381568789482117E-1   1.776184439659119E-1  
 8.186186186186186E8    -9.961562603712082E-2   6.970974206924439E-1  -9.646014124155045E-2  -1.986647956073284E-2  -9.617464244365692E-2  -2.022594213485718E-2  -8.398248553276062E-1   1.946895867586136E-1  
 8.210210210210210E8    -8.636708557605743E-2   6.981950998306274E-1  -9.416723251342773E-2  -1.488360390067101E-2  -9.390534460544586E-2  -1.517679635435343E-2  -8.404894471168518E-1   2.113834321498871E-1  
 8.234234234234234E8    -7.295316457748413E-2   7.001670598983765E-1  -9.147202968597412E-2  -1.027705240994692E-2  -9.133064746856690E-2  -1.053411047905684E-2  -8.412000536918640E-1   2.278647571802139E-1  
