#  HZ   S   RI   R     50.00 
! Rohde & Schwarz ZVB8 2Ports - Version 2.81 - 1145.1010k08 SN: 100113
! Date: 2016-05-03 01:37:48
! Measurements: S11 S21 S12 S22 
! 
 6.000000000000000E8     4.998751580715179E-1   2.341242879629135E-1  -8.548309095203877E-3   1.240930519998074E-3  -8.503179065883160E-3   1.207905705086887E-3  -9.683812260627747E-1  -8.515812456607819E-2  
 6.024024024024024E8     4.921977818012238E-1   2.022558301687241E-1  -8.420416153967381E-3   1.437921309843659E-3  -8.399683050811291E-3   1.373158185742796E-3  -9.690158963203430E-1  -7.354234904050827E-2  
 6.048048048048048E8     4.833480119705200E-1   1.716732978820801E-1  -8.396648801863194E-3   1.369975274428725E-3  -8.407177403569222E-3   1.407507690601051E-3  -9.695834517478943E-1  -6.120068579912186E-2  
 6.072072072072072E8     4.722089469432831E-1   1.412795335054398E-1  -8.438019081950188E-3   1.348519697785378E-3  -8.330921642482281E-3   1.299235620535910E-3  -9.696187376976013E-1  -4.935344681143761E-2  
 6.096096096096096E8     4.580463171005249E-1   1.129302531480789E-1  -8.468392305076122E-3   1.184770953841507E-3  -8.359291590750217E-3   1.223187544383109E-3  -9.694776535034180E-1  -3.717608377337456E-2  
 6.120120120120120E8     4.413119554519653E-1   8.846712857484818E-2  -8.550573140382767E-3   9.948811493813992E-4  -8.522357791662216E-3   8.888390730135143E-4  -9.693136811256409E-1  -2.741836011409760E-2  
 6.144144144144144E8     4.244101345539093E-1   6.844715029001236E-2  -8.725514635443687E-3   6.251683225855231E-4  -8.633316494524479E-3   4.955502226948738E-4  -9.695474505424500E-1  -1.592527702450752E-2  
 6.168168168168168E8     4.083092212677002E-1   5.058554559946060E-2  -9.001842699944973E-3  -3.952946644858457E-5  -9.027724154293537E-3  -8.807502308627591E-5  -9.695729613304138E-1  -4.056425765156746E-3  
 6.192192192192192E8     3.935633003711700E-1   3.567234799265862E-2  -9.671043604612351E-3  -7.346082129515708E-4  -9.719772264361382E-3  -7.852523121982813E-4  -9.690827727317810E-1   8.002286776900291E-3  
 6.216216216216216E8     3.811133801937103E-1   2.218674495816231E-2  -1.082266960293055E-2  -1.458157319575548E-3  -1.078986842185259E-2  -1.677735941484571E-3  -9.681342244148254E-1   2.087538130581379E-2  
 6.240240240240240E8     3.708405792713165E-1   9.879059158265591E-3  -1.246980298310518E-2  -2.241428242996335E-3  -1.239978522062302E-2  -2.359954174607992E-3  -9.667812585830689E-1   3.378486633300781E-2  
 6.264264264264264E8     3.662426471710205E-1  -1.133539713919163E-3  -1.472729258239269E-2  -2.530602505430579E-3  -1.466448325663805E-2  -2.635251265019178E-3  -9.658288955688477E-1   4.688977450132370E-2  
 6.288288288288288E8     3.663747310638428E-1  -1.480702310800552E-2  -1.743230596184731E-2  -2.221243456006050E-3  -1.728427782654762E-2  -2.330539515241981E-3  -9.647327661514282E-1   5.882386490702629E-2  
 6.312312312312312E8     3.682038784027100E-1  -3.438607975840569E-2  -2.023319900035858E-2  -1.013557659462094E-3  -2.018567919731140E-2  -1.149431220255792E-3  -9.633429646492004E-1   6.985814869403839E-2  
 6.336336336336336E8     3.703278601169586E-1  -5.984221771359444E-2  -2.280483022332192E-2   9.956784779205918E-4  -2.277617156505585E-2   8.585668983869255E-4  -9.616193771362305E-1   8.004617691040039E-2  
 6.360360360360360E8     3.695745468139648E-1  -9.197777509689331E-2  -2.493630722165108E-2   3.639532253146172E-3  -2.493618242442608E-2   3.654249012470245E-3  -9.599930644035339E-1   8.943915367126465E-2  
 6.384384384384384E8     3.621586859226227E-1  -1.287074089050293E-1  -2.644549869000912E-2   6.798521615564823E-3  -2.639344148337841E-2   6.771693471819162E-3  -9.583818912506104E-1   1.010085940361023E-1  
 6.408408408408408E8     3.469298481941223E-1  -1.688855290412903E-1  -2.723120339214802E-2   1.032102387398481E-2  -2.724432200193405E-2   1.021484937518835E-2  -9.566257596015930E-1   1.123894229531288E-1  
 6.432432432432432E8     3.230924606323242E-1  -2.087317109107971E-1  -2.728520892560482E-2   1.381333637982607E-2  -2.725062705576420E-2   1.354715880006552E-2  -9.546607136726379E-1   1.234598904848099E-1  
 6.456456456456456E8     2.907288372516632E-1  -2.463119328022003E-1  -2.672132849693298E-2   1.714438013732433E-2  -2.682918496429920E-2   1.692062802612782E-2  -9.526216983795166E-1   1.340658813714981E-1  
 6.480480480480480E8     2.564631700515747E-1  -2.776046991348267E-1  -2.580276131629944E-2   2.022000029683113E-2  -2.586758881807327E-2   1.996453292667866E-2  -9.505318403244019E-1   1.442646980285645E-1  
 6.504504504504504E8     2.167352288961411E-1  -3.031564950942993E-1  -2.453410997986794E-2   2.305295690894127E-2  -2.452189475297928E-2   2.285677008330822E-2  -9.456437826156616E-1   1.552206724882126E-1  
 6.528528528528528E8     1.765711903572083E-1  -3.232014477252960E-1  -2.283987589180470E-2   2.553862705826759E-2  -2.287763915956020E-2   2.534901537001133E-2  -9.412274956703186E-1   1.681429743766785E-1  
 6.552552552552552E8     1.318934261798859E-1  -3.395292758941650E-1  -2.092561498284340E-2   2.757815644145012E-2  -2.096922881901264E-2   2.739664539694786E-2  -9.387474060058594E-1   1.815498173236847E-1  
 6.576576576576576E8     8.735212683677673E-2  -3.505310416221619E-1  -1.892833597958088E-2   2.925217896699905E-2  -1.896463707089424E-2   2.904425747692585E-2  -9.383232593536377E-1   1.926062703132629E-1  
 6.600600600600600E8     4.195103421807289E-2  -3.561931848526001E-1  -1.683584228157997E-2   3.063241951167584E-2  -1.686698012053967E-2   3.049087896943092E-2  -9.378709197044373E-1   2.018651366233826E-1  
 6.624624624624624E8    -2.482074778527021E-3  -3.556427359580994E-1  -1.469140313565731E-2   3.161941468715668E-2  -1.476094499230385E-2   3.149387612938881E-2  -9.345585703849793E-1   2.139878422021866E-1  
 6.648648648648648E8    -4.688334837555885E-2  -3.510501086711884E-1  -1.258395705372095E-2   3.224886581301689E-2  -1.282825972884893E-2   3.207397088408470E-2  -9.312699437141419E-1   2.260438352823257E-1  
 6.672672672672672E8    -8.857337385416031E-2  -3.420569300651550E-1  -1.078554149717093E-2   3.265278786420822E-2  -1.102016214281321E-2   3.252330794930458E-2  -9.272286295890808E-1   2.376658469438553E-1  
 6.696696696696696E8    -1.241514310240746E-1  -3.298601210117340E-1  -9.174453094601631E-3   3.271687403321266E-2  -9.344467893242836E-3   3.257655724883080E-2  -9.229736924171448E-1   2.488870620727539E-1  
 6.720720720720720E8    -1.575952321290970E-1  -3.149844408035278E-1  -7.781247142702341E-3   3.244749829173088E-2  -7.863094098865986E-3   3.241223469376564E-2  -9.186637401580811E-1   2.598599195480347E-1  
 6.744744744744744E8    -1.878187358379364E-1  -2.971597909927368E-1  -6.854757200926542E-3   3.189061582088471E-2  -6.854283157736063E-3   3.188929334282875E-2  -9.139732122421265E-1   2.721390724182129E-1  
 6.768768768768768E8    -2.157354056835175E-1  -2.770698368549347E-1  -6.396520882844925E-3   3.110416606068611E-2  -6.438208743929863E-3   3.105704300105572E-2  -9.088402986526489E-1   2.843033373355866E-1  
 6.792792792792792E8    -2.389877885580063E-1  -2.561553716659546E-1  -6.899711210280657E-3   3.035500645637512E-2  -6.994909606873989E-3   3.024923242628574E-2  -9.034125804901123E-1   2.961742579936981E-1  
 6.816816816816816E8    -2.576860189437866E-1  -2.353203743696213E-1  -8.395783603191376E-3   3.003045544028282E-2  -8.504492230713368E-3   2.996447496116161E-2  -8.974928259849548E-1   3.085250854492188E-1  
 6.840840840840840E8    -2.722533047199249E-1  -2.166275382041931E-1  -1.090282481163740E-2   3.073497116565704E-2  -1.102538593113422E-2   3.062424622476101E-2  -8.910057544708252E-1   3.207494914531708E-1  
 6.864864864864864E8    -2.834596037864685E-1  -2.002659589052200E-1  -1.383344363421202E-2   3.310266882181168E-2  -1.410491950809956E-2   3.291414678096771E-2  -8.835800290107727E-1   3.314788639545441E-1  
 6.888888888888888E8    -2.939599752426148E-1  -1.899452656507492E-1  -1.649264059960842E-2   3.754568472504616E-2  -1.694076694548130E-2   3.724670410156250E-2  -8.755848407745361E-1   3.426970839500427E-1  
 6.912912912912912E8    -3.068440258502960E-1  -1.843433976173401E-1  -1.787663996219635E-2   4.382619634270668E-2  -1.841570623219013E-2   4.346282407641411E-2  -8.677265048027039E-1   3.536985516548157E-1  
 6.936936936936936E8    -3.232744038105011E-1  -1.841013282537460E-1  -1.722324639558792E-2   5.134034901857376E-2  -1.750966161489487E-2   5.109902471303940E-2  -8.604655265808106E-1   3.634808063507080E-1  
 6.960960960960960E8    -3.488999903202057E-1  -1.814775168895721E-1  -1.371692400425673E-2   5.889237299561501E-2  -1.387447770684958E-2   5.871614813804627E-2  -8.536127805709839E-1   3.736588358879089E-1  
 6.984984984984984E8    -3.809314966201782E-1  -1.721302270889282E-1  -8.270724676549435E-3   6.523565948009491E-2  -7.587080821394920E-3   6.522011011838913E-2  -8.454350829124451E-1   3.875888586044312E-1  
 7.009009009009008E8    -4.134184122085571E-1  -1.556306779384613E-1  -1.482508960179985E-3   6.982608884572983E-2  -4.673771627494716E-7   6.965541094541550E-2  -8.376646637916565E-1   4.006536006927490E-1  
 7.033033033033032E8    -4.443957209587097E-1  -1.304147839546204E-1   6.133761256933212E-3   7.240693271160126E-2   7.405476644635201E-3   7.220111042261124E-2  -8.308310508728027E-1   4.114938080310822E-1  
 7.057057057057056E8    -4.710219204425812E-1  -1.002600118517876E-1   1.366124767810106E-2   7.355097681283951E-2   1.401053182780743E-2   7.334996759891510E-2  -8.254651427268982E-1   4.191251993179321E-1  
 7.081081081081080E8    -4.919893741607666E-1  -6.612067669630051E-2   2.085930295288563E-2   7.351252436637878E-2   2.029202878475189E-2   7.365041226148605E-2  -8.192357420921326E-1   4.280781149864197E-1  
 7.105105105105104E8    -5.073459148406982E-1  -2.994730696082115E-2   2.759823948144913E-2   7.285859435796738E-2   2.621404267847538E-2   7.328934967517853E-2  -8.125430941581726E-1   4.385164082050324E-1  
 7.129129129129129E8    -5.181405544281006E-1   4.408722277730703E-3   3.348619118332863E-2   7.181881368160248E-2   3.203912824392319E-2   7.246191054582596E-2  -8.041124939918518E-1   4.503884911537170E-1  
 7.153153153153153E8    -5.250338315963745E-1   3.531254082918167E-2   3.870929405093193E-2   7.056464999914169E-2   3.777624294161797E-2   7.096212357282639E-2  -7.944293022155762E-1   4.636031687259674E-1  
 7.177177177177178E8    -5.306699275970459E-1   6.569388508796692E-2   4.373615980148315E-2   6.926261633634567E-2   4.322032630443573E-2   6.943411380052567E-2  -7.834781408309937E-1   4.771647751331329E-1  
 7.201201201201202E8    -5.342096686363220E-1   9.641784429550171E-2   4.874537140130997E-2   6.773540377616882E-2   4.839409142732620E-2   6.780186295509338E-2  -7.724608778953552E-1   4.904842078685761E-1  
 7.225225225225226E8    -5.362477302551270E-1   1.270936429500580E-1   5.384011566638947E-2   6.587809324264526E-2   5.367539823055267E-2   6.578966230154038E-2  -7.602131962776184E-1   5.043093562126160E-1  
 7.249249249249250E8    -5.359521508216858E-1   1.581123322248459E-1   5.916790291666985E-2   6.330734491348267E-2   5.824027210474014E-2   6.385140866041184E-2  -7.490865588188171E-1   5.147036910057068E-1  
 7.273273273273274E8    -5.335891246795654E-1   1.886080503463745E-1   6.418623030185700E-2   6.070025265216827E-2   6.274239718914032E-2   6.175168976187706E-2  -7.380877733230591E-1   5.251985192298889E-1  
 7.297297297297298E8    -5.296618938446045E-1   2.166014462709427E-1   6.877210736274719E-2   5.806908383965492E-2   6.761119514703751E-2   5.908483639359474E-2  -7.257573008537293E-1   5.360488891601563E-1  
 7.321321321321322E8    -5.244125723838806E-1   2.422149181365967E-1   7.271699607372284E-2   5.557174980640411E-2   7.250482589006424E-2   5.560693517327309E-2  -7.132734060287476E-1   5.468904376029968E-1  
 7.345345345345346E8    -5.175042152404785E-1   2.680003643035889E-1   7.672969996929169E-2   5.247133225202560E-2   7.663199305534363E-2   5.211136862635613E-2  -6.998331546783447E-1   5.587850213050842E-1  
 7.369369369369370E8    -5.094263553619385E-1   2.935728728771210E-1   8.045525103807449E-2   4.916678741574287E-2   8.058209717273712E-2   4.848635569214821E-2  -6.850569844245911E-1   5.709819793701172E-1  
 7.393393393393394E8    -4.995897114276886E-1   3.174251616001129E-1   8.417579531669617E-2   4.593941569328308E-2   8.423785865306854E-2   4.526704922318459E-2  -6.697003841400147E-1   5.822483301162720E-1  
 7.417417417417418E8    -4.891707897186279E-1   3.389017283916473E-1   8.813884854316711E-2   4.256345331668854E-2   8.793250471353531E-2   4.219344258308411E-2  -6.539941430091858E-1   5.924522280693054E-1  
 7.441441441441442E8    -4.776632487773895E-1   3.586829006671906E-1   9.202057868242264E-2   3.899132087826729E-2   9.151800721883774E-2   3.926524147391319E-2  -6.381704807281494E-1   6.011674404144287E-1  
 7.465465465465466E8    -4.672484993934631E-1   3.768413960933685E-1   9.571661055088043E-2   3.575951606035233E-2   9.527463465929031E-2   3.613990545272827E-2  -6.200348734855652E-1   6.120584607124329E-1  
 7.489489489489490E8    -4.562853574752808E-1   3.953798413276672E-1   9.996312111616135E-2   3.262789174914360E-2   9.954421222209930E-2   3.322441503405571E-2  -6.025219559669495E-1   6.210989356040955E-1  
 7.513513513513514E8    -4.437333643436432E-1   4.133001863956451E-1   1.047414690256119E-1   2.896710112690926E-2   1.044306084513664E-1   2.990980260074139E-2  -5.841528177261353E-1   6.296962499618530E-1  
 7.537537537537538E8    -4.294655919075012E-1   4.303493201732636E-1   1.099487468600273E-1   2.441046386957169E-2   1.097898259758949E-1   2.565452642738819E-2  -5.642355084419251E-1   6.377532482147217E-1  
 7.561561561561562E8    -4.141522049903870E-1   4.456322193145752E-1   1.154315471649170E-1   1.921278052031994E-2   1.151053979992867E-1   2.008961699903011E-2  -5.424985289573669E-1   6.435641050338745E-1  
 7.585585585585586E8    -3.990384638309479E-1   4.599118530750275E-1   1.204422712326050E-1   1.309171784669161E-2   1.199697256088257E-1   1.371680293232203E-2  -5.179477334022522E-1   6.502800583839417E-1  
 7.609609609609610E8    -3.849680423736572E-1   4.721784591674805E-1   1.253028064966202E-1   6.359932012856007E-3   1.245909705758095E-1   6.968601606786251E-3  -4.931060373783112E-1   6.554651856422424E-1  
 7.633633633633634E8    -3.720810115337372E-1   4.827403128147125E-1   1.299022585153580E-1  -1.157881575636566E-3   1.291480511426926E-1  -3.803791478276253E-4  -4.686375558376312E-1   6.585323810577393E-1  
 7.657657657657658E8    -3.596285283565521E-1   4.924540817737579E-1   1.342286318540573E-1  -9.305222891271114E-3   1.337358206510544E-1  -8.197763934731484E-3  -4.451738893985748E-1   6.594962477684021E-1  
 7.681681681681682E8    -3.469700813293457E-1   5.012077093124390E-1   1.382673084735870E-1  -1.801279745995998E-2   1.384751200675964E-1  -1.715761236846447E-2  -4.225774705410004E-1   6.583564281463623E-1  
 7.705705705705706E8    -3.357121944427490E-1   5.090698003768921E-1   1.418021768331528E-1  -2.793794497847557E-2   1.421334445476532E-1  -2.693204768002033E-2  -3.989994823932648E-1   6.565373539924622E-1  
 7.729729729729730E8    -3.233979940414429E-1   5.168477296829224E-1   1.437504887580872E-1  -3.927791491150856E-2   1.450797319412231E-1  -3.790032863616943E-2  -3.744136095046997E-1   6.558116078376770E-1  
 7.753753753753754E8    -3.126923441886902E-1   5.231328606605530E-1   1.446363925933838E-1  -5.088606476783752E-2   1.463233679533005E-1  -4.962613061070442E-2  -3.464248180389404E-1   6.535109281539917E-1  
 7.777777777777778E8    -3.028711676597595E-1   5.285099744796753E-1   1.447149813175201E-1  -6.256455183029175E-2   1.458975225687027E-1  -6.147651001811028E-2  -3.163006603717804E-1   6.473152637481690E-1  
 7.801801801801802E8    -2.941395640373230E-1   5.335848331451416E-1   1.441193968057632E-1  -7.434641569852829E-2   1.442059576511383E-1  -7.293668389320374E-2  -2.856991887092590E-1   6.361760497093201E-1  
 7.825825825825826E8    -2.845913767814636E-1   5.399819612503052E-1   1.420198827981949E-1  -8.640477806329727E-2   1.421081274747849E-1  -8.544756472110748E-2  -2.547674477100372E-1   6.234846115112305E-1  
 7.849849849849850E8    -2.765560150146484E-1   5.469511747360230E-1   1.388332098722458E-1  -9.918744862079620E-2   1.391441375017166E-1  -9.754151105880737E-2  -2.273545563220978E-1   6.072797179222107E-1  
 7.873873873873874E8    -2.699127495288849E-1   5.542931556701660E-1   1.348699033260346E-1  -1.116871386766434E-1   1.350560933351517E-1  -1.098551824688911E-1  -2.004348784685135E-1   5.895381569862366E-1  
 7.897897897897898E8    -2.624525725841522E-1   5.631842613220215E-1   1.298480778932571E-1  -1.239521428942680E-1   1.297886818647385E-1  -1.226207166910172E-1  -1.735569238662720E-1   5.703384280204773E-1  
 7.921921921921922E8    -2.523666918277741E-1   5.730088949203491E-1   1.231431439518929E-1  -1.363120973110199E-1   1.236172914505005E-1  -1.358417123556137E-1  -1.468894034624100E-1   5.486097335815430E-1  
 7.945945945945946E8    -2.440320551395416E-1   5.828396677970886E-1   1.155651658773422E-1  -1.489373296499252E-1   1.160645484924316E-1  -1.480856984853745E-1  -1.201334148645401E-1   5.204796195030212E-1  
 7.969969969969970E8    -2.347798049449921E-1   5.916215181350708E-1   1.059454903006554E-1  -1.613629460334778E-1   1.067475751042366E-1  -1.607123166322708E-1  -9.593261033296585E-2   4.888486266136169E-1  
 7.993993993993994E8    -2.258313745260239E-1   5.994943380355835E-1   9.486865252256393E-2  -1.730471104383469E-1   9.566986560821533E-2  -1.723721325397492E-1  -7.604409009218216E-2   4.551067352294922E-1  
 8.018018018018018E8    -2.157832235097885E-1   6.068368554115295E-1   8.208549022674561E-2  -1.841879189014435E-1   8.263055980205536E-2  -1.835471242666245E-1  -5.953572317957878E-2   4.182560443878174E-1  
 8.042042042042042E8    -2.054729014635086E-1   6.159035563468933E-1   6.720869243144989E-2  -1.945651620626450E-1   6.790050864219666E-2  -1.937850862741470E-1  -4.779810830950737E-2   3.778354227542877E-1  
 8.066066066066066E8    -1.944286227226257E-1   6.251131892204285E-1   5.005653947591782E-2  -2.029354274272919E-1   5.117222666740418E-2  -2.024318277835846E-1  -4.044413566589356E-2   3.361493945121765E-1  
 8.090090090090090E8    -1.833791285753250E-1   6.338694691658020E-1   3.139716014266014E-2  -2.089866250753403E-1   3.251851722598076E-2  -2.087437808513641E-1  -3.862309828400612E-2   2.931039631366730E-1  
 8.114114114114114E8    -1.726621538400650E-1   6.425202488899231E-1   1.157119870185852E-2  -2.121941000223160E-1   1.285601127892733E-2  -2.120849788188934E-1  -4.305936023592949E-2   2.500512301921845E-1  
 8.138138138138138E8    -1.620081067085266E-1   6.513413190841675E-1  -8.054468780755997E-3  -2.124282121658325E-1  -6.781836971640587E-3  -2.123528420925140E-1  -5.286482721567154E-2   2.082670181989670E-1  
 8.162162162162162E8    -1.499767154455185E-1   6.606501340866089E-1  -2.704947814345360E-2  -2.101784795522690E-1  -2.574799023568630E-2  -2.101677358150482E-1  -6.715071946382523E-2   1.685754656791687E-1  
 8.186186186186186E8    -1.386802047491074E-1   6.690611839294434E-1  -4.471593350172043E-2  -2.058244198560715E-1  -4.372460022568703E-2  -2.056794762611389E-1  -8.526890724897385E-2   1.317216157913208E-1  
 8.210210210210210E8    -1.266100704669952E-1   6.760618090629578E-1  -6.118020787835121E-2  -1.996976137161255E-1  -6.125519424676895E-2  -1.991483569145203E-1  -1.082072928547859E-1   9.590750932693481E-2  
 8.234234234234234E8    -1.133437454700470E-1   6.834081411361694E-1  -7.751383632421494E-2  -1.912123858928680E-1  -7.721990346908569E-2  -1.908662170171738E-1  -1.334675997495651E-1   6.530135869979858E-2  
