#  HZ   S   RI   R     50.00 
! Rohde & Schwarz ZVB8 2Ports - Version 2.81 - 1145.1010k08 SN: 100113
! Date: 2016-05-03 01:37:33
! Measurements: S11 S21 S12 S22 
! 
 6.000000000000000E8     4.956248700618744E-1   4.003070294857025E-1  -7.159091066569090E-3  -2.615752964629792E-5  -7.265092805027962E-3  -1.866439561126754E-5  -9.689522385597229E-1  -9.484491497278214E-2  
 6.024024024024024E8     4.981895983219147E-1   3.714066147804260E-1  -7.244930136948824E-3   3.060701055801474E-5  -7.201852742582560E-3   9.495233098277822E-5  -9.696778059005737E-1  -8.311215788125992E-2  
 6.048048048048048E8     4.994543194770813E-1   3.420222401618958E-1  -7.165869697928429E-3   7.587309664813802E-5  -7.176222279667854E-3   9.400436101714149E-5  -9.702479243278503E-1  -7.165245711803436E-2  
 6.072072072072072E8     4.988360404968262E-1   3.117797374725342E-1  -7.211945950984955E-3   3.525883585098200E-5  -7.167360745370388E-3  -2.070585651381407E-5  -9.706763625144959E-1  -6.023022904992104E-2  
 6.096096096096096E8     4.949245452880859E-1   2.819568216800690E-1  -7.295886520296335E-3  -7.909551641205326E-5  -7.308148313313723E-3  -1.174251156044193E-4  -9.707782268524170E-1  -4.820987954735756E-2  
 6.120120120120120E8     4.874083399772644E-1   2.563856840133667E-1  -7.274446077644825E-3  -3.494172997307032E-4  -7.296595256775618E-3  -2.867375151254237E-4  -9.704757332801819E-1  -3.856122493743897E-2  
 6.144144144144144E8     4.790173470973969E-1   2.347339391708374E-1  -7.397004868835211E-3  -6.442223093472421E-4  -7.392673753201962E-3  -7.155151688493788E-4  -9.711020588874817E-1  -2.783763036131859E-2  
 6.168168168168168E8     4.707755446434021E-1   2.152530103921890E-1  -7.630879525095224E-3  -1.177269965410233E-3  -7.604490965604782E-3  -1.189872622489929E-3  -9.711878299713135E-1  -1.633870601654053E-2  
 6.192192192192192E8     4.631884694099426E-1   1.986150741577148E-1  -8.149906992912293E-3  -1.891659456305206E-3  -8.081668056547642E-3  -1.866759732365608E-3  -9.709708094596863E-1  -4.480395466089249E-3  
 6.216216216216216E8     4.576023519039154E-1   1.836724132299423E-1  -8.868210949003696E-3  -2.581787062808871E-3  -8.847499266266823E-3  -2.670146292075515E-3  -9.703242182731628E-1   8.033182471990585E-3  
 6.240240240240240E8     4.543739855289459E-1   1.699453443288803E-1  -1.007002592086792E-2  -3.458493389189243E-3  -9.988873265683651E-3  -3.483698703348637E-3  -9.690609574317932E-1   2.030844986438751E-2  
 6.264264264264264E8     4.556268155574799E-1   1.581674069166184E-1  -1.186811458319426E-2  -4.042920656502247E-3  -1.179178152233362E-2  -4.103674087673426E-3  -9.688966870307922E-1   3.320571407675743E-2  
 6.288288288288288E8     4.612038731575012E-1   1.444931477308273E-1  -1.405896246433258E-2  -4.167719744145870E-3  -1.403885893523693E-2  -4.238713067024946E-3  -9.682864546775818E-1   4.471015557646751E-2  
 6.312312312312312E8     4.694066941738129E-1   1.266483962535858E-1  -1.650944538414478E-2  -3.559653880074620E-3  -1.648586615920067E-2  -3.639434464275837E-3  -9.671173095703125E-1   5.505440011620522E-2  
 6.336336336336336E8     4.787977933883667E-1   1.029389649629593E-1  -1.885734312236309E-2  -2.322494052350521E-3  -1.884315907955170E-2  -2.374820644035935E-3  -9.659600853919983E-1   6.507919728755951E-2  
 6.360360360360360E8     4.872981905937195E-1   7.282225787639618E-2  -2.090407721698284E-2  -4.669234040193260E-4  -2.082097344100475E-2  -5.417469074018300E-4  -9.647189378738403E-1   7.412879914045334E-2  
 6.384384384384384E8     4.920273423194885E-1   3.808565065264702E-2  -2.249288745224476E-2   1.827989704906941E-3  -2.247477509081364E-2   1.676780870184302E-3  -9.634162783622742E-1   8.501107990741730E-2  
 6.408408408408408E8     4.918231070041657E-1  -1.195898512378335E-3  -2.354737929999828E-2   4.354857839643955E-3  -2.348218858242035E-2   4.221539013087750E-3  -9.619930386543274E-1   9.591197967529297E-2  
 6.432432432432432E8     4.844477474689484E-1  -4.386091604828835E-2  -2.418336272239685E-2   6.988793611526489E-3  -2.410453930497170E-2   6.763677112758160E-3  -9.603126049041748E-1   1.067251190543175E-1  
 6.456456456456456E8     4.720098674297333E-1  -8.438995480537415E-2  -2.434084564447403E-2   9.484143927693367E-3  -2.436194010078907E-2   9.349541738629341E-3  -9.584539532661438E-1   1.169658750295639E-1  
 6.480480480480480E8     4.529093503952026E-1  -1.247341558337212E-1  -2.427074499428272E-2   1.194893755018711E-2  -2.423230931162834E-2   1.179950684309006E-2  -9.567288756370544E-1   1.267959028482437E-1  
 6.504504504504504E8     4.282359778881073E-1  -1.612416952848434E-1  -2.370307035744190E-2   1.432304084300995E-2  -2.374138124287128E-2   1.425491739064455E-2  -9.524001479148865E-1   1.373562365770340E-1  
 6.528528528528528E8     4.001580774784088E-1  -1.950981318950653E-1  -2.297563105821610E-2   1.663632318377495E-2  -2.292737551033497E-2   1.643561385571957E-2  -9.485301971435547E-1   1.495486646890640E-1  
 6.552552552552552E8     3.686599731445313E-1  -2.263187170028687E-1  -2.193217724561691E-2   1.854455471038818E-2  -2.191024459898472E-2   1.839344948530197E-2  -9.466085433959961E-1   1.620499640703201E-1  
 6.576576576576576E8     3.347028791904450E-1  -2.536034286022186E-1  -2.077345922589302E-2   2.026214823126793E-2  -2.077046409249306E-2   2.004521153867245E-2  -9.465991258621216E-1   1.727755367755890E-1  
 6.600600600600600E8     2.981659770011902E-1  -2.776597142219544E-1  -1.941720210015774E-2   2.179317362606525E-2  -1.950047910213471E-2   2.162892557680607E-2  -9.469969272613525E-1   1.810720562934876E-1  
 6.624624624624624E8     2.605222165584564E-1  -2.957752645015717E-1  -1.800082251429558E-2   2.302687056362629E-2  -1.814015023410320E-2   2.281414344906807E-2  -9.442314505577087E-1   1.927705407142639E-1  
 6.648648648648648E8     2.232082784175873E-1  -3.099907934665680E-1  -1.670615747570992E-2   2.388150990009308E-2  -1.678468100726605E-2   2.375799231231213E-2  -9.414793848991394E-1   2.038695961236954E-1  
 6.672672672672672E8     1.835006475448608E-1  -3.202559649944305E-1  -1.539845019578934E-2   2.461461164057255E-2  -1.550330873578787E-2   2.454971708357334E-2  -9.385153055191040E-1   2.147895395755768E-1  
 6.696696696696696E8     1.439722180366516E-1  -3.260690867900848E-1  -1.416224241256714E-2   2.506605722010136E-2  -1.422299817204475E-2   2.499259449541569E-2  -9.350351095199585E-1   2.252377867698669E-1  
 6.720720720720720E8     1.061352789402008E-1  -3.279003798961639E-1  -1.304082572460175E-2   2.527268789708614E-2  -1.310884952545166E-2   2.525070309638977E-2  -9.315124750137329E-1   2.356601208448410E-1  
 6.744744744744744E8     6.928274035453796E-2  -3.253037333488464E-1  -1.207512430846691E-2   2.514706552028656E-2  -1.213875412940979E-2   2.502894960343838E-2  -9.278043508529663E-1   2.469558417797089E-1  
 6.768768768768768E8     3.526791185140610E-2  -3.191328644752502E-1  -1.152709499001503E-2   2.471467293798924E-2  -1.164120715111494E-2   2.461178600788117E-2  -9.236755371093750E-1   2.584083378314972E-1  
 6.792792792792792E8     4.909099545329809E-3  -3.101776540279388E-1  -1.172797009348869E-2   2.399748191237450E-2  -1.177701633423567E-2   2.392382547259331E-2  -9.196102619171143E-1   2.693693339824677E-1  
 6.816816816816816E8    -2.051553688943386E-2  -2.995259165763855E-1  -1.277129910886288E-2   2.334671840071678E-2  -1.288686972111464E-2   2.318651042878628E-2  -9.150153398513794E-1   2.809215188026428E-1  
 6.840840840840840E8    -3.989281505346298E-2  -2.890586256980896E-1  -1.486089546233416E-2   2.315668202936649E-2  -1.499332208186388E-2   2.321064285933971E-2  -9.100320935249329E-1   2.922685444355011E-1  
 6.864864864864864E8    -5.501591041684151E-2  -2.797918021678925E-1  -1.785640977323055E-2   2.433959022164345E-2  -1.793987862765789E-2   2.418289706110954E-2  -9.042190313339233E-1   3.025656342506409E-1  
 6.888888888888888E8    -6.799089163541794E-2  -2.756589949131012E-1  -2.105340361595154E-2   2.712128870189190E-2  -2.131946384906769E-2   2.688717655837536E-2  -8.978677392005920E-1   3.132290244102478E-1  
 6.912912912912912E8    -8.138619363307953E-2  -2.768471837043762E-1  -2.375397086143494E-2   3.179213404655457E-2  -2.401805482804775E-2   3.147669136524200E-2  -8.918151259422302E-1   3.234534859657288E-1  
 6.936936936936936E8    -9.832956641912460E-2  -2.840269207954407E-1  -2.499217726290226E-2   3.785772249102593E-2  -2.522203512489796E-2   3.773116692900658E-2  -8.861394524574280E-1   3.334551751613617E-1  
 6.960960960960960E8    -1.231901496648789E-1  -2.934002876281738E-1  -2.426171675324440E-2   4.472511261701584E-2  -2.430712431669235E-2   4.465002194046974E-2  -8.808887600898743E-1   3.433414399623871E-1  
 6.984984984984984E8    -1.564621329307556E-1  -3.000664710998535E-1  -2.145837992429733E-2   5.122920870780945E-2  -2.096924372017384E-2   5.137793347239494E-2  -8.745520114898682E-1   3.568355441093445E-1  
 7.009009009009008E8    -1.956478655338287E-1  -2.998208999633789E-1  -1.710901409387589E-2   5.662273988127708E-2  -1.611395739018917E-2   5.682893842458725E-2  -8.683474659919739E-1   3.697980642318726E-1  
 7.033033033033032E8    -2.357379347085953E-1  -2.918015718460083E-1  -1.183170452713966E-2   6.063191220164299E-2  -1.091962773352861E-2   6.067974120378494E-2  -8.628808856010437E-1   3.797899186611176E-1  
 7.057057057057056E8    -2.754895985126495E-1  -2.767346799373627E-1  -6.272653117775917E-3   6.353628635406494E-2  -5.912586115300655E-3   6.343472748994827E-2  -8.590015769004822E-1   3.868010342121124E-1  
 7.081081081081080E8    -3.100181818008423E-1  -2.568901181221008E-1  -6.643552333116531E-4   6.561312079429627E-2  -1.083726179786027E-3   6.550781428813934E-2  -8.542576432228088E-1   3.950026035308838E-1  
 7.105105105105104E8    -3.411820530891419E-1  -2.312484234571457E-1   4.823557101190090E-3   6.699430942535400E-2   3.812433220446110E-3   6.702896952629089E-2  -8.495957851409912E-1   4.044547975063324E-1  
 7.129129129129129E8    -3.688882887363434E-1  -2.030342221260071E-1   1.001768745481968E-2   6.793092936277390E-2   8.837336674332619E-3   6.795277446508408E-2  -8.434925675392151E-1   4.151699542999268E-1  
 7.153153153153153E8    -3.922879099845886E-1  -1.744921952486038E-1   1.489327568560839E-2   6.839918345212936E-2   1.408147253096104E-2   6.855555623769760E-2  -8.362198472023010E-1   4.276965856552124E-1  
 7.177177177177178E8    -4.129246473312378E-1  -1.450810283422470E-1   1.970101147890091E-2   6.880084425210953E-2   1.930010691285133E-2   6.876858323812485E-2  -8.279815316200256E-1   4.407486021518707E-1  
 7.201201201201202E8    -4.309170544147492E-1  -1.139684766530991E-1   2.472672984004021E-2   6.866129487752914E-2   2.440248802304268E-2   6.862962245941162E-2  -8.197767138481140E-1   4.532940387725830E-1  
 7.225225225225226E8    -4.460761845111847E-1  -8.160211890935898E-2   2.980746887624264E-2   6.805883347988129E-2   2.956809662282467E-2   6.801052391529083E-2  -8.108922243118286E-1   4.663444757461548E-1  
 7.249249249249250E8    -4.577702581882477E-1  -4.849280789494515E-2   3.499520570039749E-2   6.677840650081635E-2   3.392837196588516E-2   6.711175292730331E-2  -8.030895590782166E-1   4.762633442878723E-1  
 7.273273273273274E8    -4.662421643733978E-1  -1.695785112679005E-2   3.963555395603180E-2   6.532476097345352E-2   3.807467222213745E-2   6.598661839962006E-2  -7.951899170875549E-1   4.859053194522858E-1  
 7.297297297297298E8    -4.723745882511139E-1   1.205123122781515E-2   4.365536943078041E-2   6.387487053871155E-2   4.244026914238930E-2   6.446664035320282E-2  -7.869781851768494E-1   4.961313903331757E-1  
 7.321321321321322E8    -4.763418138027191E-1   3.867864608764648E-2   4.709076136350632E-2   6.266386806964874E-2   4.683062061667442E-2   6.259328126907349E-2  -7.783566117286682E-1   5.070155262947083E-1  
 7.345345345345346E8    -4.788833558559418E-1   6.557464599609375E-2   5.070188269019127E-2   6.103134155273438E-2   5.088259652256966E-2   6.063904985785484E-2  -7.688098549842835E-1   5.187538862228394E-1  
 7.369369369369370E8    -4.805504977703095E-1   9.302804619073868E-2   5.411399528384209E-2   5.928657203912735E-2   5.454313755035400E-2   5.855800956487656E-2  -7.585321664810181E-1   5.307777523994446E-1  
 7.393393393393394E8    -4.807199239730835E-1   1.210857033729553E-1   5.758447945117950E-2   5.743404477834702E-2   5.795329809188843E-2   5.680755898356438E-2  -7.480522990226746E-1   5.421819686889648E-1  
 7.417417417417418E8    -4.791948497295380E-1   1.480811834335327E-1   6.109542772173882E-2   5.566827580332756E-2   6.118959560990334E-2   5.531458556652069E-2  -7.377189397811890E-1   5.524287819862366E-1  
 7.441441441441442E8    -4.759881198406220E-1   1.741040349006653E-1   6.480027735233307E-2   5.393587797880173E-2   6.433086097240448E-2   5.415587127208710E-2  -7.275277376174927E-1   5.612279772758484E-1  
 7.465465465465466E8    -4.723878204822540E-1   1.992649137973785E-1   6.842089444398880E-2   5.234593898057938E-2   6.791490316390991E-2   5.279430374503136E-2  -7.154927849769592E-1   5.726462602615356E-1  
 7.489489489489490E8    -4.669271111488342E-1   2.245368510484695E-1   7.235964387655258E-2   5.084190145134926E-2   7.180936634540558E-2   5.147325992584229E-2  -7.044113278388977E-1   5.827304720878601E-1  
 7.513513513513514E8    -4.590520858764648E-1   2.483679652214050E-1   7.682733982801437E-2   4.891936853528023E-2   7.629378885030747E-2   4.973702505230904E-2  -6.932248473167419E-1   5.926238894462585E-1  
 7.537537537537538E8    -4.491138756275177E-1   2.708236873149872E-1   8.150146156549454E-2   4.643855616450310E-2   8.093932271003723E-2   4.753193259239197E-2  -6.806994676589966E-1   6.025584340095520E-1  
 7.561561561561562E8    -4.379700422286987E-1   2.905766665935516E-1   8.632045984268189E-2   4.386996105313301E-2   8.571436256170273E-2   4.449498280882835E-2  -6.672415137290955E-1   6.108959317207336E-1  
 7.585585585585586E8    -4.264135062694550E-1   3.098759055137634E-1   9.101539105176926E-2   4.084742069244385E-2   9.035530686378479E-2   4.102590680122376E-2  -6.513991951942444E-1   6.209039688110352E-1  
 7.609609609609610E8    -4.147410690784454E-1   3.272339999675751E-1   9.587759524583817E-2   3.731253370642662E-2   9.496214240789414E-2   3.739230707287788E-2  -6.356026530265808E-1   6.303796172142029E-1  
 7.633633633633634E8    -4.033070802688599E-1   3.421769440174103E-1   1.009334251284599E-1   3.328901529312134E-2   9.979765117168427E-2   3.351468965411186E-2  -6.204463243484497E-1   6.385896801948547E-1  
 7.657657657657658E8    -3.925115764141083E-1   3.565769791603088E-1   1.057154089212418E-1   2.856988459825516E-2   1.049283593893051E-1   2.905179373919964E-2  -6.062867641448975E-1   6.455119252204895E-1  
 7.681681681681682E8    -3.810170590877533E-1   3.704612851142883E-1   1.102440431714058E-1   2.331968769431114E-2   1.101929917931557E-1   2.420685440301895E-2  -5.934093594551086E-1   6.510168313980103E-1  
 7.705705705705706E8    -3.696924149990082E-1   3.831416368484497E-1   1.145314499735832E-1   1.733369193971157E-2   1.146838665008545E-1   1.856251619756222E-2  -5.797719359397888E-1   6.563399434089661E-1  
 7.729729729729730E8    -3.583312332630158E-1   3.943448960781097E-1   1.180551126599312E-1   1.048817113041878E-2   1.188888996839523E-1   1.204465236514807E-2  -5.656445622444153E-1   6.646167039871216E-1  
 7.753753753753754E8    -3.477618694305420E-1   4.039594829082489E-1   1.210177019238472E-1   3.486682428047061E-3   1.221023723483086E-1   4.994759801775217E-3  -5.489851236343384E-1   6.731117367744446E-1  
 7.777777777777778E8    -3.381505012512207E-1   4.117923974990845E-1   1.237024664878845E-1  -3.288717241957784E-3   1.243219152092934E-1  -2.149550709873438E-3  -5.293990373611450E-1   6.795797944068909E-1  
 7.801801801801802E8    -3.294201195240021E-1   4.189573228359222E-1   1.263320446014404E-1  -9.848184883594513E-3   1.259305030107498E-1  -9.045863524079323E-3  -5.079480409622192E-1   6.829358339309692E-1  
 7.825825825825826E8    -3.196847736835480E-1   4.276803433895111E-1   1.285714358091354E-1  -1.689677312970161E-2   1.280716657638550E-1  -1.642305217683315E-2  -4.863190054893494E-1   6.871837377548218E-1  
 7.849849849849850E8    -3.108803927898407E-1   4.363318979740143E-1   1.307425945997238E-1  -2.470416016876698E-2   1.301277875900269E-1  -2.379027381539345E-2  -4.668429791927338E-1   6.886957883834839E-1  
 7.873873873873874E8    -3.032852411270142E-1   4.454805254936218E-1   1.325865685939789E-1  -3.276455402374268E-2   1.318227648735046E-1  -3.148521855473518E-2  -4.485888779163361E-1   6.897489428520203E-1  
 7.897897897897898E8    -2.948718667030335E-1   4.556524753570557E-1   1.338456273078919E-1  -4.121210798621178E-2   1.333578824996948E-1  -3.989626467227936E-2  -4.299656748771668E-1   6.923167705535889E-1  
 7.921921921921922E8    -2.844128310680389E-1   4.666040241718292E-1   1.345780193805695E-1  -5.006203427910805E-2   1.348211020231247E-1  -4.900294169783592E-2  -4.101975560188294E-1   6.960208415985107E-1  
 7.945945945945946E8    -2.748894095420837E-1   4.767100214958191E-1   1.349238902330399E-1  -5.944548174738884E-2   1.352316737174988E-1  -5.800197646021843E-2  -3.876233100891113E-1   6.959779858589172E-1  
 7.969969969969970E8    -2.655047774314880E-1   4.845680594444275E-1   1.345341205596924E-1  -6.909762322902679E-2   1.351157426834106E-1  -6.778335571289063E-2  -3.639810681343079E-1   6.950311660766602E-1  
 7.993993993993994E8    -2.566161453723908E-1   4.907533228397369E-1   1.335361003875732E-1  -7.884912937879562E-2   1.341041773557663E-1  -7.787928730249405E-2  -3.397004604339600E-1   6.928497552871704E-1  
 8.018018018018018E8    -2.471382170915604E-1   4.966885447502136E-1   1.318685114383698E-1  -8.900552988052368E-2   1.320376843214035E-1  -8.877623826265335E-2  -3.143155872821808E-1   6.890802979469299E-1  
 8.042042042042042E8    -2.379192262887955E-1   5.030471086502075E-1   1.294236481189728E-1  -9.987872838973999E-2   1.292259544134140E-1  -9.965151548385620E-2  -2.905524373054504E-1   6.831033229827881E-1  
 8.066066066066066E8    -2.284612208604813E-1   5.105757117271423E-1   1.253989189863205E-1  -1.108383461833000E-1   1.255000978708267E-1  -1.105361506342888E-1  -2.649707794189453E-1   6.763532161712647E-1  
 8.090090090090090E8    -2.191170901060104E-1   5.168670415878296E-1   1.203245222568512E-1  -1.219941452145577E-1   1.206468343734741E-1  -1.215855479240418E-1  -2.395571470260620E-1   6.671257615089417E-1  
 8.114114114114114E8    -2.111374139785767E-1   5.224379897117615E-1   1.140292510390282E-1  -1.330990046262741E-1   1.144689470529556E-1  -1.324722915887833E-1  -2.153144925832748E-1   6.552699208259583E-1  
 8.138138138138138E8    -2.040762156248093E-1   5.286706089973450E-1   1.064793244004250E-1  -1.437157839536667E-1   1.069484874606133E-1  -1.430092304944992E-1  -1.915155649185181E-1   6.409775018692017E-1  
 8.162162162162162E8    -1.971512436866760E-1   5.354993343353272E-1   9.779985249042511E-2  -1.539774686098099E-1   9.849384427070618E-2  -1.532587707042694E-1  -1.687851101160049E-1   6.251908540725708E-1  
 8.186186186186186E8    -1.907608658075333E-1   5.425406098365784E-1   8.786295354366303E-2  -1.632412374019623E-1   8.850365132093430E-2  -1.623665839433670E-1  -1.465712636709213E-1   6.077359318733215E-1  
 8.210210210210210E8    -1.844182312488556E-1   5.478360652923584E-1   7.722029834985733E-2  -1.714673340320587E-1   7.739073783159256E-2  -1.709841340780258E-1  -1.245637014508247E-1   5.877835750579834E-1  
 8.234234234234234E8    -1.781709343194962E-1   5.547558665275574E-1   6.491418182849884E-2  -1.786658167839050E-1   6.515524536371231E-2  -1.783255785703659E-1  -1.041258573532105E-1   5.665947198867798E-1  
