#  HZ   S   RI   R     50.00 
! Rohde & Schwarz ZVB8 2Ports - Version 2.81 - 1145.1010k08 SN: 100113
! Date: 2016-05-12 03:16:50
! Measurements: S11 S21 S12 S22 
! 
 6.000000000000000E8    -7.862919569015503E-1   4.379750490188599E-1  -1.153261167928577E-3  -3.436587518081069E-3  -1.244046608917415E-3  -3.344518598169088E-3  -9.426066875457764E-1   2.220179289579392E-1  
 6.024024024024024E8    -7.745499014854431E-1   4.506906569004059E-1  -1.253812573850155E-3  -3.696738975122571E-3  -1.232676324434578E-3  -3.543854923918843E-3  -9.388466477394104E-1   2.342103123664856E-1  
 6.048048048048048E8    -7.625792622566223E-1   4.636497199535370E-1  -1.268911524675787E-3  -3.901730524376035E-3  -1.316647860221565E-3  -3.754175966605544E-3  -9.351587891578674E-1   2.463757097721100E-1  
 6.072072072072072E8    -7.491176128387451E-1   4.771138429641724E-1  -1.360921189188957E-3  -3.921415191143751E-3  -1.432232325896621E-3  -3.974079154431820E-3  -9.314622879028320E-1   2.575720250606537E-1  
 6.096096096096096E8    -7.344905138015747E-1   4.912053048610687E-1  -1.334344502538443E-3  -4.210942424833775E-3  -1.346901175566018E-3  -4.131377208977938E-3  -9.270598292350769E-1   2.695939242839813E-1  
 6.120120120120120E8    -7.212154865264893E-1   5.024420619010925E-1  -1.362191047519445E-3  -4.417051561176777E-3  -1.334652304649353E-3  -4.466891288757324E-3  -9.234787821769714E-1   2.787149548530579E-1  
 6.144144144144144E8    -7.070758938789368E-1   5.124733448028565E-1  -1.228357083164156E-3  -4.724853206425905E-3  -1.364651718176901E-3  -4.760718438774347E-3  -9.198212623596191E-1   2.898746132850647E-1  
 6.168168168168168E8    -6.921975016593933E-1   5.228479504585266E-1  -1.283212448470295E-3  -5.239777266979218E-3  -1.294965040870011E-3  -5.195792298763990E-3  -9.161477684974670E-1   3.009681701660156E-1  
 6.192192192192192E8    -6.775385141372681E-1   5.318942070007324E-1  -1.190477632917464E-3  -5.690769758075476E-3  -1.263041864149272E-3  -5.709439516067505E-3  -9.116801619529724E-1   3.124265968799591E-1  
 6.216216216216216E8    -6.624174118041992E-1   5.404253005981445E-1  -1.273295842111111E-3  -6.432686932384968E-3  -1.244104932993650E-3  -6.458546034991741E-3  -9.069088697433472E-1   3.246524333953857E-1  
 6.240240240240240E8    -6.480011343955994E-1   5.482298731803894E-1  -1.292107976041734E-3  -7.355160079896450E-3  -1.314423512667418E-3  -7.397193927317858E-3  -9.015238881111145E-1   3.365387320518494E-1  
 6.264264264264264E8    -6.341593861579895E-1   5.564016103744507E-1  -1.681226654909551E-3  -8.482966572046280E-3  -1.682233880273998E-3  -8.492711931467056E-3  -8.954765200614929E-1   3.504821360111237E-1  
 6.288288288288288E8    -6.205247640609741E-1   5.657504200935364E-1  -2.308856695890427E-3  -9.766468778252602E-3  -2.355806063860655E-3  -9.726789779961109E-3  -8.892365694046021E-1   3.627490401268005E-1  
 6.312312312312312E8    -6.063488721847534E-1   5.747207403182983E-1  -3.330397186800838E-3  -1.108383759856224E-2  -3.402823116630316E-3  -1.102153863757849E-2  -8.833954930305481E-1   3.735806345939636E-1  
 6.336336336336336E8    -5.921067595481873E-1   5.842884778976440E-1  -4.780129995197058E-3  -1.226781122386456E-2  -4.690422210842371E-3  -1.215440873056650E-2  -8.778254985809326E-1   3.831942975521088E-1  
 6.360360360360360E8    -5.766279697418213E-1   5.942714810371399E-1  -6.458174902945757E-3  -1.333993487060070E-2  -6.448057945817709E-3  -1.320946402847767E-2  -8.731347322463989E-1   3.919267952442169E-1  
 6.384384384384384E8    -5.603846907615662E-1   6.044163107872009E-1  -8.539463393390179E-3  -1.403988897800446E-2  -8.581893518567085E-3  -1.404304616153240E-2  -8.673753738403320E-1   4.035176336765289E-1  
 6.408408408408408E8    -5.428737401962280E-1   6.150211095809937E-1  -1.102666743099690E-2  -1.433901768177748E-2  -1.098089385777712E-2  -1.427451334893704E-2  -8.614016175270081E-1   4.150121212005615E-1  
 6.432432432432432E8    -5.242255926132202E-1   6.253986358642578E-1  -1.333591341972351E-2  -1.398548670113087E-2  -1.337931305170059E-2  -1.397865545004606E-2  -8.547586202621460E-1   4.259480237960815E-1  
 6.456456456456456E8    -5.021212697029114E-1   6.347111463546753E-1  -1.551378704607487E-2  -1.336080022156239E-2  -1.549479924142361E-2  -1.335289888083935E-2  -8.476492762565613E-1   4.372255504131317E-1  
 6.480480480480480E8    -4.787697196006775E-1   6.429051160812378E-1  -1.748096942901611E-2  -1.254541054368019E-2  -1.747909747064114E-2  -1.248028036206961E-2  -8.404538035392761E-1   4.480865895748138E-1  
 6.504504504504504E8    -4.537255167961121E-1   6.495590806007385E-1  -1.945786923170090E-2  -1.162121072411537E-2  -1.938989944756031E-2  -1.158352568745613E-2  -8.307058215141296E-1   4.613754153251648E-1  
 6.528528528528528E8    -4.283887147903442E-1   6.546282768249512E-1  -2.123766764998436E-2  -1.056961435824633E-2  -2.125096134841442E-2  -1.048951782286167E-2  -8.227128386497498E-1   4.746802747249603E-1  
 6.552552552552552E8    -4.013112485408783E-1   6.575580239295960E-1  -2.306052483618259E-2  -9.306669235229492E-3  -2.300960384309292E-2  -9.307691827416420E-3  -8.163627386093140E-1   4.865375757217407E-1  
 6.576576576576576E8    -3.730696439743042E-1   6.577457189559937E-1  -2.472134865820408E-2  -7.921746931970120E-3  -2.473437413573265E-2  -7.925004698336124E-3  -8.100687265396118E-1   4.965509772300720E-1  
 6.600600600600600E8    -3.430151939392090E-1   6.560332775115967E-1  -2.642284333705902E-2  -6.401380524039269E-3  -2.650816924870014E-2  -6.364285480231047E-3  -8.023227453231812E-1   5.058154463768005E-1  
 6.624624624624624E8    -3.128921091556549E-1   6.516425013542175E-1  -2.807167172431946E-2  -4.684038460254669E-3  -2.805314958095551E-2  -4.702885635197163E-3  -7.933492064476013E-1   5.179265737533569E-1  
 6.648648648648648E8    -2.823928296566010E-1   6.444039344787598E-1  -2.962910942733288E-2  -2.638614969328046E-3  -2.961509861052036E-2  -2.775019733235240E-3  -7.838513851165772E-1   5.296147465705872E-1  
 6.672672672672672E8    -2.531438171863556E-1   6.357361078262329E-1  -3.096209280192852E-2  -6.676126504316926E-4  -3.097671642899513E-2  -6.782152922824025E-4  -7.743524909019470E-1   5.410656332969666E-1  
 6.696696696696696E8    -2.225702106952667E-1   6.235027313232422E-1  -3.224672004580498E-2   1.469843904487789E-3  -3.230020776391029E-2   1.496866927482188E-3  -7.645939588546753E-1   5.519350767135620E-1  
 6.720720720720720E8    -1.905298829078674E-1   6.066680550575256E-1  -3.362155705690384E-2   3.724928013980389E-3  -3.360655531287193E-2   3.889479441568255E-3  -7.549383044242859E-1   5.623980164527893E-1  
 6.744744744744744E8    -1.599414944648743E-1   5.861175656318665E-1  -3.486279025673866E-2   6.506300531327725E-3  -3.486965224146843E-2   6.397139746695757E-3  -7.446951866149902E-1   5.737664699554443E-1  
 6.768768768768768E8    -1.312879472970963E-1   5.603671073913574E-1  -3.587485849857330E-2   9.679165668785572E-3  -3.583377599716187E-2   9.619929827749729E-3  -7.337865233421326E-1   5.849341154098511E-1  
 6.792792792792792E8    -1.066618561744690E-1   5.301032066345215E-1  -3.633963689208031E-2   1.309554092586041E-2  -3.630162402987480E-2   1.290090940892696E-2  -7.229927778244019E-1   5.956241488456726E-1  
 6.816816816816816E8    -8.599598705768585E-2   4.986079931259155E-1  -3.641686215996742E-2   1.639293320477009E-2  -3.640969842672348E-2   1.630669459700584E-2  -7.117760777473450E-1   6.065741777420044E-1  
 6.840840840840840E8    -6.910422444343567E-2   4.650289714336395E-1  -3.616743907332420E-2   1.964653469622135E-2  -3.622937947511673E-2   1.971519552171230E-2  -7.000866532325745E-1   6.175352931022644E-1  
 6.864864864864864E8    -5.726216733455658E-2   4.292424023151398E-1  -3.547320514917374E-2   2.297273278236389E-2  -3.547688946127892E-2   2.299246937036514E-2  -6.875142455101013E-1   6.277022957801819E-1  
 6.888888888888888E8    -4.948079586029053E-2   3.912208974361420E-1  -3.457688540220261E-2   2.619711868464947E-2  -3.473783284425736E-2   2.606919966638088E-2  -6.740952730178833E-1   6.383948326110840E-1  
 6.912912912912912E8    -4.674671217799187E-2   3.523439466953278E-1  -3.339284285902977E-2   2.961379662156105E-2  -3.355708345770836E-2   2.931651659309864E-2  -6.605226397514343E-1   6.486939787864685E-1  
 6.936936936936936E8    -4.932422563433647E-2   3.139290511608124E-1  -3.176383674144745E-2   3.280662000179291E-2  -3.186960145831108E-2   3.261316195130348E-2  -6.470319032669067E-1   6.593793034553528E-1  
 6.960960960960960E8    -5.667943134903908E-2   2.753114998340607E-1  -2.969657629728317E-2   3.568127006292343E-2  -2.981594391167164E-2   3.556191921234131E-2  -6.330513954162598E-1   6.696321964263916E-1  
 6.984984984984984E8    -7.125160843133926E-2   2.394276559352875E-1  -2.733477950096130E-2   3.822236880660057E-2  -2.699504792690277E-2   3.850749135017395E-2  -6.153084635734558E-1   6.824226975440979E-1  
 7.009009009009008E8    -9.144606441259384E-2   2.067658603191376E-1  -2.463749982416630E-2   4.013294726610184E-2  -2.393529936671257E-2   4.048731178045273E-2  -5.978720188140869E-1   6.936904788017273E-1  
 7.033033033033032E8    -1.145397797226906E-1   1.810436248779297E-1  -2.184256352484226E-2   4.142623022198677E-2  -2.094628475606442E-2   4.168347269296646E-2  -5.818783640861511E-1   7.027025222778320E-1  
 7.057057057057056E8    -1.375728398561478E-1   1.616708636283875E-1  -1.907608844339848E-2   4.178869351744652E-2  -1.848943158984184E-2   4.192119836807251E-2  -5.681257843971252E-1   7.087003588676453E-1  
 7.081081081081080E8    -1.619269698858261E-1   1.434017270803452E-1  -1.706914231181145E-2   4.154167696833611E-2  -1.697834767401218E-2   4.149436205625534E-2  -5.530151724815369E-1   7.156074047088623E-1  
 7.105105105105104E8    -1.892563253641129E-1   1.289031058549881E-1  -1.579095423221588E-2   4.116721451282501E-2  -1.638660579919815E-2   4.097363352775574E-2  -5.363117456436157E-1   7.229204773902893E-1  
 7.129129129129129E8    -2.182088196277618E-1   1.192566156387329E-1  -1.553526334464550E-2   4.063498973846436E-2  -1.622214354574680E-2   4.042074456810951E-2  -5.173137784004211E-1   7.304166555404663E-1  
 7.153153153153153E8    -2.458682358264923E-1   1.151130124926567E-1  -1.692046411335468E-2   4.009103029966354E-2  -1.729040965437889E-2   3.998865187168121E-2  -4.955992400646210E-1   7.379661202430725E-1  
 7.177177177177178E8    -2.705869376659393E-1   1.160199865698814E-1  -1.979926228523254E-2   4.064642265439034E-2  -1.986408606171608E-2   4.071856290102005E-2  -4.724268317222595E-1   7.441329360008240E-1  
 7.201201201201202E8    -2.902612090110779E-1   1.201854124665260E-1  -2.373176254332066E-2   4.328270256519318E-2  -2.383069880306721E-2   4.336589574813843E-2  -4.489511847496033E-1   7.486203312873840E-1  
 7.225225225225226E8    -3.036734163761139E-1   1.248484998941422E-1  -2.810710296034813E-2   4.875036701560020E-2  -2.802884206175804E-2   4.886318370699883E-2  -4.248729944229126E-1   7.512351870536804E-1  
 7.249249249249250E8    -3.150501251220703E-1   1.263957470655441E-1  -3.097655251622200E-2   5.776716396212578E-2  -3.173065185546875E-2   5.743160843849182E-2  -4.038095474243164E-1   7.498599886894226E-1  
 7.273273273273274E8    -3.261730670928955E-1   1.243956089019775E-1  -3.111243620514870E-2   6.963615119457245E-2  -3.222840651869774E-2   6.907352805137634E-2  -3.846511244773865E-1   7.469916939735413E-1  
 7.297297297297298E8    -3.407986760139465E-1   1.190700605511665E-1  -2.738970331847668E-2   8.264291286468506E-2  -2.842562459409237E-2   8.207660913467407E-2  -3.675963282585144E-1   7.446006536483765E-1  
 7.321321321321322E8    -3.596811294555664E-1   1.124884933233261E-1  -1.974745653569698E-2   9.472151100635529E-2  -1.978029683232307E-2   9.459616243839264E-2  -3.509984910488129E-1   7.436239123344421E-1  
 7.345345345345346E8    -3.842487037181854E-1   1.098276004195213E-1  -8.018630556762219E-3   1.048002988100052E-1  -7.616496644914150E-3   1.048192232847214E-1  -3.343836963176727E-1   7.446219921112061E-1  
 7.369369369369370E8    -4.109950959682465E-1   1.132772639393807E-1   6.571833509951830E-3   1.113863587379456E-1   7.528775837272406E-3   1.113761439919472E-1  -3.159633278846741E-1   7.470940351486206E-1  
 7.393393393393394E8    -4.361571371555328E-1   1.237704008817673E-1   2.175334841012955E-2   1.137674301862717E-1   2.271820604801178E-2   1.136085465550423E-1  -2.963962256908417E-1   7.499073743820190E-1  
 7.417417417417418E8    -4.543033242225647E-1   1.364237964153290E-1   3.577645123004913E-2   1.139147281646729E-1   3.653379529714584E-2   1.135633587837219E-1  -2.750885188579559E-1   7.521646618843079E-1  
 7.441441441441442E8    -4.693748950958252E-1   1.493325531482697E-1   4.968924820423126E-2   1.121069714426994E-1   4.994982108473778E-2   1.118512302637100E-1  -2.525435686111450E-1   7.534629106521606E-1  
 7.465465465465466E8    -4.851510524749756E-1   1.618956923484802E-1   6.246185675263405E-2   1.082408353686333E-1   6.277634203433991E-2   1.080316975712776E-1  -2.269426435232163E-1   7.547075748443604E-1  
 7.489489489489490E8    -5.008867383003235E-1   1.752515435218811E-1   7.421094924211502E-2   1.030175760388374E-1   7.433786988258362E-2   1.031720042228699E-1  -2.011210471391678E-1   7.543150782585144E-1  
 7.513513513513514E8    -5.140233039855957E-1   1.898368597030640E-1   8.478161692619324E-2   9.663776308298111E-2   8.483205735683441E-2   9.709016978740692E-2  -1.740257143974304E-1   7.518027424812317E-1  
 7.537537537537538E8    -5.254216790199280E-1   2.051573097705841E-1   9.475967288017273E-2   8.955182880163193E-2   9.455905109643936E-2   9.032262861728668E-2  -1.447664201259613E-1   7.469026446342468E-1  
 7.561561561561562E8    -5.360210537910461E-1   2.205050736665726E-1   1.040511578321457E-1   8.241129666566849E-2   1.040511429309845E-1   8.260540664196014E-2  -1.140186861157417E-1   7.397657632827759E-1  
 7.585585585585586E8    -5.449826121330261E-1   2.385167181491852E-1   1.128272488713265E-1   7.401875406503677E-2   1.127810403704643E-1   7.374343276023865E-2  -8.030804246664047E-2   7.323754429817200E-1  
 7.609609609609610E8    -5.524249672889710E-1   2.556303739547730E-1   1.211067959666252E-1   6.482649594545364E-2   1.206343322992325E-1   6.425127387046814E-2  -4.616792872548103E-2   7.224766016006470E-1  
 7.633633633633634E8    -5.587568283081055E-1   2.716349959373474E-1   1.284073591232300E-1   5.505225434899330E-2   1.273069828748703E-1   5.435762181878090E-2  -1.304483506828547E-2   7.095266580581665E-1  
 7.657657657657658E8    -5.657350420951843E-1   2.888205051422119E-1   1.349516212940216E-1   4.473713040351868E-2   1.340630650520325E-1   4.467729106545448E-2   1.959111168980598E-2   6.916307806968689E-1  
 7.681681681681682E8    -5.715947747230530E-1   3.067094385623932E-1   1.409564614295960E-1   3.338016942143440E-2   1.409531831741333E-1   3.371518105268478E-2   5.167953670024872E-2   6.694023013114929E-1  
 7.705705705705706E8    -5.762832760810852E-1   3.250531256198883E-1   1.456133574247360E-1   2.073292806744576E-2   1.460834890604019E-1   2.114607766270638E-2   8.404481410980225E-2   6.450231671333313E-1  
 7.729729729729730E8    -5.784250497817993E-1   3.430395722389221E-1   1.484976261854172E-1   6.861490663141012E-3   1.498340815305710E-1   7.347792852669954E-3   1.166732236742973E-1   6.174787878990173E-1  
 7.753753753753754E8    -5.793930292129517E-1   3.592422306537628E-1   1.497404277324677E-1  -7.041085045784712E-3   1.510922908782959E-1  -6.989793851971626E-3   1.495239287614822E-1   5.839303731918335E-1  
 7.777777777777778E8    -5.798783898353577E-1   3.743245005607605E-1   1.495733112096787E-1  -2.073048613965511E-2   1.502857208251953E-1  -2.116774953901768E-2   1.805405020713806E-1   5.432633161544800E-1  
 7.801801801801802E8    -5.795237421989441E-1   3.881555497646332E-1   1.483099609613419E-1  -3.412834927439690E-2   1.477449387311935E-1  -3.490941226482391E-2   2.071956694126129E-1   4.958854913711548E-1  
 7.825825825825826E8    -5.777063965797424E-1   4.038249552249908E-1   1.448439806699753E-1  -4.756435379385948E-2   1.440800726413727E-1  -4.845729470252991E-2   2.301606833934784E-1   4.455656111240387E-1  
 7.849849849849850E8    -5.769333839416504E-1   4.200128018856049E-1   1.402697414159775E-1  -6.113179028034210E-2   1.396049112081528E-1  -6.096801161766052E-2   2.456134557723999E-1   3.933336734771729E-1  
 7.873873873873874E8    -5.757106542587280E-1   4.365811347961426E-1   1.342496275901794E-1  -7.445640116930008E-2   1.336705237627029E-1  -7.366302609443665E-2   2.554605305194855E-1   3.402363061904907E-1  
 7.897897897897898E8    -5.723304748535156E-1   4.529636204242706E-1   1.259231567382813E-1  -8.687736839056015E-2   1.257075220346451E-1  -8.635548502206802E-2   2.606343924999237E-1   2.841886579990387E-1  
 7.921921921921922E8    -5.678766965866089E-1   4.696638882160187E-1   1.154036968946457E-1  -9.799183160066605E-2   1.155221611261368E-1  -9.788768738508225E-2   2.599665820598602E-1   2.266615033149719E-1  
 7.945945945945946E8    -5.660117864608765E-1   4.858464896678925E-1   1.036149486899376E-1  -1.066901236772537E-1   1.041779294610024E-1  -1.063209548592567E-1   2.522569000720978E-1   1.696702688932419E-1  
 7.969969969969970E8    -5.632972717285156E-1   5.018689036369324E-1   9.133935719728470E-2  -1.127078086137772E-1   9.211788326501846E-2  -1.123842224478722E-1   2.388404309749603E-1   1.121229082345963E-1  
 7.993993993993994E8    -5.603917241096497E-1   5.171545743942261E-1   7.985886186361313E-2  -1.162597686052322E-1   8.037282526493073E-2  -1.161877736449242E-1   2.194761931896210E-1   5.404083058238030E-2  
 8.018018018018018E8    -5.552034378051758E-1   5.324531197547913E-1   6.983707845211029E-2  -1.183540746569634E-1   6.990886479616165E-2  -1.184202209115028E-1   1.935991048812866E-1  -4.307515919208527E-3  
 8.042042042042042E8    -5.482073426246643E-1   5.496666431427002E-1   6.117520853877068E-2  -1.201888546347618E-1   6.084359809756279E-2  -1.202430129051209E-1   1.590092033147812E-1  -6.139602884650230E-2  
 8.066066066066066E8    -5.394071340560913E-1   5.655776858329773E-1   5.331920087337494E-2  -1.216756999492645E-1   5.255069583654404E-2  -1.218199208378792E-1   1.156719923019409E-1  -1.141588613390923E-1  
 8.090090090090090E8    -5.299357175827026E-1   5.805625915527344E-1   4.563001915812492E-2  -1.241265982389450E-1   4.494379088282585E-2  -1.243358552455902E-1   6.421937048435211E-2  -1.603662818670273E-1  
 8.114114114114114E8    -5.206919908523560E-1   5.935638546943665E-1   3.694658353924751E-2  -1.270026266574860E-1   3.610575199127197E-2  -1.273775249719620E-1   6.587618961930275E-3  -1.987163573503494E-1  
 8.138138138138138E8    -5.124055147171021E-1   6.059895753860474E-1   2.680145576596260E-2  -1.293932795524597E-1   2.593827806413174E-2  -1.296588778495789E-1  -5.575517192482948E-2  -2.282720059156418E-1  
 8.162162162162162E8    -5.044041872024536E-1   6.183786988258362E-1   1.595623418688774E-2  -1.298461854457855E-1   1.549011375755072E-2  -1.299925297498703E-1  -1.173605322837830E-1  -2.482442706823349E-1  
 8.186186186186186E8    -4.966330826282501E-1   6.315222382545471E-1   5.876882467418909E-3  -1.290176212787628E-1   5.635691806674004E-3  -1.291619241237640E-1  -1.806544959545136E-1  -2.601221799850464E-1  
 8.210210210210210E8    -4.868718385696411E-1   6.438040733337402E-1  -4.484630189836025E-3  -1.275823563337326E-1  -4.411274101585150E-3  -1.275319308042526E-1  -2.435913681983948E-1  -2.629455924034119E-1  
 8.234234234234234E8    -4.767880439758301E-1   6.551007628440857E-1  -1.475207787007093E-2  -1.247757822275162E-1  -1.471567992120981E-2  -1.246546432375908E-1  -3.062292635440826E-1  -2.570641040802002E-1  
