#  HZ   S   RI   R     50.00 
! Rohde & Schwarz ZVB8 2Ports - Version 2.81 - 1145.1010k08 SN: 100113
! Date: 2016-05-12 03:17:12
! Measurements: S11 S21 S12 S22 
! 
 6.000000000000000E8    -7.865792512893677E-1   4.382151365280151E-1  -1.628827652893961E-3  -4.151289351284504E-3  -1.630136044695973E-3  -4.159667063504458E-3  -9.282392263412476E-1   2.533834874629974E-1  
 6.024024024024024E8    -7.748714089393616E-1   4.508382678031921E-1  -1.696418272331357E-3  -4.366872366517782E-3  -1.631645602174103E-3  -4.376249853521586E-3  -9.234393835067749E-1   2.663474678993225E-1  
 6.048048048048048E8    -7.623222470283508E-1   4.642083346843720E-1  -1.831324072554708E-3  -4.740914795547724E-3  -1.792874187231064E-3  -4.645483568310738E-3  -9.186185598373413E-1   2.794038355350494E-1  
 6.072072072072072E8    -7.483667135238648E-1   4.782228469848633E-1  -1.921925344504416E-3  -4.971332382410765E-3  -1.838197233155370E-3  -4.906384274363518E-3  -9.134182929992676E-1   2.919183969497681E-1  
 6.096096096096096E8    -7.336630225181580E-1   4.915090501308441E-1  -1.947261625900865E-3  -5.166938062757254E-3  -1.896805362775922E-3  -5.132414866238833E-3  -9.076002836227417E-1   3.050571680068970E-1  
 6.120120120120120E8    -7.207629084587097E-1   5.020939111709595E-1  -1.893050153739750E-3  -5.553506780415773E-3  -2.006754511967301E-3  -5.522220395505428E-3  -9.026689529418945E-1   3.159225285053253E-1  
 6.144144144144144E8    -7.069701552391052E-1   5.126137733459473E-1  -1.985704991966486E-3  -5.971471779048443E-3  -1.969980308786035E-3  -5.980778951197863E-3  -8.976252079010010E-1   3.279346227645874E-1  
 6.168168168168168E8    -6.918982863426209E-1   5.229080319404602E-1  -2.008398063480854E-3  -6.630849093198776E-3  -1.949496450833976E-3  -6.555798929184675E-3  -8.921819925308228E-1   3.403392434120178E-1  
 6.192192192192192E8    -6.763964891433716E-1   5.316475629806519E-1  -2.024062210693955E-3  -7.389789912849665E-3  -1.976292114704847E-3  -7.335034664720297E-3  -8.860099315643311E-1   3.532059192657471E-1  
 6.216216216216216E8    -6.611432433128357E-1   5.394613742828369E-1  -2.174100140109658E-3  -8.336541242897511E-3  -2.094265306368470E-3  -8.341012522578239E-3  -8.791096210479736E-1   3.664997816085815E-1  
 6.240240240240240E8    -6.468936800956726E-1   5.467525124549866E-1  -2.470177365466952E-3  -9.583143517374992E-3  -2.447086852043867E-3  -9.507873095571995E-3  -8.714824914932251E-1   3.800497949123383E-1  
 6.264264264264264E8    -6.335532069206238E-1   5.554074048995972E-1  -3.125132527202368E-3  -1.102805417031050E-2  -3.037426853552461E-3  -1.104499865323305E-2  -8.627032637596130E-1   3.951318264007568E-1  
 6.288288288288288E8    -6.208602190017700E-1   5.642275214195252E-1  -4.229437094181776E-3  -1.260690763592720E-2  -4.257016349583864E-3  -1.256060972809792E-2  -8.542699217796326E-1   4.084564447402954E-1  
 6.312312312312312E8    -6.074084043502808E-1   5.737836956977844E-1  -5.752795375883579E-3  -1.411743927747011E-2  -5.741475149989128E-3  -1.411187276244164E-2  -8.457172513008118E-1   4.206260144710541E-1  
 6.336336336336336E8    -5.935830473899841E-1   5.836591124534607E-1  -7.823442108929157E-3  -1.547123771160841E-2  -7.829794660210609E-3  -1.546158175915480E-2  -8.378681540489197E-1   4.317661225795746E-1  
 6.360360360360360E8    -5.783512592315674E-1   5.939780473709106E-1  -1.024582888931036E-2  -1.657438836991787E-2  -1.030219811946154E-2  -1.661642082035542E-2  -8.300639986991882E-1   4.419771730899811E-1  
 6.384384384384384E8    -5.618894696235657E-1   6.045910120010376E-1  -1.311111822724342E-2  -1.724761538207531E-2  -1.313480921089649E-2  -1.727445609867573E-2  -8.215371370315552E-1   4.546516835689545E-1  
 6.408408408408408E8    -5.438479781150818E-1   6.155992150306702E-1  -1.624312065541744E-2  -1.731753908097744E-2  -1.623403280973434E-2  -1.740673370659351E-2  -8.123182058334351E-1   4.675756692886353E-1  
 6.432432432432432E8    -5.241850018501282E-1   6.259928345680237E-1  -1.945422030985355E-2  -1.686522737145424E-2  -1.935021579265595E-2  -1.683977060019970E-2  -8.021785616874695E-1   4.800009429454804E-1  
 6.456456456456456E8    -5.027633905410767E-1   6.358152627944946E-1  -2.232379838824272E-2  -1.588847488164902E-2  -2.230583876371384E-2  -1.590713858604431E-2  -7.916218638420105E-1   4.925799965858460E-1  
 6.480480480480480E8    -4.790980219841003E-1   6.438246965408325E-1  -2.514534443616867E-2  -1.477199606597424E-2  -2.521787770092487E-2  -1.472155284136534E-2  -7.806639075279236E-1   5.047944784164429E-1  
 6.504504504504504E8    -4.542636275291443E-1   6.505525708198547E-1  -2.795508317649365E-2  -1.328525040298700E-2  -2.792932465672493E-2  -1.326531171798706E-2  -7.670941352844238E-1   5.195471644401550E-1  
 6.528528528528528E8    -4.278923571109772E-1   6.553722023963928E-1  -3.061487339437008E-2  -1.151300221681595E-2  -3.046160750091076E-2  -1.158403698354960E-2  -7.545514106750488E-1   5.344704389572144E-1  
 6.552552552552552E8    -4.001447558403015E-1   6.575827002525330E-1  -3.321464359760284E-2  -9.501134976744652E-3  -3.307830169796944E-2  -9.594200178980827E-3  -7.434823513031006E-1   5.478344559669495E-1  
 6.576576576576576E8    -3.712953925132752E-1   6.575114727020264E-1  -3.566098958253861E-2  -7.323901634663343E-3  -3.558607771992683E-2  -7.400114554911852E-3  -7.320337295532227E-1   5.591930747032166E-1  
 6.600600600600600E8    -3.406861722469330E-1   6.554711461067200E-1  -3.814252093434334E-2  -4.933420568704605E-3  -3.806708380579948E-2  -4.958259873092175E-3  -7.188184857368469E-1   5.698847174644470E-1  
 6.624624624624624E8    -3.114076554775238E-1   6.515733599662781E-1  -4.065757989883423E-2  -2.220284193754196E-3  -4.070246964693070E-2  -2.240119269117713E-3  -7.033692002296448E-1   5.834904909133911E-1  
 6.648648648648648E8    -2.811574935913086E-1   6.443598866462708E-1  -4.305335506796837E-2   1.079864217899740E-3  -4.307553172111511E-2   9.602048085071147E-4  -6.873390674591065E-1   5.964650511741638E-1  
 6.672672672672672E8    -2.504959404468536E-1   6.338637471199036E-1  -4.529367014765739E-2   4.791188053786755E-3  -4.525844007730484E-2   4.649292677640915E-3  -6.706475019454956E-1   6.090250611305237E-1  
 6.696696696696696E8    -2.192455977201462E-1   6.195651888847351E-1  -4.717502743005753E-2   8.770341984927654E-3  -4.712354764342308E-2   8.587897755205631E-3  -6.537491679191589E-1   6.207937002182007E-1  
 6.720720720720720E8    -1.886668056249619E-1   6.020119190216065E-1  -4.896654188632965E-2   1.314786355942488E-2  -4.893218725919724E-2   1.297934353351593E-2  -6.356949210166931E-1   6.325056552886963E-1  
 6.744744744744744E8    -1.606846153736115E-1   5.828406810760498E-1  -5.046404153108597E-2   1.789719238877296E-2  -5.052210390567780E-2   1.785428822040558E-2  -6.168655157089233E-1   6.439879536628723E-1  
 6.768768768768768E8    -1.335693597793579E-1   5.583037137985230E-1  -5.127420276403427E-2   2.327515743672848E-2  -5.141469463706017E-2   2.329493314027786E-2  -5.960488915443420E-1   6.550499796867371E-1  
 6.792792792792792E8    -1.099200770258904E-1   5.304808616638184E-1  -5.162439122796059E-2   2.881534211337566E-2  -5.163413658738136E-2   2.892022393643856E-2  -5.746264457702637E-1   6.657187938690186E-1  
 6.816816816816816E8    -8.840201795101166E-2   4.979541301727295E-1  -5.138927325606346E-2   3.481116890907288E-2  -5.129034817218781E-2   3.480455651879311E-2  -5.518525838851929E-1   6.759952306747437E-1  
 6.840840840840840E8    -7.103039324283600E-2   4.616835713386536E-1  -5.031430721282959E-2   4.108145460486412E-2  -5.035535246133804E-2   4.092617705464363E-2  -5.277523398399353E-1   6.857092976570129E-1  
 6.864864864864864E8    -5.926080420613289E-2   4.245402216911316E-1  -4.836006835103035E-2   4.715694859623909E-2  -4.853160679340363E-2   4.687330126762390E-2  -5.020166039466858E-1   6.938420534133911E-1  
 6.888888888888888E8    -5.227764695882797E-2   3.872045576572418E-1  -4.591232910752296E-2   5.326188728213310E-2  -4.623779654502869E-2   5.273821204900742E-2  -4.754515886306763E-1   7.014009952545166E-1  
 6.912912912912912E8    -5.049755796790123E-2   3.498692512512207E-1  -4.287906363606453E-2   5.954566225409508E-2  -4.317896440625191E-2   5.906493961811066E-2  -4.476629495620728E-1   7.078112959861755E-1  
 6.936936936936936E8    -5.349690467119217E-2   3.133226633071899E-1  -3.874936327338219E-2   6.557808816432953E-2  -3.891289979219437E-2   6.549756973981857E-2  -4.174794554710388E-1   7.132846713066101E-1  
 6.960960960960960E8    -6.117456778883934E-2   2.771794497966766E-1  -3.357922285795212E-2   7.125499844551086E-2  -3.320842981338501E-2   7.136439532041550E-2  -3.857363462448120E-1   7.174938917160034E-1  
 6.984984984984984E8    -7.594572007656097E-2   2.421114146709442E-1  -2.730580791831017E-2   7.565293461084366E-2  -2.609413862228394E-2   7.600120455026627E-2  -3.491972088813782E-1   7.208984494209290E-1  
 7.009009009009008E8    -9.559674561023712E-2   2.109219282865524E-1  -2.054041437804699E-2   7.870489358901978E-2  -1.891704648733139E-2   7.904207706451416E-2  -3.113015890121460E-1   7.213450670242310E-1  
 7.033033033033032E8    -1.178480088710785E-1   1.846897602081299E-1  -1.362047996371985E-2   8.040585368871689E-2  -1.233552489429712E-2   8.061505109071732E-2  -2.741696834564209E-1   7.175806164741516E-1  
 7.057057057057056E8    -1.421687155961990E-1   1.621234565973282E-1  -7.272224873304367E-3   8.073309808969498E-2  -6.734390743076801E-3   8.102378249168396E-2  -2.374858558177948E-1   7.096351981163025E-1  
 7.081081081081080E8    -1.678230613470078E-1   1.435576677322388E-1  -2.050951356068254E-3   8.050041645765305E-2  -2.463886979967356E-3   8.051449805498123E-2  -1.997490525245667E-1   6.990622282028198E-1  
 7.105105105105104E8    -1.922392249107361E-1   1.320887655019760E-1   1.640889095142484E-3   8.048388361930847E-2   7.016858435235918E-4   8.044660091400147E-2  -1.590925455093384E-1   6.839904189109802E-1  
 7.129129129129129E8    -2.191597521305084E-1   1.230564862489700E-1   4.116273019462824E-3   8.056424558162689E-2   3.393793944269419E-3   8.055704832077026E-2  -1.152708902955055E-1   6.615726351737976E-1  
 7.153153153153153E8    -2.472887188196182E-1   1.180003508925438E-1   4.968905355781317E-3   8.135300129652023E-2   4.670039750635624E-3   8.134514093399048E-2  -7.078187167644501E-2   6.320933103561401E-1  
 7.177177177177178E8    -2.731488049030304E-1   1.182614862918854E-1   4.127218388020992E-3   8.444255590438843E-2   4.256113432347775E-3   8.451380580663681E-2  -2.931379526853561E-2   5.941439867019653E-1  
 7.201201201201202E8    -2.948943972587585E-1   1.224638074636459E-1   3.560400335118175E-3   9.161989390850067E-2   3.427855670452118E-3   9.177064150571823E-2   5.630053114145994E-3   5.475691556930542E-1  
 7.225225225225226E8    -3.122868537902832E-1   1.278799772262573E-1   5.239872727543116E-3   1.035769358277321E-1   5.261702928692102E-3   1.037877500057221E-1   3.085904754698277E-2   4.956434667110443E-1  
 7.249249249249250E8    -3.254941105842590E-1   1.322246193885803E-1   1.386674679815769E-2   1.191642135381699E-1   1.269698515534401E-2   1.194729954004288E-1   4.253511875867844E-2   4.424003362655640E-1  
 7.273273273273274E8    -3.390734195709229E-1   1.345369964838028E-1   3.063923865556717E-2   1.341129392385483E-1   2.823175862431526E-2   1.345025300979614E-1   4.391750693321228E-2   3.955243229866028E-1  
 7.297297297297298E8    -3.513703644275665E-1   1.352066248655319E-1   5.339291319251061E-2   1.447753906250000E-1   5.127786844968796E-2   1.450988054275513E-1   4.202445223927498E-2   3.564625084400177E-1  
 7.321321321321322E8    -3.664830625057221E-1   1.347913742065430E-1   7.972701638936997E-2   1.489864289760590E-1   7.973089814186096E-2   1.483694016933441E-1   4.153167083859444E-2   3.210465908050537E-1  
 7.345345345345346E8    -3.840374946594238E-1   1.375585049390793E-1   1.081696972250938E-1   1.452924907207489E-1   1.088352203369141E-1   1.443903893232346E-1   4.455504566431046E-2   2.882663011550903E-1  
 7.369369369369370E8    -4.017570614814758E-1   1.429815888404846E-1   1.363688558340073E-1   1.338521838188171E-1   1.373460888862610E-1   1.325206607580185E-1   5.022761598229408E-2   2.512348592281342E-1  
 7.393393393393394E8    -4.181393384933472E-1   1.515063196420670E-1   1.606209278106690E-1   1.157720983028412E-1   1.617140620946884E-1   1.140355691313744E-1   5.449988320469856E-2   2.093649059534073E-1  
 7.417417417417418E8    -4.304125607013702E-1   1.607929319143295E-1   1.808359622955322E-1   9.359627217054367E-2   1.816475093364716E-1   9.217922389507294E-2   5.562383681535721E-2   1.627645045518875E-1  
 7.441441441441442E8    -4.402607083320618E-1   1.680865436792374E-1   1.975697726011276E-1   6.703933328390122E-2   1.976969987154007E-1   6.679004430770874E-2   5.086109414696693E-2   1.127276793122292E-1  
 7.465465465465466E8    -4.502541720867157E-1   1.726957708597183E-1   2.082756012678146E-1   3.805045038461685E-2   2.083327472209930E-1   3.726411983370781E-2   4.024566337466240E-2   6.222375109791756E-2  
 7.489489489489490E8    -4.625840485095978E-1   1.772744357585907E-1   2.121187746524811E-1   7.391884922981262E-3   2.120688408613205E-1   6.927401758730412E-3   2.215474285185337E-2   1.159640401601791E-2  
 7.513513513513514E8    -4.750314950942993E-1   1.831880211830139E-1   2.096332907676697E-1  -2.249243296682835E-2   2.094616144895554E-1  -2.278722077608109E-2  -4.860481247305870E-3  -3.928679600358009E-2  
 7.537537537537538E8    -4.886398613452911E-1   1.897857934236527E-1   2.019524723291397E-1  -5.050493404269218E-2   2.024076730012894E-1  -4.998619109392166E-2  -3.997973725199699E-2  -8.770075440406799E-2  
 7.561561561561562E8    -5.033988952636719E-1   1.975586116313934E-1   1.911251991987228E-1  -7.580172270536423E-2   1.910442113876343E-1  -7.551351189613342E-2  -8.170565962791443E-2  -1.319934129714966E-1  
 7.585585585585586E8    -5.181597471237183E-1   2.095472216606140E-1   1.759087592363358E-1  -9.860043227672577E-2   1.752596348524094E-1  -9.826281666755676E-2  -1.292419284582138E-1  -1.687588989734650E-1  
 7.609609609609610E8    -5.332410931587219E-1   2.230401486158371E-1   1.572755724191666E-1  -1.175940632820129E-1   1.566446572542191E-1  -1.167363226413727E-1  -1.829041540622711E-1  -1.982227563858032E-1  
 7.633633633633634E8    -5.476318001747131E-1   2.377061545848846E-1   1.367307305335999E-1  -1.319519132375717E-1   1.363717019557953E-1  -1.307851374149323E-1  -2.427371144294739E-1  -2.194243669509888E-1  
 7.657657657657658E8    -5.609899759292603E-1   2.535436153411865E-1   1.157725527882576E-1  -1.421805173158646E-1   1.159562990069389E-1  -1.413256675004959E-1  -3.049947619438171E-1  -2.316835969686508E-1  
 7.681681681681682E8    -5.733549594879150E-1   2.709043622016907E-1   9.493609517812729E-2  -1.485060900449753E-1   9.500647336244583E-2  -1.485397666692734E-1  -3.653942942619324E-1  -2.357357293367386E-1  
 7.705705705705706E8    -5.840395092964172E-1   2.895712554454804E-1   7.496515661478043E-2  -1.512398123741150E-1   7.433348894119263E-2  -1.513476669788361E-1  -4.212785065174103E-1  -2.310088574886322E-1  
 7.729729729729730E8    -5.920311212539673E-1   3.098176419734955E-1   5.559123679995537E-2  -1.509119570255280E-1   5.497773736715317E-2  -1.513438820838928E-1  -4.749111831188202E-1  -2.202636152505875E-1  
 7.753753753753754E8    -5.982761383056641E-1   3.309504091739655E-1   3.764521330595017E-2  -1.475027650594711E-1   3.689320385456085E-2  -1.480169147253037E-1  -5.250448584556580E-1  -2.028874158859253E-1  
 7.777777777777778E8    -6.025232076644898E-1   3.514746427536011E-1   2.209755405783653E-2  -1.419916749000549E-1   2.133621275424957E-2  -1.422449499368668E-1  -5.693535208702087E-1  -1.800478100776672E-1  
 7.801801801801802E8    -6.046816110610962E-1   3.718395829200745E-1   8.802467025816441E-3  -1.353749781847000E-1   8.593743667006493E-3  -1.352334618568420E-1  -6.052687168121338E-1  -1.550886780023575E-1  
 7.825825825825826E8    -6.041536927223206E-1   3.924951851367950E-1  -2.242164220660925E-3  -1.275584250688553E-1  -2.455629874020815E-3  -1.276335567235947E-1  -6.391397118568420E-1  -1.270601749420166E-1  
 7.849849849849850E8    -6.044252514839172E-1   4.133624732494354E-1  -1.155398227274418E-2  -1.200833320617676E-1  -1.117456611245871E-2  -1.199432834982872E-1  -6.678432226181030E-1  -9.897010028362274E-2  
 7.873873873873874E8    -6.028855443000794E-1   4.342067539691925E-1  -1.926699280738831E-2  -1.123887971043587E-1  -1.879442855715752E-2  -1.121566370129585E-1  -6.934303045272827E-1  -6.996435672044754E-2  
 7.897897897897898E8    -5.986546874046326E-1   4.547182023525238E-1  -2.532247081398964E-2  -1.046482473611832E-1  -2.518761344254017E-2  -1.043381839990616E-1  -7.165404558181763E-1  -4.068690165877342E-2  
 7.921921921921922E8    -5.923798680305481E-1   4.756463766098023E-1  -3.029990568757057E-2  -9.727126359939575E-2  -3.030855581164360E-2  -9.709204733371735E-2  -7.378452420234680E-1  -1.071960479021072E-2  
 7.945945945945946E8    -5.873321890830994E-1   4.951359331607819E-1  -3.419451788067818E-2  -9.021198749542236E-2  -3.404571115970612E-2  -9.003278613090515E-2  -7.537733316421509E-1   1.901549845933914E-2  
 7.969969969969970E8    -5.808562040328980E-1   5.134257674217224E-1  -3.722848743200302E-2  -8.355696499347687E-2  -3.705735877156258E-2  -8.316797018051148E-2  -7.669553756713867E-1   4.793046787381172E-2  
 7.993993993993994E8    -5.737696886062622E-1   5.300238728523254E-1  -3.907576203346252E-2  -7.686827331781387E-2  -3.898870199918747E-2  -7.671177387237549E-2  -7.787581682205200E-1   7.636066526174545E-2  
 8.018018018018018E8    -5.658180117607117E-1   5.459690093994141E-1  -4.002082347869873E-2  -7.103402167558670E-2  -4.000396654009819E-2  -7.108993828296661E-2  -7.879477143287659E-1   1.034147068858147E-1  
 8.042042042042042E8    -5.561602115631104E-1   5.637643337249756E-1  -4.067203402519226E-2  -6.604681164026260E-2  -4.070926457643509E-2  -6.628780812025070E-2  -7.960161566734314E-1   1.286075711250305E-1  
 8.066066066066066E8    -5.457487106323242E-1   5.790430307388306E-1  -4.088418185710907E-2  -6.164490059018135E-2  -4.099655151367188E-2  -6.204028800129890E-2  -8.032264113426209E-1   1.551612615585327E-1  
 8.090090090090090E8    -5.351517200469971E-1   5.929493308067322E-1  -4.128371551632881E-2  -5.831595882773399E-2  -4.147959128022194E-2  -5.853705480694771E-2  -8.083595037460327E-1   1.819939017295837E-1  
 8.114114114114114E8    -5.249615311622620E-1   6.054651737213135E-1  -4.198453947901726E-2  -5.525076389312744E-2  -4.219054803252220E-2  -5.535730719566345E-2  -8.120233416557312E-1   2.077726572751999E-1  
 8.138138138138138E8    -5.149558186531067E-1   6.175505518913269E-1  -4.308319091796875E-2  -5.227783694863319E-2  -4.325686767697334E-2  -5.222304165363312E-2  -8.142560124397278E-1   2.324617356061935E-1  
 8.162162162162162E8    -5.054110884666443E-1   6.291849613189697E-1  -4.397067055106163E-2  -4.915813729166985E-2  -4.395373165607452E-2  -4.888569563627243E-2  -8.152064681053162E-1   2.559750378131867E-1  
 8.186186186186186E8    -4.967121779918671E-1   6.413798928260803E-1  -4.457229003310204E-2  -4.610839858651161E-2  -4.447657242417336E-2  -4.581763222813606E-2  -8.151150345802307E-1   2.797076404094696E-1  
 8.210210210210210E8    -4.863630235195160E-1   6.537539362907410E-1  -4.512155428528786E-2  -4.315790534019470E-2  -4.518543928861618E-2  -4.319451004266739E-2  -8.133139610290527E-1   3.025515973567963E-1  
 8.234234234234234E8    -4.754620790481567E-1   6.654447317123413E-1  -4.582671448588371E-2  -4.011376947164536E-2  -4.589443653821945E-2  -4.023116827011108E-2  -8.111044168472290E-1   3.242574036121368E-1  
