#  HZ   S   RI   R     50.00 
! Rohde & Schwarz ZVB8 2Ports - Version 2.81 - 1145.1010k08 SN: 100113
! Date: 2016-05-12 03:17:23
! Measurements: S11 S21 S12 S22 
! 
 6.000000000000000E8    -7.866799235343933E-1   4.383250772953033E-1  -2.060452476143837E-3  -4.721838515251875E-3  -2.075039548799396E-3  -4.689516499638557E-3  -9.166306257247925E-1   2.747107148170471E-1  
 6.024024024024024E8    -7.750524282455444E-1   4.506968259811401E-1  -2.176620298996568E-3  -5.019962321966887E-3  -2.222829731181264E-3  -4.977366421371698E-3  -9.108710289001465E-1   2.886849939823151E-1  
 6.048048048048048E8    -7.628520131111145E-1   4.638226628303528E-1  -2.418266609311104E-3  -5.255965981632471E-3  -2.424231031909585E-3  -5.222825333476067E-3  -9.049694538116455E-1   3.024734556674957E-1  
 6.072072072072072E8    -7.489885091781616E-1   4.775908887386322E-1  -2.593349665403366E-3  -5.591683555394411E-3  -2.593209501355887E-3  -5.507365334779024E-3  -8.985683917999268E-1   3.160514831542969E-1  
 6.096096096096096E8    -7.343348264694214E-1   4.913278520107269E-1  -2.654373645782471E-3  -5.792935378849506E-3  -2.614966826513410E-3  -5.829698406159878E-3  -8.917472362518311E-1   3.301219046115875E-1  
 6.120120120120120E8    -7.215105295181274E-1   5.022984147071838E-1  -2.747295191511512E-3  -6.164425052702427E-3  -2.684759441763163E-3  -6.196809466928244E-3  -8.852006793022156E-1   3.418798148632050E-1  
 6.144144144144144E8    -7.072006464004517E-1   5.130358934402466E-1  -2.766384044662118E-3  -6.682765670120716E-3  -2.746774582192302E-3  -6.765263620764017E-3  -8.786982893943787E-1   3.549339771270752E-1  
 6.168168168168168E8    -6.920020580291748E-1   5.232303738594055E-1  -2.867016242817044E-3  -7.370514795184135E-3  -2.867909846827388E-3  -7.353447843343020E-3  -8.714035153388977E-1   3.686378002166748E-1  
 6.192192192192192E8    -6.768202781677246E-1   5.322581529617310E-1  -2.875215606763959E-3  -8.160654455423355E-3  -2.887928392738104E-3  -8.196306414902210E-3  -8.635849356651306E-1   3.823455870151520E-1  
 6.216216216216216E8    -6.617960333824158E-1   5.404280424118042E-1  -2.980611287057400E-3  -9.265728294849396E-3  -3.051934530958533E-3  -9.227817878127098E-3  -8.547075390815735E-1   3.966421484947205E-1  
 6.240240240240240E8    -6.475583910942078E-1   5.480731725692749E-1  -3.330746199935675E-3  -1.063525024801493E-2  -3.409113734960556E-3  -1.060479879379273E-2  -8.451841473579407E-1   4.109867811203003E-1  
 6.264264264264264E8    -6.344774961471558E-1   5.564730763435364E-1  -4.157425835728645E-3  -1.236563455313444E-2  -4.151385277509689E-3  -1.236771140247583E-2  -8.341487646102905E-1   4.267059862613678E-1  
 6.288288288288288E8    -6.205894947052002E-1   5.657678246498108E-1  -5.411457270383835E-3  -1.426604110747576E-2  -5.447241012006998E-3  -1.422456558793783E-2  -8.227561116218567E-1   4.410581886768341E-1  
 6.312312312312312E8    -6.062708497047424E-1   5.752065777778626E-1  -7.355626672506332E-3  -1.619135402143002E-2  -7.309551816433668E-3  -1.609936542809010E-2  -8.120929598808289E-1   4.541136920452118E-1  
 6.336336336336336E8    -5.918271541595459E-1   5.844486951828003E-1  -9.811741299927235E-3  -1.786977052688599E-2  -9.812931530177593E-3  -1.794465817511082E-2  -8.012357950210571E-1   4.656392633914948E-1  
 6.360360360360360E8    -5.760127902030945E-1   5.945657491683960E-1  -1.301571354269981E-2  -1.939512975513935E-2  -1.304695010185242E-2  -1.937788166105747E-2  -7.909955382347107E-1   4.770739972591400E-1  
 6.384384384384384E8    -5.597541928291321E-1   6.047995090484619E-1  -1.687359064817429E-2  -2.015011571347714E-2  -1.683014072477818E-2  -2.013569697737694E-2  -7.791713476181030E-1   4.906378686428070E-1  
 6.408408408408408E8    -5.420409440994263E-1   6.151190400123596E-1  -2.109651267528534E-2  -2.008278481662273E-2  -2.095847763121128E-2  -2.008822746574879E-2  -7.665302157402039E-1   5.045990347862244E-1  
 6.432432432432432E8    -5.226436257362366E-1   6.254897713661194E-1  -2.521616406738758E-2  -1.909013651311398E-2  -2.513832785189152E-2  -1.909489743411541E-2  -7.531678676605225E-1   5.183454155921936E-1  
 6.456456456456456E8    -5.014005899429321E-1   6.346966028213501E-1  -2.895415201783180E-2  -1.746293716132641E-2  -2.891428023576737E-2  -1.744305901229382E-2  -7.387070655822754E-1   5.314435958862305E-1  
 6.480480480480480E8    -4.778605401515961E-1   6.423971652984619E-1  -3.254756703972817E-2  -1.561288721859455E-2  -3.237971663475037E-2  -1.552295312285423E-2  -7.234440445899963E-1   5.447845458984375E-1  
 6.504504504504504E8    -4.527063071727753E-1   6.487708687782288E-1  -3.601548075675964E-2  -1.327649597078562E-2  -3.584340959787369E-2  -1.332153845578432E-2  -7.044812440872192E-1   5.607177615165710E-1  
 6.528528528528528E8    -4.268472492694855E-1   6.531924605369568E-1  -3.928829357028008E-2  -1.069856341928244E-2  -3.923003003001213E-2  -1.068524736911058E-2  -6.862127184867859E-1   5.762327909469605E-1  
 6.552552552552552E8    -4.001812636852264E-1   6.559000015258789E-1  -4.231213405728340E-2  -7.738734595477581E-3  -4.231179133057594E-2  -7.814390584826469E-3  -6.687790751457214E-1   5.902555584907532E-1  
 6.576576576576576E8    -3.719610273838043E-1   6.559059023857117E-1  -4.533863440155983E-2  -4.634735174477100E-3  -4.534943029284477E-2  -4.653009586036205E-3  -6.509900689125061E-1   6.019735932350159E-1  
 6.600600600600600E8    -3.417918980121613E-1   6.541439294815064E-1  -4.841631650924683E-2  -1.147287315689027E-3  -4.851076379418373E-2  -1.085205702111125E-3  -6.305773258209229E-1   6.124954819679260E-1  
 6.624624624624624E8    -3.122328519821167E-1   6.499664783477783E-1  -5.165006965398789E-2   3.031839383766055E-3  -5.173577368259430E-2   3.058853792026639E-3  -6.073174476623535E-1   6.251520514488220E-1  
 6.648648648648648E8    -2.818716466426849E-1   6.424775123596191E-1  -5.461453273892403E-2   8.103866130113602E-3  -5.456215515732765E-2   7.858316414058209E-3  -5.833124518394470E-1   6.369573473930359E-1  
 6.672672672672672E8    -2.517152130603790E-1   6.320252418518066E-1  -5.703437328338623E-2   1.365924719721079E-2  -5.690504983067513E-2   1.327520981431007E-2  -5.575061440467835E-1   6.478035449981690E-1  
 6.696696696696696E8    -2.210799157619476E-1   6.182769536972046E-1  -5.901393666863442E-2   1.947589777410030E-2  -5.900673940777779E-2   1.922591403126717E-2  -5.301833748817444E-1   6.572154760360718E-1  
 6.720720720720720E8    -1.903540641069412E-1   6.012300848960877E-1  -6.083163991570473E-2   2.594669163227081E-2  -6.099304929375649E-2   2.579719759523869E-2  -5.013914704322815E-1   6.660243868827820E-1  
 6.744744744744744E8    -1.619578152894974E-1   5.816389322280884E-1  -6.208430603146553E-2   3.315146639943123E-2  -6.230058148503304E-2   3.330247849225998E-2  -4.698171913623810E-1   6.737895607948303E-1  
 6.768768768768768E8    -1.349501609802246E-1   5.574812889099121E-1  -6.246528401970863E-2   4.151851683855057E-2  -6.255644559860230E-2   4.179649800062180E-2  -4.362854957580566E-1   6.794450879096985E-1  
 6.792792792792792E8    -1.111705973744392E-1   5.288250446319580E-1  -6.145675480365753E-2   5.027201026678085E-2  -6.153469532728195E-2   5.050687119364739E-2  -4.024630188941956E-1   6.830653548240662E-1  
 6.816816816816816E8    -9.062230587005615E-2   4.971035718917847E-1  -5.933560058474541E-2   5.933285504579544E-2  -5.928933620452881E-2   5.940609797835350E-2  -3.665194511413574E-1   6.850627064704895E-1  
 6.840840840840840E8    -7.378100603818893E-2   4.615940451622009E-1  -5.587098002433777E-2   6.888995319604874E-2  -5.584172904491425E-2   6.862470507621765E-2  -3.273323178291321E-1   6.843466758728027E-1  
 6.864864864864864E8    -6.255582720041275E-2   4.248958528041840E-1  -5.051295086741447E-2   7.817705720663071E-2  -5.088393017649651E-2   7.750681042671204E-2  -2.850628495216370E-1   6.793919801712036E-1  
 6.888888888888888E8    -5.564258620142937E-2   3.876601159572601E-1  -4.400998726487160E-2   8.691602200269699E-2  -4.471222311258316E-2   8.638381958007813E-2  -2.406968772411346E-1   6.706320047378540E-1  
 6.912912912912912E8    -5.453244596719742E-2   3.492600917816162E-1  -3.568743541836739E-2   9.566614031791687E-2  -3.653230890631676E-2   9.527514874935150E-2  -1.942530125379562E-1   6.564334630966187E-1  
 6.936936936936936E8    -5.756954103708267E-2   3.138769567012787E-1  -2.605143934488297E-2   1.028329953551292E-1  -2.627744525671005E-2   1.030203551054001E-1  -1.477042287588120E-1   6.371873021125794E-1  
 6.960960960960960E8    -6.510129570960999E-2   2.789449989795685E-1  -1.473071519285440E-2   1.089999601244927E-1  -1.421524025499821E-2   1.092768684029579E-1  -1.008633002638817E-1   6.123631000518799E-1  
 6.984984984984984E8    -7.974152266979218E-2   2.452989369630814E-1  -1.908867852762342E-3   1.129152998328209E-1  -5.517836143553723E-6   1.130834221839905E-1  -5.193922296166420E-2   5.806668996810913E-1  
 7.009009009009008E8    -9.904684871435165E-2   2.148524820804596E-1   1.174038555473089E-2   1.141898557543755E-1   1.381035801023245E-2   1.137380748987198E-1  -5.641415249556303E-3   5.405737161636353E-1  
 7.033033033033032E8    -1.212020218372345E-1   1.893906295299530E-1   2.545595727860928E-2   1.125122606754303E-1   2.712798677384853E-2   1.120174229145050E-1   3.711595758795738E-2   4.899049401283264E-1  
 7.057057057057056E8    -1.449046581983566E-1   1.683318167924881E-1   3.791198134422302E-2   1.078757345676422E-1   3.847641497850418E-2   1.075239330530167E-1   7.223068177700043E-2   4.305650889873505E-1  
 7.081081081081080E8    -1.682372540235519E-1   1.504057049751282E-1   4.773811250925064E-2   1.014262214303017E-1   4.745454341173172E-2   1.017063036561012E-1   1.014712154865265E-1   3.618404269218445E-1  
 7.105105105105104E8    -1.923599392175674E-1   1.373868435621262E-1   5.480918660759926E-2   9.524104744195938E-2   5.459675565361977E-2   9.565299004316330E-2   1.201467439532280E-1   2.844935059547424E-1  
 7.129129129129129E8    -2.193686068058014E-1   1.281161904335022E-1   5.955403298139572E-2   8.912716060876846E-2   5.951425060629845E-2   8.931622654199600E-2   1.238345056772232E-1   2.004977762699127E-1  
 7.153153153153153E8    -2.478169500827789E-1   1.236641705036163E-1   6.162214279174805E-2   8.466645330190659E-2   6.165730580687523E-2   8.480548858642578E-2   1.100729256868362E-1   1.175651252269745E-1  
 7.177177177177178E8    -2.732284665107727E-1   1.247737407684326E-1   6.299196928739548E-2   8.419689536094666E-2   6.317611038684845E-2   8.404902368783951E-2   7.781987637281418E-2   3.876828402280808E-2  
 7.201201201201202E8    -2.950594127178192E-1   1.299667060375214E-1   6.675369292497635E-2   8.710178732872009E-2   6.647836416959763E-2   8.740308135747910E-2   2.922411076724529E-2  -2.824959345161915E-2  
 7.225225225225226E8    -3.110682368278503E-1   1.381996423006058E-1   7.516879588365555E-2   9.235305339097977E-2   7.480220496654511E-2   9.269943833351135E-2  -3.111151233315468E-2  -7.970230281352997E-2  
 7.249249249249250E8    -3.231021463871002E-1   1.445590853691101E-1   9.012063592672348E-2   9.588323533535004E-2   8.846353739500046E-2   9.741031378507614E-2  -9.476362913846970E-2  -1.126979216933250E-1  
 7.273273273273274E8    -3.299463987350464E-1   1.487864851951599E-1   1.091564744710922E-1   9.658734500408173E-2   1.073596253991127E-1   9.798472374677658E-2  -1.527254134416580E-1  -1.291968673467636E-1  
 7.297297297297298E8    -3.381809592247009E-1   1.489363908767700E-1   1.312536597251892E-1   9.096381068229675E-2   1.300555467605591E-1   9.170223027467728E-2  -2.007431387901306E-1  -1.370369493961334E-1  
 7.321321321321322E8    -3.483231067657471E-1   1.453101336956024E-1   1.533061563968658E-1   7.787562906742096E-2   1.531248241662979E-1   7.694668322801590E-2  -2.395386099815369E-1  -1.424730271100998E-1  
 7.345345345345346E8    -3.618112802505493E-1   1.419635266065598E-1   1.722635626792908E-1   5.603226646780968E-2   1.723702996969223E-1   5.491238459944725E-2  -2.698697149753571E-1  -1.494226604700089E-1  
 7.369369369369370E8    -3.780341446399689E-1   1.401173174381256E-1   1.843619495630264E-1   2.790003642439842E-2   1.844958364963532E-1   2.627320587635040E-2  -3.013262450695038E-1  -1.599573493003845E-1  
 7.393393393393394E8    -3.934529721736908E-1   1.410671770572662E-1   1.875723451375961E-1  -1.680652028881013E-3   1.874281018972397E-1  -3.420879133045673E-3  -3.357840180397034E-1  -1.718797236680985E-1  
 7.417417417417418E8    -4.079946279525757E-1   1.435564458370209E-1   1.842546463012695E-1  -2.945328317582607E-2   1.837787926197052E-1  -3.070539049804211E-2  -3.760026395320892E-1  -1.823193728923798E-1  
 7.441441441441442E8    -4.226590394973755E-1   1.453076899051666E-1   1.758099645376205E-1  -5.535945668816567E-2   1.758223772048950E-1  -5.521449819207192E-2  -4.179734289646149E-1  -1.882121264934540E-1  
 7.465465465465466E8    -4.410620331764221E-1   1.473460942506790E-1   1.628525257110596E-1  -7.772532850503922E-2   1.632622927427292E-1  -7.738907635211945E-2  -4.600782692432404E-1  -1.878347992897034E-1  
 7.489489489489490E8    -4.617410302162170E-1   1.516802161931992E-1   1.465694904327393E-1  -9.596294909715653E-2   1.474495530128479E-1  -9.541609138250351E-2  -5.028916001319885E-1  -1.835008114576340E-1  
 7.513513513513514E8    -4.811903238296509E-1   1.593822091817856E-1   1.283138394355774E-1  -1.096771210432053E-1   1.291939467191696E-1  -1.093633174896240E-1  -5.456466078758240E-1  -1.742532402276993E-1  
 7.537537537537538E8    -4.992682039737701E-1   1.693294048309326E-1   1.099393814802170E-1  -1.188458353281021E-1   1.104742437601090E-1  -1.186100766062737E-1  -5.864553451538086E-1  -1.600818783044815E-1  
 7.561561561561562E8    -5.175048112869263E-1   1.808310747146606E-1   9.296190738677979E-2  -1.251629441976547E-1   9.249536693096161E-2  -1.249534934759140E-1  -6.231575012207031E-1  -1.432568579912186E-1  
 7.585585585585586E8    -5.340394973754883E-1   1.965852081775665E-1   7.567988336086273E-2  -1.291172057390213E-1   7.458700239658356E-2  -1.286711096763611E-1  -6.556067466735840E-1  -1.209306567907333E-1  
 7.609609609609610E8    -5.489629507064819E-1   2.130637615919113E-1   5.913111940026283E-2  -1.304339468479157E-1   5.786047875881195E-2  -1.295487880706787E-1  -6.853826045989990E-1  -9.668681770563126E-2  
 7.633633633633634E8    -5.633726716041565E-1   2.306072860956192E-1   4.398165270686150E-2  -1.292569190263748E-1   4.299377650022507E-2  -1.281238943338394E-1  -7.128226161003113E-1  -7.072091102600098E-2  
 7.657657657657658E8    -5.770013928413391E-1   2.501052021980286E-1   3.042708523571491E-2  -1.267583221197128E-1   2.995302155613899E-2  -1.259388625621796E-1  -7.377237081527710E-1  -4.491906613111496E-2  
 7.681681681681682E8    -5.892261266708374E-1   2.713070213794708E-1   1.792022399604321E-2  -1.229426264762878E-1   1.801238209009171E-2  -1.231496632099152E-1  -7.597908973693848E-1  -2.020857855677605E-2  
 7.705705705705706E8    -5.994825363159180E-1   2.943320572376251E-1   6.610845681279898E-3  -1.182233393192291E-1   7.049562875181437E-3  -1.185505762696266E-1  -7.770186066627502E-1   5.632736720144749E-3  
 7.729729729729730E8    -6.056566238403320E-1   3.186475038528442E-1  -3.738536266610026E-3  -1.121650710701942E-1  -3.042181022465229E-3  -1.131320297718048E-1  -7.934095859527588E-1   3.305178880691528E-2  
 7.753753753753754E8    -6.086721420288086E-1   3.415083587169647E-1  -1.229666359722614E-2  -1.053959727287293E-1  -1.192377042025328E-2  -1.066709533333778E-1  -8.065204024314880E-1   6.181157752871513E-2  
 7.777777777777778E8    -6.097902655601502E-1   3.623159825801849E-1  -1.922583021223545E-2  -9.864181280136108E-2  -1.912552490830421E-2  -9.943678230047226E-2  -8.152146935462952E-1   9.056353569030762E-2  
 7.801801801801802E8    -6.091227531433106E-1   3.817314505577087E-1  -2.489723823964596E-2  -9.189498424530029E-2  -2.482272125780582E-2  -9.188533574342728E-2  -8.193608522415161E-1   1.172922626137734E-1  
 7.825825825825826E8    -6.062421798706055E-1   4.007650315761566E-1  -2.922351658344269E-2  -8.508940786123276E-2  -2.954079583287239E-2  -8.466029912233353E-2  -8.234660029411316E-1   1.451790183782578E-1  
 7.849849849849850E8    -6.043231487274170E-1   4.199688136577606E-1  -3.286454454064369E-2  -7.887122780084610E-2  -3.276437520980835E-2  -7.813839614391327E-2  -8.258158564567566E-1   1.690017580986023E-1  
 7.873873873873874E8    -6.018428802490234E-1   4.401621222496033E-1  -3.569927439093590E-2  -7.259201258420944E-2  -3.547725453972817E-2  -7.185807079076767E-2  -8.279042840003967E-1   1.911900788545609E-1  
 7.897897897897898E8    -5.962375402450562E-1   4.604689180850983E-1  -3.785960003733635E-2  -6.648528575897217E-2  -3.773117437958717E-2  -6.593393534421921E-2  -8.302489519119263E-1   2.134757637977600E-1  
 7.921921921921922E8    -5.886119604110718E-1   4.802543520927429E-1  -3.937298059463501E-2  -6.049369648098946E-2  -3.937632963061333E-2  -6.054930761456490E-2  -8.329765796661377E-1   2.355028986930847E-1  
 7.945945945945946E8    -5.836210846900940E-1   4.985588192939758E-1  -4.035722464323044E-2  -5.493521690368652E-2  -4.005045816302300E-2  -5.513414740562439E-2  -8.322238326072693E-1   2.560116350650787E-1  
 7.969969969969970E8    -5.777889490127564E-1   5.152515172958374E-1  -4.046016931533814E-2  -4.972021654248238E-2  -4.028552398085594E-2  -5.004391819238663E-2  -8.313813209533691E-1   2.758453488349915E-1  
 7.993993993993994E8    -5.715401768684387E-1   5.310093760490418E-1  -3.981842473149300E-2  -4.484326392412186E-2  -3.976324945688248E-2  -4.523988068103790E-2  -8.301845192909241E-1   2.956661581993103E-1  
 8.018018018018018E8    -5.643493533134460E-1   5.466353297233582E-1  -3.831306472420692E-2  -4.089839383959770E-2  -3.849251195788384E-2  -4.115589708089829E-2  -8.282658457756043E-1   3.154304027557373E-1  
 8.042042042042042E8    -5.557798743247986E-1   5.628433823585510E-1  -3.697706386446953E-2  -3.818205371499062E-2  -3.701747581362724E-2  -3.826200589537621E-2  -8.265401721000671E-1   3.334466814994812E-1  
 8.066066066066066E8    -5.459852218627930E-1   5.775490403175354E-1  -3.574519976973534E-2  -3.612201660871506E-2  -3.587532788515091E-2  -3.607749193906784E-2  -8.241268396377564E-1   3.528540432453156E-1  
 8.090090090090090E8    -5.363096594810486E-1   5.920633077621460E-1  -3.499945625662804E-2  -3.465690463781357E-2  -3.519376367330551E-2  -3.465856984257698E-2  -8.205810785293579E-1   3.717228174209595E-1  
 8.114114114114114E8    -5.264840126037598E-1   6.058878302574158E-1  -3.493170812726021E-2  -3.335934504866600E-2  -3.511695563793182E-2  -3.339318558573723E-2  -8.167910575866699E-1   3.895755708217621E-1  
 8.138138138138138E8    -5.166226625442505E-1   6.189281940460205E-1  -3.531916439533234E-2  -3.207676112651825E-2  -3.541264310479164E-2  -3.193625062704086E-2  -8.123076558113098E-1   4.062426686286926E-1  
 8.162162162162162E8    -5.067251324653626E-1   6.317642927169800E-1  -3.565885126590729E-2  -3.029393032193184E-2  -3.568752855062485E-2  -3.022261336445808E-2  -8.079382181167603E-1   4.220038950443268E-1  
 8.186186186186186E8    -4.976789057254791E-1   6.444168090820313E-1  -3.582718595862389E-2  -2.856819331645966E-2  -3.576789051294327E-2  -2.851047739386559E-2  -8.026234507560730E-1   4.383672177791596E-1  
 8.210210210210210E8    -4.867697656154633E-1   6.558746695518494E-1  -3.613127022981644E-2  -2.704420499503613E-2  -3.613191470503807E-2  -2.690584957599640E-2  -7.966268062591553E-1   4.537840485572815E-1  
 8.234234234234234E8    -4.752665758132935E-1   6.674291491508484E-1  -3.647331520915031E-2  -2.518136799335480E-2  -3.651969134807587E-2  -2.525790780782700E-2  -7.908243536949158E-1   4.689365029335022E-1  
