#  HZ   S   RI   R     50.00 
! Rohde & Schwarz ZVB8 2Ports - Version 2.81 - 1145.1010k08 SN: 100113
! Date: 2016-05-12 03:16:14
! Measurements: S11 S21 S12 S22 
! 
 6.000000000000000E8    -8.322863578796387E-1   4.029397070407867E-1  -3.995955630671233E-4  -2.223248127847910E-3  -3.300089738331735E-4  -2.167015802115202E-3  -9.535958766937256E-1   1.929410845041275E-1  
 6.024024024024024E8    -8.238822817802429E-1   4.156578183174133E-1  -3.968088421970606E-4  -2.306663431227207E-3  -3.788534377235919E-4  -2.280416898429394E-3  -9.508396983146668E-1   2.039743959903717E-1  
 6.048048048048048E8    -8.148405551910400E-1   4.286244213581085E-1  -2.881247201003134E-4  -2.407204126939178E-3  -3.165364905726165E-4  -2.337017096579075E-3  -9.475921988487244E-1   2.155225723981857E-1  
 6.072072072072072E8    -8.052200675010681E-1   4.428223073482513E-1  -3.153250436298549E-4  -2.474377164617181E-3  -3.343221906106919E-4  -2.558678388595581E-3  -9.445635080337524E-1   2.262973785400391E-1  
 6.096096096096096E8    -7.946504950523377E-1   4.569957852363586E-1  -3.875630209222436E-4  -2.663719933480024E-3  -3.464317123871297E-4  -2.614102326333523E-3  -9.412945508956909E-1   2.371739000082016E-1  
 6.120120120120120E8    -7.854958176612854E-1   4.686597883701325E-1  -2.910911571234465E-4  -2.716011134907603E-3  -2.630297676660121E-4  -2.784449607133865E-3  -9.386222958564758E-1   2.460358738899231E-1  
 6.144144144144144E8    -7.755988240242004E-1   4.798267781734467E-1  -1.633393403608352E-4  -2.936246804893017E-3  -2.015718928305432E-4  -2.940232865512371E-3  -9.359733462333679E-1   2.555330991744995E-1  
 6.168168168168168E8    -7.646650671958923E-1   4.914022982120514E-1  -9.006338950712234E-5  -3.165924455970526E-3  -8.746227103983983E-5  -3.160833148285747E-3  -9.334311485290527E-1   2.660272419452667E-1  
 6.192192192192192E8    -7.536908388137817E-1   5.020783543586731E-1   8.504877041559666E-5  -3.483095206320286E-3  -5.773591510660481E-6  -3.473436925560236E-3  -9.299029707908630E-1   2.764059305191040E-1  
 6.216216216216216E8    -7.420912981033325E-1   5.124024152755737E-1   1.357023138552904E-4  -3.882649587467313E-3   1.303253811784089E-4  -3.889162559062243E-3  -9.263138175010681E-1   2.876061797142029E-1  
 6.240240240240240E8    -7.315424680709839E-1   5.219287276268005E-1   1.394485007040203E-4  -4.454468376934528E-3   2.282471832586452E-4  -4.444752354174852E-3  -9.224945306777954E-1   2.988876402378082E-1  
 6.264264264264264E8    -7.213727235794067E-1   5.324414372444153E-1   1.231131318490952E-4  -5.167281720787287E-3   1.175594079541042E-4  -5.105134565383196E-3  -9.175838828086853E-1   3.118806779384613E-1  
 6.288288288288288E8    -7.115976810455322E-1   5.433164238929749E-1  -1.182071428047493E-4  -5.931743420660496E-3  -1.346409408142790E-4  -5.864596925675869E-3  -9.129458665847778E-1   3.231880068778992E-1  
 6.312312312312312E8    -7.016806006431580E-1   5.536850094795227E-1  -5.453096237033606E-4  -6.609277334064245E-3  -5.470790201798081E-4  -6.649411749094725E-3  -9.086514115333557E-1   3.334738016128540E-1  
 6.336336336336336E8    -6.916675567626953E-1   5.646948814392090E-1  -1.085079275071621E-3  -7.355689536780119E-3  -1.162158674560487E-3  -7.307428400963545E-3  -9.045047163963318E-1   3.423033952713013E-1  
 6.360360360360360E8    -6.808451414108276E-1   5.759477615356445E-1  -1.855708891525865E-3  -8.069475181400776E-3  -1.856524730101228E-3  -8.034143596887589E-3  -9.005499482154846E-1   3.503406941890717E-1  
 6.384384384384384E8    -6.698167324066162E-1   5.875651240348816E-1  -2.819815650582314E-3  -8.624522946774960E-3  -2.931614639237523E-3  -8.567752316594124E-3  -8.964779973030090E-1   3.607517182826996E-1  
 6.408408408408408E8    -6.581634283065796E-1   5.993067026138306E-1  -3.974132239818573E-3  -8.932447992265225E-3  -3.976929932832718E-3  -8.921778760850430E-3  -8.922874927520752E-1   3.711600899696350E-1  
 6.432432432432432E8    -6.460996866226196E-1   6.110823154449463E-1  -5.097369197756052E-3  -9.013158269226551E-3  -5.040938965976238E-3  -9.002743288874626E-3  -8.870917558670044E-1   3.811058998107910E-1  
 6.456456456456456E8    -6.327130198478699E-1   6.231172084808350E-1  -6.057071499526501E-3  -8.954226970672607E-3  -6.066696718335152E-3  -8.965796791017056E-3  -8.821294903755188E-1   3.912275731563568E-1  
 6.480480480480480E8    -6.179739236831665E-1   6.344568133354187E-1  -7.043835707008839E-3  -8.780994452536106E-3  -7.043490651994944E-3  -8.795790374279022E-3  -8.769016265869141E-1   4.005883336067200E-1  
 6.504504504504504E8    -6.024216413497925E-1   6.456084847450256E-1  -7.951098494231701E-3  -8.616430684924126E-3  -7.997322827577591E-3  -8.619760163128376E-3  -8.692511916160584E-1   4.130056500434876E-1  
 6.528528528528528E8    -5.867475867271423E-1   6.559728980064392E-1  -8.843622170388699E-3  -8.316566236317158E-3  -8.816829882562161E-3  -8.228505030274391E-3  -8.634731173515320E-1   4.253441393375397E-1  
 6.552552552552552E8    -5.702629685401917E-1   6.652907133102417E-1  -9.673933498561382E-3  -7.936256937682629E-3  -9.653383865952492E-3  -7.918830029666424E-3  -8.591675758361816E-1   4.361332654953003E-1  
 6.576576576576576E8    -5.532890558242798E-1   6.738762259483337E-1  -1.041871216148138E-2  -7.515121251344681E-3  -1.039294246584177E-2  -7.498852908611298E-3  -8.553810119628906E-1   4.447725117206574E-1  
 6.600600600600600E8    -5.341765284538269E-1   6.828172802925110E-1  -1.109500695019960E-2  -7.100115530192852E-3  -1.111677940934897E-2  -7.099710870534182E-3  -8.504584431648254E-1   4.529116749763489E-1  
 6.624624624624624E8    -5.156778097152710E-1   6.913130283355713E-1  -1.181159354746342E-2  -6.748942658305168E-3  -1.189054828137159E-2  -6.759735289961100E-3  -8.438980579376221E-1   4.640105962753296E-1  
 6.648648648648648E8    -4.963663220405579E-1   6.986329555511475E-1  -1.254405360668898E-2  -6.338205654174089E-3  -1.260416209697723E-2  -6.361773237586021E-3  -8.372135162353516E-1   4.746755361557007E-1  
 6.672672672672672E8    -4.764333069324493E-1   7.049969434738159E-1  -1.331479009240866E-2  -5.804952234029770E-3  -1.323420461267233E-2  -5.877642426639795E-3  -8.305470347404480E-1   4.849342703819275E-1  
 6.696696696696696E8    -4.554566740989685E-1   7.107980251312256E-1  -1.395071484148502E-2  -5.301358178257942E-3  -1.385601051151753E-2  -5.419570952653885E-3  -8.241799473762512E-1   4.947685599327087E-1  
 6.720720720720720E8    -4.330300390720367E-1   7.155426144599915E-1  -1.467656251043081E-2  -4.854670260101557E-3  -1.459890510886908E-2  -4.884595982730389E-3  -8.176523447036743E-1   5.039893984794617E-1  
 6.744744744744744E8    -4.109036326408386E-1   7.196602821350098E-1  -1.535741053521633E-2  -4.312227014452219E-3  -1.532998122274876E-2  -4.307323601096869E-3  -8.106129765510559E-1   5.144653916358948E-1  
 6.768768768768768E8    -3.882938027381897E-1   7.224096059799194E-1  -1.602456532418728E-2  -3.706096904352307E-3  -1.598428934812546E-2  -3.672264749184251E-3  -8.034421205520630E-1   5.241857767105103E-1  
 6.792792792792792E8    -3.653279244899750E-1   7.237078547477722E-1  -1.655661687254906E-2  -2.999569987878203E-3  -1.657614856958389E-2  -3.042701631784439E-3  -7.965685725212097E-1   5.339362025260925E-1  
 6.816816816816816E8    -3.419811129570007E-1   7.237786650657654E-1  -1.723335869610310E-2  -2.453686436638236E-3  -1.728311926126480E-2  -2.367011969909072E-3  -7.892054915428162E-1   5.437545180320740E-1  
 6.840840840840840E8    -3.176651597023010E-1   7.222639918327332E-1  -1.783303543925285E-2  -1.672175363637507E-3  -1.787115074694157E-2  -1.670708763413131E-3  -7.818434238433838E-1   5.539317727088928E-1  
 6.864864864864864E8    -2.933657169342041E-1   7.192462086677551E-1  -1.851009577512741E-2  -9.112822008319199E-4  -1.847991161048412E-2  -9.238897473551333E-4  -7.735251188278198E-1   5.630658864974976E-1  
 6.888888888888888E8    -2.688536643981934E-1   7.149312496185303E-1  -1.908786408603191E-2  -6.923923501744866E-5  -1.903294771909714E-2  -1.962316600838676E-4  -7.649651765823364E-1   5.725943446159363E-1  
 6.912912912912912E8    -2.450311034917831E-1   7.088199257850647E-1  -1.969906687736511E-2   8.363383240066469E-4  -1.975967548787594E-2   6.800916162319481E-4  -7.567161321640015E-1   5.823243856430054E-1  
 6.936936936936936E8    -2.209617495536804E-1   7.011038064956665E-1  -2.033108659088612E-2   1.770470989868045E-3  -2.026453055441380E-2   1.761947758495808E-3  -7.486545443534851E-1   5.919573307037354E-1  
 6.960960960960960E8    -1.964178532361984E-1   6.912765502929688E-1  -2.076025865972042E-2   2.837291918694973E-3  -2.073493786156178E-2   2.873521531000733E-3  -7.403613924980164E-1   6.016251444816589E-1  
 6.984984984984984E8    -1.746562570333481E-1   6.789915561676025E-1  -2.097731642425060E-2   3.939531743526459E-3  -2.090806700289249E-2   4.183458164334297E-3  -7.288159728050232E-1   6.143676042556763E-1  
 7.009009009009008E8    -1.540219485759735E-1   6.648744940757752E-1  -2.098132669925690E-2   4.946925677359104E-3  -2.086021564900875E-2   5.365534219890833E-3  -7.181738615036011E-1   6.256071329116821E-1  
 7.033033033033032E8    -1.348192542791367E-1   6.497711539268494E-1  -2.074214816093445E-2   5.780708510428667E-3  -2.069556340575218E-2   6.165353115648031E-3  -7.090902328491211E-1   6.339828372001648E-1  
 7.057057057057056E8    -1.175211295485497E-1   6.325264573097229E-1  -2.036701887845993E-2   6.331714801490307E-3  -2.034178934991360E-2   6.610707845538855E-3  -7.024239897727966E-1   6.395787596702576E-1  
 7.081081081081080E8    -9.988030791282654E-2   6.150622963905335E-1  -2.005554363131523E-2   6.564121227711439E-3  -2.015955559909344E-2   6.545980926603079E-3  -6.950840950012207E-1   6.462341547012329E-1  
 7.105105105105104E8    -8.463150262832642E-2   5.968418717384338E-1  -2.016104012727737E-2   6.465780548751354E-3  -2.021775580942631E-2   6.202608812600374E-3  -6.870452761650085E-1   6.533949375152588E-1  
 7.129129129129129E8    -7.232385128736496E-2   5.767862200737000E-1  -2.035423554480076E-2   5.925582256168127E-3  -2.043841779232025E-2   5.622702185064554E-3  -6.772142648696899E-1   6.616340875625610E-1  
 7.153153153153153E8    -6.428029388189316E-2   5.557683706283569E-1  -2.116770856082439E-2   5.052144639194012E-3  -2.125677652657032E-2   4.825461190193892E-3  -6.658049821853638E-1   6.711219549179077E-1  
 7.177177177177178E8    -5.923639982938767E-2   5.362669825553894E-1  -2.280990406870842E-2   3.652981482446194E-3  -2.288042381405830E-2   3.629228333011270E-3  -6.536489725112915E-1   6.806281208992004E-1  
 7.201201201201202E8    -5.578109994530678E-2   5.199863314628601E-1  -2.567695453763008E-2   2.535504521802068E-3  -2.567547559738159E-2   2.513511572033167E-3  -6.417676806449890E-1   6.892901659011841E-1  
 7.225225225225226E8    -5.261943116784096E-2   5.100266933441162E-1  -2.992124482989311E-2   2.001121640205383E-3  -2.986827120184898E-2   2.059375867247582E-3  -6.286328434944153E-1   6.982119679450989E-1  
 7.249249249249250E8    -4.529231786727905E-2   5.011278390884399E-1  -3.528642281889916E-2   3.250186797231436E-3  -3.530799970030785E-2   2.843064954504371E-3  -6.176729798316956E-1   7.040480375289917E-1  
 7.273273273273274E8    -3.509457036852837E-2   4.912115335464478E-1  -4.105648398399353E-2   6.472085136920214E-3  -4.113461822271347E-2   5.669744219630957E-3  -6.070838570594788E-1   7.093108296394348E-1  
 7.297297297297298E8    -2.216097898781300E-2   4.788739979267120E-1  -4.647215455770493E-2   1.156689878553152E-2  -4.655637219548225E-2   1.079302094876766E-2  -5.966385602951050E-1   7.148382067680359E-1  
 7.321321321321322E8    -8.054021745920181E-3   4.614899456501007E-1  -5.073401704430580E-2   1.814628019928932E-2  -5.065234005451202E-2   1.801629364490509E-2  -5.858511924743652E-1   7.210035324096680E-1  
 7.345345345345346E8     5.184658337384462E-3   4.384202063083649E-1  -5.316712707281113E-2   2.617733553051949E-2  -5.291393026709557E-2   2.631597220897675E-2  -5.748609900474548E-1   7.276522517204285E-1  
 7.369369369369370E8     1.429037563502789E-2   4.102033376693726E-1  -5.365014076232910E-2   3.473370522260666E-2  -5.329558253288269E-2   3.513755276799202E-2  -5.634552240371704E-1   7.345019578933716E-1  
 7.393393393393394E8     1.551184896379709E-2   3.803204596042633E-1  -5.212036520242691E-2   4.327841103076935E-2  -5.172147229313850E-2   4.374746233224869E-2  -5.521961450576782E-1   7.411496043205261E-1  
 7.417417417417418E8     1.293053291738033E-2   3.543975651264191E-1  -4.925480112433434E-2   5.098645761609078E-2  -4.900320991873741E-2   5.133872479200363E-2  -5.411124825477600E-1   7.472605109214783E-1  
 7.441441441441442E8     9.566537104547024E-3   3.305868208408356E-1  -4.560621827840805E-2   5.826256796717644E-2  -4.561926797032356E-2   5.832345038652420E-2  -5.303114652633667E-1   7.529221177101135E-1  
 7.465465465465466E8     3.178987186402082E-3   3.067168295383453E-1  -4.108669981360436E-2   6.495054066181183E-2  -4.110610485076904E-2   6.509707123041153E-2  -5.180928111076355E-1   7.598072290420532E-1  
 7.489489489489490E8    -7.206305395811796E-3   2.822125256061554E-1  -3.547954186797142E-2   7.104910910129547E-2  -3.565855696797371E-2   7.118683308362961E-2  -5.063748359680176E-1   7.660190463066101E-1  
 7.513513513513514E8    -1.964344084262848E-2   2.607329487800598E-1  -2.904532477259636E-2   7.608190178871155E-2  -2.933293394744396E-2   7.617965340614319E-2  -4.952683150768280E-1   7.717727422714233E-1  
 7.537537537537538E8    -3.108133561909199E-2   2.400336265563965E-1  -2.239286527037621E-2   8.000724017620087E-2  -2.286198176443577E-2   8.003113418817520E-2  -4.826509952545166E-1   7.779809236526489E-1  
 7.561561561561562E8    -4.495982080698013E-2   2.185770124197006E-1  -1.594664156436920E-2   8.347412943840027E-2  -1.618902385234833E-2   8.335170894861221E-2  -4.700259566307068E-1   7.830106019973755E-1  
 7.585585585585586E8    -6.241760775446892E-2   2.010538280010223E-1  -9.004623629152775E-3   8.642118424177170E-2  -9.065989404916763E-3   8.599785715341568E-2  -4.546669125556946E-1   7.900483608245850E-1  
 7.609609609609610E8    -8.210897445678711E-2   1.848646104335785E-1  -1.659863977693021E-3   8.869615942239761E-2  -1.730147399939597E-3   8.789174258708954E-2  -4.397777020931244E-1   7.974685430526733E-1  
 7.633633633633634E8    -1.020725592970848E-1   1.719931662082672E-1   5.705499555915594E-3   9.013045579195023E-2   5.452261306345463E-3   8.940461277961731E-2  -4.261503219604492E-1   8.039276003837585E-1  
 7.657657657657658E8    -1.231293454766274E-1   1.603020578622818E-1   1.308546960353851E-2   9.097713977098465E-2   1.274963654577732E-2   9.055523574352264E-2  -4.140720963478088E-1   8.088345527648926E-1  
 7.681681681681682E8    -1.449967622756958E-1   1.508273780345917E-1   2.057276852428913E-2   9.116178005933762E-2   2.063942700624466E-2   9.115171432495117E-2  -4.030708670616150E-1   8.130656480789185E-1  
 7.705705705705706E8    -1.678008884191513E-1   1.453311145305634E-1   2.801332622766495E-2   9.016311913728714E-2   2.834976091980934E-2   9.040605276823044E-2  -3.916595876216888E-1   8.186510205268860E-1  
 7.729729729729730E8    -1.912073343992233E-1   1.417484730482101E-1   3.536453843116760E-2   8.803976327180862E-2   3.581204265356064E-2   8.889996260404587E-2  -3.786695599555969E-1   8.264153599739075E-1  
 7.753753753753754E8    -2.135915309190750E-1   1.394991874694824E-1   4.211807623505592E-2   8.537045866250992E-2   4.272928833961487E-2   8.627434074878693E-2  -3.628477454185486E-1   8.333376049995422E-1  
 7.777777777777778E8    -2.362173944711685E-1   1.373552978038788E-1   4.825511574745178E-2   8.247158676385880E-2   4.876255244016647E-2   8.290909975767136E-2  -3.445986807346344E-1   8.378969430923462E-1  
 7.801801801801802E8    -2.603196799755096E-1   1.366208493709564E-1   5.396272242069244E-2   7.934610545635223E-2   5.385329946875572E-2   7.941089570522308E-2  -3.257875442504883E-1   8.386161923408508E-1  
 7.825825825825826E8    -2.861940264701843E-1   1.399231553077698E-1   5.909474566578865E-2   7.621110975742340E-2   5.897105857729912E-2   7.598017156124115E-2  -3.059265613555908E-1   8.411397933959961E-1  
 7.849849849849850E8    -3.130246996879578E-1   1.489160358905792E-1   6.478267163038254E-2   7.290652394294739E-2   6.416199356317520E-2   7.276415079832077E-2  -2.894435822963715E-1   8.422374129295349E-1  
 7.873873873873874E8    -3.352946043014526E-1   1.624813675880432E-1   7.029699534177780E-2   6.895243376493454E-2   6.950095295906067E-2   6.867977976799011E-2  -2.736173272132874E-1   8.444180488586426E-1  
 7.897897897897898E8    -3.527210354804993E-1   1.772868931293488E-1   7.497704029083252E-2   6.435887515544891E-2   7.440160959959030E-2   6.395290046930313E-2  -2.559037208557129E-1   8.484860658645630E-1  
 7.921921921921922E8    -3.672296702861786E-1   1.921066939830780E-1   7.913792133331299E-2   5.935215204954147E-2   7.914625108242035E-2   5.899461358785629E-2  -2.372020930051804E-1   8.537927865982056E-1  
 7.945945945945946E8    -3.838207721710205E-1   2.085255384445190E-1   8.275702595710754E-2   5.397531390190125E-2   8.256183564662933E-2   5.412417277693749E-2  -2.190467566251755E-1   8.550105690956116E-1  
 7.969969969969970E8    -3.985261917114258E-1   2.253876030445099E-1   8.541183173656464E-2   4.857763648033142E-2   8.535226434469223E-2   4.874100908637047E-2  -1.991894245147705E-1   8.564560413360596E-1  
 7.993993993993994E8    -4.118449091911316E-1   2.429290860891342E-1   8.724015951156616E-2   4.348801076412201E-2   8.736874163150787E-2   4.379208758473396E-2  -1.790792793035507E-1   8.573042750358582E-1  
 8.018018018018018E8    -4.233936071395874E-1   2.619104087352753E-1   8.870916068553925E-2   3.909439966082573E-2   8.898292481899262E-2   3.929166123270989E-2  -1.574715375900269E-1   8.575239181518555E-1  
 8.042042042042042E8    -4.321101009845734E-1   2.836527824401856E-1   9.010573476552963E-2   3.498543426394463E-2   9.040015935897827E-2   3.513955697417259E-2  -1.370615959167481E-1   8.567604422569275E-1  
 8.066066066066066E8    -4.378031790256500E-1   3.047424554824829E-1   9.133253991603851E-2   3.175478801131249E-2   9.164588898420334E-2   3.184758126735687E-2  -1.143698319792748E-1   8.558878302574158E-1  
 8.090090090090090E8    -4.406867325305939E-1   3.264088034629822E-1   9.366059303283691E-2   2.903342992067337E-2   9.388325363397598E-2   2.888751961290836E-2  -9.217447042465210E-2   8.534787297248840E-1  
 8.114114114114114E8    -4.405648708343506E-1   3.458206355571747E-1   9.669368714094162E-2   2.557899244129658E-2   9.682730585336685E-2   2.541785128414631E-2  -6.931484490633011E-2   8.499515652656555E-1  
 8.138138138138138E8    -4.392821192741394E-1   3.625156581401825E-1   9.998497366905212E-2   2.136957831680775E-2   9.983520954847336E-2   2.104396931827068E-2  -4.699207097291946E-2   8.453781604766846E-1  
 8.162162162162162E8    -4.396481215953827E-1   3.782375752925873E-1   1.024178192019463E-1   1.670875959098339E-2   1.023129373788834E-1   1.641856878995895E-2  -2.478006109595299E-2   8.399283885955811E-1  
 8.186186186186186E8    -4.408400356769562E-1   3.958447873592377E-1   1.047736331820488E-1   1.243148930370808E-2   1.045880168676376E-1   1.214576419442892E-2  -9.878554847091436E-4   8.339280486106873E-1  
 8.210210210210210E8    -4.395108520984650E-1   4.143618643283844E-1   1.076227799057961E-1   7.666721940040588E-3   1.076917573809624E-1   7.774181198328733E-3   2.331208065152168E-2   8.260549306869507E-1  
 8.234234234234234E8    -4.363339841365814E-1   4.318229258060455E-1   1.106467694044113E-1   2.099876292049885E-3   1.108125448226929E-1   2.193558728322387E-3   4.845293238759041E-2   8.167556524276733E-1  
