#  HZ   S   RI   R     50.00 
! Rohde & Schwarz ZVB8 2Ports - Version 2.81 - 1145.1010k08 SN: 100113
! Date: 2016-05-12 03:17:16
! Measurements: S11 S21 S12 S22 
! 
 6.000000000000000E8    -7.867649793624878E-1   4.381404519081116E-1  -1.768703339621425E-3  -4.429715685546398E-3  -1.819362165406346E-3  -4.372145049273968E-3  -9.241932034492493E-1   2.610410749912262E-1  
 6.024024024024024E8    -7.751402258872986E-1   4.507485926151276E-1  -1.926998840644956E-3  -4.638986662030220E-3  -1.895363559015095E-3  -4.626835230737925E-3  -9.189991950988770E-1   2.745495438575745E-1  
 6.048048048048048E8    -7.623620033264160E-1   4.640891253948212E-1  -1.968043623492122E-3  -4.901685286313295E-3  -1.958523876965046E-3  -4.901517182588577E-3  -9.137783050537109E-1   2.879159152507782E-1  
 6.072072072072072E8    -7.489956617355347E-1   4.779208302497864E-1  -2.076440490782261E-3  -5.193127319216728E-3  -2.095636678859592E-3  -5.156662315130234E-3  -9.083899855613709E-1   3.006239533424377E-1  
 6.096096096096096E8    -7.342678904533386E-1   4.914886057376862E-1  -2.218691166490316E-3  -5.393814295530319E-3  -2.157181734219194E-3  -5.430560559034348E-3  -9.019980430603027E-1   3.143429160118103E-1  
 6.120120120120120E8    -7.210346460342407E-1   5.024023056030273E-1  -2.173505490645766E-3  -5.749881267547607E-3  -2.246678108349443E-3  -5.786339752376080E-3  -8.962738513946533E-1   3.255003392696381E-1  
 6.144144144144144E8    -7.067426443099976E-1   5.131418704986572E-1  -2.280229004099965E-3  -6.254042033106089E-3  -2.251390600576997E-3  -6.246742792427540E-3  -8.908970355987549E-1   3.379115462303162E-1  
 6.168168168168168E8    -6.917980909347534E-1   5.230714678764343E-1  -2.234479179605842E-3  -6.911257747560740E-3  -2.219958463683724E-3  -6.852288730442524E-3  -8.851121068000794E-1   3.505078256130219E-1  
 6.192192192192192E8    -6.763521432876587E-1   5.318942666053772E-1  -2.221164992079139E-3  -7.734677288681269E-3  -2.284701215103269E-3  -7.694085128605366E-3  -8.780385851860046E-1   3.636822402477264E-1  
 6.216216216216216E8    -6.610001921653748E-1   5.400050878524780E-1  -2.410618821159005E-3  -8.812813088297844E-3  -2.444537123665214E-3  -8.746886625885963E-3  -8.706265687942505E-1   3.775170147418976E-1  
 6.240240240240240E8    -6.468239426612854E-1   5.469539761543274E-1  -2.844206755980849E-3  -1.015715207904577E-2  -2.730332780629396E-3  -1.011551730334759E-2  -8.624576926231384E-1   3.910905420780182E-1  
 6.264264264264264E8    -6.339875459671021E-1   5.551762580871582E-1  -3.501641331240535E-3  -1.167527865618467E-2  -3.494130447506905E-3  -1.168765034526587E-2  -8.531228899955750E-1   4.067323207855225E-1  
 6.288288288288288E8    -6.209283471107483E-1   5.639784336090088E-1  -4.805716220289469E-3  -1.340592745691538E-2  -4.837725311517716E-3  -1.337720826268196E-2  -8.436685204505920E-1   4.202453792095184E-1  
 6.312312312312312E8    -6.075800061225891E-1   5.734847784042358E-1  -6.651884876191616E-3  -1.496247202157974E-2  -6.586504634469748E-3  -1.498872227966785E-2  -8.343030810356140E-1   4.330268800258637E-1  
 6.336336336336336E8    -5.934867262840271E-1   5.836447477340698E-1  -8.776468224823475E-3  -1.632528007030487E-2  -8.796677924692631E-3  -1.638783700764179E-2  -8.254727721214294E-1   4.442405104637146E-1  
 6.360360360360360E8    -5.780090689659119E-1   5.941863059997559E-1  -1.151784509420395E-2  -1.742853410542011E-2  -1.158278714865446E-2  -1.741533726453781E-2  -8.168476223945618E-1   4.547794759273529E-1  
 6.384384384384384E8    -5.617343783378601E-1   6.047508716583252E-1  -1.461249310523272E-2  -1.802264526486397E-2  -1.461070217192173E-2  -1.802017167210579E-2  -8.071309924125671E-1   4.681043028831482E-1  
 6.408408408408408E8    -5.436354279518127E-1   6.157039999961853E-1  -1.806015335023403E-2  -1.799600012600422E-2  -1.797168329358101E-2  -1.797762326896191E-2  -7.967751622200012E-1   4.812919199466705E-1  
 6.432432432432432E8    -5.242442488670349E-1   6.262141466140747E-1  -2.134019881486893E-2  -1.730935648083687E-2  -2.130144834518433E-2  -1.733285933732987E-2  -7.854314446449280E-1   4.942221343517304E-1  
 6.456456456456456E8    -5.028564333915710E-1   6.359676718711853E-1  -2.440151758491993E-2  -1.626458205282688E-2  -2.446994185447693E-2  -1.629899442195892E-2  -7.739105820655823E-1   5.068907737731934E-1  
 6.480480480480480E8    -4.786617755889893E-1   6.440898180007935E-1  -2.745167724788189E-2  -1.499003823846579E-2  -2.733822539448738E-2  -1.495851390063763E-2  -7.615813016891480E-1   5.192980170249939E-1  
 6.504504504504504E8    -4.536424577236176E-1   6.508815884590149E-1  -3.051034919917584E-2  -1.331973075866699E-2  -3.032499179244041E-2  -1.333671901375055E-2  -7.460912466049194E-1   5.348520874977112E-1  
 6.528528528528528E8    -4.268403053283691E-1   6.554713249206543E-1  -3.346312418580055E-2  -1.139392796903849E-2  -3.332315757870674E-2  -1.139219384640455E-2  -7.319294810295105E-1   5.501331090927124E-1  
 6.552552552552552E8    -3.994430303573608E-1   6.578434109687805E-1  -3.632050380110741E-2  -9.085750207304955E-3  -3.619039431214333E-2  -9.125581011176109E-3  -7.187334895133972E-1   5.638276934623718E-1  
 6.576576576576576E8    -3.712114691734314E-1   6.577827930450440E-1  -3.892175853252411E-2  -6.522530689835548E-3  -3.895035386085510E-2  -6.554705090820789E-3  -7.051139473915100E-1   5.753663778305054E-1  
 6.600600600600600E8    -3.406890928745270E-1   6.557277441024780E-1  -4.142887517809868E-2  -3.764156717807055E-3  -4.157659038901329E-2  -3.764135530218482E-3  -6.899409294128418E-1   5.862502455711365E-1  
 6.624624624624624E8    -3.109917938709259E-1   6.513915061950684E-1  -4.419663175940514E-2  -5.899058305658400E-4  -4.429811984300613E-2  -5.723994108848274E-4  -6.720942258834839E-1   5.998411774635315E-1  
 6.648648648648648E8    -2.802103459835053E-1   6.431560516357422E-1  -4.685265570878983E-2   3.254054812714458E-3  -4.675293713808060E-2   3.031124360859394E-3  -6.541234850883484E-1   6.125822663307190E-1  
 6.672672672672672E8    -2.498603314161301E-1   6.323786973953247E-1  -4.912318289279938E-2   7.387290243059397E-3  -4.892605170607567E-2   7.167672738432884E-3  -6.345289945602417E-1   6.251524686813355E-1  
 6.696696696696696E8    -2.190662026405335E-1   6.181434988975525E-1  -5.114568769931793E-2   1.186140440404415E-2  -5.101563036441803E-2   1.167961396276951E-2  -6.141694784164429E-1   6.366735696792603E-1  
 6.720720720720720E8    -1.892037093639374E-1   6.011145114898682E-1  -5.292848870158196E-2   1.665911264717579E-2  -5.292825028300285E-2   1.652616076171398E-2  -5.925233960151672E-1   6.479339599609375E-1  
 6.744744744744744E8    -1.619271636009216E-1   5.822005867958069E-1  -5.446328222751617E-2   2.200819738209248E-2  -5.469434335827828E-2   2.236899174749851E-2  -5.689362287521362E-1   6.593289971351624E-1  
 6.768768768768768E8    -1.346092224121094E-1   5.574766397476196E-1  -5.538776889443398E-2   2.836513891816139E-2  -5.550265684723854E-2   2.853745967149735E-2  -5.442697405815125E-1   6.693041920661926E-1  
 6.792792792792792E8    -1.105920448899269E-1   5.287824273109436E-1  -5.557069554924965E-2   3.489184379577637E-2  -5.566021800041199E-2   3.496017679572105E-2  -5.187305808067322E-1   6.784609556198120E-1  
 6.816816816816816E8    -8.968128263950348E-2   4.965710341930389E-1  -5.504933372139931E-2   4.193580523133278E-2  -5.505920946598053E-2   4.172559827566147E-2  -4.922335743904114E-1   6.865726709365845E-1  
 6.840840840840840E8    -7.279521226882935E-2   4.614099860191345E-1  -5.348172411322594E-2   4.932599887251854E-2  -5.349878594279289E-2   4.903620481491089E-2  -4.635138809680939E-1   6.941066980361939E-1  
 6.864864864864864E8    -6.151597574353218E-2   4.247340559959412E-1  -5.069386586546898E-2   5.666273459792137E-2  -5.091209337115288E-2   5.616728961467743E-2  -4.326361119747162E-1   6.991803646087647E-1  
 6.888888888888888E8    -5.440950393676758E-2   3.884025216102600E-1  -4.723881557583809E-2   6.365890800952911E-2  -4.775858670473099E-2   6.304543465375900E-2  -3.996026813983917E-1   7.034397721290588E-1  
 6.912912912912912E8    -5.216682329773903E-2   3.500624001026154E-1  -4.288491234183312E-2   7.107830047607422E-2  -4.353303834795952E-2   7.048825174570084E-2  -3.643651008605957E-1   7.056974768638611E-1  
 6.936936936936936E8    -5.471948534250259E-2   3.133687376976013E-1  -3.728797659277916E-2   7.775147259235382E-2  -3.770204260945320E-2   7.778272777795792E-2  -3.279977738857269E-1   7.058067917823792E-1  
 6.960960960960960E8    -6.241318956017494E-2   2.765702605247498E-1  -3.018880635499954E-2   8.392295986413956E-2  -3.012711182236671E-2   8.416575938463211E-2  -2.893253564834595E-1   7.033058404922485E-1  
 6.984984984984984E8    -7.652053982019424E-2   2.435767948627472E-1  -2.235872298479080E-2   8.840577304363251E-2  -2.095608599483967E-2   8.891618996858597E-2  -2.466473281383514E-1   6.984095573425293E-1  
 7.009009009009008E8    -9.497846662998200E-2   2.137778103351593E-1  -1.403701491653919E-2   9.125926345586777E-2  -1.195422653108835E-2   9.151816368103027E-2  -2.030818462371826E-1   6.888673305511475E-1  
 7.033033033033032E8    -1.167594417929649E-1   1.871959418058395E-1  -5.587740335613489E-3   9.280682355165482E-2  -3.763494547456503E-3   9.284949302673340E-2  -1.597875058650971E-1   6.735528111457825E-1  
 7.057057057057056E8    -1.402316242456436E-1   1.649261862039566E-1   2.450083615258336E-3   9.304729849100113E-2   3.281709039583802E-3   9.299382567405701E-2  -1.170510053634644E-1   6.516591310501099E-1  
 7.081081081081080E8    -1.646407842636108E-1   1.457868665456772E-1   9.167263284325600E-3   9.228795766830444E-2   8.949265815317631E-3   9.253236651420593E-2  -7.265180349349976E-2   6.238914728164673E-1  
 7.105105105105104E8    -1.922063529491425E-1   1.308596432209015E-1   1.484299730509520E-2   9.170911461114883E-2   1.381445676088333E-2   9.225675463676453E-2  -2.786851115524769E-2   5.877367854118347E-1  
 7.129129129129129E8    -2.220422476530075E-1   1.208299845457077E-1   1.934521086513996E-2   9.122304618358612E-2   1.822183467447758E-2   9.180522710084915E-2   1.351241022348404E-2   5.439960956573486E-1  
 7.153153153153153E8    -2.499397844076157E-1   1.170769706368446E-1   2.206629142165184E-2   9.172785282135010E-2   2.151591889560223E-2   9.208411723375320E-2   5.073829740285873E-2   4.897936582565308E-1  
 7.177177177177178E8    -2.755534052848816E-1   1.180496215820313E-1   2.369046770036221E-2   9.443718940019608E-2   2.353519946336746E-2   9.456676989793778E-2   7.837808132171631E-2   4.282943010330200E-1  
 7.201201201201202E8    -2.952752709388733E-1   1.236631721258164E-1   2.572118304669857E-2   1.012224331498146E-1   2.587912417948246E-2   1.009514257311821E-1   9.314250200986862E-2   3.588522374629974E-1  
 7.225225225225226E8    -3.121176660060883E-1   1.304417997598648E-1   3.174718841910362E-2   1.120588332414627E-1   3.188788518309593E-2   1.116831600666046E-1   9.222836792469025E-2   2.890822887420654E-1  
 7.249249249249250E8    -3.262528181076050E-1   1.363386511802673E-1   4.513268545269966E-2   1.245315298438072E-1   4.383795335888863E-2   1.248242631554604E-1   7.526519894599915E-2   2.267374843358994E-1  
 7.273273273273274E8    -3.381477892398834E-1   1.400250941514969E-1   6.669507920742035E-2   1.344511061906815E-1   6.436094641685486E-2   1.353908330202103E-1   5.020879581570625E-2   1.759684830904007E-1  
 7.297297297297298E8    -3.504565060138702E-1   1.405255645513535E-1   9.309405833482742E-2   1.375947296619415E-1   9.154336154460907E-2   1.386284530162811E-1   2.521570026874542E-2   1.364626288414002E-1  
 7.321321321321322E8    -3.644261658191681E-1   1.395271718502045E-1   1.212620660662651E-1   1.327980756759644E-1   1.212293356657028E-1   1.327721327543259E-1   5.930039566010237E-3   1.056619063019753E-1  
 7.345345345345346E8    -3.809711039066315E-1   1.415138095617294E-1   1.485658437013626E-1   1.191792935132980E-1   1.489685624837875E-1   1.185393854975700E-1  -7.850054651498795E-3   7.521331310272217E-2  
 7.369369369369370E8    -3.964806199073792E-1   1.459757685661316E-1   1.723306179046631E-1   9.863226860761643E-2   1.729686856269836E-1   9.717537462711334E-2  -2.162428200244904E-2   3.973357006907463E-2  
 7.393393393393394E8    -4.094287455081940E-1   1.525569856166840E-1   1.903764456510544E-1   7.254593074321747E-2   1.908206790685654E-1   7.073032855987549E-2  -3.985848650336266E-2  -4.233754589222372E-4  
 7.417417417417418E8    -4.204415678977966E-1   1.586477756500244E-1   2.026825696229935E-1   4.372128844261169E-2   2.027081400156021E-1   4.242078587412834E-2  -6.338153034448624E-2  -4.218539223074913E-2  
 7.441441441441442E8    -4.297895431518555E-1   1.625275909900665E-1   2.095835953950882E-1   1.240298617631197E-2   2.092088013887405E-1   1.197364460676909E-2  -9.444411844015122E-2  -8.362903445959091E-2  
 7.465465465465466E8    -4.435107409954071E-1   1.651528626680374E-1   2.089393734931946E-1  -1.916280388832092E-2   2.085306644439697E-1  -1.977459155023098E-2  -1.306952238082886E-1  -1.202809736132622E-1  
 7.489489489489490E8    -4.600546956062317E-1   1.691194325685501E-1   2.010258585214615E-1  -4.918957129120827E-2   2.012857347726822E-1  -4.889397323131561E-2  -1.736780256032944E-1  -1.525865048170090E-1  
 7.513513513513514E8    -4.760923385620117E-1   1.751725673675537E-1   1.881163865327835E-1  -7.519993931055069E-2   1.883202642202377E-1  -7.515848428010941E-2  -2.218492031097412E-1  -1.796808540821075E-1  
 7.537537537537538E8    -4.923262000083923E-1   1.831112653017044E-1   1.709557324647903E-1  -9.760025888681412E-2   1.713963299989700E-1  -9.732402861118317E-2  -2.728843092918396E-1  -2.005707025527954E-1  
 7.561561561561562E8    -5.084085464477539E-1   1.925037354230881E-1   1.523920744657517E-1  -1.149882972240448E-1   1.521207690238953E-1  -1.149145886301994E-1  -3.246155679225922E-1  -2.147552371025085E-1  
 7.585585585585586E8    -5.219580531120300E-1   2.050761729478836E-1   1.324333101511002E-1  -1.284321695566177E-1   1.313459426164627E-1  -1.283086240291596E-1  -3.763585686683655E-1  -2.197377532720566E-1  
 7.609609609609610E8    -5.366946458816528E-1   2.190598100423813E-1   1.116205006837845E-1  -1.379184275865555E-1   1.100318431854248E-1  -1.373763978481293E-1  -4.295277297496796E-1  -2.174455672502518E-1  
 7.633633633633634E8    -5.508368611335754E-1   2.348670065402985E-1   9.077841043472290E-2  -1.433152556419373E-1   8.963513374328613E-2  -1.423180252313614E-1  -4.815106987953186E-1  -2.084821313619614E-1  
 7.657657657657658E8    -5.647634267807007E-1   2.521528899669647E-1   7.123603671789169E-2  -1.454785764217377E-1   7.123363763093948E-2  -1.446974575519562E-1  -5.308603644371033E-1  -1.945085525512695E-1  
 7.681681681681682E8    -5.774698853492737E-1   2.710730731487274E-1   5.318844318389893E-2  -1.449992209672928E-1   5.364780873060226E-2  -1.451332271099091E-1  -5.759536027908325E-1  -1.771393120288849E-1  
 7.705705705705706E8    -5.880759954452515E-1   2.917362451553345E-1   3.609806671738625E-2  -1.422337293624878E-1   3.668120130896568E-2  -1.426027417182922E-1  -6.151670217514038E-1  -1.550774425268173E-1  
 7.729729729729730E8    -5.953714847564697E-1   3.138231039047241E-1   2.052731066942215E-2  -1.370196342468262E-1   2.132101543247700E-2  -1.379375010728836E-1  -6.518627405166626E-1  -1.298359930515289E-1  
 7.753753753753754E8    -5.999795198440552E-1   3.346799015998840E-1   7.411824073642492E-3  -1.303077936172485E-1   7.860966026782990E-3  -1.314207017421722E-1  -6.840315461158752E-1  -1.014363840222359E-1  
 7.777777777777778E8    -6.032316088676453E-1   3.542506992816925E-1  -3.056066110730171E-3  -1.229535788297653E-1  -3.253294155001640E-3  -1.234628781676292E-1  -7.101249694824219E-1  -7.110375165939331E-2  
 7.801801801801802E8    -6.045767068862915E-1   3.725084960460663E-1  -1.176127232611179E-2  -1.155585125088692E-1  -1.229407824575901E-2  -1.148818135261536E-1  -7.306803464889526E-1  -4.083688557147980E-2  
 7.825825825825826E8    -6.037759184837341E-1   3.916417956352234E-1  -1.890698075294495E-2  -1.074416413903236E-1  -1.939439401030541E-2  -1.069848239421845E-1  -7.480055093765259E-1  -1.137764006853104E-2  
 7.849849849849850E8    -6.041532754898071E-1   4.120359718799591E-1  -2.480550296604633E-2  -9.996038675308228E-2  -2.470091730356216E-2  -9.954345226287842E-2  -7.627452611923218E-1   1.668699085712433E-2  
 7.873873873873874E8    -6.029818058013916E-1   4.327847957611084E-1  -2.954480983316898E-2  -9.276080131530762E-2  -2.931756712496281E-2  -9.213638305664063E-2  -7.755983471870422E-1   4.433326050639153E-2  
 7.897897897897898E8    -5.990293622016907E-1   4.539065062999725E-1  -3.319060802459717E-2  -8.567404747009277E-2  -3.305057808756828E-2  -8.526260405778885E-2  -7.873037457466126E-1   7.214539498090744E-2  
 7.921921921921922E8    -5.928002595901489E-1   4.752609431743622E-1  -3.588541597127914E-2  -7.873575389385223E-2  -3.595457971096039E-2  -7.898186892271042E-2  -7.983923554420471E-1   1.000167056918144E-1  
 7.945945945945946E8    -5.883072614669800E-1   4.956175088882446E-1  -3.791537880897522E-2  -7.258856296539307E-2  -3.762662783265114E-2  -7.292113453149796E-2  -8.048512339591980E-1   1.263351887464523E-1  
 7.969969969969970E8    -5.819085836410523E-1   5.140079855918884E-1  -3.918802738189697E-2  -6.663266569375992E-2  -3.894394263625145E-2  -6.705771386623383E-2  -8.103490471839905E-1   1.522924602031708E-1  
 7.993993993993994E8    -5.754522681236267E-1   5.306681394577026E-1  -3.951166942715645E-2  -6.135722994804382E-2  -3.947249054908752E-2  -6.176272407174110E-2  -8.146429061889648E-1   1.769746243953705E-1  
 8.018018018018018E8    -5.667832493782044E-1   5.470740795135498E-1  -3.938582539558411E-2  -5.683770403265953E-2  -3.949870169162750E-2  -5.716918036341667E-2  -8.177979588508606E-1   2.019254714250565E-1  
 8.042042042042042E8    -5.568102598190308E-1   5.644782185554504E-1  -3.932700678706169E-2  -5.338667333126068E-2  -3.934628516435623E-2  -5.338531732559204E-2  -8.201545476913452E-1   2.246420830488205E-1  
 8.066066066066066E8    -5.462315082550049E-1   5.790513753890991E-1  -3.909338638186455E-2  -5.032739788293839E-2  -3.922902792692184E-2  -5.019517615437508E-2  -8.217232823371887E-1   2.483218163251877E-1  
 8.090090090090090E8    -5.353634953498840E-1   5.926027297973633E-1  -3.925290331244469E-2  -4.773073270916939E-2  -3.940294310450554E-2  -4.764154180884361E-2  -8.221269845962524E-1   2.705796360969544E-1  
 8.114114114114114E8    -5.249012112617493E-1   6.055733561515808E-1  -3.979466855525971E-2  -4.521463066339493E-2  -3.990128636360169E-2  -4.511819407343864E-2  -8.214128017425537E-1   2.923096120357513E-1  
 8.138138138138138E8    -5.151260495185852E-1   6.176557540893555E-1  -4.039388522505760E-2  -4.262458905577660E-2  -4.059233143925667E-2  -4.263843595981598E-2  -8.196979761123657E-1   3.123570084571838E-1  
 8.162162162162162E8    -5.058085322380066E-1   6.296772360801697E-1  -4.091304540634155E-2  -3.984486311674118E-2  -4.112521559000015E-2  -3.995272889733315E-2  -8.181023597717285E-1   3.322463631629944E-1  
 8.186186186186186E8    -4.969910085201263E-1   6.420624256134033E-1  -4.110179468989372E-2  -3.722631558775902E-2  -4.123020544648171E-2  -3.725083172321320E-2  -8.149317502975464E-1   3.522759377956390E-1  
 8.210210210210210E8    -4.872534871101379E-1   6.528218984603882E-1  -4.138050228357315E-2  -3.491898998618126E-2  -4.136256501078606E-2  -3.486652299761772E-2  -8.108246326446533E-1   3.726222515106201E-1  
 8.234234234234234E8    -4.766692519187927E-1   6.642439961433411E-1  -4.167421162128449E-2  -3.254565596580505E-2  -4.158758744597435E-2  -3.241648524999619E-2  -8.062875270843506E-1   3.913908898830414E-1  
