#  HZ   S   RI   R     50.00 
! Rohde & Schwarz ZVB8 2Ports - Version 2.81 - 1145.1010k08 SN: 100113
! Date: 2016-05-12 03:16:39
! Measurements: S11 S21 S12 S22 
! 
 6.000000000000000E8    -7.866322994232178E-1   4.387031495571137E-1  -1.036274479702115E-3  -3.158550709486008E-3  -1.064580399543047E-3  -3.119698027148843E-3  -9.464399218559265E-1   2.127460092306137E-1  
 6.024024024024024E8    -7.750632762908936E-1   4.512587189674377E-1  -1.035284600220621E-3  -3.316076472401619E-3  -1.086663338355720E-3  -3.410745412111282E-3  -9.429555535316467E-1   2.248737514019013E-1  
 6.048048048048048E8    -7.621005177497864E-1   4.645074009895325E-1  -1.150355325080454E-3  -3.531744470819831E-3  -1.102266483940184E-3  -3.477122401818633E-3  -9.396392703056335E-1   2.361513078212738E-1  
 6.072072072072072E8    -7.483155131340027E-1   4.781994521617889E-1  -1.210963353514671E-3  -3.762806300073862E-3  -1.241051708348095E-3  -3.688926342874765E-3  -9.361069202423096E-1   2.476372271776199E-1  
 6.096096096096096E8    -7.335776090621948E-1   4.919813275337219E-1  -1.234194380231202E-3  -4.013219848275185E-3  -1.190266222693026E-3  -3.870669286698103E-3  -9.320754408836365E-1   2.591120302677155E-1  
 6.120120120120120E8    -7.202455997467041E-1   5.024539828300476E-1  -1.246628351509571E-3  -4.151494707912207E-3  -1.202792627736926E-3  -4.157668910920620E-3  -9.287996888160706E-1   2.681997716426849E-1  
 6.144144144144144E8    -7.063815593719482E-1   5.128538012504578E-1  -1.244836952537298E-3  -4.425333347171545E-3  -1.135218073613942E-3  -4.379434511065483E-3  -9.256942272186279E-1   2.783927917480469E-1  
 6.168168168168168E8    -6.918743252754211E-1   5.225042104721069E-1  -1.165922614745796E-3  -4.797657486051321E-3  -1.185186556540430E-3  -4.732384812086821E-3  -9.222952723503113E-1   2.890912592411041E-1  
 6.192192192192192E8    -6.771237850189209E-1   5.312304496765137E-1  -1.075340085662901E-3  -5.202235188335180E-3  -1.214285613968968E-3  -5.205030553042889E-3  -9.183217287063599E-1   3.007253110408783E-1  
 6.216216216216216E8    -6.623713970184326E-1   5.396200418472290E-1  -1.034365734085441E-3  -5.804767366498709E-3  -1.097153523005545E-3  -5.932146217674017E-3  -9.140191674232483E-1   3.125301599502564E-1  
 6.240240240240240E8    -6.479027867317200E-1   5.474341511726379E-1  -1.151837874203920E-3  -6.775054149329662E-3  -1.182802952826023E-3  -6.650662049651146E-3  -9.090080261230469E-1   3.239753246307373E-1  
 6.264264264264264E8    -6.341122984886169E-1   5.561485886573792E-1  -1.481681712903082E-3  -7.744007278233767E-3  -1.443630666472018E-3  -7.707905955612660E-3  -9.035044312477112E-1   3.375917673110962E-1  
 6.288288288288288E8    -6.205709576606751E-1   5.651282072067261E-1  -1.997078303247690E-3  -8.843525312840939E-3  -1.948310295119882E-3  -8.825235068798065E-3  -8.975006341934204E-1   3.493413925170898E-1  
 6.312312312312312E8    -6.065714359283447E-1   5.747592449188232E-1  -2.954859519377351E-3  -1.000067405402660E-2  -2.799265086650848E-3  -9.994996711611748E-3  -8.923302292823792E-1   3.602058291435242E-1  
 6.336336336336336E8    -5.925878286361694E-1   5.844028592109680E-1  -4.066927358508110E-3  -1.103787496685982E-2  -4.070707596838474E-3  -1.106419041752815E-2  -8.877598047256470E-1   3.691501319408417E-1  
 6.360360360360360E8    -5.773048400878906E-1   5.945053696632385E-1  -5.471884272992611E-3  -1.210647635161877E-2  -5.532036069780588E-3  -1.206343248486519E-2  -8.834512829780579E-1   3.775774240493774E-1  
 6.384384384384384E8    -5.611640214920044E-1   6.045339107513428E-1  -7.426986470818520E-3  -1.278251037001610E-2  -7.517564110457897E-3  -1.279105246067047E-2  -8.779989480972290E-1   3.889209032058716E-1  
 6.408408408408408E8    -5.434907078742981E-1   6.150528192520142E-1  -9.501387365162373E-3  -1.305202208459377E-2  -9.534921497106552E-3  -1.299402583390474E-2  -8.725253343582153E-1   4.000094234943390E-1  
 6.432432432432432E8    -5.239440798759460E-1   6.254842877388001E-1  -1.157300360500813E-2  -1.288716308772564E-2  -1.152019295841456E-2  -1.277720741927624E-2  -8.666318655014038E-1   4.107463359832764E-1  
 6.456456456456456E8    -5.023163557052612E-1   6.350379586219788E-1  -1.348229870200157E-2  -1.237591076642275E-2  -1.342761050909758E-2  -1.234087254852057E-2  -8.604707717895508E-1   4.213070869445801E-1  
 6.480480480480480E8    -4.791138470172882E-1   6.432166099548340E-1  -1.528740581125021E-2  -1.189206913113594E-2  -1.528500765562058E-2  -1.182293798774481E-2  -8.543540239334106E-1   4.317772686481476E-1  
 6.504504504504504E8    -4.550001919269562E-1   6.502201557159424E-1  -1.705076359212399E-2  -1.108005270361900E-2  -1.701428182423115E-2  -1.102338079363108E-2  -8.453391790390015E-1   4.447022676467896E-1  
 6.528528528528528E8    -4.288505613803864E-1   6.550760269165039E-1  -1.873592473566532E-2  -1.016214955598116E-2  -1.870463229715824E-2  -1.005928032100201E-2  -8.380713462829590E-1   4.577384889125824E-1  
 6.552552552552552E8    -4.016025960445404E-1   6.577389836311340E-1  -2.022701874375343E-2  -9.137234650552273E-3  -2.028037980198860E-2  -9.065912105143070E-3  -8.323285579681397E-1   4.692120850086212E-1  
 6.576576576576576E8    -3.730369210243225E-1   6.578722000122070E-1  -2.178829349577427E-2  -7.969958707690239E-3  -2.175001986324787E-2  -7.982600480318070E-3  -8.272790312767029E-1   4.786740243434906E-1  
 6.600600600600600E8    -3.422565460205078E-1   6.560540199279785E-1  -2.333049289882183E-2  -6.647829432040453E-3  -2.334656380116940E-2  -6.728614680469036E-3  -8.207144737243652E-1   4.875150322914124E-1  
 6.624624624624624E8    -3.118721842765808E-1   6.520327329635620E-1  -2.490700036287308E-2  -5.245654378086329E-3  -2.488840557634831E-2  -5.295718088746071E-3  -8.124412894248962E-1   4.991331696510315E-1  
 6.648648648648648E8    -2.830783128738403E-1   6.459190249443054E-1  -2.638174779713154E-2  -3.594361711293459E-3  -2.638891339302063E-2  -3.694368060678244E-3  -8.044975996017456E-1   5.105526447296143E-1  
 6.672672672672672E8    -2.522266209125519E-1   6.363482475280762E-1  -2.772777713835239E-2  -1.802031067200005E-3  -2.777237817645073E-2  -1.854182220995426E-3  -7.960943579673767E-1   5.214317440986633E-1  
 6.696696696696696E8    -2.204797863960266E-1   6.230934858322144E-1  -2.903804183006287E-2   1.104483089875430E-4  -2.891324274241924E-2   4.544988769339398E-5  -7.875952124595642E-1   5.316846370697022E-1  
 6.720720720720720E8    -1.883343756198883E-1   6.055074930191040E-1  -3.028452023863792E-2   2.225826028734446E-3  -3.024242632091045E-2   2.166571095585823E-3  -7.793462872505188E-1   5.419729948043823E-1  
 6.744744744744744E8    -1.584445685148239E-1   5.844420194625855E-1  -3.137712180614471E-2   4.715010058134794E-3  -3.134750202298164E-2   4.619096405804157E-3  -7.702370285987854E-1   5.529279112815857E-1  
 6.768768768768768E8    -1.309710741043091E-1   5.591504573822022E-1  -3.223035112023354E-2   7.468865718692541E-3  -3.215614333748817E-2   7.384195458143950E-3  -7.609950900077820E-1   5.635970234870911E-1  
 6.792792792792792E8    -1.067243590950966E-1   5.297259688377380E-1  -3.263627365231514E-2   1.032448280602694E-2  -3.261495009064674E-2   1.022922620177269E-2  -7.515811324119568E-1   5.739251971244812E-1  
 6.816816816816816E8    -8.620096743106842E-2   4.989999830722809E-1  -3.267209604382515E-2   1.306816283613443E-2  -3.274777904152870E-2   1.305103488266468E-2  -7.419559359550476E-1   5.846789479255676E-1  
 6.840840840840840E8    -6.908542662858963E-2   4.652918577194214E-1  -3.252819553017616E-2   1.594702340662479E-2  -3.255698457360268E-2   1.601719669997692E-2  -7.321832776069641E-1   5.951775312423706E-1  
 6.864864864864864E8    -5.693947896361351E-2   4.288284778594971E-1  -3.209084644913673E-2   1.875912956893444E-2  -3.207278251647949E-2   1.874938234686852E-2  -7.216186523437500E-1   6.050500273704529E-1  
 6.888888888888888E8    -4.916552826762199E-2   3.908045291900635E-1  -3.137678280472755E-2   2.161165140569210E-2  -3.151768445968628E-2   2.131849341094494E-2  -7.105056047439575E-1   6.151555776596069E-1  
 6.912912912912912E8    -4.617180302739143E-2   3.517999649047852E-1  -3.050394169986248E-2   2.457055076956749E-2  -3.062449954450131E-2   2.415823936462402E-2  -6.995111703872681E-1   6.254499554634094E-1  
 6.936936936936936E8    -4.852862283587456E-2   3.122980594635010E-1  -2.910587936639786E-2   2.741908654570580E-2  -2.931361645460129E-2   2.710804715752602E-2  -6.885557174682617E-1   6.355056166648865E-1  
 6.960960960960960E8    -5.629201605916023E-2   2.734132409095764E-1  -2.737299725413322E-2   3.009686246514320E-2  -2.750530280172825E-2   2.993035688996315E-2  -6.772310137748718E-1   6.458449959754944E-1  
 6.984984984984984E8    -7.066114991903305E-2   2.377608120441437E-1  -2.518553100526333E-2   3.234366700053215E-2  -2.486799843609333E-2   3.256310522556305E-2  -6.622084975242615E-1   6.588749289512634E-1  
 7.009009009009008E8    -9.119376540184021E-2   2.063811570405960E-1  -2.266706153750420E-2   3.394392132759094E-2  -2.193276956677437E-2   3.442303836345673E-2  -6.476013660430908E-1   6.703439354896545E-1  
 7.033033033033032E8    -1.150104478001595E-1   1.818277239799500E-1  -1.997786387801170E-2   3.481470793485642E-2  -1.918463595211506E-2   3.519672527909279E-2  -6.350000500679016E-1   6.791610121726990E-1  
 7.057057057057056E8    -1.392461955547333E-1   1.616560667753220E-1  -1.737207174301148E-2   3.485592082142830E-2  -1.691310107707977E-2   3.507507964968681E-2  -6.245515346527100E-1   6.856787204742432E-1  
 7.081081081081080E8    -1.628518253564835E-1   1.435533165931702E-1  -1.551178470253944E-2   3.417283296585083E-2  -1.562772504985333E-2   3.413744643330574E-2  -6.127449274063110E-1   6.927949786186218E-1  
 7.105105105105104E8    -1.893303096294403E-1   1.292362213134766E-1  -1.467066351324320E-2   3.345686942338944E-2  -1.513014640659094E-2   3.331639617681503E-2  -6.001746058464050E-1   7.004945278167725E-1  
 7.129129129129129E8    -2.180866152048111E-1   1.189545914530754E-1  -1.462036930024624E-2   3.243227675557137E-2  -1.517966017127037E-2   3.223819658160210E-2  -5.856876373291016E-1   7.084965705871582E-1  
 7.153153153153153E8    -2.464677095413208E-1   1.144192740321159E-1  -1.600884459912777E-2   3.154788166284561E-2  -1.633625663816929E-2   3.144620358943939E-2  -5.689986944198608E-1   7.175266146659851E-1  
 7.177177177177178E8    -2.715955674648285E-1   1.153838410973549E-1  -1.885424554347992E-2   3.155893459916115E-2  -1.887621730566025E-2   3.153601288795471E-2  -5.507372617721558E-1   7.257846593856812E-1  
 7.201201201201202E8    -2.907784879207611E-1   1.203119829297066E-1  -2.266132459044457E-2   3.317465633153915E-2  -2.268155105412006E-2   3.317722305655479E-2  -5.328686833381653E-1   7.329725623130798E-1  
 7.225225225225226E8    -3.051849305629730E-1   1.258664727210999E-1  -2.708283066749573E-2   3.713208809494972E-2  -2.705583721399307E-2   3.716354817152023E-2  -5.135627985000610E-1   7.393380403518677E-1  
 7.249249249249250E8    -3.152512907981873E-1   1.295190155506134E-1  -3.068885579705238E-2   4.428869113326073E-2  -3.102385811507702E-2   4.379571601748467E-2  -4.969278275966644E-1   7.420395612716675E-1  
 7.273273273273274E8    -3.255920410156250E-1   1.288212388753891E-1  -3.191416338086128E-2   5.399081110954285E-2  -3.283577412366867E-2   5.329772457480431E-2  -4.813958406448364E-1   7.437929511070252E-1  
 7.297297297297298E8    -3.382794857025147E-1   1.227532178163528E-1  -3.022497147321701E-2   6.481341272592545E-2  -3.110229223966599E-2   6.428828090429306E-2  -4.665908515453339E-1   7.453707456588745E-1  
 7.321321321321322E8    -3.564493358135223E-1   1.143469065427780E-1  -2.531958557665348E-2   7.528240233659744E-2  -2.545140497386456E-2   7.530450075864792E-2  -4.523093700408936E-1   7.484930157661438E-1  
 7.345345345345346E8    -3.798624575138092E-1   1.101108342409134E-1  -1.684617437422276E-2   8.431155234575272E-2  -1.659160852432251E-2   8.453239500522614E-2  -4.384152591228485E-1   7.526535391807556E-1  
 7.369369369369370E8    -4.062465727329254E-1   1.120325177907944E-1  -6.145364139229059E-3   9.083014726638794E-2  -5.288004409521818E-3   9.095224738121033E-2  -4.234357476234436E-1   7.578216195106506E-1  
 7.393393393393394E8    -4.300854206085205E-1   1.202719360589981E-1   5.264217499643564E-3   9.427695721387863E-2   6.184014957398176E-3   9.417599439620972E-2  -4.085326790809631E-1   7.631570696830750E-1  
 7.417417417417418E8    -4.498117268085480E-1   1.313649117946625E-1   1.620673015713692E-2   9.578993171453476E-2   1.697860285639763E-2   9.558828920125961E-2  -3.929020166397095E-1   7.691150307655335E-1  
 7.441441441441442E8    -4.669910967350006E-1   1.430911719799042E-1   2.723631635308266E-2   9.564357250928879E-2   2.743237651884556E-2   9.557959437370300E-2  -3.763079643249512E-1   7.744286656379700E-1  
 7.465465465465466E8    -4.851610660552979E-1   1.554377973079681E-1   3.757565468549728E-2   9.391868859529495E-2   3.770744055509567E-2   9.380459040403366E-2  -3.571869730949402E-1   7.806088924407959E-1  
 7.489489489489490E8    -5.026195645332336E-1   1.695003807544708E-1   4.700865969061852E-2   9.096658229827881E-2   4.692977294325829E-2   9.101940691471100E-2  -3.382770419120789E-1   7.858011126518250E-1  
 7.513513513513514E8    -5.168999433517456E-1   1.858226805925369E-1   5.572997406125069E-2   8.691979199647903E-2   5.540092661976814E-2   8.740309625864029E-2  -3.180421888828278E-1   7.900044322013855E-1  
 7.537537537537538E8    -5.284317731857300E-1   2.014949917793274E-1   6.365774571895599E-2   8.245288580656052E-2   6.323215365409851E-2   8.301464468240738E-2  -2.959433197975159E-1   7.934189438819885E-1  
 7.561561561561562E8    -5.394685268402100E-1   2.168000191450119E-1   7.092075049877167E-2   7.802795618772507E-2   7.064505666494370E-2   7.826441526412964E-2  -2.728624939918518E-1   7.949959635734558E-1  
 7.585585585585586E8    -5.491299629211426E-1   2.354916185140610E-1   7.779750227928162E-2   7.277577370405197E-2   7.758843898773193E-2   7.261134684085846E-2  -2.464180886745453E-1   7.980235815048218E-1  
 7.609609609609610E8    -5.569505691528320E-1   2.534537613391876E-1   8.407236635684967E-2   6.700766086578369E-2   8.384984731674194E-2   6.662539392709732E-2  -2.199799120426178E-1   7.999219298362732E-1  
 7.633633633633634E8    -5.638602972030640E-1   2.704773247241974E-1   8.981824666261673E-2   6.099180877208710E-2   8.937355130910873E-2   6.057396158576012E-2  -1.940954923629761E-1   8.000663518905640E-1  
 7.657657657657658E8    -5.704239606857300E-1   2.873967587947846E-1   9.528915584087372E-2   5.507870018482208E-2   9.485267102718353E-2   5.472423881292343E-2  -1.693000644445419E-1   7.981088757514954E-1  
 7.681681681681682E8    -5.765860080718994E-1   3.048538863658905E-1   1.005377471446991E-1   4.853243008255959E-2   1.004595309495926E-1   4.817332327365875E-2  -1.452183276414871E-1   7.944806218147278E-1  
 7.705705705705706E8    -5.817938446998596E-1   3.239704072475433E-1   1.050224378705025E-1   4.087436944246292E-2   1.053156629204750E-1   4.100590944290161E-2  -1.197218820452690E-1   7.905726432800293E-1  
 7.729729729729730E8    -5.842614769935608E-1   3.432494699954987E-1   1.085058376193047E-1   3.246343508362770E-2   1.094197928905487E-1   3.308833017945290E-2  -9.195466339588165E-2   7.868533134460449E-1  
 7.753753753753754E8    -5.852534174919128E-1   3.604272603988648E-1   1.110512539744377E-1   2.418417856097221E-2   1.122162938117981E-1   2.464219741523266E-2  -6.115551665425301E-2   7.798330187797546E-1  
 7.777777777777778E8    -5.860212445259094E-1   3.769497871398926E-1   1.127824559807777E-1   1.620019786059856E-2   1.136775836348534E-1   1.630051992833614E-2  -2.852500230073929E-2   7.686801552772522E-1  
 7.801801801801802E8    -5.863754749298096E-1   3.930319249629974E-1   1.143849790096283E-1   8.601277135312557E-3   1.144032850861549E-1   8.493901230394840E-3   3.698982065543532E-3   7.516552209854126E-1  
 7.825825825825826E8    -5.839604139328003E-1   4.095286726951599E-1   1.154208183288574E-1   7.676979294046760E-4   1.154026016592979E-1   4.590826574712992E-4   3.696190938353539E-2   7.333943247795105E-1  
 7.849849849849850E8    -5.822390317916870E-1   4.259693920612335E-1   1.165096387267113E-1  -7.659610360860825E-3   1.160311102867127E-1  -7.652079220861197E-3   6.643794476985931E-2   7.126121520996094E-1  
 7.873873873873874E8    -5.797227025032044E-1   4.429705142974854E-1   1.166100502014160E-1  -1.646188832819462E-2   1.159214600920677E-1  -1.638017036020756E-2   9.488119930028915E-2   6.906306147575378E-1  
 7.897897897897898E8    -5.752715468406677E-1   4.604799747467041E-1   1.155643835663796E-1  -2.540787309408188E-2   1.150558590888977E-1  -2.530366554856300E-2   1.241536512970924E-1   6.673178672790527E-1  
 7.921921921921922E8    -5.692304968833923E-1   4.777071774005890E-1   1.132738739252091E-1  -3.428245335817337E-2   1.133328229188919E-1  -3.444796055555344E-2   1.534801572561264E-1   6.415180563926697E-1  
 7.945945945945946E8    -5.656147003173828E-1   4.940326809883118E-1   1.096643283963203E-1  -4.278655350208283E-2   1.099552139639854E-1  -4.234052076935768E-2   1.784058213233948E-1   6.132888197898865E-1  
 7.969969969969970E8    -5.618201494216919E-1   5.093907117843628E-1   1.050881445407867E-1  -4.986485838890076E-2   1.053942665457726E-1  -4.944762215018272E-2   2.036808282136917E-1   5.819598436355591E-1  
 7.993993993993994E8    -5.580130219459534E-1   5.245270133018494E-1   1.003254801034927E-1  -5.514205247163773E-2   1.006806939840317E-1  -5.487871170043945E-2   2.289550155401230E-1   5.476294755935669E-1  
 8.018018018018018E8    -5.525439381599426E-1   5.403131246566773E-1   9.662229567766190E-2  -5.926249176263809E-2   9.694854915142059E-2  -5.925107747316361E-2   2.545593380928040E-1   5.089190602302551E-1  
 8.042042042042042E8    -5.447304248809815E-1   5.573973059654236E-1   9.418638795614243E-2  -6.330411136150360E-2   9.428851306438446E-2  -6.348429620265961E-2   2.773359417915344E-1   4.651784002780914E-1  
 8.066066066066066E8    -5.345570445060730E-1   5.726460218429565E-1   9.246474504470825E-2  -6.792385131120682E-2   9.229207038879395E-2  -6.831900775432587E-2   2.974041998386383E-1   4.164360761642456E-1  
 8.090090090090090E8    -5.242441892623901E-1   5.860170722007752E-1   9.095226228237152E-2  -7.378787547349930E-2   9.061375260353088E-2  -7.440658658742905E-2   3.117970526218414E-1   3.628116548061371E-1  
 8.114114114114114E8    -5.140815377235413E-1   5.982669591903687E-1   8.843218535184860E-2  -8.097413927316666E-2   8.812470734119415E-2  -8.173627406358719E-2   3.196395337581635E-1   3.060939908027649E-1  
 8.138138138138138E8    -5.051060318946838E-1   6.094318032264710E-1   8.464687317609787E-2  -8.895191550254822E-2   8.440975844860077E-2  -8.928189426660538E-2   3.213467597961426E-1   2.489230036735535E-1  
 8.162162162162162E8    -4.969582855701447E-1   6.208404302597046E-1   7.946578413248062E-2  -9.635619074106216E-2   7.920324802398682E-2  -9.662996232509613E-2   3.164048790931702E-1   1.885677278041840E-1  
 8.186186186186186E8    -4.888648986816406E-1   6.330441832542419E-1   7.371855527162552E-2  -1.032358929514885E-1   7.382656633853912E-2  -1.033687144517899E-1   3.050961196422577E-1   1.296007633209229E-1  
 8.210210210210210E8    -4.797687530517578E-1   6.439543366432190E-1   6.714884936809540E-2  -1.106248125433922E-1   6.704773008823395E-2  -1.104376092553139E-1   2.848265767097473E-1   6.805182248353958E-2  
 8.234234234234234E8    -4.692467451095581E-1   6.550245881080627E-1   5.913958698511124E-2  -1.175934895873070E-1   5.898009240627289E-2  -1.174932196736336E-1   2.555599212646484E-1   8.304646238684654E-3  
