#  HZ   S   RI   R     50.00 
! Rohde & Schwarz ZVB8 2Ports - Version 2.81 - 1145.1010k08 SN: 100113
! Date: 2016-05-12 03:15:47
! Measurements: S11 S21 S12 S22 
! 
 6.000000000000000E8    -8.627737164497376E-1   3.717426359653473E-1  -1.337233406957239E-4  -1.546533312648535E-3  -7.419142639264464E-5  -1.499217934906483E-3  -9.573373198509216E-1   1.806742697954178E-1  
 6.024024024024024E8    -8.562341332435608E-1   3.834802806377411E-1  -1.403629139531404E-4  -1.492907875217497E-3  -1.674315426498652E-4  -1.586190308444202E-3  -9.548833966255188E-1   1.917832195758820E-1  
 6.048048048048048E8    -8.494296073913574E-1   3.963129520416260E-1  -1.391388213960454E-4  -1.677467836998403E-3  -5.954704465693794E-5  -1.610431354492903E-3  -9.523392319679260E-1   2.023517191410065E-1  
 6.072072072072072E8    -8.416196107864380E-1   4.102130532264710E-1  -8.821061783237383E-5  -1.629715901799500E-3  -7.433412974933162E-5  -1.699839718639851E-3  -9.495778083801270E-1   2.131133377552033E-1  
 6.096096096096096E8    -8.334519267082214E-1   4.244279861450195E-1  -7.532192103099078E-5  -1.819422235712409E-3  -7.070911669870839E-5  -1.710985903628171E-3  -9.465307593345642E-1   2.235529422760010E-1  
 6.120120120120120E8    -8.270667195320129E-1   4.355603158473969E-1  -1.481450635765214E-5  -1.812623813748360E-3   4.985606210539118E-6  -1.792781287804246E-3  -9.437579512596130E-1   2.317918837070465E-1  
 6.144144144144144E8    -8.191061019897461E-1   4.469913542270660E-1   2.422878787911031E-5  -2.020329935476184E-3   4.464765879674815E-5  -1.913022366352379E-3  -9.420101642608643E-1   2.414393872022629E-1  
 6.168168168168168E8    -8.111371397972107E-1   4.585519731044769E-1   1.817666343413293E-4  -2.063856460154057E-3   1.509322173660621E-4  -1.979352673515678E-3  -9.393928647041321E-1   2.509633302688599E-1  
 6.192192192192192E8    -8.027347326278687E-1   4.696634113788605E-1   2.393374743405730E-4  -2.158551709726453E-3   2.539309207350016E-4  -2.267756033688784E-3  -9.364718198776245E-1   2.613130509853363E-1  
 6.216216216216216E8    -7.942867875099182E-1   4.804893434047699E-1   3.882424789480865E-4  -2.446862868964672E-3   4.219960246700794E-4  -2.476453548297286E-3  -9.331340193748474E-1   2.721965312957764E-1  
 6.240240240240240E8    -7.856494188308716E-1   4.912325739860535E-1   5.489703034982085E-4  -2.837640000507236E-3   5.509324255399406E-4  -2.743930788710713E-3  -9.296833872795105E-1   2.832785546779633E-1  
 6.264264264264264E8    -7.776607871055603E-1   5.023854970932007E-1   6.403635488823056E-4  -3.210053080692887E-3   6.184578523971140E-4  -3.137269522994757E-3  -9.256910681724548E-1   2.958872318267822E-1  
 6.288288288288288E8    -7.693057656288147E-1   5.135533213615418E-1   6.054375553503633E-4  -3.733695484697819E-3   5.942854913882911E-4  -3.748254152014852E-3  -9.214030504226685E-1   3.067324161529541E-1  
 6.312312312312312E8    -7.613343000411987E-1   5.243610739707947E-1   4.080508952029049E-4  -4.256880376487970E-3   4.205130098853260E-4  -4.216088447719812E-3  -9.172635674476624E-1   3.165656030178070E-1  
 6.336336336336336E8    -7.532368898391724E-1   5.354000926017761E-1   1.049789862008765E-4  -4.822005517780781E-3   1.053022424457595E-4  -4.820539150387049E-3  -9.135984182357788E-1   3.247225880622864E-1  
 6.360360360360360E8    -7.448540925979614E-1   5.464159846305847E-1  -2.875767822843045E-4  -5.274781025946140E-3  -2.708371030166745E-4  -5.315554328262806E-3  -9.102122783660889E-1   3.324818313121796E-1  
 6.384384384384384E8    -7.366656661033630E-1   5.575392246246338E-1  -8.529794868081808E-4  -5.873240996152163E-3  -8.758450276218355E-4  -5.753646604716778E-3  -9.068405628204346E-1   3.424204587936401E-1  
 6.408408408408408E8    -7.276777625083923E-1   5.685616135597229E-1  -1.511095208115876E-3  -6.114173680543900E-3  -1.520542427897453E-3  -6.125085055828095E-3  -9.028453230857849E-1   3.524657189846039E-1  
 6.432432432432432E8    -7.186409831047058E-1   5.800814628601074E-1  -2.248706063255668E-3  -6.216132547706366E-3  -2.239175140857697E-3  -6.158639211207628E-3  -8.983680605888367E-1   3.621636331081390E-1  
 6.456456456456456E8    -7.091481089591980E-1   5.912860035896301E-1  -2.862611319869757E-3  -6.206802092492580E-3  -2.923321677371860E-3  -6.181324832141399E-3  -8.941144347190857E-1   3.716879189014435E-1  
 6.480480480480480E8    -6.989365816116333E-1   6.024435162544251E-1  -3.443158231675625E-3  -6.178390234708786E-3  -3.444430651143193E-3  -6.125157233327627E-3  -8.893725275993347E-1   3.808025419712067E-1  
 6.504504504504504E8    -6.882336139678955E-1   6.134541630744934E-1  -3.893873188644648E-3  -5.976424552500248E-3  -3.957118373364210E-3  -6.030030082911253E-3  -8.824974894523621E-1   3.928971886634827E-1  
 6.528528528528528E8    -6.772533655166626E-1   6.239585280418396E-1  -4.366409964859486E-3  -5.941109731793404E-3  -4.379180725663900E-3  -5.873418878763914E-3  -8.770787715911865E-1   4.049304127693176E-1  
 6.552552552552552E8    -6.664336919784546E-1   6.338903903961182E-1  -4.779424518346787E-3  -5.778551567345858E-3  -4.786063451319933E-3  -5.757448729127646E-3  -8.735110163688660E-1   4.156664013862610E-1  
 6.576576576576576E8    -6.552382111549377E-1   6.434472203254700E-1  -5.170084070414305E-3  -5.643040407449007E-3  -5.202069878578186E-3  -5.587352439761162E-3  -8.703360557556152E-1   4.237652719020844E-1  
 6.600600600600600E8    -6.424696445465088E-1   6.538644433021545E-1  -5.638467613607645E-3  -5.534403491765261E-3  -5.591257475316525E-3  -5.508793517947197E-3  -8.660827875137329E-1   4.313502609729767E-1  
 6.624624624624624E8    -6.297881603240967E-1   6.638891100883484E-1  -6.005757953971624E-3  -5.423807539045811E-3  -6.015633698552847E-3  -5.425358656793833E-3  -8.602212071418762E-1   4.420349001884460E-1  
 6.648648648648648E8    -6.172893643379211E-1   6.735663414001465E-1  -6.478364113718271E-3  -5.179888568818569E-3  -6.413670256733894E-3  -5.284202285110951E-3  -8.544405698776245E-1   4.523747563362122E-1  
 6.672672672672672E8    -6.043807864189148E-1   6.825983524322510E-1  -6.771739106625319E-3  -5.063776858150959E-3  -6.789256818592548E-3  -5.051761865615845E-3  -8.489004373550415E-1   4.622609913349152E-1  
 6.696696696696696E8    -5.905783772468567E-1   6.916431188583374E-1  -7.106320466846228E-3  -4.833638668060303E-3  -7.123992778360844E-3  -4.809817764908075E-3  -8.429893255233765E-1   4.714869856834412E-1  
 6.720720720720720E8    -5.760797262191773E-1   7.005997300148010E-1  -7.465987931936979E-3  -4.637099336832762E-3  -7.504091132432222E-3  -4.688311368227005E-3  -8.374434709548950E-1   4.803901016712189E-1  
 6.744744744744744E8    -5.617896318435669E-1   7.093915343284607E-1  -7.839853875339031E-3  -4.495008382946253E-3  -7.821826264262199E-3  -4.508952610194683E-3  -8.312926888465881E-1   4.904892444610596E-1  
 6.768768768768768E8    -5.471493005752564E-1   7.175238132476807E-1  -8.194779045879841E-3  -4.279342014342547E-3  -8.118787780404091E-3  -4.251881502568722E-3  -8.251401782035828E-1   4.999007284641266E-1  
 6.792792792792792E8    -5.324130058288574E-1   7.250748872756958E-1  -8.474227972328663E-3  -4.111403599381447E-3  -8.403941057622433E-3  -3.968043718487024E-3  -8.189939856529236E-1   5.093107223510742E-1  
 6.816816816816816E8    -5.168902277946472E-1   7.324242591857910E-1  -8.786250837147236E-3  -3.872758476063609E-3  -8.783397264778614E-3  -3.864438505843282E-3  -8.129046559333801E-1   5.188746452331543E-1  
 6.840840840840840E8    -5.009886622428894E-1   7.390874624252319E-1  -9.092553518712521E-3  -3.653937485069037E-3  -9.054746478796005E-3  -3.661551512777805E-3  -8.062745332717896E-1   5.283214449882507E-1  
 6.864864864864864E8    -4.845652282238007E-1   7.456733584403992E-1  -9.377043694257736E-3  -3.403110196813941E-3  -9.404005482792854E-3  -3.358846530318260E-3  -7.994025349617004E-1   5.372794866561890E-1  
 6.888888888888888E8    -4.682988226413727E-1   7.516757845878601E-1  -9.709559381008148E-3  -3.149137366563082E-3  -9.693392552435398E-3  -3.235736628994346E-3  -7.921137809753418E-1   5.463228225708008E-1  
 6.912912912912912E8    -4.519186615943909E-1   7.570706009864807E-1  -1.004382222890854E-2  -2.851117402315140E-3  -1.002071145921946E-2  -2.990980399772525E-3  -7.849488258361816E-1   5.557202696800232E-1  
 6.936936936936936E8    -4.356255829334259E-1   7.622597813606262E-1  -1.038498990237713E-2  -2.660160884261131E-3  -1.031399425119162E-2  -2.637500409036875E-3  -7.779148817062378E-1   5.649042129516602E-1  
 6.960960960960960E8    -4.181486070156097E-1   7.673832774162293E-1  -1.061109267175198E-2  -2.399750752374530E-3  -1.067306008189917E-2  -2.367685548961163E-3  -7.709998488426209E-1   5.742421150207520E-1  
 6.984984984984984E8    -4.016108214855194E-1   7.712842226028442E-1  -1.092296279966831E-2  -2.096925396472216E-3  -1.091211475431919E-2  -1.958852168172598E-3  -7.608275413513184E-1   5.868095159530640E-1  
 7.009009009009008E8    -3.846766650676727E-1   7.740421295166016E-1  -1.104624010622501E-2  -1.746604801155627E-3  -1.104724220931530E-2  -1.527012558653951E-3  -7.518055438995361E-1   5.976495146751404E-1  
 7.033033033033032E8    -3.672144412994385E-1   7.756334543228149E-1  -1.108190882951021E-2  -1.408190582878888E-3  -1.100481767207384E-2  -1.184648252092302E-3  -7.441475391387940E-1   6.062441468238831E-1  
 7.057057057057056E8    -3.501523733139038E-1   7.765967845916748E-1  -1.091164536774159E-2  -1.181174186058343E-3  -1.083765272051096E-2  -1.081145484931767E-3  -7.389639019966126E-1   6.110013127326965E-1  
 7.081081081081080E8    -3.315814137458801E-1   7.776931524276733E-1  -1.070755813270807E-2  -1.154566649347544E-3  -1.059734635055065E-2  -1.229712739586830E-3  -7.329105138778687E-1   6.170628070831299E-1  
 7.105105105105104E8    -3.137465715408325E-1   7.789834737777710E-1  -1.050021499395371E-2  -1.422007102519274E-3  -1.041352003812790E-2  -1.601167838089168E-3  -7.268100380897522E-1   6.238285899162293E-1  
 7.129129129129129E8    -2.977051436901093E-1   7.786700129508972E-1  -1.033714320510626E-2  -2.017044695094228E-3  -1.028295140713453E-2  -2.118227537721396E-3  -7.190672755241394E-1   6.318133473396301E-1  
 7.153153153153153E8    -2.821007966995239E-1   7.770353555679321E-1  -1.039928570389748E-2  -2.908758120611310E-3  -1.036781165748835E-2  -2.984784310683608E-3  -7.098254561424255E-1   6.409444808959961E-1  
 7.177177177177178E8    -2.668674886226654E-1   7.746925354003906E-1  -1.085122767835856E-2  -4.224391188472509E-3  -1.084997598081827E-2  -4.190595354884863E-3  -6.994742155075073E-1   6.503484249114990E-1  
 7.201201201201202E8    -2.511701881885529E-1   7.728409767150879E-1  -1.180136017501354E-2  -5.619858857244253E-3  -1.186014339327812E-2  -5.545131862163544E-3  -6.900334358215332E-1   6.589253544807434E-1  
 7.225225225225226E8    -2.375927269458771E-1   7.717411518096924E-1  -1.352702546864748E-2  -7.025413215160370E-3  -1.349810697138310E-2  -6.989527493715286E-3  -6.795161366462708E-1   6.683999896049500E-1  
 7.249249249249250E8    -2.235058993101120E-1   7.721167206764221E-1  -1.603367365896702E-2  -8.068646304309368E-3  -1.582859456539154E-2  -8.235494606196880E-3  -6.709831357002258E-1   6.745223402976990E-1  
 7.273273273273274E8    -2.092524170875549E-1   7.735293507575989E-1  -1.923611946403980E-2  -8.463531732559204E-3  -1.892749778926373E-2  -8.802916854619980E-3  -6.626021862030029E-1   6.805019378662109E-1  
 7.297297297297298E8    -1.949359178543091E-1   7.754266858100891E-1  -2.257775887846947E-2  -8.071776479482651E-3  -2.234302647411823E-2  -8.342113345861435E-3  -6.542990803718567E-1   6.871035099029541E-1  
 7.321321321321322E8    -1.792477816343308E-1   7.765227556228638E-1  -2.585835009813309E-2  -6.934491917490959E-3  -2.584906667470932E-2  -6.993941497057676E-3  -6.456353664398193E-1   6.941926479339600E-1  
 7.345345345345346E8    -1.613762676715851E-1   7.767435312271118E-1  -2.888515964150429E-2  -5.040063988417387E-3  -2.887749299407005E-2  -4.877501633018255E-3  -6.365406513214111E-1   7.016767263412476E-1  
 7.369369369369370E8    -1.421183794736862E-1   7.751650214195252E-1  -3.148609772324562E-2  -2.595111029222608E-3  -3.147029504179955E-2  -2.253366634249687E-3  -6.268321275711060E-1   7.094358801841736E-1  
 7.393393393393394E8    -1.227943301200867E-1   7.708324193954468E-1  -3.358215093612671E-2   3.065091441385448E-4  -3.363662958145142E-2   7.202022825367749E-4  -6.173485517501831E-1   7.167585492134094E-1  
 7.417417417417418E8    -1.041648685932159E-1   7.655726671218872E-1  -3.528218343853951E-2   3.458349965512753E-3  -3.523498773574829E-2   3.667306853458285E-3  -6.082457304000855E-1   7.235172986984253E-1  
 7.441441441441442E8    -8.554277569055557E-2   7.601565718650818E-1  -3.654690086841583E-2   6.834757048636675E-3  -3.662589564919472E-2   6.786827929317951E-3  -5.995475053787231E-1   7.296510934829712E-1  
 7.465465465465466E8    -7.005380839109421E-2   7.548880577087402E-1  -3.740379586815834E-2   1.024376694113016E-2  -3.742911666631699E-2   1.025156583636999E-2  -5.886214971542358E-1   7.372636795043945E-1  
 7.489489489489490E8    -5.416662991046906E-2   7.480854392051697E-1  -3.777445480227470E-2   1.360896043479443E-2  -3.788861259818077E-2   1.357990782707930E-2  -5.796684622764587E-1   7.441555261611939E-1  
 7.513513513513514E8    -3.822182863950729E-2   7.406975030899048E-1  -3.764420747756958E-2   1.685691252350807E-2  -3.777856007218361E-2   1.676071807742119E-2  -5.701837539672852E-1   7.504963278770447E-1  
 7.537537537537538E8    -1.981256902217865E-2   7.338525652885437E-1  -3.730097040534020E-2   1.971109211444855E-2  -3.743791580200195E-2   1.962611638009548E-2  -5.598298907279968E-1   7.571695446968079E-1  
 7.561561561561562E8    -8.203124889405444E-5   7.251232862472534E-1  -3.737562522292137E-2   2.238938584923744E-2  -3.733374178409576E-2   2.234869264066219E-2  -5.487484931945801E-1   7.626029253005981E-1  
 7.585585585585586E8     1.869912073016167E-2   7.150554656982422E-1  -3.734932839870453E-2   2.535726875066757E-2  -3.712012246251106E-2   2.535259351134300E-2  -5.353322029113770E-1   7.703319787979126E-1  
 7.609609609609610E8     3.625913709402084E-2   7.033295631408691E-1  -3.713905438780785E-2   2.855051867663860E-2  -3.677865862846375E-2   2.843043766915798E-2  -5.228510499000549E-1   7.777462005615234E-1  
 7.633633633633634E8     5.235023424029350E-2   6.902328729629517E-1  -3.656894713640213E-2   3.184487670660019E-2  -3.633132204413414E-2   3.154965862631798E-2  -5.118607282638550E-1   7.842111587524414E-1  
 7.657657657657658E8     6.845107674598694E-2   6.779128313064575E-1  -3.587537631392479E-2   3.525478020310402E-2  -3.578511998057365E-2   3.487455844879150E-2  -5.026922225952148E-1   7.894195318222046E-1  
 7.681681681681682E8     8.457001298666000E-2   6.646714806556702E-1  -3.492808341979981E-2   3.852025419473648E-2  -3.495221212506294E-2   3.852503746747971E-2  -4.950159490108490E-1   7.938078641891480E-1  
 7.705705705705706E8     9.835145622491837E-2   6.515192389488220E-1  -3.366328403353691E-2   4.193340241909027E-2  -3.384097665548325E-2   4.198490828275681E-2  -4.869287610054016E-1   7.989622950553894E-1  
 7.729729729729730E8     1.127957105636597E-1   6.356970071792603E-1  -3.192418813705444E-2   4.525549337267876E-2  -3.233940154314041E-2   4.545010626316071E-2  -4.778691828250885E-1   8.066675066947937E-1  
 7.753753753753754E8     1.263308376073837E-1   6.178001165390015E-1  -2.993580512702465E-2   4.860427230596542E-2  -3.026024997234345E-2   4.900040477514267E-2  -4.659467339515686E-1   8.139975666999817E-1  
 7.777777777777778E8     1.382986605167389E-1   5.982288718223572E-1  -2.770739980041981E-2   5.174757167696953E-2  -2.784760668873787E-2   5.211931094527245E-2  -4.519786834716797E-1   8.191809654235840E-1  
 7.801801801801802E8     1.488782316446304E-1   5.775806307792664E-1  -2.531580626964569E-2   5.490593612194061E-2  -2.519004605710506E-2   5.491132289171219E-2  -4.374037086963654E-1   8.207414150238037E-1  
 7.825825825825826E8     1.571999043226242E-1   5.554114580154419E-1  -2.273268811404705E-2   5.776803940534592E-2  -2.244078181684017E-2   5.776222050189972E-2  -4.220807254314423E-1   8.244317173957825E-1  
 7.849849849849850E8     1.632108837366104E-1   5.337699055671692E-1  -1.959639973938465E-2   6.094252690672875E-2  -1.951492577791214E-2   6.054293736815453E-2  -4.103640615940094E-1   8.263935446739197E-1  
 7.873873873873874E8     1.672538816928864E-1   5.124906897544861E-1  -1.594149507582188E-2   6.380535662174225E-2  -1.596865430474281E-2   6.323552131652832E-2  -4.000439643859863E-1   8.299761414527893E-1  
 7.897897897897898E8     1.705654710531235E-1   4.915179908275604E-1  -1.205476373434067E-2   6.615828722715378E-2  -1.199271902441979E-2   6.572503596544266E-2  -3.885387480258942E-1   8.355796933174133E-1  
 7.921921921921922E8     1.738452464342117E-1   4.709807634353638E-1  -7.644033525139093E-3   6.798624247312546E-2  -7.566051091998816E-3   6.781856715679169E-2  -3.769457042217255E-1   8.429441452026367E-1  
 7.945945945945946E8     1.757197976112366E-1   4.534490406513214E-1  -3.128451528027654E-3   6.909379363059998E-2  -3.250227309763432E-3   6.895476579666138E-2  -3.646564185619354E-1   8.468120098114014E-1  
 7.969969969969970E8     1.769384294748306E-1   4.341448545455933E-1   9.841764112934470E-4   6.943168491125107E-2   7.009645341895521E-4   6.944065541028976E-2  -3.516209125518799E-1   8.514198660850525E-1  
 7.993993993993994E8     1.767000705003738E-1   4.126792550086975E-1   4.325586371123791E-3   6.934371590614319E-2   4.165546968579292E-3   6.953977048397064E-2  -3.384498059749603E-1   8.559822440147400E-1  
 8.018018018018018E8     1.739133298397064E-1   3.886805772781372E-1   6.983723491430283E-3   6.965333223342896E-2   6.914414465427399E-3   6.981600821018219E-2  -3.240921497344971E-1   8.604816794395447E-1  
 8.042042042042042E8     1.675866693258286E-1   3.648885786533356E-1   9.417063556611538E-3   7.056247442960739E-2   9.475556202232838E-3   7.065459340810776E-2  -3.107457756996155E-1   8.637663722038269E-1  
 8.066066066066066E8     1.569633930921555E-1   3.438796103000641E-1   1.218688674271107E-2   7.185009121894836E-2   1.232799142599106E-2   7.197432219982147E-2  -2.954994440078735E-1   8.682497739791870E-1  
 8.090090090090090E8     1.431928575038910E-1   3.251210749149323E-1   1.536037493497133E-2   7.363442331552506E-2   1.554273348301649E-2   7.375228404998779E-2  -2.806053459644318E-1   8.712800145149231E-1  
 8.114114114114114E8     1.279794722795487E-1   3.104364573955536E-1   1.935372687876225E-2   7.532638311386108E-2   1.951012946665287E-2   7.537277042865753E-2  -2.664766609668732E-1   8.734390139579773E-1  
 8.138138138138138E8     1.138436049222946E-1   2.990694344043732E-1   2.371756173670292E-2   7.661834359169006E-2   2.382232248783112E-2   7.653695344924927E-2  -2.523423135280609E-1   8.756593465805054E-1  
 8.162162162162162E8     1.012178510427475E-1   2.879654467105866E-1   2.815695106983185E-2   7.764720171689987E-2   2.824882417917252E-2   7.755102217197418E-2  -2.378088682889938E-1   8.779832720756531E-1  
 8.186186186186186E8     8.610123395919800E-2   2.770642638206482E-1   3.276279568672180E-2   7.880626618862152E-2   3.289477527141571E-2   7.874871790409088E-2  -2.228047698736191E-1   8.799886703491211E-1  
 8.210210210210210E8     6.859890371561050E-2   2.683035135269165E-1   3.834294900298119E-2   7.990376651287079E-2   3.831622377038002E-2   7.980535179376602E-2  -2.071578055620194E-1   8.813092112541199E-1  
 8.234234234234234E8     5.088634416460991E-2   2.625828981399536E-1   4.454568028450012E-2   8.009831607341766E-2   4.453560337424278E-2   8.003424853086472E-2  -1.916300356388092E-1   8.826770782470703E-1  
