#  HZ   S   RI   R     50.00 
! Rohde & Schwarz ZVB8 2Ports - Version 2.81 - 1145.1010k08 SN: 100113
! Date: 2016-05-12 03:16:54
! Measurements: S11 S21 S12 S22 
! 
 6.000000000000000E8    -7.865239381790161E-1   4.378231763839722E-1  -1.179271028377116E-3  -3.551057539880276E-3  -1.227258122526109E-3  -3.551490604877472E-3  -9.404395818710327E-1   2.269114404916763E-1  
 6.024024024024024E8    -7.750246524810791E-1   4.503491520881653E-1  -1.329825492575765E-3  -3.774030599743128E-3  -1.322604017332196E-3  -3.734246362000704E-3  -9.368274211883545E-1   2.391242384910584E-1  
 6.048048048048048E8    -7.623661756515503E-1   4.635428786277771E-1  -1.344916527159512E-3  -3.939101006835699E-3  -1.368168625049293E-3  -3.921261988580227E-3  -9.329142570495606E-1   2.511464059352875E-1  
 6.072072072072072E8    -7.489178776741028E-1   4.775669872760773E-1  -1.421722117811441E-3  -4.128148313611746E-3  -1.450357842259109E-3  -4.071069415658712E-3  -9.286456108093262E-1   2.630281448364258E-1  
 6.096096096096096E8    -7.341272234916687E-1   4.912402033805847E-1  -1.431567477993667E-3  -4.345480818301439E-3  -1.511429320089519E-3  -4.291388206183910E-3  -9.242535829544067E-1   2.749486863613129E-1  
 6.120120120120120E8    -7.210096120834351E-1   5.021657347679138E-1  -1.436361460946500E-3  -4.609811585396528E-3  -1.437025726772845E-3  -4.595842678099871E-3  -9.204074740409851E-1   2.846769690513611E-1  
 6.144144144144144E8    -7.073080539703369E-1   5.125688910484314E-1  -1.420327695086598E-3  -4.921033047139645E-3  -1.435276470147073E-3  -5.000573582947254E-3  -9.166878461837769E-1   2.954981327056885E-1  
 6.168168168168168E8    -6.930414438247681E-1   5.225095152854919E-1  -1.380779664032161E-3  -5.373013671487570E-3  -1.439746120013297E-3  -5.334394052624703E-3  -9.125801324844360E-1   3.070484995841980E-1  
 6.192192192192192E8    -6.776391863822937E-1   5.319387316703796E-1  -1.342818257398903E-3  -5.973279941827059E-3  -1.406906405463815E-3  -5.902680568397045E-3  -9.083596467971802E-1   3.187931776046753E-1  
 6.216216216216216E8    -6.626158952713013E-1   5.402172803878784E-1  -1.284586731344461E-3  -6.720931269228458E-3  -1.398759079165757E-3  -6.721253041177988E-3  -9.027953147888184E-1   3.310044705867767E-1  
 6.240240240240240E8    -6.475096940994263E-1   5.482091307640076E-1  -1.453701057471335E-3  -7.643715478479862E-3  -1.487020170316100E-3  -7.662545423954725E-3  -8.974971771240234E-1   3.434054553508759E-1  
 6.264264264264264E8    -6.337948441505432E-1   5.566328763961792E-1  -1.797115546651185E-3  -8.857489563524723E-3  -1.734840567223728E-3  -8.851217105984688E-3  -8.908552527427673E-1   3.573387265205383E-1  
 6.288288288288288E8    -6.200672388076782E-1   5.653845667839050E-1  -2.569155069068074E-3  -1.013600826263428E-2  -2.554971491917968E-3  -1.012514624744654E-2  -8.845596313476563E-1   3.693814873695374E-1  
 6.312312312312312E8    -6.061668395996094E-1   5.748398303985596E-1  -3.617315320298076E-3  -1.152671687304974E-2  -3.619018010795116E-3  -1.148254331201315E-2  -8.780836462974548E-1   3.809065222740173E-1  
 6.336336336336336E8    -5.922138690948486E-1   5.843087434768677E-1  -5.139170214533806E-3  -1.275596581399441E-2  -5.133956205099821E-3  -1.275663543492556E-2  -8.724688291549683E-1   3.907540440559387E-1  
 6.360360360360360E8    -5.771637558937073E-1   5.942412018775940E-1  -6.859359797090292E-3  -1.380884833633900E-2  -6.901825312525034E-3  -1.380370464175940E-2  -8.672416806221008E-1   3.998393416404724E-1  
 6.384384384384384E8    -5.609484910964966E-1   6.044772863388062E-1  -9.185683913528919E-3  -1.461941283196211E-2  -9.134123101830483E-3  -1.461279671639204E-2  -8.609380722045898E-1   4.113351702690125E-1  
 6.408408408408408E8    -5.435286164283752E-1   6.149528622627258E-1  -1.167174428701401E-2  -1.485213451087475E-2  -1.165748666971922E-2  -1.486956980079413E-2  -8.545154929161072E-1   4.232661724090576E-1  
 6.432432432432432E8    -5.240315794944763E-1   6.253307461738586E-1  -1.418739743530750E-2  -1.455746032297611E-2  -1.418942864984274E-2  -1.452810596674681E-2  -8.474647402763367E-1   4.346064031124115E-1  
 6.456456456456456E8    -5.019525885581970E-1   6.348845958709717E-1  -1.651679538190365E-2  -1.386174280196428E-2  -1.645035669207573E-2  -1.378624979406595E-2  -8.404004573822022E-1   4.457982480525971E-1  
 6.480480480480480E8    -4.783919155597687E-1   6.429321765899658E-1  -1.864497177302837E-2  -1.298422086983919E-2  -1.851462572813034E-2  -1.292300224304199E-2  -8.326576352119446E-1   4.567343592643738E-1  
 6.504504504504504E8    -4.536289274692535E-1   6.495627164840698E-1  -2.065719850361347E-2  -1.199587900191546E-2  -2.056453749537468E-2  -1.191599015146494E-2  -8.225292563438416E-1   4.705647826194763E-1  
 6.528528528528528E8    -4.287572205066681E-1   6.547912955284119E-1  -2.256687171757221E-2  -1.079863682389259E-2  -2.258573099970818E-2  -1.080104149878025E-2  -8.139005899429321E-1   4.842593967914581E-1  
 6.552552552552552E8    -4.017930626869202E-1   6.576557159423828E-1  -2.446780912578106E-2  -9.402893483638763E-3  -2.449052967131138E-2  -9.436530061066151E-3  -8.068220615386963E-1   4.962933063507080E-1  
 6.576576576576576E8    -3.732544183731079E-1   6.577522754669190E-1  -2.629331126809120E-2  -8.004819974303246E-3  -2.631054073572159E-2  -7.918936200439930E-3  -7.999081611633301E-1   5.067496299743652E-1  
 6.600600600600600E8    -3.425541520118713E-1   6.556749343872070E-1  -2.807186543941498E-2  -6.289510987699032E-3  -2.814790047705174E-2  -6.302357651293278E-3  -7.916148304939270E-1   5.156291127204895E-1  
 6.624624624624624E8    -3.126863837242127E-1   6.513110399246216E-1  -2.982164174318314E-2  -4.440373275429010E-3  -2.975702285766602E-2  -4.484146833419800E-3  -7.815304398536682E-1   5.282461643218994E-1  
 6.648648648648648E8    -2.822765111923218E-1   6.442616581916809E-1  -3.153431788086891E-2  -2.284012967720628E-3  -3.143795579671860E-2  -2.421292476356030E-3  -7.716981768608093E-1   5.401226878166199E-1  
 6.672672672672672E8    -2.531880140304565E-1   6.354930400848389E-1  -3.295781463384628E-2  -1.210169793921523E-4  -3.298035636544228E-2  -2.215888816863298E-4  -7.614860534667969E-1   5.514551401138306E-1  
 6.696696696696696E8    -2.221678793430328E-1   6.231987476348877E-1  -3.436588868498802E-2   2.228701487183571E-3  -3.433419018983841E-2   2.193483524024487E-3  -7.510363459587097E-1   5.627951622009277E-1  
 6.720720720720720E8    -1.903073936700821E-1   6.063930988311768E-1  -3.578789159655571E-2   4.753722809255123E-3  -3.582249209284782E-2   4.807105287909508E-3  -7.404445409774780E-1   5.736755132675171E-1  
 6.744744744744744E8    -1.601221412420273E-1   5.860078334808350E-1  -3.714389353990555E-2   7.710401434451342E-3  -3.704863414168358E-2   7.718570996075869E-3  -7.287020683288574E-1   5.852653980255127E-1  
 6.768768768768768E8    -1.318958848714829E-1   5.608136057853699E-1  -3.811864927411079E-2   1.123403105884790E-2  -3.818949684500694E-2   1.114440709352493E-2  -7.171612977981567E-1   5.964332818984985E-1  
 6.792792792792792E8    -1.073700189590454E-1   5.309531092643738E-1  -3.858951479196549E-2   1.484659872949123E-2  -3.852703422307968E-2   1.471796445548534E-2  -7.050284743309021E-1   6.073822379112244E-1  
 6.816816816816816E8    -8.619254827499390E-2   4.982555806636810E-1  -3.859299048781395E-2   1.851165667176247E-2  -3.864452242851257E-2   1.837539672851563E-2  -6.926635503768921E-1   6.187718510627747E-1  
 6.840840840840840E8    -6.878244876861572E-2   4.621130228042603E-1  -3.831839561462402E-2   2.219326980412006E-2  -3.838023915886879E-2   2.202399447560310E-2  -6.796785593032837E-1   6.296464204788208E-1  
 6.864864864864864E8    -5.730622261762619E-2   4.262432157993317E-1  -3.752284497022629E-2   2.581248991191387E-2  -3.755555301904678E-2   2.556132525205612E-2  -6.661584973335266E-1   6.396996974945068E-1  
 6.888888888888888E8    -5.000478401780129E-2   3.908700644969940E-1  -3.651772812008858E-2   2.935479022562504E-2  -3.664610907435417E-2   2.904112078249455E-2  -6.515222787857056E-1   6.502661705017090E-1  
 6.912912912912912E8    -4.710825160145760E-2   3.527827858924866E-1  -3.519120812416077E-2   3.300486877560616E-2  -3.533419221639633E-2   3.288546949625015E-2  -6.364209651947022E-1   6.611398458480835E-1  
 6.936936936936936E8    -4.930736869573593E-2   3.157117366790772E-1  -3.337487578392029E-2   3.642556443810463E-2  -3.341099247336388E-2   3.643144294619560E-2  -6.213219165802002E-1   6.714109182357788E-1  
 6.960960960960960E8    -5.657262355089188E-2   2.766143381595612E-1  -3.109673410654068E-2   3.971078246831894E-2  -3.102353215217590E-2   3.967523947358131E-2  -6.053266525268555E-1   6.818221211433411E-1  
 6.984984984984984E8    -7.102172076702118E-2   2.406820058822632E-1  -2.838939614593983E-2   4.244330152869225E-2  -2.783409506082535E-2   4.271807521581650E-2  -5.854892134666443E-1   6.942855119705200E-1  
 7.009009009009008E8    -9.113218635320664E-2   2.078328281641007E-1  -2.527542039752007E-2   4.454819858074188E-2  -2.447884902358055E-2   4.486314579844475E-2  -5.659395456314087E-1   7.054333686828613E-1  
 7.033033033033032E8    -1.151530668139458E-1   1.803139448165894E-1  -2.202646434307098E-2   4.591631889343262E-2  -2.131965011358261E-2   4.624028503894806E-2  -5.475566983222961E-1   7.141354084014893E-1  
 7.057057057057056E8    -1.404160410165787E-1   1.587764173746109E-1  -1.887019537389278E-2   4.649561271071434E-2  -1.863146945834160E-2   4.659974202513695E-2  -5.315920114517212E-1   7.200180292129517E-1  
 7.081081081081080E8    -1.632930785417557E-1   1.428484767675400E-1  -1.666986383497715E-2   4.618360847234726E-2  -1.674014143645763E-2   4.626379907131195E-2  -5.140151381492615E-1   7.265982627868652E-1  
 7.105105105105104E8    -1.887606084346771E-1   1.300538331270218E-1  -1.538133528083563E-2   4.579579085111618E-2  -1.581470109522343E-2   4.575037211179733E-2  -4.945042133331299E-1   7.329776287078857E-1  
 7.129129129129129E8    -2.169878035783768E-1   1.205958575010300E-1  -1.516283676028252E-2   4.529603198170662E-2  -1.558724511414766E-2   4.517639800906181E-2  -4.725494384765625E-1   7.391633987426758E-1  
 7.153153153153153E8    -2.449030876159668E-1   1.158694028854370E-1  -1.661712117493153E-2   4.493364691734314E-2  -1.678720302879810E-2   4.488075152039528E-2  -4.480598866939545E-1   7.450925111770630E-1  
 7.177177177177178E8    -2.695594429969788E-1   1.163788959383965E-1  -1.964428648352623E-2   4.597409814596176E-2  -1.968490146100521E-2   4.605252668261528E-2  -4.217937588691711E-1   7.496022582054138E-1  
 7.201201201201202E8    -2.897726595401764E-1   1.200495362281799E-1  -2.363813295960426E-2   4.934918880462647E-2  -2.369884215295315E-2   4.925508424639702E-2  -3.949810266494751E-1   7.512480616569519E-1  
 7.225225225225226E8    -3.055723905563355E-1   1.242339387536049E-1  -2.776548638939858E-2   5.592291057109833E-2  -2.795486338436604E-2   5.582370981574059E-2  -3.675851821899414E-1   7.506870627403259E-1  
 7.249249249249250E8    -3.167336285114288E-1   1.261168718338013E-1  -3.025063127279282E-2   6.627164036035538E-2  -3.119017183780670E-2   6.578583270311356E-2  -3.436900973320007E-1   7.455475926399231E-1  
 7.273273273273274E8    -3.284600973129273E-1   1.245814710855484E-1  -2.921568416059017E-2   7.962751388549805E-2  -3.063095547258854E-2   7.901155203580856E-2  -3.223038017749786E-1   7.390601038932800E-1  
 7.297297297297298E8    -3.426558971405029E-1   1.198116838932037E-1  -2.379506640136242E-2   9.359399974346161E-2  -2.490767650306225E-2   9.322804212570190E-2  -3.030081987380981E-1   7.329515218734741E-1  
 7.321321321321322E8    -3.619152903556824E-1   1.140470206737518E-1  -1.419380307197571E-2   1.064636558294296E-1  -1.408098544925451E-2   1.066123545169830E-1  -2.844426631927490E-1   7.288116812705994E-1  
 7.345345345345346E8    -3.862831890583038E-1   1.121817007660866E-1  -1.330481609329581E-5   1.167636513710022E-1   5.941136623732746E-4   1.169880479574204E-1  -2.662628293037415E-1   7.266467213630676E-1  
 7.369369369369370E8    -4.124631285667419E-1   1.164096817374229E-1   1.703661680221558E-2   1.230010390281677E-1   1.816871203482151E-2   1.229184940457344E-1  -2.464520335197449E-1   7.261232733726502E-1  
 7.393393393393394E8    -4.367616176605225E-1   1.273354142904282E-1   3.442406654357910E-2   1.245705932378769E-1   3.552305325865746E-2   1.243061050772667E-1  -2.245216369628906E-1   7.257818579673767E-1  
 7.417417417417418E8    -4.551817774772644E-1   1.410430371761322E-1   5.101881921291351E-2   1.234289556741715E-1   5.148720368742943E-2   1.230266615748406E-1  -2.003275007009506E-1   7.246445417404175E-1  
 7.441441441441442E8    -4.699289500713348E-1   1.547940820455551E-1   6.719799339771271E-2   1.198372393846512E-1   6.691323965787888E-2   1.200251877307892E-1  -1.744498759508133E-1   7.216416001319885E-1  
 7.465465465465466E8    -4.837031364440918E-1   1.667535603046417E-1   8.182298392057419E-2   1.142332404851914E-1   8.161362260580063E-2   1.142023503780365E-1  -1.450406759977341E-1   7.179053425788879E-1  
 7.489489489489490E8    -4.970554113388062E-1   1.790782511234283E-1   9.488439559936523E-2   1.068834885954857E-1   9.485379606485367E-2   1.068077087402344E-1  -1.155377700924873E-1   7.113932371139526E-1  
 7.513513513513514E8    -5.096564292907715E-1   1.933651119470596E-1   1.068918034434319E-1   9.826700389385223E-2   1.067886725068092E-1   9.845397621393204E-2  -8.423794806003571E-2   7.017872333526611E-1  
 7.537537537537538E8    -5.203192830085754E-1   2.076595723628998E-1   1.178144514560700E-1   8.866893500089645E-2   1.176100224256516E-1   8.944461494684219E-2  -5.165553465485573E-2   6.886606216430664E-1  
 7.561561561561562E8    -5.303427577018738E-1   2.220329940319061E-1   1.282072663307190E-1   7.883768528699875E-2   1.280400902032852E-1   7.900715619325638E-2  -1.793058775365353E-2   6.717465519905090E-1  
 7.585585585585586E8    -5.389071702957153E-1   2.391589432954788E-1   1.375961452722549E-1   6.724258512258530E-2   1.373482346534729E-1   6.707710027694702E-2   1.852388307452202E-2   6.536200642585754E-1  
 7.609609609609610E8    -5.468944311141968E-1   2.559025585651398E-1   1.459211409091950E-1   5.449222028255463E-2   1.453899890184403E-1   5.413604155182838E-2   5.438086017966270E-2   6.314612030982971E-1  
 7.633633633633634E8    -5.541496872901917E-1   2.713748216629028E-1   1.528729647397995E-1   4.099810868501663E-2   1.522975116968155E-1   4.078881070017815E-2   8.936119824647903E-2   6.034625768661499E-1  
 7.657657657657658E8    -5.606433153152466E-1   2.875446081161499E-1   1.589742302894592E-1   2.691216394305229E-2   1.586261242628098E-1   2.683119103312492E-2   1.217004880309105E-1   5.695018172264099E-1  
 7.681681681681682E8    -5.658655762672424E-1   3.031040728092194E-1   1.639927178621292E-1   1.182141155004501E-2   1.639037579298019E-1   1.146077364683151E-2   1.500613093376160E-1   5.318760871887207E-1  
 7.705705705705706E8    -5.706898570060730E-1   3.196581602096558E-1   1.666308343410492E-1  -4.769906867295504E-3   1.666828989982605E-1  -5.014373920857906E-3   1.766895055770874E-1   4.911565184593201E-1  
 7.729729729729730E8    -5.735881924629211E-1   3.364371657371521E-1   1.666070669889450E-1  -2.253960259258747E-2   1.672996282577515E-1  -2.285945788025856E-2   2.014778554439545E-1   4.441294670104981E-1  
 7.753753753753754E8    -5.759160518646240E-1   3.524545431137085E-1   1.639847457408905E-1  -4.020237550139427E-2   1.649216264486313E-1  -4.060135781764984E-2   2.223612666130066E-1   3.911843001842499E-1  
 7.777777777777778E8    -5.778434276580811E-1   3.674829006195068E-1   1.591299325227737E-1  -5.664420872926712E-2   1.595607250928879E-1  -5.722331628203392E-2   2.371066510677338E-1   3.322058022022247E-1  
 7.801801801801802E8    -5.791974067687988E-1   3.822449445724487E-1   1.526135951280594E-1  -7.226533442735672E-2   1.521620005369186E-1  -7.259950041770935E-2   2.434474974870682E-1   2.685512304306030E-1  
 7.825825825825826E8    -5.785876512527466E-1   3.980011045932770E-1   1.436410099267960E-1  -8.683512359857559E-2   1.433868855237961E-1  -8.737017959356308E-2   2.421710640192032E-1   2.033533304929733E-1  
 7.849849849849850E8    -5.791695117950440E-1   4.145435988903046E-1   1.332801878452301E-1  -1.006612032651901E-1   1.331461966037750E-1  -1.005325317382813E-1   2.301243543624878E-1   1.385253071784973E-1  
 7.873873873873874E8    -5.790630578994751E-1   4.317249059677124E-1   1.209195852279663E-1  -1.129436269402504E-1   1.206522583961487E-1  -1.127033904194832E-1   2.092256397008896E-1   7.594399899244309E-2  
 7.897897897897898E8    -5.763686895370483E-1   4.483358860015869E-1   1.070002838969231E-1  -1.233639195561409E-1   1.062197983264923E-1  -1.231373026967049E-1   1.817066967487335E-1   1.837942376732826E-2  
 7.921921921921922E8    -5.722409486770630E-1   4.648658931255341E-1   9.138665348291397E-2  -1.310664266347885E-1   9.066466242074966E-2  -1.311810165643692E-1   1.471563875675201E-1  -3.574448078870773E-2  
 7.945945945945946E8    -5.709943175315857E-1   4.819298982620239E-1   7.538769394159317E-2  -1.354737579822540E-1   7.499677687883377E-2  -1.350699216127396E-1   1.072689816355705E-1  -8.336370438337326E-2  
 7.969969969969970E8    -5.683457255363464E-1   4.989338815212250E-1   5.974052473902702E-2  -1.366066187620163E-1   6.015881896018982E-2  -1.363343447446823E-1   6.337159126996994E-2  -1.259905248880386E-1  
 7.993993993993994E8    -5.651181936264038E-1   5.157144665718079E-1   4.601515457034111E-2  -1.351654082536697E-1   4.662163928151131E-2  -1.353373974561691E-1   1.364597771316767E-2  -1.653643250465393E-1  
 8.018018018018018E8    -5.597960948944092E-1   5.326478481292725E-1   3.444022312760353E-2  -1.323199421167374E-1   3.498565405607224E-2  -1.327082216739655E-1  -4.052701592445374E-2  -1.999782174825668E-1  
 8.042042042042042E8    -5.522239208221436E-1   5.512297749519348E-1   2.506982535123825E-2  -1.295065134763718E-1   2.512294054031372E-2  -1.298358589410782E-1  -1.002788543701172E-1  -2.285572290420532E-1  
 8.066066066066066E8    -5.432784557342529E-1   5.672998428344727E-1   1.743250526487827E-2  -1.268515288829804E-1   1.677643880248070E-2  -1.270606666803360E-1  -1.627695560455322E-1  -2.476934790611267E-1  
 8.090090090090090E8    -5.341570973396301E-1   5.818120241165161E-1   9.856843389570713E-3  -1.251554191112518E-1   9.279001504182816E-3  -1.253112852573395E-1  -2.259273529052734E-1  -2.576554715633392E-1  
 8.114114114114114E8    -5.248736739158630E-1   5.950566530227661E-1   1.825610292144120E-3  -1.238180473446846E-1   1.299651106819511E-3  -1.239478960633278E-1  -2.873735129833221E-1  -2.591023147106171E-1  
 8.138138138138138E8    -5.158271789550781E-1   6.077341437339783E-1  -7.125749252736569E-3  -1.217854768037796E-1  -7.465710863471031E-3  -1.218330189585686E-1  -3.465374708175659E-1  -2.528336048126221E-1  
 8.162162162162162E8    -5.073400139808655E-1   6.206477880477905E-1  -1.563270948827267E-2  -1.181257739663124E-1  -1.574381999671459E-2  -1.181360557675362E-1  -4.016411006450653E-1  -2.405855208635330E-1  
 8.186186186186186E8    -4.993655383586884E-1   6.334437131881714E-1  -2.295073494315147E-2  -1.141802370548248E-1  -2.303940430283546E-2  -1.140272542834282E-1  -4.543338716030121E-1  -2.224497944116592E-1  
 8.210210210210210E8    -4.890421032905579E-1   6.466705203056335E-1  -3.005737997591496E-2  -1.099238693714142E-1  -3.030204400420189E-2  -1.097979545593262E-1  -5.054801106452942E-1  -1.970763355493546E-1  
 8.234234234234234E8    -4.787170886993408E-1   6.587564349174500E-1  -3.681169077754021E-2  -1.050918549299240E-1  -3.714511916041374E-2  -1.048468872904778E-1  -5.494328737258911E-1  -1.684427559375763E-1  
