#  HZ   S   RI   R     50.00 
! Rohde & Schwarz ZVB8 2Ports - Version 2.81 - 1145.1010k08 SN: 100113
! Date: 2016-05-12 03:15:58
! Measurements: S11 S21 S12 S22 
! 
 6.000000000000000E8    -8.531590104103088E-1   3.826239407062531E-1  -2.474384091328830E-4  -1.739924889989197E-3  -3.321677213534713E-4  -1.682494068518281E-3  -9.558562636375427E-1   1.864301264286041E-1  
 6.024024024024024E8    -8.459189534187317E-1   3.944961428642273E-1  -2.347437839489430E-4  -1.849690335802734E-3  -1.297176204388961E-4  -1.727554830722511E-3  -9.532533884048462E-1   1.970767825841904E-1  
 6.048048048048048E8    -8.385723233222961E-1   4.075976312160492E-1  -2.127757034031674E-4  -1.894096145406365E-3  -2.149136853404343E-4  -1.862722565419972E-3  -9.502682089805603E-1   2.080975323915482E-1  
 6.072072072072072E8    -8.303270339965820E-1   4.213845431804657E-1  -1.320450392086059E-4  -1.942259026691318E-3  -1.244353334186599E-4  -1.885090256109834E-3  -9.475364089012146E-1   2.187531292438507E-1  
 6.096096096096096E8    -8.211898207664490E-1   4.354333877563477E-1  -7.189391908468679E-5  -2.014643745496869E-3  -1.310035004280508E-4  -2.090584486722946E-3  -9.443132877349854E-1   2.299222499132156E-1  
 6.120120120120120E8    -8.138911128044128E-1   4.468341171741486E-1  -9.978009620681405E-5  -2.181160962209106E-3  -4.955489202984609E-5  -1.981889363378286E-3  -9.415518641471863E-1   2.380087077617645E-1  
 6.144144144144144E8    -8.056525588035584E-1   4.584105014801025E-1  -2.081792081298772E-5  -2.265816321596503E-3   2.859540290955920E-5  -2.184550976380706E-3  -9.394009113311768E-1   2.471732795238495E-1  
 6.168168168168168E8    -7.968562245368958E-1   4.696876406669617E-1   1.137593353632838E-4  -2.399057848379016E-3   1.177988087874837E-4  -2.432871377095580E-3  -9.367977976799011E-1   2.578099071979523E-1  
 6.192192192192192E8    -7.878817319869995E-1   4.808574914932251E-1   2.975221432279795E-4  -2.688308013603091E-3   3.239682700950652E-4  -2.575106220319867E-3  -9.338806867599487E-1   2.679201960563660E-1  
 6.216216216216216E8    -7.785530686378479E-1   4.916447401046753E-1   3.833872033283114E-4  -2.937725512310863E-3   4.546514246612787E-4  -2.991634886711836E-3  -9.303839206695557E-1   2.789644598960877E-1  
 6.240240240240240E8    -7.694029211997986E-1   5.021898746490479E-1   4.577144572976977E-4  -3.406503470614553E-3   4.933973541483283E-4  -3.326407866552472E-3  -9.267727732658386E-1   2.899017035961151E-1  
 6.264264264264264E8    -7.605105638504028E-1   5.132377743721008E-1   5.593767273239791E-4  -3.910790197551251E-3   5.115002859383822E-4  -3.759261220693588E-3  -9.222319722175598E-1   3.026262819766998E-1  
 6.288288288288288E8    -7.519555091857910E-1   5.241819024085999E-1   3.943290212191641E-4  -4.484148696064949E-3   4.702092846855521E-4  -4.446848761290312E-3  -9.178518056869507E-1   3.138380050659180E-1  
 6.312312312312312E8    -7.433961033821106E-1   5.352362394332886E-1   1.728253264445812E-4  -5.047781858593226E-3   2.199633599957451E-4  -5.065008532255888E-3  -9.135802984237671E-1   3.236274123191834E-1  
 6.336336336336336E8    -7.345651388168335E-1   5.461627840995789E-1  -1.591599429957569E-4  -5.596991162747145E-3  -1.737597049213946E-4  -5.663392599672079E-3  -9.099994301795960E-1   3.318348526954651E-1  
 6.360360360360360E8    -7.254741191864014E-1   5.572683215141296E-1  -6.823732401244342E-4  -6.237590685486794E-3  -6.577653693966568E-4  -6.221001502126455E-3  -9.068389534950256E-1   3.395551443099976E-1  
 6.384384384384384E8    -7.164778709411621E-1   5.682670474052429E-1  -1.296990318223834E-3  -6.792176980525255E-3  -1.382376533001661E-3  -6.761133670806885E-3  -9.028226733207703E-1   3.498719632625580E-1  
 6.408408408408408E8    -7.071008086204529E-1   5.798656344413757E-1  -2.146198414266110E-3  -7.096910383552313E-3  -2.144001191481948E-3  -7.095742970705032E-3  -8.985416293144226E-1   3.601450920104981E-1  
 6.432432432432432E8    -6.972497701644898E-1   5.914607048034668E-1  -2.982479054480791E-3  -7.241256535053253E-3  -2.992749214172363E-3  -7.221827283501625E-3  -8.941130638122559E-1   3.699586391448975E-1  
 6.456456456456456E8    -6.866201162338257E-1   6.030613183975220E-1  -3.740845480933785E-3  -7.225060369819403E-3  -3.777916776016355E-3  -7.199035491794348E-3  -8.892614841461182E-1   3.798153698444367E-1  
 6.480480480480480E8    -6.752466559410095E-1   6.143606901168823E-1  -4.448064137250185E-3  -7.139760069549084E-3  -4.432713612914085E-3  -7.136564236134291E-3  -8.843491673469544E-1   3.892558217048645E-1  
 6.504504504504504E8    -6.632629036903381E-1   6.255782842636108E-1  -5.098447203636169E-3  -6.994572468101978E-3  -5.127212032675743E-3  -6.988443434238434E-3  -8.772364258766174E-1   4.010394513607025E-1  
 6.528528528528528E8    -6.512467265129089E-1   6.364321112632752E-1  -5.714657716453075E-3  -6.849290337413549E-3  -5.676519125699997E-3  -6.863466929644346E-3  -8.718572258949280E-1   4.132571518421173E-1  
 6.552552552552552E8    -6.386396288871765E-1   6.464715003967285E-1  -6.300595123320818E-3  -6.646573077887297E-3  -6.298739463090897E-3  -6.642733234912157E-3  -8.678350448608398E-1   4.238291084766388E-1  
 6.576576576576576E8    -6.256303191184998E-1   6.558625698089600E-1  -6.804514676332474E-3  -6.455161608755589E-3  -6.777344271540642E-3  -6.469839718192816E-3  -8.644455075263977E-1   4.324502348899841E-1  
 6.600600600600600E8    -6.111225485801697E-1   6.659266352653503E-1  -7.276274729520083E-3  -6.273912265896797E-3  -7.259760983288288E-3  -6.240057758986950E-3  -8.598569631576538E-1   4.401802718639374E-1  
 6.624624624624624E8    -5.966718792915344E-1   6.759107112884522E-1  -7.803965359926224E-3  -6.077471189200878E-3  -7.814844138920307E-3  -6.113719195127487E-3  -8.538048267364502E-1   4.511100053787231E-1  
 6.648648648648648E8    -5.824615359306335E-1   6.850326657295227E-1  -8.319043554365635E-3  -5.814378615468741E-3  -8.299851790070534E-3  -5.815863609313965E-3  -8.477495908737183E-1   4.616671800613403E-1  
 6.672672672672672E8    -5.677261352539063E-1   6.936427950859070E-1  -8.814738132059574E-3  -5.555110052227974E-3  -8.799856528639793E-3  -5.496225319802761E-3  -8.417305350303650E-1   4.715428948402405E-1  
 6.696696696696696E8    -5.520939230918884E-1   7.022950053215027E-1  -9.199070744216442E-3  -5.239446647465229E-3  -9.192087687551975E-3  -5.236355122178793E-3  -8.355928659439087E-1   4.808529913425446E-1  
 6.720720720720720E8    -5.353264808654785E-1   7.103901505470276E-1  -9.673352353274822E-3  -5.013075191527605E-3  -9.633889421820641E-3  -5.014259368181229E-3  -8.295355439186096E-1   4.900565147399902E-1  
 6.744744744744744E8    -5.188934803009033E-1   7.182652354240418E-1  -1.011207327246666E-2  -4.726997110992670E-3  -1.011916995048523E-2  -4.760141484439373E-3  -8.231012225151062E-1   5.002026557922363E-1  
 6.768768768768768E8    -5.021101832389832E-1   7.254998683929443E-1  -1.051877439022064E-2  -4.381674341857433E-3  -1.048002205789089E-2  -4.408703651279211E-3  -8.167088627815247E-1   5.100477337837219E-1  
 6.792792792792792E8    -4.849893748760223E-1   7.320997714996338E-1  -1.096973754465580E-2  -4.078960977494717E-3  -1.085683796554804E-2  -3.997066058218479E-3  -8.101246356964111E-1   5.195501446723938E-1  
 6.816816816816816E8    -4.672982394695282E-1   7.381694912910461E-1  -1.130069326609373E-2  -3.828225424513221E-3  -1.130363065749407E-2  -3.855820046737790E-3  -8.034411072731018E-1   5.290590524673462E-1  
 6.840840840840840E8    -4.485242962837219E-1   7.434644699096680E-1  -1.170084532350302E-2  -3.462314140051603E-3  -1.171091105788946E-2  -3.479566657915711E-3  -7.968208193778992E-1   5.389214754104614E-1  
 6.864864864864864E8    -4.298552274703980E-1   7.478614449501038E-1  -1.215042639523745E-2  -3.147731069475412E-3  -1.212038658559322E-2  -3.173871897161007E-3  -7.893615961074829E-1   5.478332042694092E-1  
 6.888888888888888E8    -4.111309945583344E-1   7.519984245300293E-1  -1.255305856466293E-2  -2.770871855318546E-3  -1.252526137977839E-2  -2.846932038664818E-3  -7.813662290573120E-1   5.572593212127686E-1  
 6.912912912912912E8    -3.925043046474457E-1   7.554948329925537E-1  -1.299899071455002E-2  -2.341492101550102E-3  -1.287377160042524E-2  -2.547199139371514E-3  -7.738109827041626E-1   5.670387744903565E-1  
 6.936936936936936E8    -3.734228312969208E-1   7.582643628120422E-1  -1.336242817342281E-2  -2.047867747023702E-3  -1.336840447038412E-2  -2.107647014781833E-3  -7.663568854331970E-1   5.761236548423767E-1  
 6.960960960960960E8    -3.531588017940521E-1   7.601914405822754E-1  -1.381497085094452E-2  -1.655154279433191E-3  -1.375712081789970E-2  -1.696773339062929E-3  -7.590824365615845E-1   5.856114625930786E-1  
 6.984984984984984E8    -3.339779973030090E-1   7.604773044586182E-1  -1.418935973197222E-2  -1.234037219546735E-3  -1.412130706012249E-2  -9.515106212347746E-4  -7.486885190010071E-1   5.981770157814026E-1  
 7.009009009009008E8    -3.147206604480743E-1   7.595037817955017E-1  -1.426858734339476E-2  -6.510875537060201E-4  -1.432612910866737E-2  -4.142049292568117E-4  -7.386917471885681E-1   6.093317270278931E-1  
 7.033033033033032E8    -2.956542968750000E-1   7.573725581169128E-1  -1.433162111788988E-2  -1.384207280352712E-4  -1.430161762982607E-2   1.333526306552813E-4  -7.302656173706055E-1   6.176053881645203E-1  
 7.057057057057056E8    -2.774704098701477E-1   7.543106675148010E-1  -1.417313329875469E-2   1.559929951326922E-4  -1.418096665292978E-2   3.778940881602466E-4  -7.246345281600952E-1   6.227619051933289E-1  
 7.081081081081080E8    -2.575306296348572E-1   7.512001991271973E-1  -1.389301009476185E-2   2.094981318805367E-4  -1.388477906584740E-2   1.820699835661799E-4  -7.183840274810791E-1   6.290519833564758E-1  
 7.105105105105104E8    -2.389240562915802E-1   7.481440901756287E-1  -1.384360902011395E-2  -6.665966066066176E-5  -1.392033696174622E-2  -2.067053137579933E-4  -7.112756371498108E-1   6.359586119651794E-1  
 7.129129129129129E8    -2.220573723316193E-1   7.430386543273926E-1  -1.383496727794409E-2  -6.495129782706499E-4  -1.392165478318930E-2  -8.224988705478609E-4  -7.027931213378906E-1   6.441573500633240E-1  
 7.153153153153153E8    -2.068055868148804E-1   7.369288802146912E-1  -1.409553177654743E-2  -1.646540360525250E-3  -1.410218887031078E-2  -1.663053873926401E-3  -6.928511261940002E-1   6.534072756767273E-1  
 7.177177177177178E8    -1.923188865184784E-1   7.308003902435303E-1  -1.478518266230822E-2  -2.970195608213544E-3  -1.478678267449141E-2  -2.982490928843617E-3  -6.817752122879028E-1   6.628534197807312E-1  
 7.201201201201202E8    -1.775833368301392E-1   7.253658175468445E-1  -1.627472601830959E-2  -4.487892612814903E-3  -1.633923687040806E-2  -4.464961122721434E-3  -6.713752746582031E-1   6.716403365135193E-1  
 7.225225225225226E8    -1.643500179052353E-1   7.216168045997620E-1  -1.866713166236877E-2  -5.927555728703737E-3  -1.860219426453114E-2  -5.910165607929230E-3  -6.601953506469727E-1   6.808456182479858E-1  
 7.249249249249250E8    -1.500265002250671E-1   7.191877961158752E-1  -2.213287539780140E-2  -6.706009153276682E-3  -2.198420837521553E-2  -7.021057885140181E-3  -6.508845686912537E-1   6.869072318077087E-1  
 7.273273273273274E8    -1.347787678241730E-1   7.179042100906372E-1  -2.625615894794464E-2  -6.572369951754808E-3  -2.607303485274315E-2  -7.049505133181810E-3  -6.415061950683594E-1   6.928713917732239E-1  
 7.297297297297298E8    -1.183701306581497E-1   7.167743444442749E-1  -3.068072162568569E-2  -5.259773693978787E-3  -3.057055361568928E-2  -5.677653010934591E-3  -6.324202418327332E-1   6.989120244979858E-1  
 7.321321321321322E8    -1.002404093742371E-1   7.138140797615051E-1  -3.479873016476631E-2  -2.973776776343584E-3  -3.474279865622520E-2  -2.996625844389200E-3  -6.229516863822937E-1   7.057760357856751E-1  
 7.345345345345346E8    -7.966095954179764E-2   7.088671922683716E-1  -3.836682066321373E-2   4.074726894032210E-4  -3.829978033900261E-2   6.432224181480706E-4  -6.131714582443237E-1   7.130278944969177E-1  
 7.369369369369370E8    -5.805237591266632E-2   6.997588872909546E-1  -4.118864238262177E-2   4.442420788109303E-3  -4.112069681286812E-2   4.986757878214121E-3  -6.029077172279358E-1   7.205834984779358E-1  
 7.393393393393394E8    -3.806735575199127E-2   6.872591972351074E-1  -4.302061721682549E-2   8.948060683906078E-3  -4.294319450855255E-2   9.421177208423615E-3  -5.924836397171021E-1   7.280023097991943E-1  
 7.417417417417418E8    -2.091850899159908E-2   6.740917563438416E-1  -4.437462240457535E-2   1.351209171116352E-2  -4.432582110166550E-2   1.376705337315798E-2  -5.827780365943909E-1   7.347536087036133E-1  
 7.441441441441442E8    -4.350700881332159E-3   6.612827181816101E-1  -4.525215923786163E-2   1.821840740740299E-2  -4.528807476162911E-2   1.821466349065304E-2  -5.730252265930176E-1   7.406399250030518E-1  
 7.465465465465466E8     1.046059373766184E-2   6.488744020462036E-1  -4.569609090685844E-2   2.301358617842197E-2  -4.583562538027763E-2   2.302376925945282E-2  -5.614936351776123E-1   7.481343150138855E-1  
 7.489489489489490E8     2.478530444204807E-2   6.336460709571838E-1  -4.553459584712982E-2   2.798381634056568E-2  -4.562075808644295E-2   2.790430560708046E-2  -5.513067245483398E-1   7.545794248580933E-1  
 7.513513513513514E8     3.811814635992050E-2   6.177236437797546E-1  -4.452675580978394E-2   3.270501643419266E-2  -4.464395716786385E-2   3.262856230139732E-2  -5.410651564598084E-1   7.607463598251343E-1  
 7.537537537537538E8     5.287956073880196E-2   6.020852327346802E-1  -4.311735555529594E-2   3.698227182030678E-2  -4.334034025669098E-2   3.683301061391830E-2  -5.295791625976563E-1   7.672477960586548E-1  
 7.561561561561562E8     6.862658262252808E-2   5.845393538475037E-1  -4.206062480807304E-2   4.108037799596787E-2  -4.203752428293228E-2   4.094713926315308E-2  -5.177240967750549E-1   7.725348472595215E-1  
 7.585585585585586E8     8.205947279930115E-2   5.656470656394959E-1  -4.079447686672211E-2   4.553595930337906E-2  -4.058550670742989E-2   4.538835585117340E-2  -5.034118294715881E-1   7.797874212265015E-1  
 7.609609609609610E8     9.378860145807266E-2   5.448811054229736E-1  -3.897087648510933E-2   5.012481659650803E-2  -3.854711353778839E-2   4.995637387037277E-2  -4.902547299861908E-1   7.870089411735535E-1  
 7.633633633633634E8     1.028362959623337E-1   5.227905511856079E-1  -3.656354546546936E-2   5.475935339927673E-2  -3.622746467590332E-2   5.426863953471184E-2  -4.779213964939117E-1   7.932207584381104E-1  
 7.657657657657658E8     1.104925721883774E-1   5.003411173820496E-1  -3.385371714830399E-2   5.930668115615845E-2  -3.372562304139137E-2   5.879739299416542E-2  -4.677566289901733E-1   7.982168197631836E-1  
 7.681681681681682E8     1.168893054127693E-1   4.777911305427551E-1  -3.040787763893604E-2   6.360352039337158E-2  -3.053884953260422E-2   6.353183835744858E-2  -4.591761529445648E-1   8.021732568740845E-1  
 7.705705705705706E8     1.196710318326950E-1   4.563035368919373E-1  -2.640989236533642E-2   6.757454574108124E-2  -2.663412876427174E-2   6.765689700841904E-2  -4.498250186443329E-1   8.072286248207092E-1  
 7.729729729729730E8     1.221149787306786E-1   4.334683418273926E-1  -2.192080393433571E-2   7.095888257026672E-2  -2.225244976580143E-2   7.154756039381027E-2  -4.399335086345673E-1   8.146975040435791E-1  
 7.753753753753754E8     1.232774779200554E-1   4.095403254032135E-1  -1.719558238983154E-2   7.387770712375641E-2  -1.747387088835239E-2   7.461960613727570E-2  -4.272872507572174E-1   8.218945860862732E-1  
 7.777777777777778E8     1.225504800677300E-1   3.840918838977814E-1  -1.260129828006029E-2   7.662463188171387E-2  -1.269437745213509E-2   7.714263349771500E-2  -4.116171896457672E-1   8.268295526504517E-1  
 7.801801801801802E8     1.183790788054466E-1   3.581100106239319E-1  -7.832914590835571E-3   7.940917462110519E-2  -7.653335109353066E-3   7.921992987394333E-2  -3.958430886268616E-1   8.281565308570862E-1  
 7.825825825825826E8     1.107492893934250E-1   3.325875699520111E-1  -2.687732223421335E-3   8.154956996440888E-2  -2.399515127763152E-3   8.128681033849716E-2  -3.794869482517242E-1   8.313094973564148E-1  
 7.849849849849850E8     9.894758462905884E-2   3.089652061462402E-1   2.962899394333363E-3   8.386462926864624E-2   3.099009860306978E-3   8.342127501964569E-2  -3.664278090000153E-1   8.332676887512207E-1  
 7.873873873873874E8     8.416355401277542E-2   2.889691889286041E-1   9.432195685803890E-3   8.538911491632462E-2   9.288255125284195E-3   8.473816514015198E-2  -3.544432520866394E-1   8.362178802490234E-1  
 7.897897897897898E8     7.017967849969864E-2   2.723845541477203E-1   1.599666848778725E-2   8.583371341228485E-2   1.586089655756950E-2   8.527278155088425E-2  -3.411408066749573E-1   8.418797850608826E-1  
 7.921921921921922E8     5.767792090773583E-2   2.564394474029541E-1   2.242954634130001E-2   8.532404899597168E-2   2.232959121465683E-2   8.539763092994690E-2  -3.273884654045105E-1   8.488695621490479E-1  
 7.945945945945946E8     4.321197047829628E-2   2.421522438526154E-1   2.870763652026653E-2   8.427097648382187E-2   2.836196124553680E-2   8.434891700744629E-2  -3.133116662502289E-1   8.522855043411255E-1  
 7.969969969969970E8     2.704295888543129E-2   2.280300557613373E-1   3.430880233645439E-2   8.234547823667526E-2   3.403424844145775E-2   8.264485746622086E-2  -2.985989451408386E-1   8.561108708381653E-1  
 7.993993993993994E8     8.982006460428238E-3   2.141271531581879E-1   3.905323147773743E-2   8.016366511583328E-2   3.892439231276512E-2   8.046483248472214E-2  -2.832632958889008E-1   8.599405884742737E-1  
 8.018018018018018E8    -1.166657172143459E-2   2.012142390012741E-1   4.316749796271324E-2   7.806095480918884E-2   4.319676011800766E-2   7.824914157390595E-2  -2.668989598751068E-1   8.635680079460144E-1  
 8.042042042042042E8    -3.338925540447235E-2   1.922511905431747E-1   4.673688113689423E-2   7.629283517599106E-2   4.677154868841171E-2   7.629393041133881E-2  -2.511723339557648E-1   8.662158250808716E-1  
 8.066066066066066E8    -5.736405402421951E-2   1.866956204175949E-1   4.982616752386093E-2   7.514378428459168E-2   5.006774142384529E-2   7.516501843929291E-2  -2.339300662279129E-1   8.693165779113770E-1  
 8.090090090090090E8    -8.312419801950455E-2   1.862930804491043E-1   5.378781259059906E-2   7.482304424047470E-2   5.405426025390625E-2   7.478404790163040E-2  -2.165749967098236E-1   8.713552951812744E-1  
 8.114114114114114E8    -1.064752116799355E-1   1.907943487167358E-1   5.856842547655106E-2   7.419878989458084E-2   5.882310122251511E-2   7.421376556158066E-2  -1.991458982229233E-1   8.727177977561951E-1  
 8.138138138138138E8    -1.255544275045395E-1   1.972149610519409E-1   6.387098133563995E-2   7.294868677854538E-2   6.403318792581558E-2   7.292301207780838E-2  -1.821916997432709E-1   8.734447956085205E-1  
 8.162162162162162E8    -1.429804712533951E-1   2.030113190412521E-1   6.902828812599182E-2   7.127851247787476E-2   6.909611821174622E-2   7.133894413709641E-2  -1.649190485477448E-1   8.740311264991760E-1  
 8.186186186186186E8    -1.619578301906586E-1   2.107430994510651E-1   7.437881082296372E-2   6.954870373010635E-2   7.437094300985336E-2   6.956837326288223E-2  -1.468779742717743E-1   8.743234276771545E-1  
 8.210210210210210E8    -1.789271682500839E-1   2.217360436916351E-1   8.025014400482178E-2   6.762602180242539E-2   8.023322373628616E-2   6.741003692150116E-2  -1.283009350299835E-1   8.738043904304504E-1  
 8.234234234234234E8    -1.937659531831741E-1   2.345522940158844E-1   8.659184724092484E-2   6.457912176847458E-2   8.663438260555267E-2   6.450787931680679E-2  -1.096542477607727E-1   8.727470040321350E-1  
