#  HZ   S   RI   R     50.00 
! Rohde & Schwarz ZVB8 2Ports - Version 2.81 - 1145.1010k08 SN: 100113
! Date: 2016-05-12 03:17:01
! Measurements: S11 S21 S12 S22 
! 
 6.000000000000000E8    -7.870514988899231E-1   4.374926984310150E-1  -1.299542491324246E-3  -3.751912852749229E-3  -1.346362289041281E-3  -3.766754642128944E-3  -9.372991919517517E-1   2.341061383485794E-1  
 6.024024024024024E8    -7.751666903495789E-1   4.501127898693085E-1  -1.410441240295768E-3  -4.003695677965879E-3  -1.394083024933934E-3  -3.920754883438349E-3  -9.332404136657715E-1   2.464806288480759E-1  
 6.048048048048048E8    -7.628248333930969E-1   4.634647965431213E-1  -1.432207762263715E-3  -4.184390883892775E-3  -1.548723899759352E-3  -4.160676617175341E-3  -9.292833209037781E-1   2.589036524295807E-1  
 6.072072072072072E8    -7.492597699165344E-1   4.772621989250183E-1  -1.600262941792607E-3  -4.322043154388666E-3  -1.550858607515693E-3  -4.310489166527987E-3  -9.249762892723084E-1   2.707028090953827E-1  
 6.096096096096096E8    -7.345852255821228E-1   4.912856519222260E-1  -1.676388434134424E-3  -4.565003328025341E-3  -1.683905837126076E-3  -4.533411934971809E-3  -9.200519919395447E-1   2.831169068813324E-1  
 6.120120120120120E8    -7.214327454566956E-1   5.019553303718567E-1  -1.557317445985973E-3  -4.791430663317442E-3  -1.576548907905817E-3  -4.814808256924152E-3  -9.158895611763001E-1   2.933639287948608E-1  
 6.144144144144144E8    -7.074212431907654E-1   5.127964615821838E-1  -1.597503200173378E-3  -5.205980967730284E-3  -1.551842200569809E-3  -5.060933995991945E-3  -9.118889570236206E-1   3.046347796916962E-1  
 6.168168168168168E8    -6.923968195915222E-1   5.229237675666809E-1  -1.517996890470386E-3  -5.630556493997574E-3  -1.550723914988339E-3  -5.685154814273119E-3  -9.072577357292175E-1   3.162693083286285E-1  
 6.192192192192192E8    -6.775392293930054E-1   5.318431854248047E-1  -1.503750099800527E-3  -6.259501911699772E-3  -1.544745522551239E-3  -6.372635252773762E-3  -9.024329185485840E-1   3.281489014625549E-1  
 6.216216216216216E8    -6.624107956886292E-1   5.400261282920837E-1  -1.517374766990542E-3  -7.065911311656237E-3  -1.615248387679458E-3  -7.045093458145857E-3  -8.969866633415222E-1   3.407880067825317E-1  
 6.240240240240240E8    -6.480626463890076E-1   5.478500127792358E-1  -1.582501106895506E-3  -8.112969808280468E-3  -1.639599446207285E-3  -8.086415939033032E-3  -8.908319473266602E-1   3.531761169433594E-1  
 6.264264264264264E8    -6.344654560089111E-1   5.565074682235718E-1  -2.100303769111633E-3  -9.328895248472691E-3  -2.177910879254341E-3  -9.363535791635513E-3  -8.837490677833557E-1   3.677352964878082E-1  
 6.288288288288288E8    -6.206622719764710E-1   5.656626820564270E-1  -2.928949426859617E-3  -1.074642036110163E-2  -2.892633667215705E-3  -1.070595532655716E-2  -8.768498301506043E-1   3.803752064704895E-1  
 6.312312312312312E8    -6.066176891326904E-1   5.751579999923706E-1  -4.031500313431025E-3  -1.208053808659315E-2  -4.010841250419617E-3  -1.206783205270767E-2  -8.698615431785584E-1   3.916456401348114E-1  
 6.336336336336336E8    -5.917198061943054E-1   5.846385359764099E-1  -5.630736704915762E-3  -1.343085151165724E-2  -5.557594820857048E-3  -1.341970451176167E-2  -8.635514974594116E-1   4.020474851131439E-1  
 6.360360360360360E8    -5.760976672172546E-1   5.943375229835510E-1  -7.548202760517597E-3  -1.465769391506910E-2  -7.565666455775499E-3  -1.462893839925528E-2  -8.578084707260132E-1   4.113717079162598E-1  
 6.384384384384384E8    -5.602021813392639E-1   6.045212745666504E-1  -1.007101405411959E-2  -1.547851692885160E-2  -9.997464716434479E-3  -1.546572055667639E-2  -8.511388897895813E-1   4.230627417564392E-1  
 6.408408408408408E8    -5.431469678878784E-1   6.146792173385620E-1  -1.275285612791777E-2  -1.575341634452343E-2  -1.286227162927389E-2  -1.574287936091423E-2  -8.438932895660400E-1   4.352714717388153E-1  
 6.432432432432432E8    -5.242543816566467E-1   6.249691247940064E-1  -1.551960781216621E-2  -1.542007364332676E-2  -1.560260821133852E-2  -1.536970213055611E-2  -8.362520337104797E-1   4.471398890018463E-1  
 6.456456456456456E8    -5.018762350082398E-1   6.346923708915710E-1  -1.810328662395477E-2  -1.459064520895481E-2  -1.797167584300041E-2  -1.460782811045647E-2  -8.285111188888550E-1   4.584212005138397E-1  
 6.480480480480480E8    -4.784403443336487E-1   6.429318785667419E-1  -2.042429894208908E-2  -1.360508147627115E-2  -2.036025188863277E-2  -1.368763949722052E-2  -8.202506303787231E-1   4.699303507804871E-1  
 6.504504504504504E8    -4.536260366439819E-1   6.498209238052368E-1  -2.258477546274662E-2  -1.245967857539654E-2  -2.255272865295410E-2  -1.242679078131914E-2  -8.089957833290100E-1   4.840183854103088E-1  
 6.528528528528528E8    -4.286649227142334E-1   6.548598408699036E-1  -2.464899793267250E-2  -1.108175422996283E-2  -2.468671090900898E-2  -1.111200544983149E-2  -7.995531558990479E-1   4.981702864170075E-1  
 6.552552552552552E8    -4.017745554447174E-1   6.576278805732727E-1  -2.667539194226265E-2  -9.607847779989243E-3  -2.672985754907131E-2  -9.607358835637569E-3  -7.914662957191467E-1   5.105839371681213E-1  
 6.576576576576576E8    -3.733394443988800E-1   6.578716039657593E-1  -2.867004089057446E-2  -7.964406162500382E-3  -2.869513444602490E-2  -8.046756498515606E-3  -7.833623290061951E-1   5.209915041923523E-1  
 6.600600600600600E8    -3.422718346118927E-1   6.560989022254944E-1  -3.065105527639389E-2  -6.193018052726984E-3  -3.062035515904427E-2  -6.294243969023228E-3  -7.742671966552734E-1   5.306664109230042E-1  
 6.624624624624624E8    -3.122102916240692E-1   6.518157720565796E-1  -3.266976028680801E-2  -4.155613481998444E-3  -3.269586339592934E-2  -4.233601037412882E-3  -7.630755305290222E-1   5.434647798538208E-1  
 6.648648648648648E8    -2.814675271511078E-1   6.444482803344727E-1  -3.463152050971985E-2  -1.658916124142706E-3  -3.462502360343933E-2  -1.720699714496732E-3  -7.517747282981873E-1   5.557941198348999E-1  
 6.672672672672672E8    -2.520203888416290E-1   6.348231434822083E-1  -3.626381978392601E-2   9.994523134082556E-4  -3.626321628689766E-2   8.845207630656660E-4  -7.401995658874512E-1   5.674182772636414E-1  
 6.696696696696696E8    -2.217984199523926E-1   6.221532225608826E-1  -3.762011975049973E-2   3.615004941821098E-3  -3.767514973878861E-2   3.719242056831718E-3  -7.283114194869995E-1   5.787625312805176E-1  
 6.720720720720720E8    -1.901981681585312E-1   6.050366759300232E-1  -3.917569294571877E-2   6.612610537558794E-3  -3.909945487976074E-2   6.494622211903334E-3  -7.162646055221558E-1   5.900152325630188E-1  
 6.744744744744744E8    -1.601298600435257E-1   5.843755602836609E-1  -4.054218530654907E-2   1.001904346048832E-2  -4.051253944635391E-2   9.957829490303993E-3  -7.030622363090515E-1   6.019114851951599E-1  
 6.768768768768768E8    -1.322972774505615E-1   5.592007040977478E-1  -4.149125143885613E-2   1.394375227391720E-2  -4.152589663863182E-2   1.380028575658798E-2  -6.894909143447876E-1   6.133181452751160E-1  
 6.792792792792792E8    -1.077671721577644E-1   5.301144123077393E-1  -4.187428951263428E-2   1.793013513088226E-2  -4.192838445305824E-2   1.779058761894703E-2  -6.755952835083008E-1   6.245682239532471E-1  
 6.816816816816816E8    -8.629562705755234E-2   4.975834488868713E-1  -4.190945252776146E-2   2.211386151611805E-2  -4.193597286939621E-2   2.195132337510586E-2  -6.610315442085266E-1   6.359102129936218E-1  
 6.840840840840840E8    -6.930462270975113E-2   4.640635550022125E-1  -4.157281666994095E-2   2.609203942120075E-2  -4.157917574048042E-2   2.620386146008968E-2  -6.460056900978088E-1   6.470485329627991E-1  
 6.864864864864864E8    -5.749454349279404E-2   4.285915493965149E-1  -4.069162160158157E-2   3.004504740238190E-2  -4.078398272395134E-2   3.022498451173306E-2  -6.295912861824036E-1   6.573675274848938E-1  
 6.888888888888888E8    -4.993309080600739E-2   3.901637792587280E-1  -3.957139700651169E-2   3.435005992650986E-2  -3.970602154731751E-2   3.423165529966354E-2  -6.126414537429810E-1   6.677561402320862E-1  
 6.912912912912912E8    -4.826354235410690E-2   3.512414693832398E-1  -3.798052296042442E-2   3.885113447904587E-2  -3.812026232481003E-2   3.842798247933388E-2  -5.950489044189453E-1   6.780704855918884E-1  
 6.936936936936936E8    -5.142775177955627E-2   3.128931224346161E-1  -3.552893549203873E-2   4.298190772533417E-2  -3.582002222537994E-2   4.259890317916870E-2  -5.770285129547119E-1   6.881284117698669E-1  
 6.960960960960960E8    -5.907794088125229E-2   2.747394144535065E-1  -3.273510560393333E-2   4.682269319891930E-2  -3.278921172022820E-2   4.648367688059807E-2  -5.575572848320007E-1   6.981654167175293E-1  
 6.984984984984984E8    -7.391726970672607E-2   2.391863316297531E-1  -2.929298579692841E-2   4.994278401136398E-2  -2.884068340063095E-2   5.012195929884911E-2  -5.342692732810974E-1   7.099139094352722E-1  
 7.009009009009008E8    -9.348601847887039E-2   2.082161456346512E-1  -2.554811723530293E-2   5.226957798004150E-2  -2.468016557395458E-2   5.257941037416458E-2  -5.106154084205627E-1   7.201079130172730E-1  
 7.033033033033032E8    -1.163779944181442E-1   1.817186772823334E-1  -2.174295112490654E-2   5.375733226537705E-2  -2.087944373488426E-2   5.407276749610901E-2  -4.880357682704926E-1   7.274607419967651E-1  
 7.057057057057056E8    -1.399623006582260E-1   1.616250127553940E-1  -1.812697574496269E-2   5.435797199606895E-2  -1.752229966223240E-2   5.448463186621666E-2  -4.679946005344391E-1   7.319923043251038E-1  
 7.081081081081080E8    -1.629595309495926E-1   1.452240049839020E-1  -1.538274530321360E-2   5.410975590348244E-2  -1.535355858504772E-2   5.408602207899094E-2  -4.460787773132324E-1   7.368823289871216E-1  
 7.105105105105104E8    -1.895338743925095E-1   1.311208456754684E-1  -1.383118610829115E-2   5.388432368636131E-2  -1.438968814909458E-2   5.369504168629646E-2  -4.221552610397339E-1   7.412726283073425E-1  
 7.129129129129129E8    -2.181669175624847E-1   1.212117895483971E-1  -1.333526428788900E-2   5.363479256629944E-2  -1.427885144948959E-2   5.344463512301445E-2  -3.947724997997284E-1   7.447471022605896E-1  
 7.153153153153153E8    -2.458187341690064E-1   1.168453991413117E-1  -1.464659161865711E-2   5.383459106087685E-2  -1.519587356597185E-2   5.374489352107048E-2  -3.637248575687408E-1   7.466312646865845E-1  
 7.177177177177178E8    -2.688273489475250E-1   1.166271939873695E-1  -1.764408312737942E-2   5.570899695158005E-2  -1.781171932816505E-2   5.558291077613831E-2  -3.311129808425903E-1   7.455559968948364E-1  
 7.201201201201202E8    -2.896993756294251E-1   1.182635203003883E-1  -2.129959128797054E-2   6.029134616255760E-2  -2.142395637929440E-2   6.017415225505829E-2  -2.984043359756470E-1   7.408257126808167E-1  
 7.225225225225226E8    -3.055982589721680E-1   1.222848594188690E-1  -2.488620206713677E-2   6.821130961179733E-2  -2.493795007467270E-2   6.831948459148407E-2  -2.662957906723023E-1   7.324307560920715E-1  
 7.249249249249250E8    -3.185147047042847E-1   1.256573349237442E-1  -2.603251859545708E-2   8.045873790979385E-2  -2.673974074423313E-2   8.027192950248718E-2  -2.385938316583633E-1   7.187187075614929E-1  
 7.273273273273274E8    -3.309838175773621E-1   1.260065138339996E-1  -2.259026654064655E-2   9.576714783906937E-2  -2.407450042665005E-2   9.525720030069351E-2  -2.157294452190399E-1   7.038314938545227E-1  
 7.297297297297298E8    -3.459214866161346E-1   1.224746629595757E-1  -1.365851052105427E-2   1.113551631569862E-1  -1.508618146181107E-2   1.111125051975250E-1  -1.958620250225067E-1   6.899805665016174E-1  
 7.321321321321322E8    -3.643070757389069E-1   1.176959127187729E-1   4.439752956386656E-5   1.250927299261093E-1   1.163499546237290E-4   1.249868348240852E-1  -1.770193427801132E-1   6.784660816192627E-1  
 7.345345345345346E8    -3.872176706790924E-1   1.169716045260429E-1   1.887580566108227E-2   1.346832066774368E-1   1.924263499677181E-2   1.344873458147049E-1  -1.580322831869125E-1   6.703828573226929E-1  
 7.369369369369370E8    -4.125175476074219E-1   1.214792728424072E-1   4.015904664993286E-2   1.389158517122269E-1   4.118324071168900E-2   1.385063827037811E-1  -1.352177113294601E-1   6.630963087081909E-1  
 7.393393393393394E8    -4.360024034976959E-1   1.327665001153946E-1   6.145349889993668E-2   1.374395638704300E-1   6.244610622525215E-2   1.369429230690002E-1  -1.096167638897896E-1   6.549214720726013E-1  
 7.417417417417418E8    -4.525033533573151E-1   1.463011801242828E-1   8.091070502996445E-2   1.332692056894302E-1   8.150347322225571E-2   1.325709372758865E-1  -8.099811524152756E-2   6.443303227424622E-1  
 7.441441441441442E8    -4.655371308326721E-1   1.594718843698502E-1   9.999762475490570E-2   1.261298358440399E-1   9.976026415824890E-2   1.260267198085785E-1  -5.094709992408752E-2   6.297791004180908E-1  
 7.465465465465466E8    -4.778927564620972E-1   1.706642210483551E-1   1.171863526105881E-1   1.164398193359375E-1   1.170229539275169E-1   1.160909309983254E-1  -1.888284087181091E-2   6.129962801933289E-1  
 7.489489489489490E8    -4.917713701725006E-1   1.826941967010498E-1   1.328632831573486E-1   1.041356176137924E-1   1.324993073940277E-1   1.041196957230568E-1   1.277464628219605E-2   5.912565588951111E-1  
 7.513513513513514E8    -5.037444829940796E-1   1.959429979324341E-1   1.460811793804169E-1   8.968535065650940E-2   1.459219157695770E-1   9.028762578964233E-2   4.400555044412613E-2   5.651755928993225E-1  
 7.537537537537538E8    -5.137975215911865E-1   2.091581970453262E-1   1.571645587682724E-1   7.407826930284500E-2   1.573766767978668E-1   7.517189532518387E-2   7.642652094364166E-2   5.333405137062073E-1  
 7.561561561561562E8    -5.233918428421021E-1   2.227053642272949E-1   1.671425998210907E-1   5.814364179968834E-2   1.672730147838593E-1   5.838594585657120E-2   1.078674495220184E-1   4.958103299140930E-1  
 7.585585585585586E8    -5.317614078521729E-1   2.388373613357544E-1   1.755483150482178E-1   4.043419286608696E-2   1.753021329641342E-1   4.000875726342201E-2   1.385375112295151E-1   4.547296464443207E-1  
 7.609609609609610E8    -5.384617447853088E-1   2.529971897602081E-1   1.819171607494354E-1   2.100074663758278E-2   1.811963617801666E-1   2.025975100696087E-2   1.653909832239151E-1   4.072769880294800E-1  
 7.633633633633634E8    -5.454109311103821E-1   2.665135264396668E-1   1.855470687150955E-1   5.804898100905120E-4   1.841409504413605E-1   2.929294714704156E-4   1.855800598859787E-1   3.554325401782990E-1  
 7.657657657657658E8    -5.524910688400269E-1   2.805427312850952E-1   1.867297142744064E-1  -2.024685218930244E-2   1.854662746191025E-1  -2.003594115376473E-2   1.980747431516647E-1   2.970554232597351E-1  
 7.681681681681682E8    -5.600696802139282E-1   2.951313257217407E-1   1.845910549163818E-1  -4.182355478405953E-2   1.844993680715561E-1  -4.181489720940590E-2   2.017545998096466E-1   2.317837178707123E-1  
 7.705705705705706E8    -5.670412182807922E-1   3.111380934715271E-1   1.789172589778900E-1  -6.288284063339233E-2   1.792164295911789E-1  -6.305817514657974E-2   1.977050155401230E-1   1.673685759305954E-1  
 7.729729729729730E8    -5.716862082481384E-1   3.275695741176605E-1   1.694880276918411E-1  -8.319187164306641E-2   1.707721501588821E-1  -8.388303220272064E-2   1.851286441087723E-1   1.022066771984100E-1  
 7.753753753753754E8    -5.759049654006958E-1   3.430976271629334E-1   1.569413244724274E-1  -1.017164513468742E-1   1.584266573190689E-1  -1.026524007320404E-1   1.627639830112457E-1   3.768606111407280E-2  
 7.777777777777778E8    -5.799132585525513E-1   3.585008978843689E-1   1.419090330600739E-1  -1.176511868834496E-1   1.426099985837936E-1  -1.184667274355888E-1   1.293342113494873E-1  -2.520237490534782E-2  
 7.801801801801802E8    -5.830217599868774E-1   3.739318251609802E-1   1.252673715353012E-1  -1.301945000886917E-1   1.245928108692169E-1  -1.308958828449249E-1   8.603289723396301E-2  -8.244792371988297E-2  
 7.825825825825826E8    -5.835301280021668E-1   3.899667263031006E-1   1.069605648517609E-1  -1.395874023437500E-1   1.058319881558418E-1  -1.400828361511231E-1   3.659127652645111E-2  -1.311742961406708E-1  
 7.849849849849850E8    -5.854272246360779E-1   4.069492816925049E-1   8.842255920171738E-2  -1.464372575283051E-1   8.794079720973969E-2  -1.458540409803391E-1  -1.705757714807987E-2  -1.694437861442566E-1  
 7.873873873873874E8    -5.862405300140381E-1   4.248876273632050E-1   6.979458779096603E-2  -1.501459479331970E-1   6.974304467439652E-2  -1.490642428398132E-1  -7.399653643369675E-2  -1.988999545574188E-1  
 7.897897897897898E8    -5.844513177871704E-1   4.441871047019959E-1   5.137630179524422E-2  -1.503848284482956E-1   5.137225240468979E-2  -1.496100574731827E-1  -1.346933841705322E-1  -2.212549448013306E-1  
 7.921921921921922E8    -5.807757377624512E-1   4.637567698955536E-1   3.407751768827438E-2  -1.475007236003876E-1   3.434808179736137E-2  -1.475814282894135E-1  -1.964695453643799E-1  -2.353562414646149E-1  
 7.945945945945946E8    -5.791058540344238E-1   4.828651249408722E-1   1.923399046063423E-2  -1.423374861478806E-1   1.970166526734829E-2  -1.424384713172913E-1  -2.546280622482300E-1  -2.409361600875855E-1  
 7.969969969969970E8    -5.759897828102112E-1   5.015202164649963E-1   6.547730881720781E-3  -1.355714201927185E-1   7.238272577524185E-3  -1.359279900789261E-1  -3.106000721454620E-1  -2.406662851572037E-1  
 7.993993993993994E8    -5.716581940650940E-1   5.185859799385071E-1  -3.058917587623000E-3  -1.279514133930206E-1  -2.851034747436643E-3  -1.282245665788651E-1  -3.648682534694672E-1  -2.358933091163635E-1  
 8.018018018018018E8    -5.655905008316040E-1   5.350361466407776E-1  -1.001288741827011E-2  -1.205360740423203E-1  -1.034213788807392E-2  -1.204364001750946E-1  -4.178797602653503E-1  -2.267988622188568E-1  
 8.042042042042042E8    -5.575172305107117E-1   5.533870458602905E-1  -1.547395810484886E-2  -1.140977367758751E-1  -1.601162925362587E-2  -1.136788055300713E-1  -4.690707921981812E-1  -2.129352092742920E-1  
 8.066066066066066E8    -5.478219389915466E-1   5.706069469451904E-1  -1.987496204674244E-2  -1.083964183926582E-1  -2.031899429857731E-2  -1.081972792744637E-1  -5.164625048637390E-1  -1.932229697704315E-1  
 8.090090090090090E8    -5.373612046241760E-1   5.857593417167664E-1  -2.402819693088532E-2  -1.037966087460518E-1  -2.416217327117920E-2  -1.040769815444946E-1  -5.579398274421692E-1  -1.696400046348572E-1  
 8.114114114114114E8    -5.274413824081421E-1   5.995568037033081E-1  -2.864309772849083E-2  -9.993600100278854E-2  -2.869424410164356E-2  -1.003368571400642E-1  -5.969769358634949E-1  -1.418502032756805E-1  
 8.138138138138138E8    -5.175938010215759E-1   6.127440929412842E-1  -3.356071934103966E-2  -9.583435207605362E-2  -3.360326588153839E-2  -9.620422869920731E-2  -6.315468549728394E-1  -1.116007938981056E-1  
 8.162162162162162E8    -5.084476470947266E-1   6.253954172134399E-1  -3.811144828796387E-2  -9.109089523553848E-2  -3.819705545902252E-2  -9.130552411079407E-2  -6.611147522926331E-1  -8.095040917396545E-2  
 8.186186186186186E8    -4.995975196361542E-1   6.382444500923157E-1  -4.170289635658264E-2  -8.610514551401138E-2  -4.182650148868561E-2  -8.628010004758835E-2  -6.877095699310303E-1  -4.836696386337280E-2  
 8.210210210210210E8    -4.894115328788757E-1   6.500425338745117E-1  -4.514751955866814E-2  -8.191304653882980E-2  -4.523503407835960E-2  -8.168183267116547E-2  -7.101653218269348E-1  -1.473819464445114E-2  
 8.234234234234234E8    -4.784180819988251E-1   6.619096398353577E-1  -4.849490150809288E-2  -7.711137086153030E-2  -4.853234067559242E-2  -7.697559148073196E-2  -7.284445762634277E-1   1.845355331897736E-2  
