#  HZ   S   RI   R     50.00 
! Rohde & Schwarz ZVB8 2Ports - Version 2.81 - 1145.1010k08 SN: 100113
! Date: 2016-05-12 03:16:17
! Measurements: S11 S21 S12 S22 
! 
 6.000000000000000E8    -8.269248604774475E-1   4.082117080688477E-1  -4.269859055057168E-4  -2.274431986734271E-3  -5.001712124794722E-4  -2.240795874968171E-3  -9.524258375167847E-1   1.961774677038193E-1  
 6.024024024024024E8    -8.182105422019959E-1   4.205291867256165E-1  -5.021451506763697E-4  -2.424248494207859E-3  -4.876209131907672E-4  -2.393012400716543E-3  -9.495611786842346E-1   2.077222317457199E-1  
 6.048048048048048E8    -8.086242675781250E-1   4.340327382087708E-1  -5.023818230256438E-4  -2.481301780790091E-3  -5.311326822265983E-4  -2.587577793747187E-3  -9.466622471809387E-1   2.187190055847168E-1  
 6.072072072072072E8    -7.984884381294251E-1   4.482144713401794E-1  -5.457134102471173E-4  -2.585342153906822E-3  -5.447796429507434E-4  -2.588007831946015E-3  -9.432334303855896E-1   2.294616401195526E-1  
 6.096096096096096E8    -7.874771952629089E-1   4.623267054557800E-1  -4.985000705346465E-4  -2.761395648121834E-3  -5.697199376299977E-4  -2.724383492022753E-3  -9.399443864822388E-1   2.409099936485291E-1  
 6.120120120120120E8    -7.780495882034302E-1   4.733630120754242E-1  -4.076358163729310E-4  -2.876252867281437E-3  -4.210477636661381E-4  -2.843305934220552E-3  -9.370101094245911E-1   2.494168430566788E-1  
 6.144144144144144E8    -7.676128745079041E-1   4.848580956459045E-1  -2.984078601002693E-4  -3.024548292160034E-3  -3.044027544092387E-4  -3.028793260455132E-3  -9.345644116401672E-1   2.593634128570557E-1  
 6.168168168168168E8    -7.563003301620483E-1   4.961934685707092E-1  -2.211288519902155E-4  -3.286919323727489E-3  -1.274454552913085E-4  -3.276398172602058E-3  -9.316756129264832E-1   2.695536315441132E-1  
 6.192192192192192E8    -7.447679638862610E-1   5.069814324378967E-1  -7.693567022215575E-5  -3.541295649483800E-3  -1.079614157788456E-4  -3.558783093467355E-3  -9.283844828605652E-1   2.801732122898102E-1  
 6.216216216216216E8    -7.332043647766113E-1   5.169582366943359E-1   8.963582513388246E-5  -4.009708762168884E-3   1.039490671246313E-4  -4.019867163151503E-3  -9.246646165847778E-1   2.916169762611389E-1  
 6.240240240240240E8    -7.219383120536804E-1   5.262994766235352E-1   1.206128144985996E-4  -4.531787708401680E-3   1.019458868540824E-4  -4.652061033993959E-3  -9.202961325645447E-1   3.026548326015472E-1  
 6.264264264264264E8    -7.114741206169128E-1   5.369271636009216E-1   1.069793652277440E-4  -5.341021809726954E-3   1.058418638422154E-4  -5.323199555277824E-3  -9.156157374382019E-1   3.156835138797760E-1  
 6.288288288288288E8    -7.009473443031311E-1   5.474183559417725E-1  -1.509479043306783E-4  -6.124263163655996E-3  -1.664284645812586E-4  -6.084247026592493E-3  -9.107157588005066E-1   3.272535502910614E-1  
 6.312312312312312E8    -6.904146671295166E-1   5.581673383712769E-1  -5.245183128863573E-4  -6.979292258620262E-3  -5.745507660321891E-4  -7.022765465080738E-3  -9.061614274978638E-1   3.374309539794922E-1  
 6.336336336336336E8    -6.800296306610107E-1   5.687603354454041E-1  -1.191817689687014E-3  -7.805898319929838E-3  -1.169823808595538E-3  -7.821428589522839E-3  -9.020594954490662E-1   3.461045324802399E-1  
 6.360360360360360E8    -6.689260601997376E-1   5.798261761665344E-1  -1.976584782823920E-3  -8.615123108029366E-3  -2.067083492875099E-3  -8.628288283944130E-3  -8.985351920127869E-1   3.538877367973328E-1  
 6.384384384384384E8    -6.577110290527344E-1   5.911484360694885E-1  -3.107885364443064E-3  -9.254761040210724E-3  -3.140881890431047E-3  -9.233821183443070E-3  -8.940464258193970E-1   3.647145330905914E-1  
 6.408408408408408E8    -6.454348564147949E-1   6.026600599288940E-1  -4.407464992254973E-3  -9.648169390857220E-3  -4.409906920045614E-3  -9.582296945154667E-3  -8.896358609199524E-1   3.750026822090149E-1  
 6.432432432432432E8    -6.324827075004578E-1   6.147381663322449E-1  -5.727715324610472E-3  -9.616011753678322E-3  -5.655704066157341E-3  -9.626962244510651E-3  -8.844867944717407E-1   3.853541612625122E-1  
 6.456456456456456E8    -6.180783510208130E-1   6.265027523040772E-1  -6.776169408112764E-3  -9.510907344520092E-3  -6.797245703637600E-3  -9.450105018913746E-3  -8.793088793754578E-1   3.950867056846619E-1  
 6.480480480480480E8    -6.028200984001160E-1   6.378530859947205E-1  -7.861123420298100E-3  -9.345234371721745E-3  -7.771414704620838E-3  -9.275850839912891E-3  -8.738905191421509E-1   4.050232768058777E-1  
 6.504504504504504E8    -5.867052674293518E-1   6.488702893257141E-1  -8.839379996061325E-3  -9.042963385581970E-3  -8.767503313720226E-3  -9.017932228744030E-3  -8.660522103309631E-1   4.176855981349945E-1  
 6.528528528528528E8    -5.700469017028809E-1   6.590002179145813E-1  -9.737012907862663E-3  -8.688624948263168E-3  -9.762096218764782E-3  -8.673345670104027E-3  -8.601104021072388E-1   4.300794005393982E-1  
 6.552552552552552E8    -5.526704192161560E-1   6.683443784713745E-1  -1.057223603129387E-2  -8.340884931385517E-3  -1.058409828692675E-2  -8.268355391919613E-3  -8.557417392730713E-1   4.408997595310211E-1  
 6.576576576576576E8    -5.342850089073181E-1   6.765609979629517E-1  -1.135820243507624E-2  -7.921348325908184E-3  -1.132149528712034E-2  -7.958052679896355E-3  -8.518055677413940E-1   4.496695101261139E-1  
 6.600600600600600E8    -5.139479637145996E-1   6.849284768104553E-1  -1.218049414455891E-2  -7.675291504710913E-3  -1.217237766832113E-2  -7.656531408429146E-3  -8.466676473617554E-1   4.578211605548859E-1  
 6.624624624624624E8    -4.936137199401856E-1   6.926733851432800E-1  -1.308188028633595E-2  -7.207178976386786E-3  -1.304680574685335E-2  -7.192830089479685E-3  -8.398839235305786E-1   4.690446257591248E-1  
 6.648648648648648E8    -4.727220237255096E-1   6.992097496986389E-1  -1.402191538363695E-2  -6.706390529870987E-3  -1.397711969912052E-2  -6.766510196030140E-3  -8.329741954803467E-1   4.800408780574799E-1  
 6.672672672672672E8    -4.511851072311401E-1   7.049227952957153E-1  -1.483353879302740E-2  -6.107204593718052E-3  -1.479019690304995E-2  -6.160278804600239E-3  -8.263174891471863E-1   4.900296926498413E-1  
 6.696696696696696E8    -4.290539324283600E-1   7.095357179641724E-1  -1.558361202478409E-2  -5.625375546514988E-3  -1.557229273021221E-2  -5.564115941524506E-3  -8.195500373840332E-1   4.998630583286285E-1  
 6.720720720720720E8    -4.054077565670013E-1   7.129771709442139E-1  -1.643154956400394E-2  -5.007380153983831E-3  -1.631452329456806E-2  -4.941171500831842E-3  -8.125773072242737E-1   5.094795823097229E-1  
 6.744744744744744E8    -3.817219138145447E-1   7.156956195831299E-1  -1.729843206703663E-2  -4.298132378607988E-3  -1.726564392447472E-2  -4.328148439526558E-3  -8.053362965583801E-1   5.197760462760925E-1  
 6.768768768768768E8    -3.572691679000855E-1   7.164407372474670E-1  -1.809981092810631E-2  -3.520992118865252E-3  -1.812970638275147E-2  -3.586228471249342E-3  -7.981306314468384E-1   5.298668146133423E-1  
 6.792792792792792E8    -3.326182961463928E-1   7.156056761741638E-1  -1.888841949403286E-2  -2.741119125857949E-3  -1.893793977797031E-2  -2.649049041792750E-3  -7.907629013061523E-1   5.397672057151794E-1  
 6.816816816816816E8    -3.075307905673981E-1   7.130584120750427E-1  -1.968120597302914E-2  -1.806000829674304E-3  -1.966822706162930E-2  -1.739564002491534E-3  -7.830999493598938E-1   5.497331023216248E-1  
 6.840840840840840E8    -2.811710834503174E-1   7.086579203605652E-1  -2.038118429481983E-2  -8.418306242674589E-4  -2.044808492064476E-2  -9.238753118552268E-4  -7.755061984062195E-1   5.598257780075073E-1  
 6.864864864864864E8    -2.559761106967926E-1   7.024486660957336E-1  -2.102542854845524E-2   2.325644600205123E-4  -2.100543119013310E-2   1.543176476843655E-4  -7.670481204986572E-1   5.689610838890076E-1  
 6.888888888888888E8    -2.303723543882370E-1   6.944000720977783E-1  -2.174618653953075E-2   1.326463185250759E-3  -2.168026566505432E-2   1.168169663287699E-3  -7.582452893257141E-1   5.788230895996094E-1  
 6.912912912912912E8    -2.064507752656937E-1   6.846483349800110E-1  -2.239866554737091E-2   2.570667304098606E-3  -2.234739810228348E-2   2.389756031334400E-3  -7.496001720428467E-1   5.884742736816406E-1  
 6.936936936936936E8    -1.827667951583862E-1   6.732470393180847E-1  -2.289619483053684E-2   3.845440689474344E-3  -2.286821417510510E-2   3.719426924362779E-3  -7.410271167755127E-1   5.982282757759094E-1  
 6.960960960960960E8    -1.589278131723404E-1   6.595278382301331E-1  -2.326843887567520E-2   5.181997548788786E-3  -2.329012565314770E-2   5.246442276984453E-3  -7.322339415550232E-1   6.081378459930420E-1  
 6.984984984984984E8    -1.378109604120255E-1   6.431877017021179E-1  -2.350820042192936E-2   6.646038033068180E-3  -2.341197431087494E-2   6.950116716325283E-3  -7.204775214195252E-1   6.208032965660095E-1  
 7.009009009009008E8    -1.182627975940704E-1   6.242082715034485E-1  -2.340277470648289E-2   8.022205904126167E-3  -2.316888794302940E-2   8.536743931472302E-3  -7.091177701950073E-1   6.319288015365601E-1  
 7.033033033033032E8    -1.013979464769363E-1   6.033660173416138E-1  -2.294688671827316E-2   9.258232079446316E-3  -2.274010516703129E-2   9.724025614559650E-3  -6.997735500335693E-1   6.406770944595337E-1  
 7.057057057057056E8    -8.686380833387375E-2   5.824350714683533E-1  -2.216817438602448E-2   1.023485045880079E-2  -2.206975221633911E-2   1.039894018322229E-2  -6.927521824836731E-1   6.461884975433350E-1  
 7.081081081081080E8    -7.222103327512741E-2   5.615848302841187E-1  -2.140138670802116E-2   1.052881497889757E-2  -2.140923216938973E-2   1.046201586723328E-2  -6.851776838302612E-1   6.528055071830750E-1  
 7.105105105105104E8    -6.008934602141380E-2   5.398540496826172E-1  -2.101554535329342E-2   1.039175316691399E-2  -2.121639810502529E-2   1.012977492064238E-2  -6.766961216926575E-1   6.602262258529663E-1  
 7.129129129129129E8    -5.209593102335930E-2   5.173147916793823E-1  -2.120019681751728E-2   9.712941013276577E-3  -2.131206914782524E-2   9.472510777413845E-3  -6.661835908889771E-1   6.684641242027283E-1  
 7.153153153153153E8    -4.879799485206604E-2   4.946229755878449E-1  -2.195923030376434E-2   8.521336130797863E-3  -2.203364856541157E-2   8.430633693933487E-3  -6.544151306152344E-1   6.779407262802124E-1  
 7.177177177177178E8    -4.843625053763390E-2   4.731926321983337E-1  -2.384751662611961E-2   7.196118589490652E-3  -2.388954348862171E-2   7.253229618072510E-3  -6.414356231689453E-1   6.873310804367065E-1  
 7.201201201201202E8    -4.926740750670433E-2   4.560884833335877E-1  -2.695073373615742E-2   6.349006202071905E-3  -2.696478925645351E-2   6.356062367558479E-3  -6.287223100662231E-1   6.960794329643250E-1  
 7.225225225225226E8    -4.934115335345268E-2   4.441789090633392E-1  -3.145535662770271E-2   6.355709396302700E-3  -3.136132284998894E-2   6.359050050377846E-3  -6.151296496391296E-1   7.049994468688965E-1  
 7.249249249249250E8    -4.544104635715485E-2   4.339003562927246E-1  -3.676272928714752E-2   8.200527168810368E-3  -3.680505976080895E-2   7.694221101701260E-3  -6.033647656440735E-1   7.104033231735230E-1  
 7.273273273273274E8    -3.806769475340843E-2   4.223132133483887E-1  -4.249527305364609E-2   1.217718049883843E-2  -4.269810020923615E-2   1.121142134070396E-2  -5.919125080108643E-1   7.153050899505615E-1  
 7.297297297297298E8    -2.827191166579723E-2   4.078617990016937E-1  -4.768806695938110E-2   1.812397874891758E-2  -4.790075868368149E-2   1.728050224483013E-2  -5.809851288795471E-1   7.205237150192261E-1  
 7.321321321321322E8    -1.841395348310471E-2   3.875907063484192E-1  -5.158131569623947E-2   2.545550279319286E-2  -5.157821252942085E-2   2.551090344786644E-2  -5.697670578956604E-1   7.263655066490173E-1  
 7.345345345345346E8    -1.106072030961514E-2   3.627803921699524E-1  -5.338681116700172E-2   3.437323123216629E-2  -5.307175219058991E-2   3.473178669810295E-2  -5.585647225379944E-1   7.323243618011475E-1  
 7.369369369369370E8    -9.459263645112515E-3   3.335419595241547E-1  -5.283289775252342E-2   4.389382526278496E-2  -5.236386880278587E-2   4.449718445539475E-2  -5.469273924827576E-1   7.391853928565979E-1  
 7.393393393393394E8    -1.567059010267258E-2   3.047186732292175E-1  -4.993892833590508E-2   5.289867520332336E-2  -4.926175251603127E-2   5.350069329142571E-2  -5.353206992149353E-1   7.453876137733460E-1  
 7.417417417417418E8    -2.580399438738823E-2   2.796976566314697E-1  -4.561905935406685E-2   6.094089150428772E-2  -4.522505402565002E-2   6.127389892935753E-2  -5.238814353942871E-1   7.517011165618897E-1  
 7.441441441441442E8    -3.657719492912293E-2   2.570495903491974E-1  -4.024440795183182E-2   6.829138845205307E-2  -4.030307382345200E-2   6.836447864770889E-2  -5.127591490745544E-1   7.571467757225037E-1  
 7.465465465465466E8    -5.003014206886292E-2   2.356301695108414E-1  -3.418672084808350E-2   7.453808933496475E-2  -3.440490737557411E-2   7.459388673305512E-2  -4.996559321880341E-1   7.643589973449707E-1  
 7.489489489489490E8    -6.742095202207565E-2   2.149661183357239E-1  -2.728597819805145E-2   7.988773286342621E-2  -2.753989957273006E-2   7.999778538942337E-2  -4.880026280879974E-1   7.703341245651245E-1  
 7.513513513513514E8    -8.582457900047302E-2   1.989091932773590E-1  -1.961974054574966E-2   8.390958607196808E-2  -2.003898099064827E-2   8.399897068738937E-2  -4.761482775211334E-1   7.764215469360352E-1  
 7.537537537537538E8    -1.014129817485809E-1   1.846862882375717E-1  -1.222029514610767E-2   8.670432120561600E-2  -1.270500384271145E-2   8.685009181499481E-2  -4.627467691898346E-1   7.826845645904541E-1  
 7.561561561561562E8    -1.176889687776566E-1   1.692423820495606E-1  -5.360470153391361E-3   8.944665640592575E-2  -5.441211163997650E-3   8.935955911874771E-2  -4.486622214317322E-1   7.878285646438599E-1  
 7.585585585585586E8    -1.372032910585403E-1   1.567224562168121E-1   2.037353580817580E-3   9.162394702434540E-2   2.287770155817270E-3   9.122490137815476E-2  -4.323920905590057E-1   7.947260737419128E-1  
 7.609609609609610E8    -1.594555228948593E-1   1.459987014532089E-1   9.970661252737045E-3   9.308641403913498E-2   1.019172091037035E-2   9.239133447408676E-2  -4.167883694171906E-1   8.017407059669495E-1  
 7.633633633633634E8    -1.837034076452255E-1   1.378075033426285E-1   1.805986277759075E-2   9.366895258426666E-2   1.785534434020519E-2   9.297366440296173E-2  -4.018509984016419E-1   8.081359863281250E-1  
 7.657657657657658E8    -2.080259621143341E-1   1.321132183074951E-1   2.598460391163826E-2   9.355884790420532E-2   2.564692869782448E-2   9.314811974763870E-2  -3.885362446308136E-1   8.129221796989441E-1  
 7.681681681681682E8    -2.334818243980408E-1   1.283010095357895E-1   3.400216251611710E-2   9.266044199466705E-2   3.375386819243431E-2   9.281010925769806E-2  -3.763524889945984E-1   8.170356154441834E-1  
 7.705705705705706E8    -2.608877420425415E-1   1.293290108442307E-1   4.187190160155296E-2   9.067451953887940E-2   4.191995412111282E-2   9.112989157438278E-2  -3.629690706729889E-1   8.224880695343018E-1  
 7.729729729729730E8    -2.856420874595642E-1   1.342941820621491E-1   4.966016486287117E-2   8.749774843454361E-2   4.988066479563713E-2   8.847632259130478E-2  -3.485719859600067E-1   8.297169804573059E-1  
 7.753753753753754E8    -3.072592318058014E-1   1.403368711471558E-1   5.641602724790573E-2   8.379909396171570E-2   5.723869055509567E-2   8.470728248357773E-2  -3.312197029590607E-1   8.363063335418701E-1  
 7.777777777777778E8    -3.283935189247131E-1   1.470332890748978E-1   6.284297257661820E-2   7.987524569034576E-2   6.351935863494873E-2   8.010367304086685E-2  -3.113675117492676E-1   8.399889469146729E-1  
 7.801801801801802E8    -3.490963280200958E-1   1.551362127065659E-1   6.865723431110382E-2   7.558128237724304E-2   6.878870725631714E-2   7.511804252862930E-2  -2.912171781063080E-1   8.400220274925232E-1  
 7.825825825825826E8    -3.697838187217712E-1   1.669634431600571E-1   7.399604469537735E-2   7.089614868164063E-2   7.393904030323029E-2   7.035594433546066E-2  -2.697881460189819E-1   8.410728573799133E-1  
 7.849849849849850E8    -3.899901211261749E-1   1.821903884410858E-1   7.947580516338348E-2   6.588345021009445E-2   7.885232567787170E-2   6.567267328500748E-2  -2.516780793666840E-1   8.411248326301575E-1  
 7.873873873873874E8    -4.069192707538605E-1   1.998656988143921E-1   8.433581888675690E-2   6.014674901962280E-2   8.347155153751373E-2   6.025777012109757E-2  -2.342741787433624E-1   8.421604633331299E-1  
 7.897897897897898E8    -4.193429946899414E-1   2.184520065784454E-1   8.831813931465149E-2   5.409154295921326E-2   8.772602677345276E-2   5.410025641322136E-2  -2.145650237798691E-1   8.450148105621338E-1  
 7.921921921921922E8    -4.286415576934815E-1   2.365511357784271E-1   9.166460484266281E-2   4.769497737288475E-2   9.150338172912598E-2   4.784716293215752E-2  -1.939670890569687E-1   8.486613631248474E-1  
 7.945945945945946E8    -4.383264482021332E-1   2.531191408634186E-1   9.410922229290009E-2   4.128463938832283E-2   9.382195025682449E-2   4.149970784783363E-2  -1.736241579055786E-1   8.480499982833862E-1  
 7.969969969969970E8    -4.476719200611115E-1   2.698050439357758E-1   9.550686925649643E-2   3.482134640216827E-2   9.555342793464661E-2   3.513185307383537E-2  -1.522670239210129E-1   8.476954102516174E-1  
 7.993993993993994E8    -4.562402069568634E-1   2.858447134494782E-1   9.584362059831619E-2   2.893128618597984E-2   9.587062895298004E-2   2.902503684163094E-2  -1.304639130830765E-1   8.467978239059448E-1  
 8.018018018018018E8    -4.649249315261841E-1   3.036009371280670E-1   9.511308372020721E-2   2.426978200674057E-2   9.531319141387940E-2   2.411422692239285E-2  -1.068728119134903E-1   8.448955416679382E-1  
 8.042042042042042E8    -4.717800021171570E-1   3.254390954971314E-1   9.499402344226837E-2   2.086738497018814E-2   9.526821225881577E-2   2.082544751465321E-2  -8.427294343709946E-2   8.420130014419556E-1  
 8.066066066066066E8    -4.752699732780457E-1   3.476272821426392E-1   9.564579278230667E-2   1.822378113865852E-2   9.589554369449616E-2   1.817950047552586E-2  -5.990660935640335E-2   8.389207720756531E-1  
 8.090090090090090E8    -4.765755534172058E-1   3.697896897792816E-1   9.737767279148102E-2   1.576285995543003E-2   9.762718528509140E-2   1.564612053334713E-2  -3.522249311208725E-2   8.338410854339600E-1  
 8.114114114114114E8    -4.748820662498474E-1   3.905365467071533E-1   1.002489328384399E-1   1.247984450310469E-2   1.003259867429733E-1   1.242974866181612E-2  -1.105842180550098E-2   8.273227810859680E-1  
 8.138138138138138E8    -4.712645709514618E-1   4.088476002216339E-1   1.032140478491783E-1   8.154476061463356E-3   1.032043397426605E-1   8.124906569719315E-3   1.421508472412825E-2   8.192157745361328E-1  
 8.162162162162162E8    -4.682025313377380E-1   4.250524044036865E-1   1.056803017854691E-1   3.426043549552560E-3   1.054951697587967E-1   3.305588383227587E-3   3.937982767820358E-2   8.103151917457581E-1  
 8.186186186186186E8    -4.661277532577515E-1   4.420711696147919E-1   1.080566495656967E-1  -1.161835505627096E-3   1.077165603637695E-1  -1.333587220869958E-3   6.555847823619843E-2   7.995801568031311E-1  
 8.210210210210210E8    -4.616573154926300E-1   4.604275226593018E-1   1.105496361851692E-1  -6.343191489577293E-3   1.106525287032127E-1  -6.516248919069767E-3   9.253147989511490E-2   7.864395380020142E-1  
 8.234234234234234E8    -4.551968872547150E-1   4.772130548954010E-1   1.130660623311997E-1  -1.255931332707405E-2   1.132690459489822E-1  -1.256670057773590E-2   1.185907870531082E-1   7.723445892333984E-1  
