#  HZ   S   RI   R     50.00 
! Rohde & Schwarz ZVB8 2Ports - Version 2.81 - 1145.1010k08 SN: 100113
! Date: 2016-05-12 03:16:25
! Measurements: S11 S21 S12 S22 
! 
 6.000000000000000E8    -8.105919361114502E-1   4.216291904449463E-1  -6.644709501415491E-4  -2.568779978901148E-3  -7.009631372056902E-4  -2.628985326737166E-3  -9.508915543556213E-1   2.002469450235367E-1  
 6.024024024024024E8    -8.007384538650513E-1   4.340685904026032E-1  -6.391923525370657E-4  -2.747040009126067E-3  -6.084720953367651E-4  -2.760027768090367E-3  -9.478594064712524E-1   2.116964757442474E-1  
 6.048048048048048E8    -7.902066707611084E-1   4.472360610961914E-1  -6.944819469936192E-4  -2.860109554603696E-3  -6.633276352658868E-4  -2.882652450352907E-3  -9.450554251670837E-1   2.229820489883423E-1  
 6.072072072072072E8    -7.782562971115112E-1   4.617860615253449E-1  -6.848649936728180E-4  -2.996851922944188E-3  -6.736724171787500E-4  -2.977407304570079E-3  -9.416548013687134E-1   2.340912073850632E-1  
 6.096096096096096E8    -7.658093571662903E-1   4.758505225181580E-1  -6.707978318445385E-4  -3.153719007968903E-3  -6.807692698203027E-4  -3.141168737784028E-3  -9.379933476448059E-1   2.452961504459381E-1  
 6.120120120120120E8    -7.554976344108582E-1   4.866646528244019E-1  -6.454965914599598E-4  -3.302836092188954E-3  -5.947473691776395E-4  -3.323310520499945E-3  -9.351362586021423E-1   2.538546621799469E-1  
 6.144144144144144E8    -7.433329820632935E-1   4.982488453388214E-1  -5.872678593732417E-4  -3.457099432125688E-3  -6.009429926052690E-4  -3.529917448759079E-3  -9.322689771652222E-1   2.640417218208313E-1  
 6.168168168168168E8    -7.304953336715698E-1   5.090045928955078E-1  -5.301379133015871E-4  -3.829643828794360E-3  -4.832645063288510E-4  -3.842719830572605E-3  -9.293279647827148E-1   2.747694849967957E-1  
 6.192192192192192E8    -7.173353433609009E-1   5.193104743957520E-1  -4.186212318018079E-4  -4.165217746049166E-3  -4.095242766197771E-4  -4.234401043504477E-3  -9.261739253997803E-1   2.850768566131592E-1  
 6.216216216216216E8    -7.046381831169128E-1   5.286384820938110E-1  -2.887273731175810E-4  -4.731329623609781E-3  -3.181429055985063E-4  -4.680309910327196E-3  -9.220964312553406E-1   2.964476346969605E-1  
 6.240240240240240E8    -6.919141411781311E-1   5.374366044998169E-1  -3.069633094128221E-4  -5.449799820780754E-3  -2.354713360546157E-4  -5.407480522990227E-3  -9.177681207656860E-1   3.078216314315796E-1  
 6.264264264264264E8    -6.806089282035828E-1   5.473970770835877E-1  -4.621091065928340E-4  -6.206559482961893E-3  -3.932958061341196E-4  -6.244172807782888E-3  -9.128081202507019E-1   3.211655914783478E-1  
 6.288288288288288E8    -6.689698696136475E-1   5.577113032341003E-1  -7.540568476542831E-4  -7.079961244016886E-3  -7.900295895524323E-4  -7.045593578368425E-3  -9.079977273941040E-1   3.323502540588379E-1  
 6.312312312312312E8    -6.571452021598816E-1   5.682664513587952E-1  -1.345572061836720E-3  -8.019167929887772E-3  -1.347577781416476E-3  -8.011300116777420E-3  -9.030562043190002E-1   3.427724540233612E-1  
 6.336336336336336E8    -6.449810266494751E-1   5.785631537437439E-1  -2.102641388773918E-3  -8.859994821250439E-3  -2.135839313268662E-3  -8.946861140429974E-3  -8.989136815071106E-1   3.518103361129761E-1  
 6.360360360360360E8    -6.324001550674439E-1   5.895453691482544E-1  -3.122305963188410E-3  -9.707655757665634E-3  -3.182085696607828E-3  -9.830837137997150E-3  -8.949829339981079E-1   3.597512543201447E-1  
 6.384384384384384E8    -6.186708211898804E-1   6.005976796150208E-1  -4.405043087899685E-3  -1.043725199997425E-2  -4.410909488797188E-3  -1.041681692004204E-2  -8.905054926872253E-1   3.705284893512726E-1  
 6.408408408408408E8    -6.043723821640015E-1   6.120382547378540E-1  -5.924189463257790E-3  -1.079273037612438E-2  -5.936332512646914E-3  -1.081983558833599E-2  -8.856949806213379E-1   3.811348080635071E-1  
 6.432432432432432E8    -5.890604257583618E-1   6.236112117767334E-1  -7.488497532904148E-3  -1.086681894958019E-2  -7.431793492287397E-3  -1.083104126155376E-2  -8.804096579551697E-1   3.916437327861786E-1  
 6.456456456456456E8    -5.722149610519409E-1   6.348107457160950E-1  -8.840742520987988E-3  -1.060545165091753E-2  -8.807974867522717E-3  -1.063559763133526E-2  -8.751450181007385E-1   4.017089009284973E-1  
 6.480480480480480E8    -5.540400147438049E-1   6.454997062683106E-1  -1.008392870426178E-2  -1.033901330083609E-2  -1.011301390826702E-2  -1.030161790549755E-2  -8.693878650665283E-1   4.114954471588135E-1  
 6.504504504504504E8    -5.344948768615723E-1   6.555460095405579E-1  -1.137506496161223E-2  -9.942750446498394E-3  -1.134908478707075E-2  -9.881598874926567E-3  -8.614806532859802E-1   4.241732954978943E-1  
 6.528528528528528E8    -5.140825510025024E-1   6.644669771194458E-1  -1.257430016994476E-2  -9.462251327931881E-3  -1.254508737474680E-2  -9.427656419575214E-3  -8.552051186561585E-1   4.366193413734436E-1  
 6.552552552552552E8    -4.924488365650177E-1   6.716816425323486E-1  -1.368658151477575E-2  -8.946939371526241E-3  -1.369197852909565E-2  -8.884077891707420E-3  -8.505111932754517E-1   4.477811753749847E-1  
 6.576576576576576E8    -4.699263870716095E-1   6.777732372283936E-1  -1.480912044644356E-2  -8.246497251093388E-3  -1.473121531307697E-2  -8.323277346789837E-3  -8.462545871734619E-1   4.567414522171021E-1  
 6.600600600600600E8    -4.452295601367950E-1   6.832618713378906E-1  -1.585013978183270E-2  -7.674612104892731E-3  -1.580643095076084E-2  -7.666295394301415E-3  -8.406788110733032E-1   4.649090170860291E-1  
 6.624624624624624E8    -4.206583797931671E-1   6.874288916587830E-1  -1.696966774761677E-2  -6.972021888941526E-3  -1.690472289919853E-2  -7.000573910772800E-3  -8.337018489837647E-1   4.763438105583191E-1  
 6.648648648648648E8    -3.968182504177094E-1   6.905348896980286E-1  -1.804697327315807E-2  -6.137435790151358E-3  -1.799751259386540E-2  -6.197058595716953E-3  -8.265821337699890E-1   4.872982203960419E-1  
 6.672672672672672E8    -3.707747161388397E-1   6.915705204010010E-1  -1.905225776135922E-2  -5.214470904320478E-3  -1.906843110918999E-2  -5.250185728073120E-3  -8.195987343788147E-1   4.975460767745972E-1  
 6.696696696696696E8    -3.435287773609161E-1   6.909356117248535E-1  -2.005913108587265E-2  -4.215516615658999E-3  -2.002555690705776E-2  -4.342049360275269E-3  -8.124771118164063E-1   5.075508952140808E-1  
 6.720720720720720E8    -3.147396743297577E-1   6.878008842468262E-1  -2.104028873145580E-2  -3.210022114217281E-3  -2.097850851714611E-2  -3.319134702906013E-3  -8.053496479988098E-1   5.171817541122437E-1  
 6.744744744744744E8    -2.865479886531830E-1   6.830534934997559E-1  -2.204039134085178E-2  -2.090066671371460E-3  -2.197845280170441E-2  -2.128765918314457E-3  -7.976006865501404E-1   5.278443098068237E-1  
 6.768768768768768E8    -2.586553096771240E-1   6.756653785705566E-1  -2.297411300241947E-2  -7.985281990841031E-4  -2.284643985331059E-2  -8.437148062512279E-4  -7.898733615875244E-1   5.379483699798584E-1  
 6.792792792792792E8    -2.313305586576462E-1   6.657438278198242E-1  -2.371999435126782E-2   5.292551941238344E-4  -2.367677539587021E-2   5.331451538950205E-4  -7.821435928344727E-1   5.477173328399658E-1  
 6.816816816816816E8    -2.038805633783341E-1   6.536129117012024E-1  -2.444425784051418E-2   1.914181979373097E-3  -2.436136640608311E-2   1.915300032123923E-3  -7.743112444877625E-1   5.580675601959229E-1  
 6.840840840840840E8    -1.765847355127335E-1   6.383538842201233E-1  -2.517573162913322E-2   3.492894815281034E-3  -2.520777843892574E-2   3.444990376010537E-3  -7.661361694335938E-1   5.682553052902222E-1  
 6.864864864864864E8    -1.516376733779907E-1   6.211761832237244E-1  -2.568170987069607E-2   5.168950185179710E-3  -2.573832869529724E-2   5.103464704006910E-3  -7.571997642517090E-1   5.774248838424683E-1  
 6.888888888888888E8    -1.275393515825272E-1   6.009996533393860E-1  -2.612230367958546E-2   6.909046787768602E-3  -2.620467543601990E-2   6.727135274559259E-3  -7.479732036590576E-1   5.872849225997925E-1  
 6.912912912912912E8    -1.051815599203110E-1   5.775704979896545E-1  -2.654392272233963E-2   8.654493838548660E-3  -2.656750194728375E-2   8.488462306559086E-3  -7.388285398483276E-1   5.972194075584412E-1  
 6.936936936936936E8    -8.491756021976471E-2   5.517601370811462E-1  -2.674644812941551E-2   1.061501260846853E-2  -2.682788856327534E-2   1.042035687714815E-2  -7.297883629798889E-1   6.070452928543091E-1  
 6.960960960960960E8    -6.710960716009140E-2   5.225042104721069E-1  -2.680815942585468E-2   1.263231504708529E-2  -2.675294503569603E-2   1.259758602827787E-2  -7.204146981239319E-1   6.170566082000732E-1  
 6.984984984984984E8    -5.500712245702744E-2   4.915275275707245E-1  -2.648223936557770E-2   1.468943711370230E-2  -2.621490880846977E-2   1.494247559458017E-2  -7.082550525665283E-1   6.298794746398926E-1  
 7.009009009009008E8    -4.775987192988396E-2   4.595230519771576E-1  -2.569757588207722E-2   1.658350042998791E-2  -2.527727186679840E-2   1.695658452808857E-2  -6.964227557182312E-1   6.410925984382629E-1  
 7.033033033033032E8    -4.523668065667152E-2   4.299531579017639E-1  -2.439011074602604E-2   1.794012077152729E-2  -2.404276840388775E-2   1.840875297784805E-2  -6.861867904663086E-1   6.499610543251038E-1  
 7.057057057057056E8    -4.572015628218651E-2   4.025899171829224E-1  -2.299653179943562E-2   1.885524950921536E-2  -2.274994179606438E-2   1.913714036345482E-2  -6.787241697311401E-1   6.556341052055359E-1  
 7.081081081081080E8    -4.638297855854034E-2   3.753653168678284E-1  -2.199945412576199E-2   1.905198395252228E-2  -2.189593389630318E-2   1.898250915110111E-2  -6.699892282485962E-1   6.622272133827210E-1  
 7.105105105105104E8    -5.088298395276070E-2   3.476668000221252E-1  -2.140892110764980E-2   1.885212957859039E-2  -2.165942639112473E-2   1.857010833919048E-2  -6.606942415237427E-1   6.697208285331726E-1  
 7.129129129129129E8    -6.040764600038528E-2   3.217976689338684E-1  -2.162127755582333E-2   1.831658370792866E-2  -2.186581119894981E-2   1.804801076650620E-2  -6.495761871337891E-1   6.782336235046387E-1  
 7.153153153153153E8    -7.403798401355743E-2   2.992787659168243E-1  -2.263913862407208E-2   1.761117763817310E-2  -2.279052138328552E-2   1.743598096072674E-2  -6.366842389106751E-1   6.875033974647522E-1  
 7.177177177177178E8    -8.862047642469406E-2   2.819656133651733E-1  -2.477031014859676E-2   1.692129112780094E-2  -2.477669343352318E-2   1.688147336244583E-2  -6.228336691856384E-1   6.969484090805054E-1  
 7.201201201201202E8    -1.007522270083427E-1   2.708175480365753E-1  -2.825894206762314E-2   1.707013323903084E-2  -2.826991118490696E-2   1.703287474811077E-2  -6.088992953300476E-1   7.052668929100037E-1  
 7.225225225225226E8    -1.092938706278801E-1   2.628450393676758E-1  -3.286444395780563E-2   1.867839880287647E-2  -3.284198418259621E-2   1.875847391784191E-2  -5.942786335945129E-1   7.137577533721924E-1  
 7.249249249249250E8    -1.136378273367882E-1   2.541191875934601E-1  -3.780438005924225E-2   2.283011190593243E-2  -3.801761567592621E-2   2.238631621003151E-2  -5.817630290985107E-1   7.186725735664368E-1  
 7.273273273273274E8    -1.153884381055832E-1   2.424869239330292E-1  -4.222568869590759E-2   2.938493900001049E-2  -4.263209551572800E-2   2.862307429313660E-2  -5.694326758384705E-1   7.228046059608460E-1  
 7.297297297297298E8    -1.181349679827690E-1   2.245517373085022E-1  -4.498012736439705E-2   3.806865587830544E-2  -4.540415108203888E-2   3.723901137709618E-2  -5.578761100769043E-1   7.272031903266907E-1  
 7.321321321321322E8    -1.245236247777939E-1   2.012128084897995E-1  -4.542570933699608E-2   4.760272428393364E-2  -4.546337574720383E-2   4.749060422182083E-2  -5.459777116775513E-1   7.322558760643005E-1  
 7.345345345345346E8    -1.382607072591782E-1   1.765987873077393E-1  -4.273444786667824E-2   5.753301829099655E-2  -4.248710349202156E-2   5.767480656504631E-2  -5.346444845199585E-1   7.383285760879517E-1  
 7.369369369369370E8    -1.597804427146912E-1   1.545717567205429E-1  -3.729230538010597E-2   6.640188395977020E-2  -3.673455864191055E-2   6.670672446489334E-2  -5.226371884346008E-1   7.446054220199585E-1  
 7.393393393393394E8    -1.861575245857239E-1   1.400892883539200E-1  -3.023363649845123E-2   7.312697172164917E-2  -2.959855273365974E-2   7.349822670221329E-2  -5.108133554458618E-1   7.514838576316834E-1  
 7.417417417417418E8    -2.114329040050507E-1   1.317155659198761E-1  -2.278887666761875E-2   7.855983078479767E-2  -2.257659472525120E-2   7.877054065465927E-2  -4.989947676658630E-1   7.577971220016480E-1  
 7.441441441441442E8    -2.322177439928055E-1   1.261031627655029E-1  -1.512747257947922E-2   8.323228359222412E-2  -1.526212785393000E-2   8.313364535570145E-2  -4.873127937316895E-1   7.634413838386536E-1  
 7.465465465465466E8    -2.546346783638001E-1   1.204826310276985E-1  -6.985823623836041E-3   8.685562759637833E-2  -6.939909886568785E-3   8.685795217752457E-2  -4.730508923530579E-1   7.708875536918640E-1  
 7.489489489489490E8    -2.793450355529785E-1   1.178221330046654E-1   1.758718863129616E-3   8.911549299955368E-2   1.847043517045677E-3   8.909977972507477E-2  -4.602273702621460E-1   7.774502038955689E-1  
 7.513513513513514E8    -3.031353652477264E-1   1.191660538315773E-1   1.061647105962038E-2   8.965752273797989E-2   1.047938130795956E-2   8.973123878240585E-2  -4.469187855720520E-1   7.834847569465637E-1  
 7.537537537537538E8    -3.244253396987915E-1   1.212595179677010E-1   1.888881996273994E-2   8.918662369251251E-2   1.850829645991325E-2   8.942250162363052E-2  -4.319915473461151E-1   7.898622751235962E-1  
 7.561561561561562E8    -3.462314605712891E-1   1.237136051058769E-1   2.644763700664043E-2   8.861714601516724E-2   2.613380365073681E-2   8.863523602485657E-2  -4.162117838859558E-1   7.951377034187317E-1  
 7.585585585585586E8    -3.688229024410248E-1   1.302606463432312E-1   3.404029458761215E-2   8.737605065107346E-2   3.382179886102676E-2   8.705364912748337E-2  -3.982600867748261E-1   8.018851280212402E-1  
 7.609609609609610E8    -3.914658725261688E-1   1.389104723930359E-1   4.174827039241791E-2   8.523562550544739E-2   4.138185456395149E-2   8.483077585697174E-2  -3.802467584609985E-1   8.088533282279968E-1  
 7.633633633633634E8    -4.135266542434692E-1   1.501833945512772E-1   4.906961321830750E-2   8.242335915565491E-2   4.846573621034622E-2   8.206672966480255E-2  -3.632773458957672E-1   8.147614002227783E-1  
 7.657657657657658E8    -4.321664273738861E-1   1.628901064395905E-1   5.579439550638199E-2   7.920067757368088E-2   5.544661357998848E-2   7.903914898633957E-2  -3.475993275642395E-1   8.192833662033081E-1  
 7.681681681681682E8    -4.494074285030365E-1   1.767842769622803E-1   6.223399192094803E-2   7.557969540357590E-2   6.232225894927979E-2   7.543734461069107E-2  -3.331494033336639E-1   8.228299617767334E-1  
 7.705705705705706E8    -4.658944904804230E-1   1.932220607995987E-1   6.818903982639313E-2   7.093328237533569E-2   6.844590604305267E-2   7.088363915681839E-2  -3.174042105674744E-1   8.272793889045715E-1  
 7.729729729729730E8    -4.794543087482452E-1   2.115435898303986E-1   7.351915538311005E-2   6.541012972593308E-2   7.406787574291229E-2   6.589800864458084E-2  -3.000412583351135E-1   8.333505988121033E-1  
 7.753753753753754E8    -4.902924001216888E-1   2.286357283592224E-1   7.800778746604919E-2   5.966837704181671E-2   7.882399111986160E-2   6.033006682991982E-2  -2.798681855201721E-1   8.387606739997864E-1  
 7.777777777777778E8    -5.012513995170593E-1   2.443994581699371E-1   8.175813406705856E-2   5.408819019794464E-2   8.229251205921173E-2   5.448981001973152E-2  -2.571058273315430E-1   8.406394720077515E-1  
 7.801801801801802E8    -5.112426877021790E-1   2.610639035701752E-1   8.514481037855148E-2   4.869408160448074E-2   8.520881086587906E-2   4.882114753127098E-2  -2.341162413358688E-1   8.386629819869995E-1  
 7.825825825825826E8    -5.194402337074280E-1   2.801015973091126E-1   8.784545212984085E-2   4.314715787768364E-2   8.785979449748993E-2   4.310578107833862E-2  -2.095823138952255E-1   8.376299738883972E-1  
 7.849849849849850E8    -5.261989831924439E-1   3.000739812850952E-1   9.085942804813385E-2   3.776600211858749E-2   9.050334244966507E-2   3.785707056522369E-2  -1.888122707605362E-1   8.352455496788025E-1  
 7.873873873873874E8    -5.303791165351868E-1   3.196980357170105E-1   9.340929985046387E-2   3.208823502063751E-2   9.277857095003128E-2   3.197642788290978E-2  -1.682008355855942E-1   8.338816165924072E-1  
 7.897897897897898E8    -5.317488312721252E-1   3.392247259616852E-1   9.563709050416946E-2   2.622910402715206E-2   9.480708092451096E-2   2.595000527799130E-2  -1.458676755428314E-1   8.337862491607666E-1  
 7.921921921921922E8    -5.318942070007324E-1   3.596345782279968E-1   9.698054194450378E-2   1.980079710483551E-2   9.680223464965820E-2   1.971694454550743E-2  -1.220002397894859E-1   8.339016437530518E-1  
 7.945945945945946E8    -5.330074429512024E-1   3.791390061378479E-1   9.752804040908814E-2   1.332935504615307E-2   9.758226573467255E-2   1.376303471624851E-2  -9.888038039207459E-2   8.298879265785217E-1  
 7.969969969969970E8    -5.336425304412842E-1   3.972095847129822E-1   9.705956280231476E-2   7.207298651337624E-3   9.729149192571640E-2   7.619391661137343E-3  -7.484194636344910E-2   8.253374695777893E-1  
 7.993993993993994E8    -5.340330600738525E-1   4.144045114517212E-1   9.581476449966431E-2   2.109888941049576E-3   9.591915458440781E-2   2.471374114975333E-3  -5.053316429257393E-2   8.202762603759766E-1  
 8.018018018018018E8    -5.328227281570435E-1   4.304694831371307E-1   9.453947097063065E-2  -1.592467655427754E-3   9.467530995607376E-2  -1.675841514952481E-3  -2.447534725070000E-2   8.139815330505371E-1  
 8.042042042042042E8    -5.298113226890564E-1   4.502886533737183E-1   9.376339614391327E-2  -4.531790968030691E-3   9.367614239454269E-2  -4.681360442191362E-3   8.183799800463021E-4   8.065527677536011E-1  
 8.066066066066066E8    -5.248401165008545E-1   4.697291553020477E-1   9.370257705450058E-2  -6.860126275569201E-3   9.370146691799164E-2  -7.041803095489740E-3   2.890625968575478E-2   7.982407212257385E-1  
 8.090090090090090E8    -5.182451605796814E-1   4.881739616394043E-1   9.520396590232849E-2  -9.331677109003067E-3   9.520038962364197E-2  -9.548030793666840E-3   5.728035792708397E-2   7.869655489921570E-1  
 8.114114114114114E8    -5.107718706130981E-1   5.047967433929443E-1   9.741225093603134E-2  -1.285602618008852E-2   9.749884903430939E-2  -1.316613238304853E-2   8.553859591484070E-2   7.731143236160278E-1  
 8.138138138138138E8    -5.031125545501709E-1   5.195350646972656E-1   9.961542487144470E-2  -1.768636703491211E-2   9.972152858972549E-2  -1.798535510897636E-2   1.137917488813400E-1   7.568612694740295E-1  
 8.162162162162162E8    -4.961768388748169E-1   5.335423946380615E-1   1.011353135108948E-1  -2.309559099376202E-2   1.012217253446579E-1  -2.325292862951756E-2   1.413018107414246E-1   7.392358183860779E-1  
 8.186186186186186E8    -4.897158145904541E-1   5.485670566558838E-1   1.025229543447495E-1  -2.835387550294399E-2   1.024928689002991E-1  -2.840359508991242E-2   1.686839312314987E-1   7.193773388862610E-1  
 8.210210210210210E8    -4.813462793827057E-1   5.634819865226746E-1   1.041899695992470E-1  -3.448490798473358E-2   1.042117774486542E-1  -3.440219163894653E-2   1.962586045265198E-1   6.964321732521057E-1  
 8.234234234234234E8    -4.713903069496155E-1   5.765527486801148E-1   1.055601611733437E-1  -4.160143807530403E-2   1.055691614747047E-1  -4.150178655982018E-2   2.237433195114136E-1   6.701971888542175E-1  
