#  HZ   S   RI   R     50.00 
! Rohde & Schwarz ZVB8 2Ports - Version 2.81 - 1145.1010k08 SN: 100113
! Date: 2016-03-12 01:35:22
! Measurements: S11 S21 S12 S22 
! 
 6.000000000000000E8    -7.508329749107361E-1  -3.127990365028381E-1   7.601908873766661E-3   7.048314064741135E-2   9.385540150105953E-3   6.752097606658936E-2  -4.876708388328552E-1  -7.754314541816711E-1  
 6.024024024024024E8    -7.734218835830689E-1  -2.280797511339188E-1   1.524433959275484E-2   7.382664829492569E-2   1.648755185306072E-2   7.013800740242004E-2  -5.531796216964722E-1  -7.263879776000977E-1  
 6.048048048048048E8    -7.870122194290161E-1  -1.406309455633164E-1   2.359571866691113E-2   7.614240795373917E-2   2.436614409089088E-2   7.198689132928848E-2  -6.141400337219238E-1  -6.717486381530762E-1  
 6.072072072072072E8    -7.910363674163818E-1  -5.118452757596970E-2   3.296516463160515E-2   7.751590758562088E-2   3.269353136420250E-2   7.289844751358032E-2  -6.695245504379273E-1  -6.119943857192993E-1  
 6.096096096096096E8    -7.841489911079407E-1   3.976009041070938E-2   4.287805035710335E-2   7.756638526916504E-2   4.167048633098602E-2   7.280708104372025E-2  -7.195144891738892E-1  -5.471604466438294E-1  
 6.120120120120120E8    -7.664576172828674E-1   1.267227232456207E-1   5.307900533080101E-2   7.641021907329559E-2   5.066468566656113E-2   7.170297205448151E-2  -7.626386284828186E-1  -4.792620539665222E-1  
 6.144144144144144E8    -7.380202412605286E-1   2.113487720489502E-1   6.339155882596970E-2   7.386909425258637E-2   5.966701731085777E-2   6.948067992925644E-2  -7.994815111160278E-1  -4.072695970535278E-1  
 6.168168168168168E8    -6.985472440719605E-1   2.918197214603424E-1   7.387665659189224E-2   6.965381652116776E-2   6.902737915515900E-2   6.606995314359665E-2  -8.303141593933106E-1  -3.319005966186523E-1  
 6.192192192192192E8    -6.501953005790710E-1   3.661541044712067E-1   8.392497897148132E-2   6.375291943550110E-2   7.810262590646744E-2   6.123419851064682E-2  -8.542847633361816E-1  -2.533076405525208E-1  
 6.216216216216216E8    -5.933679342269898E-1   4.336379468441010E-1   9.313065558671951E-2   5.646122992038727E-2   8.641237020492554E-2   5.510044097900391E-2  -8.714365959167481E-1  -1.714500188827515E-1  
 6.240240240240240E8    -5.290712714195252E-1   4.930574595928192E-1   1.012309715151787E-1   4.798195511102676E-2   9.403207153081894E-2   4.810035228729248E-2  -8.806677460670471E-1  -8.738341927528381E-2  
 6.264264264264264E8    -4.590834379196167E-1   5.437341928482056E-1   1.082042604684830E-1   3.934079036116600E-2   1.008348837494850E-1   4.078889265656471E-2  -8.812590241432190E-1  -3.332778112962842E-3  
 6.288288288288288E8    -3.834491670131683E-1   5.852128267288208E-1   1.146074011921883E-1   3.017086535692215E-2   1.073760241270065E-1   3.303501754999161E-2  -8.739045858383179E-1   7.922331988811493E-2  
 6.312312312312312E8    -3.038330376148224E-1   6.160342097282410E-1   1.204362213611603E-1   2.037372998893261E-2   1.136039793491364E-1   2.467624284327030E-2  -8.583493232727051E-1   1.607719510793686E-1  
 6.336336336336336E8    -2.224903106689453E-1   6.360054612159729E-1   1.254898905754089E-1   9.938975796103478E-3   1.194494515657425E-1   1.564148627221584E-2  -8.352493047714233E-1   2.401709258556366E-1  
 6.360360360360360E8    -1.400348395109177E-1   6.455780267715454E-1   1.301627606153488E-1  -9.496581042185426E-4   1.249925345182419E-1   6.086932495236397E-3  -8.044210076332092E-1   3.171561658382416E-1  
 6.384384384384384E8    -5.759488418698311E-2   6.441134214401245E-1   1.343691498041153E-1  -1.287175901234150E-2   1.305590271949768E-1  -4.706443287432194E-3  -7.658679485321045E-1   3.905374109745026E-1  
 6.408408408408408E8     2.229396998882294E-2   6.315180659294128E-1   1.371951550245285E-1  -2.632105350494385E-2   1.352052390575409E-1  -1.705082505941391E-2  -7.202981114387512E-1   4.594861567020416E-1  
 6.432432432432432E8     9.858520328998566E-2   6.100761890411377E-1   1.383836120367050E-1  -4.015346989035606E-2   1.382694393396378E-1  -3.033982217311859E-2  -6.681237816810608E-1   5.236238241195679E-1  
 6.456456456456456E8     1.715128421783447E-1   5.796349644660950E-1   1.385166645050049E-1  -5.411414802074432E-2   1.403064727783203E-1  -4.417189583182335E-2  -6.097823381423950E-1   5.822760462760925E-1  
 6.480480480480480E8     2.394347041845322E-1   5.388566255569458E-1   1.375575959682465E-1  -6.864289939403534E-2   1.416370123624802E-1  -5.904183164238930E-2  -5.462448000907898E-1   6.346643567085266E-1  
 6.504504504504504E8     2.992345392704010E-1   4.880245327949524E-1   1.349936723709106E-1  -8.390808105468750E-2   1.412540972232819E-1  -7.499062269926071E-2  -4.780195653438568E-1   6.803831458091736E-1  
 6.528528528528528E8     3.481143414974213E-1   4.306435286998749E-1   1.303761005401611E-1  -9.941399097442627E-2   1.387891918420792E-1  -9.174710512161255E-2  -4.059995114803314E-1   7.191826701164246E-1  
 6.552552552552552E8     3.865433931350708E-1   3.693690896034241E-1   1.239683255553246E-1  -1.145483329892159E-1   1.344270855188370E-1  -1.087038442492485E-1  -3.307452201843262E-1   7.505357861518860E-1  
 6.576576576576576E8     4.138019382953644E-1   3.057213425636292E-1   1.159488409757614E-1  -1.294045001268387E-1   1.280137002468109E-1  -1.258617788553238E-1  -2.532663643360138E-1   7.743073105812073E-1  
 6.600600600600600E8     4.305900633335114E-1   2.420958578586578E-1   1.056761294603348E-1  -1.440089941024780E-1   1.187889352440834E-1  -1.430514901876450E-1  -1.733165681362152E-1   7.905699610710144E-1  
 6.624624624624624E8     4.381329119205475E-1   1.819549053907394E-1   9.317665547132492E-2  -1.571980714797974E-1   1.066054999828339E-1  -1.591208130121231E-1  -9.209150075912476E-2   7.994766831398010E-1  
 6.648648648648648E8     4.401578605175018E-1   1.246435195207596E-1   7.992332428693771E-2  -1.685958057641983E-1   9.269876033067703E-2  -1.734017878770828E-1  -1.019527483731508E-2   8.003162145614624E-1  
 6.672672672672672E8     4.361060857772827E-1   6.958423554897308E-2   6.594145298004150E-2  -1.787629574537277E-1   7.731769233942032E-2  -1.862469464540482E-1   7.160354405641556E-2   7.927725911140442E-1  
 6.696696696696696E8     4.273019134998322E-1   1.690909639000893E-2   5.143452808260918E-2  -1.875705122947693E-1   6.082350388169289E-2  -1.974596083164215E-1   1.521876007318497E-1   7.766121029853821E-1  
 6.720720720720720E8     4.125594794750214E-1  -3.413848951458931E-2   3.636635094881058E-2  -1.957522928714752E-1   4.332873225212097E-2  -2.078620046377182E-1   2.311404198408127E-1   7.518253922462463E-1  
 6.744744744744744E8     3.928213417530060E-1  -8.213947713375092E-2   2.054229378700256E-2  -2.030564546585083E-1   2.448296360671520E-2  -2.167789936065674E-1   3.065807223320007E-1   7.186168432235718E-1  
 6.768768768768768E8     3.663020730018616E-1  -1.288374662399292E-1   4.066007211804390E-3  -2.097984999418259E-1   5.099181551486254E-3  -2.244714796543121E-1   3.778267204761505E-1   6.777492761611939E-1  
 6.792792792792792E8     3.304800391197205E-1  -1.709017455577850E-1  -1.351335737854242E-2  -2.169598340988159E-1  -1.608498767018318E-2  -2.319691330194473E-1   4.442444443702698E-1   6.290366053581238E-1  
 6.816816816816816E8     2.873956263065338E-1  -2.012659758329392E-1  -3.414765745401382E-2  -2.233966141939163E-1  -4.071701318025589E-2  -2.378145158290863E-1   5.044624209403992E-1   5.735188722610474E-1  
 6.840840840840840E8     2.445236891508102E-1  -2.190750092267990E-1  -5.782587453722954E-2  -2.271150201559067E-1  -6.823452562093735E-2  -2.396990805864334E-1   5.581481456756592E-1   5.120791196823120E-1  
 6.864864864864864E8     2.070469707250595E-1  -2.281118780374527E-1  -8.319235593080521E-2  -2.267923653125763E-1  -9.676507860422134E-2  -2.364394962787628E-1   6.055992841720581E-1   4.456554651260376E-1  
 6.888888888888888E8     1.761899441480637E-1  -2.336653321981430E-1  -1.086224988102913E-1  -2.218238413333893E-1  -1.241267994046211E-1  -2.278808653354645E-1   6.465150117874146E-1   3.738718032836914E-1  
 6.912912912912912E8     1.486603617668152E-1  -2.403580397367477E-1  -1.316443234682083E-1  -2.138513028621674E-1  -1.489856094121933E-1  -2.159119099378586E-1   6.803414821624756E-1   2.969126403331757E-1  
 6.936936936936936E8     1.203346177935600E-1  -2.474796921014786E-1  -1.530553102493286E-1  -2.048346847295761E-1  -1.716817319393158E-1  -2.019260227680206E-1   7.050810456275940E-1   2.156699299812317E-1  
 6.960960960960960E8     9.007854759693146E-2  -2.525608837604523E-1  -1.735857427120209E-1  -1.946383565664291E-1  -1.930550634860992E-1  -1.863892227411270E-1   7.199170589447022E-1   1.310616284608841E-1  
 6.984984984984984E8     5.901939794421196E-2  -2.540595829486847E-1  -1.939136832952499E-1  -1.831873804330826E-1  -2.132019996643066E-1  -1.689921319484711E-1   7.239806056022644E-1   4.475538805127144E-2  
 7.009009009009008E8     2.778840623795986E-2  -2.520143687725067E-1  -2.144822776317596E-1  -1.698319166898727E-1  -2.317904233932495E-1  -1.503567248582840E-1   7.168052196502686E-1  -4.096207395195961E-2  
 7.033033033033032E8    -2.718762261793017E-3  -2.446960508823395E-1  -2.357014566659927E-1  -1.529898792505264E-1  -2.486617863178253E-1  -1.311419159173966E-1   6.990773081779480E-1  -1.238150894641876E-1  
 7.057057057057056E8    -2.863960154354572E-2  -2.338794618844986E-1  -2.564723789691925E-1  -1.318629384040833E-1  -2.633093297481537E-1  -1.109070852398872E-1   6.709396839141846E-1  -2.007806748151779E-1  
 7.081081081081080E8    -5.172146856784821E-2  -2.240602672100067E-1  -2.748678624629974E-1  -1.064506545662880E-1  -2.757372856140137E-1  -8.890458941459656E-2   6.335067749023438E-1  -2.740547955036163E-1  
 7.105105105105104E8    -7.552219927310944E-2  -2.155743539333344E-1  -2.893670201301575E-1  -7.974738627672195E-2  -2.855091392993927E-1  -6.536097824573517E-2   5.868718028068543E-1  -3.413479626178742E-1  
 7.129129129129129E8    -1.021753698587418E-1  -2.052521556615830E-1  -3.009361028671265E-1  -5.396341904997826E-2  -2.934954464435577E-1  -4.062725231051445E-2   5.313898324966431E-1  -4.025524258613586E-1  
 7.153153153153153E8    -1.307927519083023E-1  -1.893529444932938E-1  -3.106555640697479E-1  -2.818940579891205E-2  -2.999567389488220E-1  -1.405694056302309E-2   4.678314626216888E-1  -4.567357301712036E-1  
 7.177177177177178E8    -1.584123075008392E-1  -1.655409932136536E-1  -3.199172616004944E-1  -1.666754484176636E-3  -3.055242896080017E-1   1.361661963164806E-2   3.964075446128845E-1  -5.024272203445435E-1  
 7.201201201201202E8    -1.802326291799545E-1  -1.346812397241592E-1  -3.282341361045837E-1   2.910515666007996E-2  -3.100093305110931E-1   4.305713996291161E-2   3.193013072013855E-1  -5.361135005950928E-1  
 7.225225225225226E8    -1.947404891252518E-1  -1.007808670401573E-1  -3.328297138214111E-1   6.578274816274643E-2  -3.122879564762116E-1   7.354654371738434E-2   2.408475428819656E-1  -5.570045113563538E-1  
 7.249249249249250E8    -2.029447853565216E-1  -6.580337882041931E-2  -3.311965763568878E-1   1.073808148503304E-1  -3.112995922565460E-1   1.035463586449623E-1   1.632270663976669E-1  -5.646774172782898E-1  
 7.273273273273274E8    -2.049290984869003E-1  -3.063704445958138E-2  -3.226133286952972E-1   1.497814059257507E-1  -3.060895502567291E-1   1.351346522569656E-1   8.749034255743027E-2  -5.608611106872559E-1  
 7.297297297297298E8    -2.001239955425263E-1   2.339088357985020E-3  -3.070978224277496E-1   1.894605457782745E-1  -2.947966158390045E-1   1.682763546705246E-1   1.505757216364145E-2  -5.466040372848511E-1  
 7.321321321321322E8    -1.895807534456253E-1   3.110722452402115E-2  -2.867189645767212E-1   2.238955944776535E-1  -2.774774134159088E-1   2.011072933673859E-1  -5.317173153162003E-2  -5.227119922637940E-1  
 7.345345345345346E8    -1.767649799585342E-1   5.329111218452454E-2  -2.619006633758545E-1   2.535828053951263E-1  -2.543894946575165E-1   2.320918291807175E-1  -1.151515543460846E-1  -4.900664389133453E-1  
 7.369369369369370E8    -1.656772941350937E-1   7.223249226808548E-2  -2.333398759365082E-1   2.782235145568848E-1  -2.270274758338928E-1   2.584201693534851E-1  -1.705054789781570E-1  -4.507910609245300E-1  
 7.393393393393394E8    -1.558330953121185E-1   9.130571037530899E-2  -2.027410119771957E-1   2.983627319335938E-1  -1.981472671031952E-1   2.800146043300629E-1  -2.185000330209732E-1  -4.051316380500794E-1  
 7.417417417417418E8    -1.449862718582153E-1   1.126136854290962E-1  -1.706146746873856E-1   3.143126368522644E-1  -1.684007346630096E-1   2.970383763313294E-1  -2.575304806232452E-1  -3.541727066040039E-1  
 7.441441441441442E8    -1.293535232543945E-1   1.344251930713654E-1  -1.372804492712021E-1   3.263300359249115E-1  -1.384359449148178E-1   3.099243938922882E-1  -2.870891690254211E-1  -3.002372682094574E-1  
 7.465465465465466E8    -1.095420941710472E-1   1.539853960275650E-1  -1.037602871656418E-1   3.334440290927887E-1  -1.083990857005119E-1   3.183975219726563E-1  -3.071095049381256E-1  -2.453104406595230E-1  
 7.489489489489490E8    -8.569821715354919E-2   1.700035482645035E-1  -7.250139117240906E-2   3.359165489673615E-1  -8.026244491338730E-2   3.227011859416962E-1  -3.193452358245850E-1  -1.898688375949860E-1  
 7.513513513513514E8    -5.918536707758904E-2   1.804640591144562E-1  -4.378203302621841E-2   3.364309668540955E-1  -5.394753441214562E-2   3.255882561206818E-1  -3.219650387763977E-1  -1.335936188697815E-1  
 7.537537537537538E8    -3.341466560959816E-2   1.846387535333633E-1  -1.521223597228527E-2   3.359439373016357E-1  -2.718668058514595E-2   3.276723027229309E-1  -3.143410980701447E-1  -8.011224865913391E-2  
 7.561561561561562E8    -1.143184397369623E-2   1.859879642724991E-1   1.151514332741499E-2   3.332614004611969E-1   4.417126474436373E-4   3.265065848827362E-1  -2.994004189968109E-1  -3.274370729923248E-2  
 7.585585585585586E8     9.092064574360848E-3   1.874779462814331E-1   3.618709743022919E-2   3.292703330516815E-1   2.579865790903568E-2   3.233922421932221E-1  -2.796730101108551E-1   1.005225721746683E-2  
 7.609609609609610E8     3.082153573632240E-2   1.881267279386520E-1   6.033348664641380E-2   3.253780901432037E-1   4.978414252400398E-2   3.204492926597595E-1  -2.546009719371796E-1   4.794518649578095E-2  
 7.633633633633634E8     5.258120596408844E-2   1.853588372468948E-1   8.580228686332703E-2   3.216141462326050E-1   7.458681613206863E-2   3.179894387722015E-1  -2.253959774971008E-1   7.947856932878494E-2  
 7.657657657657658E8     7.226018607616425E-2   1.808122694492340E-1   1.128914281725884E-1   3.145959079265595E-1   1.016747057437897E-1   3.131114244461060E-1  -1.946099400520325E-1   1.050152704119682E-1  
 7.681681681681682E8     9.092979133129120E-2   1.750024408102036E-1   1.384177505970001E-1   3.038883209228516E-1   1.284177899360657E-1   3.053701221942902E-1  -1.623832583427429E-1   1.264081299304962E-1  
 7.705705705705706E8     1.074352189898491E-1   1.677393019199371E-1   1.613681465387344E-1   2.906093001365662E-1   1.544415801763535E-1   2.945688068866730E-1  -1.265221387147903E-1   1.440605372190476E-1  
 7.729729729729730E8     1.219775900244713E-1   1.602098345756531E-1   1.831661313772202E-1   2.755495905876160E-1   1.794976890087128E-1   2.827058136463165E-1  -8.652701973915100E-2   1.537064015865326E-1  
 7.753753753753754E8     1.348695904016495E-1   1.551170945167542E-1   2.034642696380615E-1   2.593715488910675E-1   2.034103721380234E-1   2.674736678600311E-1  -4.694176465272903E-2   1.529676169157028E-1  
 7.777777777777778E8     1.506208479404450E-1   1.522786766290665E-1   2.225316017866135E-1   2.431529760360718E-1   2.248899489641190E-1   2.501582503318787E-1  -1.194299943745136E-2   1.440291702747345E-1  
 7.801801801801802E8     1.685037314891815E-1   1.491000652313232E-1   2.403173446655273E-1   2.249111533164978E-1   2.437045127153397E-1   2.300053983926773E-1   1.769014447927475E-2   1.300923824310303E-1  
 7.825825825825826E8     1.893818527460098E-1   1.451249420642853E-1   2.564587593078613E-1   2.057245820760727E-1   2.585431039333344E-1   2.089004069566727E-1   4.155200347304344E-2   1.129624024033546E-1  
 7.849849849849850E8     2.138928472995758E-1   1.393924057483673E-1   2.709349095821381E-1   1.865974962711334E-1   2.698575854301453E-1   1.893012523651123E-1   5.995239689946175E-2   9.514591097831726E-2  
 7.873873873873874E8     2.419808208942413E-1   1.298506706953049E-1   2.836141586303711E-1   1.683326959609985E-1   2.791837751865387E-1   1.706747710704804E-1   7.698322087526321E-2   7.710687071084976E-2  
 7.897897897897898E8     2.700715661048889E-1   1.131128594279289E-1   2.964763343334198E-1   1.494052708148956E-1   2.893243730068207E-1   1.522786468267441E-1   9.181417524814606E-2   5.685567110776901E-2  
 7.921921921921922E8     2.979863882064819E-1   9.164214879274368E-2   3.094702363014221E-1   1.298961043357849E-1   3.010441362857819E-1   1.350459456443787E-1   1.023952364921570E-1   3.310215845704079E-2  
 7.945945945945946E8     3.249761760234833E-1   6.491395086050034E-2   3.223785161972046E-1   1.072897985577583E-1   3.145652711391449E-1   1.149838268756867E-1   1.075201854109764E-1   8.677757345139980E-3  
 7.969969969969970E8     3.510195016860962E-1   3.208111971616745E-2   3.322080671787262E-1   8.163379132747650E-2   3.264668285846710E-1   9.162127971649170E-2   1.068825796246529E-1  -1.525705121457577E-2  
 7.993993993993994E8     3.733157217502594E-1  -8.663590997457504E-3   3.386851251125336E-1   5.600863695144653E-2   3.359117805957794E-1   6.690276414155960E-2   1.003830879926682E-1  -3.664113953709602E-2  
 8.018018018018018E8     3.878630101680756E-1  -5.574787780642510E-2   3.429937064647675E-1   3.051834180951119E-2   3.435395359992981E-1   4.135732352733612E-2   8.974995464086533E-2  -5.303764715790749E-2  
 8.042042042042042E8     3.951700031757355E-1  -1.070191487669945E-1   3.464172780513763E-1   4.766738042235375E-3   3.499038815498352E-1   1.532147545367479E-2   7.841353118419647E-2  -6.209133937954903E-2  
 8.066066066066066E8     3.948027193546295E-1  -1.593589931726456E-1   3.484907448291779E-1  -2.113221213221550E-2   3.549687862396240E-1  -1.121498737484217E-2   7.111463695764542E-2  -6.681432574987412E-2  
 8.090090090090090E8     3.862949609756470E-1  -2.130666673183441E-1   3.491938114166260E-1  -4.751265048980713E-2   3.582034707069397E-1  -3.931691125035286E-2   6.701228767633438E-2  -7.095579057931900E-2  
 8.114114114114114E8     3.680652678012848E-1  -2.656055092811585E-1   3.481168150901794E-1  -7.465433329343796E-2   3.592317700386047E-1  -6.854970753192902E-2   6.535931676626205E-2  -7.523742318153381E-2  
 8.138138138138138E8     3.418033123016357E-1  -3.141275346279144E-1   3.454851508140564E-1  -1.027583479881287E-1   3.578088283538818E-1  -9.929168224334717E-2   6.655167788267136E-2  -8.079008758068085E-2  
 8.162162162162162E8     3.093373477458954E-1  -3.572995066642761E-1   3.400351703166962E-1  -1.317356824874878E-1   3.528302907943726E-1  -1.312217265367508E-1   6.951946765184403E-2  -8.973829448223114E-2  
 8.186186186186186E8     2.722697257995606E-1  -3.947713375091553E-1   3.313117921352387E-1  -1.610996127128601E-1   3.436047732830048E-1  -1.633045822381973E-1   7.232111692428589E-2  -1.030506566166878E-1  
 8.210210210210210E8     2.323924601078033E-1  -4.267735779285431E-1   3.192346990108490E-1  -1.897017359733582E-1   3.304389119148254E-1  -1.944907009601593E-1   7.260640710592270E-2  -1.205749139189720E-1  
 8.234234234234234E8     1.907752752304077E-1  -4.550144076347351E-1   3.036467730998993E-1  -2.176818847656250E-1   3.136499822139740E-1  -2.243552654981613E-1   6.826442480087280E-2  -1.422146707773209E-1  
