#  HZ   S   RI   R     50.00 
! Rohde & Schwarz ZVB8 2Ports - Version 2.81 - 1145.1010k08 SN: 100113
! Date: 2016-03-12 01:47:51
! Measurements: S11 S21 S12 S22 
! 
 6.000000000000000E8    -7.506763935089111E-1  -1.970733553171158E-1   1.526456046849489E-2   7.789813727140427E-2   1.693716645240784E-2   7.347378879785538E-2  -4.837246239185333E-1  -7.784059643745422E-1  
 6.024024024024024E8    -7.596489191055298E-1  -1.085985600948334E-1   2.407246083021164E-2   8.062721788883209E-2   2.485440298914909E-2   7.563694566488266E-2  -5.498014092445374E-1  -7.303382754325867E-1  
 6.048048048048048E8    -7.581801414489746E-1  -1.904213987290859E-2   3.352008014917374E-2   8.217916637659073E-2   3.338276967406273E-2   7.661657035350800E-2  -6.113604307174683E-1  -6.765654683113098E-1  
 6.072072072072072E8    -7.460878491401672E-1   7.145120203495026E-2   4.367520660161972E-2   8.257760852575302E-2   4.223034530878067E-2   7.670430094003677E-2  -6.679728627204895E-1  -6.170703768730164E-1  
 6.096096096096096E8    -7.225323915481567E-1   1.602435111999512E-1   5.431206524372101E-2   8.171559870243073E-2   5.166172608733177E-2   7.585264742374420E-2  -7.196490168571472E-1  -5.520320534706116E-1  
 6.120120120120120E8    -6.882845759391785E-1   2.436513453722000E-1   6.513808667659760E-2   7.951919734477997E-2   6.079142168164253E-2   7.401476800441742E-2  -7.635379433631897E-1  -4.836020469665527E-1  
 6.144144144144144E8    -6.432691812515259E-1   3.222987651824951E-1   7.602827250957489E-2   7.573655992746353E-2   7.021021842956543E-2   7.094288617372513E-2  -8.009582161903381E-1  -4.111956655979157E-1  
 6.168168168168168E8    -5.875974893569946E-1   3.953280746936798E-1   8.653424680233002E-2   7.046768069267273E-2   7.939763367176056E-2   6.687463074922562E-2  -8.323125243186951E-1  -3.352927565574646E-1  
 6.192192192192192E8    -5.224469900131226E-1   4.603544473648071E-1   9.644296765327454E-2   6.419154256582260E-2   8.819199353456497E-2   6.213770434260368E-2  -8.571418523788452E-1  -2.560772597789764E-1  
 6.216216216216216E8    -4.471839666366577E-1   5.160680413246155E-1   1.061300411820412E-1   5.704700201749802E-2   9.705702960491180E-2   5.674783885478973E-2  -8.743609786033630E-1  -1.732711791992188E-1  
 6.240240240240240E8    -3.641526699066162E-1   5.594264864921570E-1   1.159884333610535E-1   4.885501787066460E-2   1.063997000455856E-1   5.051156505942345E-2  -8.834922909736633E-1  -8.843333274126053E-2  
 6.264264264264264E8    -2.755617499351502E-1   5.882208347320557E-1   1.258784830570221E-1   3.902310505509377E-2   1.161773428320885E-1   4.278847575187683E-2  -8.840159773826599E-1  -3.474474651739001E-3  
 6.288288288288288E8    -1.853527277708054E-1   6.007112264633179E-1   1.350484490394592E-1   2.716764062643051E-2   1.259338855743408E-1   3.322769701480866E-2  -8.759420514106751E-1   7.943580299615860E-2  
 6.312312312312312E8    -9.850843995809555E-2   5.979038476943970E-1   1.424837261438370E-1   1.318668201565743E-2   1.346097737550736E-1   2.147166617214680E-2  -8.603677749633789E-1   1.611013859510422E-1  
 6.336336336336336E8    -1.824505999684334E-2   5.836295485496521E-1   1.480861008167267E-1  -1.434650504961610E-3   1.418037414550781E-1   8.585334755480290E-3  -8.368006348609924E-1   2.408079653978348E-1  
 6.360360360360360E8     5.663012713193893E-2   5.597659349441528E-1   1.523208022117615E-1  -1.680605486035347E-2   1.482909619808197E-1  -5.355092231184244E-3  -8.053618669509888E-1   3.177838921546936E-1  
 6.384384384384384E8     1.250451803207398E-1   5.264015197753906E-1   1.550439447164536E-1  -3.369480371475220E-2   1.535987555980682E-1  -2.109382860362530E-2  -7.666945457458496E-1   3.908646106719971E-1  
 6.408408408408408E8     1.844264566898346E-1   4.855857193470001E-1   1.551263183355331E-1  -5.161202326416969E-2   1.567328721284866E-1  -3.857033327221870E-2  -7.208784818649292E-1   4.595438838005066E-1  
 6.432432432432432E8     2.352847009897232E-1   4.410761296749115E-1   1.524286866188049E-1  -6.940989941358566E-2   1.568168997764587E-1  -5.678195506334305E-2  -6.688923835754395E-1   5.229597091674805E-1  
 6.456456456456456E8     2.795272171497345E-1   3.939437270164490E-1   1.472212970256805E-1  -8.603166788816452E-2   1.543407887220383E-1  -7.458797097206116E-2  -6.114873290061951E-1   5.814185738563538E-1  
 6.480480480480480E8     3.193704187870026E-1   3.430451154708862E-1   1.410612612962723E-1  -1.011957973241806E-1   1.507119089365006E-1  -9.140098839998245E-2  -5.486950874328613E-1   6.345090866088867E-1  
 6.504504504504504E8     3.524853885173798E-1   2.850721776485443E-1   1.347211748361588E-1  -1.162651404738426E-1   1.465902477502823E-1  -1.084997057914734E-1  -4.803842604160309E-1   6.812081336975098E-1  
 6.528528528528528E8     3.728849589824677E-1   2.221372872591019E-1   1.270031332969666E-1  -1.321322023868561E-1   1.408045589923859E-1  -1.271767765283585E-1  -4.076799750328064E-1   7.206649780273438E-1  
 6.552552552552552E8     3.800514638423920E-1   1.605479270219803E-1   1.167149990797043E-1  -1.482468247413635E-1   1.319124251604080E-1  -1.463835537433624E-1  -3.315874338150024E-1   7.517158985137940E-1  
 6.576576576576576E8     3.770523071289063E-1   1.046877652406693E-1   1.036829128861427E-1  -1.632280647754669E-1   1.193773671984673E-1  -1.649361401796341E-1  -2.539012432098389E-1   7.751279473304749E-1  
 6.600600600600600E8     3.681199550628662E-1   5.526794120669365E-2   8.810016512870789E-2  -1.765494793653488E-1   1.033860072493553E-1  -1.816691458225250E-1  -1.739264726638794E-1   7.908576130867004E-1  
 6.624624624624624E8     3.567981421947479E-1   1.076483912765980E-2   7.128734886646271E-2  -1.872392147779465E-1   8.540969341993332E-2  -1.957218647003174E-1  -9.331738948822022E-2   7.992023229598999E-1  
 6.648648648648648E8     3.430291712284088E-1  -3.094565309584141E-2   5.392060428857803E-2  -1.960041970014572E-1   6.601966917514801E-2  -2.073422670364380E-1  -1.220432203263044E-2   7.997616529464722E-1  
 6.672672672672672E8     3.264532685279846E-1  -7.045444846153259E-2   3.613324463367462E-2  -2.027305364608765E-1   4.546126350760460E-2  -2.163487374782562E-1   6.796981394290924E-2   7.926693558692932E-1  
 6.696696696696696E8     3.073801398277283E-1  -1.089605987071991E-1   1.893258839845657E-2  -2.075502723455429E-1   2.487837336957455E-2  -2.229306846857071E-1   1.477487981319428E-1   7.781575322151184E-1  
 6.720720720720720E8     2.824133038520813E-1  -1.465072929859161E-1   2.044860972091556E-3  -2.118621319532394E-1   4.391411785036326E-3  -2.284548729658127E-1   2.267076820135117E-1   7.554300427436829E-1  
 6.744744744744744E8     2.518163323402405E-1  -1.802986115217209E-1  -1.506885699927807E-2  -2.157699018716812E-1  -1.659044250845909E-2  -2.328923940658569E-1   3.030526340007782E-1   7.240064144134522E-1  
 6.768768768768768E8     2.154840826988220E-1  -2.094121724367142E-1  -3.313202410936356E-2  -2.195704877376556E-1  -3.847745805978775E-2  -2.363793849945068E-1   3.758158385753632E-1   6.844394207000732E-1  
 6.792792792792792E8     1.739266067743301E-1  -2.303819358348846E-1  -5.296536907553673E-2  -2.230744063854218E-1  -6.241302937269211E-2  -2.385733872652054E-1   4.437283277511597E-1   6.362658739089966E-1  
 6.816816816816816E8     1.315193772315979E-1  -2.407708019018173E-1  -7.549413293600082E-2  -2.244146168231964E-1  -8.896154910326004E-2  -2.376464456319809E-1   5.059844255447388E-1   5.811422467231751E-1  
 6.840840840840840E8     9.270877391099930E-2  -2.439263761043549E-1  -9.910148382186890E-2  -2.225769758224487E-1  -1.160074546933174E-1  -2.322904318571091E-1   5.618903636932373E-1   5.194714069366455E-1  
 6.864864864864864E8     5.806164070963860E-2  -2.419164180755615E-1  -1.236466243863106E-1  -2.169675678014755E-1  -1.428616344928742E-1  -2.223953604698181E-1   6.113610863685608E-1   4.521134495735169E-1  
 6.888888888888888E8     2.716231904923916E-2  -2.397949546575546E-1  -1.464442312717438E-1  -2.074824720621109E-1  -1.665791124105454E-1  -2.084069252014160E-1   6.545623540878296E-1   3.787862062454224E-1  
 6.912912912912912E8    -5.735429469496012E-3  -2.360438704490662E-1  -1.671332269906998E-1  -1.973466277122498E-1  -1.877575218677521E-1  -1.932290494441986E-1   6.895545721054077E-1   2.991481721401215E-1  
 6.936936936936936E8    -3.904241696000099E-2  -2.257207632064819E-1  -1.877005845308304E-1  -1.867543756961823E-1  -2.084920853376389E-1  -1.769736111164093E-1   7.141821384429932E-1   2.151581197977066E-1  
 6.960960960960960E8    -6.814832985401154E-2  -2.091574370861054E-1  -2.090233713388443E-1  -1.743360906839371E-1  -2.288725227117539E-1  -1.580733060836792E-1   7.278638482093811E-1   1.281443834304810E-1  
 6.984984984984984E8    -9.090788662433624E-2  -1.897420883178711E-1  -2.305337041616440E-1  -1.588874310255051E-1  -2.480982393026352E-1  -1.360269784927368E-1   7.304918169975281E-1   4.036077857017517E-2  
 7.009009009009008E8    -1.082261204719544E-1  -1.710550189018250E-1  -2.513538897037506E-1  -1.389350593090057E-1  -2.645876109600067E-1  -1.111713647842407E-1   7.220712900161743E-1  -4.608185216784477E-2  
 7.033033033033032E8    -1.233421340584755E-1  -1.548205167055130E-1  -2.698329091072083E-1  -1.145787835121155E-1  -2.769288420677185E-1  -8.563070744276047E-2   7.031675577163696E-1  -1.293510347604752E-1  
 7.057057057057056E8    -1.383157372474670E-1  -1.397591084241867E-1  -2.849643528461456E-1  -8.693234622478485E-2  -2.854495942592621E-1  -6.070280447602272E-2   6.746371984481812E-1  -2.072146981954575E-1  
 7.081081081081080E8    -1.548038423061371E-1  -1.243079528212547E-1  -2.965652644634247E-1  -5.697175115346909E-2  -2.909246981143951E-1  -3.592959046363831E-2   6.361509561538696E-1  -2.813304960727692E-1  
 7.105105105105104E8    -1.725566238164902E-1  -1.072245985269547E-1  -3.042587935924530E-1  -2.740223519504070E-2  -2.938560843467712E-1  -1.124222390353680E-2   5.879961252212524E-1  -3.499576449394226E-1  
 7.129129129129129E8    -1.908833384513855E-1  -8.604014664888382E-2  -3.097889125347138E-1   6.760854157619178E-4  -2.956658899784088E-1   1.419099792838097E-2   5.298052430152893E-1  -4.119064211845398E-1  
 7.153153153153153E8    -2.074308395385742E-1  -5.983653664588928E-2  -3.134578466415405E-1   2.877409383654594E-2  -2.955991625785828E-1   4.157697036862373E-2   4.630160629749298E-1  -4.649360477924347E-1  
 7.177177177177178E8    -2.197478413581848E-1  -2.948031760752201E-2  -3.146301209926605E-1   5.795863270759583E-2  -2.929938733577728E-1   6.998112797737122E-2   3.899950087070465E-1  -5.080888271331787E-1  
 7.201201201201202E8    -2.270942330360413E-1   3.449922893196344E-3  -3.123226761817932E-1   8.876195549964905E-2  -2.878115773200989E-1   9.767819195985794E-2   3.127862513065338E-1  -5.399034023284912E-1  
 7.225225225225226E8    -2.300184071063995E-1   3.853458538651466E-2  -3.062464892864227E-1   1.211712583899498E-1  -2.811889946460724E-1   1.231339052319527E-1   2.342704832553864E-1  -5.597071647644043E-1  
 7.249249249249250E8    -2.268394380807877E-1   7.506271451711655E-2  -2.960261106491089E-1   1.560022979974747E-1  -2.740278840065002E-1   1.467334330081940E-1   1.566448807716370E-1  -5.665603280067444E-1  
 7.273273273273274E8    -2.183736115694046E-1   1.108078062534332E-1  -2.806713879108429E-1   1.903396397829056E-1  -2.640033066272736E-1   1.708697229623795E-1   8.113202452659607E-2  -5.623642802238464E-1  
 7.297297297297298E8    -2.045719921588898E-1   1.458088457584381E-1  -2.616398632526398E-1   2.208279669284821E-1  -2.502375543117523E-1   1.955746114253998E-1   7.876725867390633E-3  -5.485215783119202E-1  
 7.321321321321322E8    -1.851039081811905E-1   1.780746579170227E-1  -2.404412925243378E-1   2.464566677808762E-1  -2.323971688747406E-1   2.197576612234116E-1  -6.233823299407959E-2  -5.243760943412781E-1  
 7.345345345345346E8    -1.606405973434448E-1   2.062856256961823E-1  -2.177112102508545E-1   2.688772976398468E-1  -2.117939889431000E-1   2.429314106702805E-1  -1.270568817853928E-1  -4.897299408912659E-1  
 7.369369369369370E8    -1.332742273807526E-1   2.297641336917877E-1  -1.920090168714523E-1   2.886000573635101E-1  -1.878053396940231E-1   2.641583383083344E-1  -1.839765608310700E-1  -4.460971951484680E-1  
 7.393393393393394E8    -1.043997034430504E-1   2.499023228883743E-1  -1.642740070819855E-1   3.048912584781647E-1  -1.624522954225540E-1   2.817865014076233E-1  -2.311925590038300E-1  -3.960995078086853E-1  
 7.417417417417418E8    -7.293887436389923E-2   2.673573791980743E-1  -1.351946890354157E-1   3.178364634513855E-1  -1.365617662668228E-1   2.961049675941467E-1  -2.686299979686737E-1  -3.414236605167389E-1  
 7.441441441441442E8    -3.772002086043358E-2   2.808514833450317E-1  -1.056035533547401E-1   3.281592130661011E-1  -1.109495237469673E-1   3.078590333461762E-1  -2.956413924694061E-1  -2.831532359123230E-1  
 7.465465465465466E8    -8.436882053501904E-4   2.876888513565064E-1  -7.556131482124329E-2   3.364625275135040E-1  -8.503042906522751E-2   3.183269202709198E-1  -3.111609816551209E-1  -2.238312512636185E-1  
 7.489489489489490E8     3.489591553807259E-2   2.888513207435608E-1  -4.439766705036163E-2   3.418776690959930E-1  -5.737237259745598E-2   3.266015350818634E-1  -3.155412077903748E-1  -1.664883345365524E-1  
 7.513513513513514E8     6.922525167465210E-2   2.863160073757172E-1  -1.241534668952227E-2   3.442599475383759E-1  -2.815934084355831E-2   3.321258723735809E-1  -3.104940056800842E-1  -1.126337423920631E-1  
 7.537537537537538E8     1.028772965073586E-1   2.800808548927307E-1   2.039541862905026E-2   3.424987494945526E-1   2.706536790356040E-3   3.340841531753540E-1  -2.978833615779877E-1  -6.406146287918091E-2  
 7.561561561561562E8     1.348018199205399E-1   2.703858315944672E-1   5.078614503145218E-2   3.373202681541443E-1   3.360253199934959E-2   3.310650587081909E-1  -2.800377011299133E-1  -2.189875766634941E-2  
 7.585585585585586E8     1.644359678030014E-1   2.582783401012421E-1   7.992272824048996E-2   3.291983902454376E-1   6.332679092884064E-2   3.248088359832764E-1  -2.591170072555542E-1   1.509091630578041E-2  
 7.609609609609610E8     1.928347349166870E-1   2.449069768190384E-1   1.073620021343231E-1   3.180538415908814E-1   9.092211723327637E-2   3.155034780502319E-1  -2.354067116975784E-1   4.771137982606888E-2  
 7.633633633633634E8     2.205138355493546E-1   2.292070686817169E-1   1.320627778768539E-1   3.046699464321137E-1   1.155175641179085E-1   3.046458363533020E-1  -2.090557217597961E-1   7.620166987180710E-2  
 7.657657657657658E8     2.473116368055344E-1   2.111312896013260E-1   1.542881727218628E-1   2.901751995086670E-1   1.383043527603149E-1   2.932339012622833E-1  -1.801269650459290E-1   1.003113090991974E-1  
 7.681681681681682E8     2.725977599620819E-1   1.908327788114548E-1   1.741059422492981E-1   2.749857306480408E-1   1.603911519050598E-1   2.812488973140717E-1  -1.494269520044327E-1   1.200175955891609E-1  
 7.705705705705706E8     2.964525818824768E-1   1.682989597320557E-1   1.911197751760483E-1   2.585744261741638E-1   1.812500357627869E-1   2.678075432777405E-1  -1.166204139590263E-1   1.365112215280533E-1  
 7.729729729729730E8     3.196511268615723E-1   1.420346498489380E-1   2.055452913045883E-1   2.421513497829437E-1   1.997576057910919E-1   2.549934387207031E-1  -7.920046150684357E-2   1.486165374517441E-1  
 7.753753753753754E8     3.399673700332642E-1   1.112225353717804E-1   2.195466458797455E-1   2.284582257270813E-1   2.184065580368042E-1   2.425755411386490E-1  -3.783944249153137E-2   1.512271612882614E-1  
 7.777777777777778E8     3.550437986850739E-1   7.788777351379395E-2   2.350599318742752E-1   2.154357135295868E-1   2.375387400388718E-1   2.286767363548279E-1   2.123080426827073E-3   1.426446735858917E-1  
 7.801801801801802E8     3.649386465549469E-1   4.531187191605568E-2   2.518016397953033E-1   2.015874087810516E-1   2.564922273159027E-1   2.130306661128998E-1   3.667509183287621E-2   1.246583759784699E-1  
 7.825825825825826E8     3.727360963821411E-1   1.444896403700113E-2   2.695741057395935E-1   1.859422773122788E-1   2.742832899093628E-1   1.952280551195145E-1   6.302165240049362E-2   9.987202286720276E-2  
 7.849849849849850E8     3.799898028373718E-1  -1.562137622386217E-2   2.881695032119751E-1   1.674868166446686E-1   2.906401455402374E-1   1.759635955095291E-1   7.937514781951904E-2   7.231646031141281E-2  
 7.873873873873874E8     3.876144587993622E-1  -4.559748619794846E-2   3.053562343120575E-1   1.459838300943375E-1   3.051751255989075E-1   1.538435071706772E-1   8.704615384340286E-2   4.697544872760773E-2  
 7.897897897897898E8     3.948312997817993E-1  -7.848676294088364E-2   3.195826113224030E-1   1.220720410346985E-1   3.178166151046753E-1   1.304713040590286E-1   9.075322002172470E-2   2.594960667192936E-2  
 7.921921921921922E8     3.997494578361511E-1  -1.150189712643623E-1   3.308209478855133E-1   9.664183855056763E-2   3.289606869220734E-1   1.066613569855690E-1   9.301380068063736E-2   7.426679134368897E-3  
 7.945945945945946E8     4.011898934841156E-1  -1.548106968402863E-1   3.397383689880371E-1   7.119447737932205E-2   3.398859798908234E-1   8.240170031785965E-2   9.428807348012924E-2  -1.015836745500565E-2  
 7.969969969969970E8     3.972854912281036E-1  -1.966708153486252E-1   3.481143712997437E-1   4.464923217892647E-2   3.512417078018189E-1   5.632581189274788E-2   9.361328929662705E-2  -2.823162637650967E-2  
 7.993993993993994E8     3.891225755214691E-1  -2.390793859958649E-1   3.536917865276337E-1   1.544100791215897E-2   3.602449893951416E-1   2.603926137089729E-2   8.896382153034210E-2  -4.506524279713631E-2  
 8.018018018018018E8     3.757030665874481E-1  -2.829411327838898E-1   3.553160727024078E-1  -1.357298996299505E-2   3.648303151130676E-1  -5.500264465808868E-3   8.250028640031815E-2  -5.865497142076492E-2  
 8.042042042042042E8     3.551431000232697E-1  -3.286244571208954E-1   3.553364276885986E-1  -4.237281531095505E-2   3.670732080936432E-1  -3.686304390430450E-2   7.628578692674637E-2  -6.964083015918732E-2  
 8.066066066066066E8     3.282853662967682E-1  -3.710470199584961E-1   3.541522324085236E-1  -7.200002670288086E-2   3.675896227359772E-1  -6.869608908891678E-2   7.052033394575119E-2  -7.919992506504059E-2  
 8.090090090090090E8     2.968765497207642E-1  -4.101074039936066E-1   3.502248823642731E-1  -1.025165989995003E-1   3.644412159919739E-1  -1.024088934063911E-1   6.558404862880707E-2  -8.827896416187286E-2  
 8.114114114114114E8     2.608111500740051E-1  -4.457907080650330E-1   3.428799808025360E-1  -1.335104256868362E-1   3.571331799030304E-1  -1.365720480680466E-1   6.048102304339409E-2  -9.818968921899796E-2  
 8.138138138138138E8     2.206418365240097E-1  -4.777479171752930E-1   3.317684531211853E-1  -1.644231826066971E-1   3.453175127506256E-1  -1.703254878520966E-1   5.442409962415695E-2  -1.084102541208267E-1  
 8.162162162162162E8     1.772841066122055E-1  -5.052599906921387E-1   3.168919980525971E-1  -1.943076699972153E-1   3.290273249149323E-1  -2.028734534978867E-1   4.665153846144676E-2  -1.182968840003014E-1  
 8.186186186186186E8     1.311552822589874E-1  -5.291203260421753E-1   2.974272966384888E-1  -2.225535362958908E-1   3.075272440910339E-1  -2.332062721252441E-1   3.873845189809799E-2  -1.263308823108673E-1  
 8.210210210210210E8     8.163588494062424E-2  -5.489284992218018E-1   2.748657166957855E-1  -2.465769797563553E-1   2.824705839157105E-1  -2.592503726482391E-1   3.142806887626648E-2  -1.356935948133469E-1  
 8.234234234234234E8     2.871075086295605E-2  -5.640788674354553E-1   2.506157755851746E-1  -2.670141458511353E-1   2.555036246776581E-1  -2.809977233409882E-1   2.212917245924473E-2  -1.463419497013092E-1  
