#  HZ   S   RI   R     50.00 
! Rohde & Schwarz ZVB8 2Ports - Version 2.81 - 1145.1010k08 SN: 100113
! Date: 2016-03-12 00:35:51
! Measurements: S11 S21 S12 S22 
! 
 6.000000000000000E8    -7.076332569122315E-1  -5.036954879760742E-1  -1.235026400536299E-3   5.898238718509674E-2   6.750824832124636E-5   5.764722824096680E-2  -4.845593273639679E-1  -7.823456525802612E-1  
 6.024024024024024E8    -7.512061595916748E-1  -4.291442930698395E-1   3.840862074866891E-3   6.212559342384338E-2   5.100773647427559E-3   6.045116111636162E-2  -5.520527362823486E-1  -7.337988018989563E-1  
 6.048048048048048E8    -7.873467803001404E-1  -3.493313789367676E-1   9.748965501785278E-3   6.484656780958176E-2   1.075101736932993E-2   6.275500357151032E-2  -6.144598722457886E-1  -6.792559027671814E-1  
 6.072072072072072E8    -8.152465820312500E-1  -2.651468813419342E-1   1.644526235759258E-2   6.693462282419205E-2   1.703871227800846E-2   6.452684104442596E-2  -6.716777682304382E-1  -6.192393898963928E-1  
 6.096096096096096E8    -8.335316181182861E-1  -1.781201064586639E-1   2.372993715107441E-2   6.809902191162109E-2   2.398198656737804E-2   6.534802168607712E-2  -7.231248617172241E-1  -5.535047054290772E-1  
 6.120120120120120E8    -8.417764902114868E-1  -9.239332377910614E-2   3.110241517424583E-2   6.811719387769699E-2   3.071845695376396E-2   6.521710008382797E-2  -7.676731348037720E-1  -4.847790300846100E-1  
 6.144144144144144E8    -8.408660292625427E-1  -6.200209259986877E-3   3.832999616861343E-2   6.750012189149857E-2   3.721299767494202E-2   6.467287242412567E-2  -8.057861924171448E-1  -4.119971096515656E-1  
 6.168168168168168E8    -8.310828804969788E-1   7.957981526851654E-2   4.570445418357849E-2   6.633398681879044E-2   4.392999038100243E-2   6.362442672252655E-2  -8.381139039993286E-1  -3.346914947032929E-1  
 6.192192192192192E8    -8.124710917472839E-1   1.643954515457153E-1   5.320563539862633E-2   6.448853760957718E-2   5.078670009970665E-2   6.207231432199478E-2  -8.628376722335815E-1  -2.537546157836914E-1  
 6.216216216216216E8    -7.844496369361877E-1   2.472205311059952E-1   6.088784709572792E-2   6.207548454403877E-2   5.789431557059288E-2   5.999010428786278E-2  -8.798483610153198E-1  -1.695473343133926E-1  
 6.240240240240240E8    -7.471482157707214E-1   3.263918757438660E-1   6.877986341714859E-2   5.881214886903763E-2   6.523277610540390E-2   5.718415603041649E-2  -8.883547782897949E-1  -8.344556391239166E-2  
 6.264264264264264E8    -7.006567120552063E-1   3.999679684638977E-1   7.687669247388840E-2   5.455016344785690E-2   7.283069938421249E-2   5.364462360739708E-2  -8.877936601638794E-1   3.245555562898517E-3  
 6.288288288288288E8    -6.464319825172424E-1   4.666988253593445E-1   8.488982915878296E-2   4.915918037295342E-2   8.051236718893051E-2   4.892689362168312E-2  -8.786960244178772E-1   8.834637701511383E-2  
 6.312312312312312E8    -5.863220095634460E-1   5.254046320915222E-1   9.239304810762405E-2   4.230758175253868E-2   8.771204948425293E-2   4.294617846608162E-2  -8.611053824424744E-1   1.707254350185394E-1  
 6.336336336336336E8    -5.219617486000061E-1   5.764443278312683E-1   9.859361499547958E-2   3.464403003454208E-2   9.397768974304199E-2   3.609218820929527E-2  -8.361810445785523E-1   2.500950992107391E-1  
 6.360360360360360E8    -4.533877074718475E-1   6.206150054931641E-1   1.039184480905533E-1   2.682779915630817E-2   9.971997886896133E-2   2.906159311532974E-2  -8.040090203285217E-1   3.267860114574432E-1  
 6.384384384384384E8    -3.802271187305450E-1   6.568675041198731E-1   1.092349886894226E-1   1.861419714987278E-2   1.052365452051163E-1   2.163967676460743E-2  -7.644954919815064E-1   3.998602032661438E-1  
 6.408408408408408E8    -3.035939335823059E-1   6.840553283691406E-1   1.139859333634377E-1   9.312268346548080E-3   1.104936450719833E-1   1.321426685899496E-2  -7.174513339996338E-1   4.688503444194794E-1  
 6.432432432432432E8    -2.257502675056458E-1   7.018489241600037E-1   1.178498417139053E-1  -9.315231582149863E-4   1.150758489966393E-1   3.581422613933682E-3  -6.641039252281189E-1   5.326730012893677E-1  
 6.456456456456456E8    -1.479401588439941E-1   7.111185193061829E-1   1.201806142926216E-1  -1.149982027709484E-2   1.182215809822083E-1  -6.458298768848181E-3  -6.051886081695557E-1   5.910463333129883E-1  
 6.480480480480480E8    -7.083736360073090E-2   7.124013900756836E-1   1.214980259537697E-1  -2.165298722684383E-2   1.204250082373619E-1  -1.626935787498951E-2  -5.404563546180725E-1   6.441637873649597E-1  
 6.504504504504504E8     6.160608492791653E-3   7.059543132781982E-1   1.228545382618904E-1  -3.124258667230606E-2   1.228197216987610E-1  -2.577944844961166E-2  -4.702418446540833E-1   6.911469697952271E-1  
 6.528528528528528E8     8.201186358928680E-2   6.896778345108032E-1   1.245962977409363E-1  -4.183977842330933E-2   1.255471557378769E-1  -3.609402477741242E-2  -3.945789933204651E-1   7.297971248626709E-1  
 6.552552552552552E8     1.534766554832459E-1   6.635548472404480E-1   1.257368028163910E-1  -5.360114946961403E-2   1.279481202363968E-1  -4.798513278365135E-2  -3.152777254581451E-1   7.597660422325134E-1  
 6.576576576576576E8     2.191130965948105E-1   6.291692256927490E-1   1.259721219539642E-1  -6.649090349674225E-2   1.293776929378510E-1  -6.110659241676331E-2  -2.338983714580536E-1   7.807662487030029E-1  
 6.600600600600600E8     2.780444025993347E-1   5.876353979110718E-1   1.245474368333817E-1  -8.082109689712524E-2   1.291104406118393E-1  -7.587859034538269E-2  -1.508008241653442E-1   7.923063039779663E-1  
 6.624624624624624E8     3.293074667453766E-1   5.412970185279846E-1   1.210567206144333E-1  -9.561062604188919E-2   1.268007755279541E-1  -9.144210815429688E-2  -6.842740625143051E-2   7.953506708145142E-1  
 6.648648648648648E8     3.725509941577911E-1   4.917612969875336E-1   1.155571416020393E-1  -1.104893386363983E-1   1.221444830298424E-1  -1.074967160820961E-1   1.322155632078648E-2   7.901924848556519E-1  
 6.672672672672672E8     4.082786440849304E-1   4.405822455883026E-1   1.077463999390602E-1  -1.249916926026344E-1   1.146774515509605E-1  -1.233358979225159E-1   9.283138066530228E-2   7.769982814788818E-1  
 6.696696696696696E8     4.379743933677673E-1   3.895532786846161E-1   9.797471761703491E-2  -1.381395906209946E-1   1.048884764313698E-1  -1.380642354488373E-1   1.702158600091934E-1   7.562566399574280E-1  
 6.720720720720720E8     4.627371728420258E-1   3.378784060478210E-1   8.715177327394486E-2  -1.496311128139496E-1   9.354399889707565E-2  -1.511367112398148E-1   2.449277192354202E-1   7.277950644493103E-1  
 6.744744744744744E8     4.828115403652191E-1   2.853369712829590E-1   7.577145099639893E-2  -1.601727902889252E-1   8.162853121757507E-2  -1.630658358335495E-1   3.157554864883423E-1   6.919913887977600E-1  
 6.768768768768768E8     4.980802536010742E-1   2.319035232067108E-1   6.402734667062759E-2  -1.702392846345902E-1   6.897848099470139E-2  -1.741824001073837E-1   3.821479380130768E-1   6.487617492675781E-1  
 6.792792792792792E8     5.080841779708862E-1   1.766911447048187E-1   5.168986693024635E-2  -1.799870133399963E-1   5.566851794719696E-2  -1.849468797445297E-1   4.433282315731049E-1   5.990118384361267E-1  
 6.816816816816816E8     5.102118253707886E-1   1.198869496583939E-1   3.847049549221993E-2  -1.903167366981506E-1   4.095916077494621E-2  -1.961024254560471E-1   4.982978701591492E-1   5.428185462951660E-1  
 6.840840840840840E8     5.025070905685425E-1   6.485573202371597E-2   2.299277484416962E-2  -2.010612934827805E-1   2.379889786243439E-2  -2.074038386344910E-1   5.469844937324524E-1   4.812340736389160E-1  
 6.864864864864864E8     4.863934814929962E-1   1.622348651289940E-2   3.938522655516863E-3  -2.112638950347900E-1   2.992426510900259E-3  -2.177130430936813E-1   5.877193212509155E-1   4.151879549026489E-1  
 6.888888888888888E8     4.666181504726410E-1  -2.419006824493408E-2  -1.881694607436657E-2  -2.188011556863785E-1  -2.149902097880840E-2  -2.247234284877777E-1   6.216096878051758E-1   3.456234633922577E-1  
 6.912912912912912E8     4.466017484664917E-1  -5.767331644892693E-2  -4.313523322343826E-2  -2.226827889680862E-1  -4.788999632000923E-2  -2.273777872323990E-1   6.478261947631836E-1   2.730731666088104E-1  
 6.936936936936936E8     4.275521039962769E-1  -8.654515445232391E-2  -6.835276633501053E-2  -2.228544950485230E-1  -7.555720210075378E-2  -2.256549745798111E-1   6.663109064102173E-1   1.988772749900818E-1  
 6.960960960960960E8     4.103449583053589E-1  -1.124630048871040E-1  -9.378904104232788E-2  -2.185990065336227E-1  -1.032078042626381E-1  -2.186832875013351E-1   6.776634454727173E-1   1.230300292372704E-1  
 6.984984984984984E8     3.943850696086884E-1  -1.380705684423447E-1  -1.170889586210251E-1  -2.109853029251099E-1  -1.281227320432663E-1  -2.076766788959503E-1   6.809545755386353E-1   4.532137140631676E-2  
 7.009009009009008E8     3.780904710292816E-1  -1.622939407825470E-1  -1.400360018014908E-1  -2.009433507919312E-1  -1.510677933692932E-1  -1.945952922105789E-1   6.739161610603333E-1  -3.247571364045143E-2  
 7.033033033033032E8     3.629085123538971E-1  -1.864078789949417E-1  -1.624869555234909E-1  -1.870141774415970E-1  -1.708628982305527E-1  -1.794599443674088E-1   6.573883295059204E-1  -1.067413464188576E-1  
 7.057057057057056E8     3.477090299129486E-1  -2.115506082773209E-1  -1.830777972936630E-1  -1.692948788404465E-1  -1.873546093702316E-1  -1.630042642354965E-1   6.326658129692078E-1  -1.755289286375046E-1  
 7.081081081081080E8     3.304656147956848E-1  -2.403528243303299E-1  -1.998499184846878E-1  -1.482423394918442E-1  -2.003895789384842E-1  -1.446506083011627E-1   6.008664965629578E-1  -2.411859333515167E-1  
 7.105105105105104E8     3.085810840129852E-1  -2.695629000663757E-1  -2.120137959718704E-1  -1.277262866497040E-1  -2.102310061454773E-1  -1.262086778879166E-1   5.613459944725037E-1  -3.037820458412170E-1  
 7.129129129129129E8     2.823590934276581E-1  -2.972337305545807E-1  -2.209029346704483E-1  -1.092556491494179E-1  -2.181955724954605E-1  -1.081003844738007E-1   5.128216743469238E-1  -3.621698319911957E-1  
 7.153153153153153E8     2.511183321475983E-1  -3.219130337238312E-1  -2.284330129623413E-1  -9.264224767684937E-2  -2.256910204887390E-1  -9.011137485504150E-2   4.556394219398499E-1  -4.147744774818420E-1  
 7.177177177177178E8     2.158626317977905E-1  -3.419636487960815E-1  -2.354533374309540E-1  -7.647393643856049E-2  -2.326291054487228E-1  -7.225969433784485E-2   3.909848928451538E-1  -4.589770734310150E-1  
 7.201201201201202E8     1.787728816270828E-1  -3.565093576908112E-1  -2.426948249340057E-1  -5.931293219327927E-2  -2.391487509012222E-1  -5.480015650391579E-2   3.208064138889313E-1  -4.923614263534546E-1  
 7.225225225225226E8     1.408745348453522E-1  -3.681477904319763E-1  -2.496571540832520E-1  -4.014201834797859E-2  -2.452829182147980E-1  -3.846106678247452E-2   2.488589137792587E-1  -5.137870311737061E-1  
 7.249249249249250E8     1.004156321287155E-1  -3.757033050060272E-1  -2.559352517127991E-1  -1.858877390623093E-2  -2.507794797420502E-1  -2.311457693576813E-2   1.782380789518356E-1  -5.231802463531494E-1  
 7.273273273273274E8     5.880681052803993E-2  -3.772142231464386E-1  -2.606094777584076E-1   3.716095816344023E-3  -2.559754848480225E-1  -6.268712226301432E-3   1.082349345088005E-1  -5.236487388610840E-1  
 7.297297297297298E8     1.898419298231602E-2  -3.715218603610992E-1  -2.637512385845184E-1   2.550320141017437E-2  -2.603592276573181E-1   1.300419401377440E-2   3.852985054254532E-2  -5.142230987548828E-1  
 7.321321321321322E8    -1.564117521047592E-2  -3.595770597457886E-1  -2.651129961013794E-1   4.657289758324623E-2  -2.630272805690765E-1   3.490928933024406E-2  -2.902552857995033E-2  -4.933898150920868E-1  
 7.345345345345346E8    -4.363637790083885E-2  -3.456186950206757E-1  -2.645077705383301E-1   6.719391793012619E-2  -2.633049190044403E-1   5.814896151423454E-2  -9.097546339035034E-2  -4.602541923522949E-1  
 7.369369369369370E8    -6.801448762416840E-2  -3.332915008068085E-1  -2.623909413814545E-1   8.790487051010132E-2  -2.618467807769775E-1   8.182422071695328E-2  -1.418546885251999E-1  -4.170786440372467E-1  
 7.393393393393394E8    -9.205572307109833E-2  -3.229542970657349E-1  -2.580360174179077E-1   1.093830317258835E-1  -2.581457495689392E-1   1.056189313530922E-1  -1.793511956930161E-1  -3.706334233283997E-1  
 7.417417417417418E8    -1.180591657757759E-1  -3.126195371150971E-1  -2.519704699516296E-1   1.302096247673035E-1  -2.523922026157379E-1   1.279971748590469E-1  -2.073478251695633E-1  -3.253948688507080E-1  
 7.441441441441442E8    -1.455594599246979E-1  -2.988372147083283E-1  -2.454153150320053E-1   1.509140580892563E-1  -2.466214895248413E-1   1.495904326438904E-1  -2.291319966316223E-1  -2.807054817676544E-1  
 7.465465465465466E8    -1.709827631711960E-1  -2.813735902309418E-1  -2.384590208530426E-1   1.731355935335159E-1  -2.401483505964279E-1   1.720465123653412E-1  -2.441484183073044E-1  -2.352811098098755E-1  
 7.489489489489490E8    -1.949152946472168E-1  -2.632126212120056E-1  -2.286511510610580E-1   1.971444636583328E-1  -2.308645844459534E-1   1.968598812818527E-1  -2.511070668697357E-1  -1.906544268131256E-1  
 7.513513513513514E8    -2.199102938175201E-1  -2.424179017543793E-1  -2.142381519079208E-1   2.211999893188477E-1  -2.166702896356583E-1   2.214056849479675E-1  -2.519830465316773E-1  -1.491888612508774E-1  
 7.537537537537538E8    -2.443943619728088E-1  -2.173233777284622E-1  -1.962639391422272E-1   2.438779771327972E-1  -1.984820812940598E-1   2.446042895317078E-1  -2.490079849958420E-1  -1.100913360714912E-1  
 7.561561561561562E8    -2.659694552421570E-1  -1.880313903093338E-1  -1.768450438976288E-1   2.637383043766022E-1  -1.768220365047455E-1   2.649005949497223E-1  -2.419652640819550E-1  -7.232309132814407E-2  
 7.585585585585586E8    -2.837558388710022E-1  -1.552979648113251E-1  -1.552703380584717E-1   2.822487652301788E-1  -1.528341621160507E-1   2.827079594135284E-1  -2.288274466991425E-1  -3.646324947476387E-2  
 7.609609609609610E8    -2.964202463626862E-1  -1.203304901719093E-1  -1.311272233724594E-1   2.985303997993469E-1  -1.276163756847382E-1   2.976882457733154E-1  -2.099530100822449E-1  -4.928725305944681E-3  
 7.633633633633634E8    -3.045869171619415E-1  -8.611568808555603E-2  -1.048272103071213E-1   3.121590912342072E-1  -1.010197624564171E-1   3.096241354942322E-1  -1.875382214784622E-1   2.067354321479797E-2  
 7.657657657657658E8    -3.117908239364624E-1  -5.213025212287903E-2  -7.783007621765137E-2   3.214074373245239E-1  -7.439907640218735E-2   3.182408511638641E-1  -1.630213111639023E-1   4.049541428685188E-2  
 7.681681681681682E8    -3.172469139099121E-1  -1.502580568194389E-2  -5.319398641586304E-2   3.275623321533203E-1  -4.882526770234108E-2   3.245918750762940E-1  -1.376378685235977E-1   5.453514307737351E-2  
 7.705705705705706E8    -3.171589672565460E-1   2.629257366061211E-2  -2.962241880595684E-2   3.323708474636078E-1  -2.396501973271370E-2   3.302894830703735E-1  -1.129047870635986E-1   6.347633153200150E-2  
 7.729729729729730E8    -3.083792030811310E-1   6.955294311046600E-2  -5.429449956864119E-3   3.369313776493073E-1   4.940528888255358E-4   3.363023400306702E-1  -8.911863714456558E-2   6.911711394786835E-2  
 7.753753753753754E8    -2.912498414516449E-1   1.089566126465797E-1   1.947258226573467E-2   3.415629565715790E-1   2.653689123690128E-2   3.414578139781952E-1  -6.437922269105911E-2   7.124919444322586E-2  
 7.777777777777778E8    -2.700600028038025E-1   1.427009403705597E-1   4.625404626131058E-2   3.460364937782288E-1   5.442871153354645E-2   3.447072803974152E-1  -3.914574161171913E-2   6.741889566183090E-2  
 7.801801801801802E8    -2.477084100246429E-1   1.723056137561798E-1   7.535126805305481E-2   3.493380844593048E-1   8.385938405990601E-2   3.453398942947388E-1  -1.670895144343376E-2   5.539482459425926E-2  
 7.825825825825826E8    -2.239845395088196E-1   2.006156593561173E-1   1.069476306438446E-1   3.504880964756012E-1   1.133381202816963E-1   3.426072001457214E-1  -2.243451774120331E-3   3.745677322149277E-2  
 7.849849849849850E8    -1.976323574781418E-1   2.275425940752029E-1   1.416628062725067E-1   3.484049141407013E-1   1.433787792921066E-1   3.373342752456665E-1   2.196501940488815E-3   1.874544098973274E-2  
 7.873873873873874E8    -1.680689752101898E-1   2.526512145996094E-1   1.779934614896774E-1   3.409376442432404E-1   1.740548759698868E-1   3.273902237415314E-1  -1.526614418253303E-3   5.135437007993460E-3  
 7.897897897897898E8    -1.346042305231094E-1   2.753143310546875E-1   2.132539153099060E-1   3.264019489288330E-1   2.038090676069260E-1   3.122547268867493E-1  -8.247083052992821E-3  -6.212297594174743E-4  
 7.921921921921922E8    -9.661456942558289E-2   2.951887249946594E-1   2.441797852516174E-1   3.064303696155548E-1   2.303978502750397E-1   2.944649755954742E-1  -1.330924313515425E-2   1.158030499937013E-4  
 7.945945945945946E8    -5.321503430604935E-2   3.104451298713684E-1   2.706758677959442E-1   2.843655049800873E-1   2.544722855091095E-1   2.760859429836273E-1  -1.421149447560310E-2   4.710504319518805E-3  
 7.969969969969970E8    -6.023056339472532E-3   3.183177709579468E-1   2.948877811431885E-1   2.616962194442749E-1   2.780210077762604E-1   2.572396993637085E-1  -1.157969236373901E-2   9.309582412242889E-3  
 7.993993993993994E8     4.270501434803009E-2   3.179969489574432E-1   3.166912794113159E-1   2.373173981904984E-1   3.007397651672363E-1   2.360370457172394E-1  -6.035368889570236E-3   1.585283130407333E-2  
 8.018018018018018E8     9.102237969636917E-2   3.090671598911285E-1   3.355746567249298E-1   2.123511731624603E-1   3.210693597793579E-1   2.134383469820023E-1   7.020853459835053E-3   2.046316117048264E-2  
 8.042042042042042E8     1.383275836706162E-1   2.924188673496246E-1   3.551768362522125E-1   1.876783221960068E-1   3.414052128791809E-1   1.911716163158417E-1   2.285126037895680E-2   1.679934374988079E-2  
 8.066066066066066E8     1.808510273694992E-1   2.692072093486786E-1   3.751843869686127E-1   1.606585532426834E-1   3.623605072498322E-1   1.665128618478775E-1   3.462314605712891E-2   7.028477732092142E-3  
 8.090090090090090E8     2.189233899116516E-1   2.409216463565826E-1   3.937974274158478E-1   1.297757476568222E-1   3.822481334209442E-1   1.381380856037140E-1   4.147152975201607E-2  -4.088135436177254E-3  
 8.114114114114114E8     2.523895502090454E-1   2.079845964908600E-1   4.093477725982666E-1   9.542155265808106E-2   3.995083868503571E-1   1.058456227183342E-1   4.572319611907005E-2  -1.377690024673939E-2  
 8.138138138138138E8     2.805782854557037E-1   1.714815795421600E-1   4.206057488918304E-1   5.813055112957954E-2   4.130759239196777E-1   7.053111493587494E-2   4.948374256491661E-2  -2.254368923604488E-2  
 8.162162162162162E8     3.037272393703461E-1   1.317514926195145E-1   4.275332391262054E-1   1.961815729737282E-2   4.224631190299988E-1   3.346833959221840E-2   5.323702469468117E-2  -3.073869086802006E-2  
 8.186186186186186E8     3.209725022315979E-1   9.011466056108475E-2   4.295541942119598E-1  -1.959397271275520E-2   4.272426664829254E-1  -5.277605727314949E-3   5.913625657558441E-2  -3.893904760479927E-2  
 8.210210210210210E8     3.330883383750916E-1   4.721379652619362E-2   4.266347885131836E-1  -5.843164771795273E-2   4.270727932453156E-1  -4.401152580976486E-2   6.703422218561173E-2  -5.133034288883209E-2  
 8.234234234234234E8     3.405961692333221E-1   2.992135705426335E-3   4.197905957698822E-1  -9.564961493015289E-2   4.227581322193146E-1  -8.183582127094269E-2   7.303254306316376E-2  -6.921514123678207E-2  
