#  HZ   S   RI   R     50.00 
! Rohde & Schwarz ZVB8 2Ports - Version 2.81 - 1145.1010k08 SN: 100113
! Date: 2016-03-12 01:20:10
! Measurements: S11 S21 S12 S22 
! 
 6.000000000000000E8    -7.417600750923157E-1  -4.045107960700989E-1  -1.406863564625382E-3   6.504197418689728E-2   4.441343771759421E-4   6.302823871374130E-2  -4.868868291378021E-1  -7.795010805130005E-1  
 6.024024024024024E8    -7.762672901153565E-1  -3.237786591053009E-1   4.277715459465981E-3   6.889543682336807E-2   5.889595020562410E-3   6.630467623472214E-2  -5.540757775306702E-1  -7.309743762016296E-1  
 6.048048048048048E8    -8.025966286659241E-1  -2.379170954227448E-1   1.091579906642437E-2   7.239589840173721E-2   1.218239590525627E-2   6.920934468507767E-2  -6.166791319847107E-1  -6.765696406364441E-1  
 6.072072072072072E8    -8.194037079811096E-1  -1.483140885829926E-1   1.840335689485073E-2   7.533013820648193E-2   1.914428919553757E-2   7.171718031167984E-2  -6.741778254508972E-1  -6.163824200630188E-1  
 6.096096096096096E8    -8.256524801254273E-1  -5.584215000271797E-2   2.674428746104240E-2   7.756018638610840E-2   2.677898667752743E-2   7.345994561910629E-2  -7.260884642601013E-1  -5.504986047744751E-1  
 6.120120120120120E8    -8.208773732185364E-1   3.406516090035439E-2   3.553102165460587E-2   7.885461300611496E-2   3.471931070089340E-2   7.460744678974152E-2  -7.704157829284668E-1  -4.804604053497315E-1  
 6.144144144144144E8    -8.057052493095398E-1   1.237071827054024E-1   4.494580999016762E-2   7.911705225706101E-2   4.311304166913033E-2   7.489742338657379E-2  -8.081913590431213E-1  -4.064037501811981E-1  
 6.168168168168168E8    -7.796812057495117E-1   2.120398730039597E-1   5.477839708328247E-2   7.855134457349777E-2   5.183932185173035E-2   7.452297210693359E-2  -8.390665650367737E-1  -3.283844292163849E-1  
 6.192192192192192E8    -7.425752878189087E-1   2.970997989177704E-1   6.541304290294647E-2   7.695161551237106E-2   6.137754768133164E-2   7.346998155117035E-2  -8.624493479728699E-1  -2.471080273389816E-1  
 6.216216216216216E8    -6.942101120948792E-1   3.767259716987610E-1   7.664558291435242E-2   7.376750558614731E-2   7.153580337762833E-2   7.098717987537384E-2  -8.779885768890381E-1  -1.628193110227585E-1  
 6.240240240240240E8    -6.362177729606628E-1   4.485881030559540E-1   8.787947148084641E-2   6.880006939172745E-2   8.191557973623276E-2   6.685405224561691E-2  -8.847324252128601E-1  -7.709566503763199E-2  
 6.264264264264264E8    -5.705260038375855E-1   5.110238194465637E-1   9.873029589653015E-2   6.216716021299362E-2   9.222044050693512E-2   6.134493649005890E-2  -8.832396268844605E-1   7.813657633960247E-3  
 6.288288288288288E8    -4.991410374641419E-1   5.637849569320679E-1   1.089276075363159E-1   5.404452979564667E-2   1.020742952823639E-1   5.459887161850929E-2  -8.730314970016480E-1   9.119381010532379E-2  
 6.312312312312312E8    -4.230056107044220E-1   6.071323752403259E-1   1.182830482721329E-1   4.452099278569222E-2   1.113547608256340E-1   4.649936035275459E-2  -8.549414277076721E-1   1.727110594511032E-1  
 6.336336336336336E8    -3.434880971908569E-1   6.400240659713745E-1   1.269050240516663E-1   3.384921699762344E-2   1.201629117131233E-1   3.725947812199593E-2  -8.292537927627564E-1   2.510773837566376E-1  
 6.360360360360360E8    -2.614152431488037E-1   6.618965864181519E-1   1.344684660434723E-1   2.185824327170849E-2   1.283834576606751E-1   2.672724425792694E-2  -7.958011627197266E-1   3.265560865402222E-1  
 6.384384384384384E8    -1.791978776454926E-1   6.723550558090210E-1   1.409681439399719E-1   8.603117428719997E-3   1.356503218412399E-1   1.486750319600105E-2  -7.554522156715393E-1   3.982860147953033E-1  
 6.408408408408408E8    -9.895695745944977E-2   6.720398068428040E-1   1.458522379398346E-1  -6.021257024258375E-3   1.419889479875565E-1   1.541153644211590E-3  -7.079995274543762E-1   4.650738537311554E-1  
 6.432432432432432E8    -2.292485162615776E-2   6.632740497589111E-1   1.487593203783035E-1  -2.148186229169369E-2   1.464085876941681E-1  -1.319326367229223E-2  -6.547578573226929E-1   5.264168381690979E-1  
 6.456456456456456E8     4.986864700913429E-2   6.478881239891052E-1   1.493649035692215E-1  -3.698513656854630E-2   1.488513946533203E-1  -2.829126268625259E-2  -5.965021848678589E-1   5.824397802352905E-1  
 6.480480480480480E8     1.206339597702026E-1   6.267379522323608E-1   1.489677876234055E-1  -5.180786550045013E-2   1.501196324825287E-1  -4.300839453935623E-2  -5.329776406288147E-1   6.326182484626770E-1  
 6.504504504504504E8     1.891950964927673E-1   5.965112447738648E-1   1.476673930883408E-1  -6.711744517087936E-2   1.507559716701508E-1  -5.851593241095543E-2  -4.650825858116150E-1   6.761702299118042E-1  
 6.528528528528528E8     2.530980408191681E-1   5.572081804275513E-1   1.450626254081726E-1  -8.297255635261536E-2   1.500507146120071E-1  -7.480225712060928E-2  -3.934647142887116E-1   7.124601602554321E-1  
 6.552552552552552E8     3.090867400169373E-1   5.097787976264954E-1   1.406931728124619E-1  -9.900411963462830E-2   1.476884484291077E-1  -9.187093377113342E-2  -3.194119632244110E-1   7.416886091232300E-1  
 6.576576576576576E8     3.557966649532318E-1   4.558499455451965E-1   1.345867067575455E-1  -1.152500137686729E-1   1.434070914983749E-1  -1.094547808170319E-1  -2.431070506572723E-1   7.634152173995972E-1  
 6.600600600600600E8     3.924750089645386E-1   3.983681797981262E-1   1.259702742099762E-1  -1.314580738544464E-1   1.362791210412979E-1  -1.274534016847611E-1  -1.645145863294601E-1   7.775182723999023E-1  
 6.624624624624624E8     4.190646409988403E-1   3.402831554412842E-1   1.153049916028976E-1  -1.467141360044479E-1   1.265075802803040E-1  -1.449969410896301E-1  -8.539007604122162E-2   7.842245101928711E-1  
 6.648648648648648E8     4.377607107162476E-1   2.847106158733368E-1   1.024521961808205E-1  -1.604496836662293E-1   1.139987483620644E-1  -1.609773635864258E-1  -6.135493051260710E-3   7.830624580383301E-1  
 6.672672672672672E8     4.520398080348969E-1   2.314101159572601E-1   8.875072002410889E-2  -1.719455420970917E-1   9.979044646024704E-2  -1.749378740787506E-1   7.177282124757767E-2   7.743372321128845E-1  
 6.696696696696696E8     4.630165994167328E-1   1.774683445692062E-1   7.492727786302567E-2  -1.816980093717575E-1   8.491278439760208E-2  -1.869308799505234E-1   1.487350463867188E-1   7.583169937133789E-1  
 6.720720720720720E8     4.686116874217987E-1   1.214615032076836E-1   6.145977973937988E-2  -1.906185746192932E-1   6.995756179094315E-2  -1.980190426111221E-1   2.244481295347214E-1   7.348206639289856E-1  
 6.744744744744744E8     4.670757949352264E-1   6.450863182544708E-2   4.813481122255325E-2  -1.993027776479721E-1   5.486332252621651E-2  -2.086389362812042E-1   2.979294359683991E-1   7.028144598007202E-1  
 6.768768768768768E8     4.564001858234406E-1   6.693499162793160E-3   3.469469025731087E-2  -2.091594189405441E-1   3.945705294609070E-2  -2.200208753347397E-1   3.674730658531189E-1   6.625889539718628E-1  
 6.792792792792792E8     4.332776963710785E-1  -4.715595394372940E-2   1.938496343791485E-2  -2.211531251668930E-1   2.147582359611988E-2  -2.333673685789108E-1   4.315656721591950E-1   6.138319373130798E-1  
 6.816816816816816E8     4.003058075904846E-1  -8.983634412288666E-2  -1.238427706994116E-3  -2.338468730449677E-1  -2.570874756202102E-3  -2.467266172170639E-1   4.882334768772125E-1   5.585295557975769E-1  
 6.840840840840840E8     3.656922578811646E-1  -1.183745190501213E-1  -2.732316963374615E-2  -2.432667165994644E-1  -3.235320746898651E-2  -2.553926408290863E-1   5.374086499214172E-1   4.988308250904083E-1  
 6.864864864864864E8     3.360465764999390E-1  -1.370920091867447E-1  -5.660399049520493E-2  -2.472000271081924E-1  -6.486288458108902E-2  -2.577296197414398E-1   5.806962251663208E-1   4.359247684478760E-1  
 6.888888888888888E8     3.132778406143189E-1  -1.515264958143234E-1  -8.682844787836075E-2  -2.451214641332626E-1  -9.745956212282181E-2  -2.530136704444885E-1   6.181460022926331E-1   3.689382672309876E-1  
 6.912912912912912E8     2.958935201168060E-1  -1.665438562631607E-1  -1.152526885271072E-1  -2.379232048988342E-1  -1.279454380273819E-1  -2.426359206438065E-1   6.494941711425781E-1   2.980717420578003E-1  
 6.936936936936936E8     2.803674638271332E-1  -1.837404370307922E-1  -1.409737467765808E-1  -2.275203615427017E-1  -1.556341797113419E-1  -2.284321337938309E-1   6.735414862632752E-1   2.237198054790497E-1  
 6.960960960960960E8     2.646415531635284E-1  -2.030482292175293E-1  -1.647358983755112E-1  -2.148235440254211E-1  -1.807857751846314E-1  -2.112526446580887E-1   6.890116930007935E-1   1.459857076406479E-1  
 6.984984984984984E8     2.479269653558731E-1  -2.244779914617539E-1  -1.864335685968399E-1  -1.997851133346558E-1  -2.032174170017242E-1  -1.911882609128952E-1   6.955285668373108E-1   6.656394153833389E-2  
 7.009009009009008E8     2.275456190109253E-1  -2.487459480762482E-1  -2.058407217264175E-1  -1.829142421483994E-1  -2.217174172401428E-1  -1.700619459152222E-1   6.925448775291443E-1  -1.256377622485161E-2  
 7.033033033033032E8     2.004500329494476E-1  -2.728036940097809E-1  -2.236482948064804E-1  -1.640869677066803E-1  -2.364693284034729E-1  -1.497508585453033E-1   6.803568601608276E-1  -8.985324949026108E-2  
 7.057057057057056E8     1.680195033550263E-1  -2.928225696086884E-1  -2.403138726949692E-1  -1.440275311470032E-1  -2.488670796155930E-1  -1.306480020284653E-1   6.590340733528137E-1  -1.629546284675598E-1  
 7.081081081081080E8     1.313775330781937E-1  -3.086479902267456E-1  -2.557599544525147E-1  -1.218537986278534E-1  -2.599211931228638E-1  -1.111887916922569E-1   6.287639737129211E-1  -2.334256619215012E-1  
 7.105105105105104E8     9.232431650161743E-2  -3.185393214225769E-1  -2.690631449222565E-1  -9.942434728145599E-2  -2.698397040367127E-1  -9.077668935060501E-2   5.901570916175842E-1  -2.994534373283386E-1  
 7.129129129129129E8     5.254368856549263E-2  -3.226947486400604E-1  -2.805173993110657E-1  -7.722393423318863E-2  -2.788758575916290E-1  -6.864720582962036E-2   5.432934761047363E-1  -3.610020577907562E-1  
 7.153153153153153E8     1.281746849417687E-2  -3.199277222156525E-1  -2.907257378101349E-1  -5.504629015922546E-2  -2.869597077369690E-1  -4.431791231036186E-2   4.878932535648346E-1  -4.173801243305206E-1  
 7.177177177177178E8    -2.427829615771771E-2  -3.119864165782929E-1  -2.996076047420502E-1  -3.142993897199631E-2  -2.933388948440552E-1  -1.831643469631672E-2   4.248371124267578E-1  -4.668423831462860E-1  
 7.201201201201202E8    -6.017814576625824E-2  -3.006973862648010E-1  -3.070573806762695E-1  -5.654807202517986E-3  -2.979013025760651E-1   7.689073216170073E-3   3.551370799541473E-1  -5.069539546966553E-1  
 7.225225225225226E8    -9.494684636592865E-2  -2.848852276802063E-1  -3.129401504993439E-1   2.380766533315182E-2  -3.014200031757355E-1   3.325111418962479E-2   2.820817828178406E-1  -5.351846814155579E-1  
 7.249249249249250E8    -1.276213973760605E-1  -2.645139396190643E-1  -3.154476881027222E-1   5.766303092241287E-2  -3.032576143741608E-1   5.840149521827698E-2   2.086684405803680E-1  -5.513523817062378E-1  
 7.273273273273274E8    -1.567089408636093E-1  -2.402745783329010E-1  -3.131381273269653E-1   9.314118325710297E-2  -3.020709753036499E-1   8.512692153453827E-2   1.354341655969620E-1  -5.572713017463684E-1  
 7.297297297297298E8    -1.819063723087311E-1  -2.132276594638825E-1  -3.060293495655060E-1   1.266066431999207E-1  -2.967601716518402E-1   1.137517392635346E-1   6.239154562354088E-2  -5.535179972648621E-1  
 7.321321321321322E8    -2.026310861110687E-1  -1.834351271390915E-1  -2.954300045967102E-1   1.566373109817505E-1  -2.871952950954437E-1   1.429918855428696E-1  -8.831856772303581E-3  -5.394126176834106E-1  
 7.345345345345346E8    -2.181460261344910E-1  -1.524857729673386E-1  -2.819107174873352E-1   1.842660307884216E-1  -2.736282646656036E-1   1.720795035362244E-1  -7.646065950393677E-2  -5.155952572822571E-1  
 7.369369369369370E8    -2.308226674795151E-1  -1.214262098073959E-1  -2.646012902259827E-1   2.094963043928146E-1  -2.560378313064575E-1   1.987966001033783E-1  -1.392830759286881E-1  -4.830664098262787E-1  
 7.393393393393394E8    -2.423260509967804E-1  -8.869659155607224E-2  -2.455034404993057E-1   2.313213348388672E-1  -2.373395711183548E-1   2.215144634246826E-1  -1.964721381664276E-1  -4.420840740203857E-1  
 7.417417417417418E8    -2.501339614391327E-1  -5.100883916020393E-2  -2.263624966144562E-1   2.512989044189453E-1  -2.191330790519714E-1   2.413742095232010E-1  -2.452996820211411E-1  -3.919037282466888E-1  
 7.441441441441442E8    -2.500327229499817E-1  -9.794730693101883E-3  -2.068998962640762E-1   2.713544666767120E-1  -2.016644775867462E-1   2.609727680683136E-1  -2.830623686313629E-1  -3.351463079452515E-1  
 7.465465465465466E8    -2.401126623153687E-1   3.077153675258160E-2  -1.852539628744125E-1   2.924345135688782E-1  -1.825694292783737E-1   2.812408506870270E-1  -3.078662455081940E-1  -2.754305005073547E-1  
 7.489489489489490E8    -2.213719338178635E-1   6.619176268577576E-2  -1.599071472883225E-1   3.126767575740814E-1  -1.602129787206650E-1   3.013817071914673E-1  -3.205626308917999E-1  -2.173086255788803E-1  
 7.513513513513514E8    -1.975647509098053E-1   9.433589875698090E-2  -1.304335147142410E-1   3.304137885570526E-1  -1.336344629526138E-1   3.196144104003906E-1  -3.245926201343536E-1  -1.623137444257736E-1  
 7.537537537537538E8    -1.719786375761032E-1   1.155981570482254E-1  -9.731482714414597E-2   3.450054228305817E-1  -1.031570285558701E-1   3.351240456104279E-1  -3.222836852073669E-1  -1.097262725234032E-1  
 7.561561561561562E8    -1.467873603105545E-1   1.312754154205322E-1  -6.273876130580902E-2   3.545975387096405E-1  -6.856998056173325E-2   3.456713259220123E-1  -3.129478991031647E-1  -5.986736342310906E-2  
 7.585585585585586E8    -1.213774755597115E-1   1.427311599254608E-1  -2.677501924335957E-2   3.587004542350769E-1  -3.271563723683357E-2   3.503791987895966E-1  -2.974230945110321E-1  -1.360680907964706E-2  
 7.609609609609610E8    -9.712146222591400E-2   1.489074081182480E-1   8.530247956514359E-3   3.571951389312744E-1   2.009154064580798E-3   3.495663106441498E-1  -2.761484980583191E-1   2.867021597921848E-2  
 7.633633633633634E8    -7.575156539678574E-2   1.511668860912323E-1   4.161838814616203E-2   3.508994579315186E-1   3.418028727173805E-2   3.445254266262054E-1  -2.493557482957840E-1   6.619101762771606E-2  
 7.657657657657658E8    -5.854511260986328E-2   1.517068892717362E-1   7.147348672151566E-2   3.415420949459076E-1   6.357627362012863E-2   3.372314870357513E-1  -2.176340818405151E-1   9.758256375789642E-2  
 7.681681681681682E8    -4.410801455378532E-2   1.528838872909546E-1   9.801720827817917E-2   3.301274776458740E-1   9.122607111930847E-2   3.283658027648926E-1  -1.829776614904404E-1   1.219542026519775E-1  
 7.705705705705706E8    -3.098372183740139E-2   1.549870222806931E-1   1.215671449899674E-1   3.171028494834900E-1   1.173252239823341E-1   3.177884221076965E-1  -1.469356864690781E-1   1.398984044790268E-1  
 7.729729729729730E8    -1.733744330704212E-2   1.582072526216507E-1   1.433629095554352E-1   3.021855652332306E-1   1.414045691490173E-1   3.062714636325836E-1  -1.098931208252907E-1   1.521731168031693E-1  
 7.753753753753754E8    -2.838214393705130E-3   1.613876670598984E-1   1.624411493539810E-1   2.880543470382690E-1   1.634445190429688E-1   2.930892705917358E-1  -7.210004329681397E-2   1.576073020696640E-1  
 7.777777777777778E8     1.201373804360628E-2   1.636812686920166E-1   1.802060902118683E-1   2.746340334415436E-1   1.836820542812347E-1   2.789533734321594E-1  -3.533788397908211E-2   1.563947796821594E-1  
 7.801801801801802E8     2.615628577768803E-2   1.652523875236511E-1   1.975858360528946E-1   2.616290450096130E-1   2.021175175905228E-1   2.637667655944824E-1  -6.332785123959184E-4   1.493704617023468E-1  
 7.825825825825826E8     3.871896117925644E-2   1.679897308349609E-1   2.142855226993561E-1   2.484421133995056E-1   2.179292142391205E-1   2.478576451539993E-1   3.122946247458458E-2   1.371289044618607E-1  
 7.849849849849850E8     5.240364000201225E-2   1.745239049196243E-1   2.308303266763687E-1   2.355357408523560E-1   2.311269938945770E-1   2.330863475799561E-1   6.043677031993866E-2   1.198569089174271E-1  
 7.873873873873874E8     7.079271227121353E-2   1.836248636245728E-1   2.475208044052124E-1   2.233020961284638E-1   2.437757253646851E-1   2.190707474946976E-1   8.559414744377136E-2   9.696175903081894E-2  
 7.897897897897898E8     9.519907087087631E-2   1.914691329002380E-1   2.654555439949036E-1   2.103799730539322E-1   2.576678693294525E-1   2.055442035198212E-1   1.040637269616127E-1   6.997022777795792E-2  
 7.921921921921922E8     1.254254281520844E-1   1.959270685911179E-1   2.842602133750916E-1   1.948020309209824E-1   2.734455168247223E-1   1.916118562221527E-1   1.157929748296738E-1   4.263183102011681E-2  
 7.945945945945946E8     1.608408540487289E-1   1.946886032819748E-1   3.029132783412933E-1   1.768516302108765E-1   2.905277311801910E-1   1.763421744108200E-1   1.237760484218597E-1   1.571758277714253E-2  
 7.969969969969970E8     1.989124119281769E-1   1.853381991386414E-1   3.213553428649902E-1   1.560340523719788E-1   3.091056644916534E-1   1.584134995937347E-1   1.270327121019363E-1  -1.313141919672489E-2  
 7.993993993993994E8     2.373762726783752E-1   1.669905632734299E-1   3.378441631793976E-1   1.315326094627380E-1   3.264319598674774E-1   1.362534910440445E-1   1.229200065135956E-1  -4.079387709498406E-2  
 8.018018018018018E8     2.730288207530975E-1   1.397716253995895E-1   3.509793281555176E-1   1.052749454975128E-1   3.414578437805176E-1   1.119558066129684E-1   1.146025955677033E-1  -6.479647010564804E-2  
 8.042042042042042E8     3.039538562297821E-1   1.036990582942963E-1   3.632611632347107E-1   7.817953079938889E-2   3.554326593875885E-1   8.694856613874435E-2   1.030382364988327E-1  -8.617583662271500E-2  
 8.066066066066066E8     3.263525068759918E-1   6.403779238462448E-2   3.745091557502747E-1   4.860122874379158E-2   3.687313199043274E-1   5.930991843342781E-2   8.784483373165131E-2  -1.041087284684181E-1  
 8.090090090090090E8     3.425200581550598E-1   2.352222427725792E-2   3.819757103919983E-1   1.606053486466408E-2   3.788831233978272E-1   2.822209522128105E-2   6.987218558788300E-2  -1.166738420724869E-1  
 8.114114114114114E8     3.544079363346100E-1  -1.793424412608147E-2   3.844410777091980E-1  -1.711042411625385E-2   3.843539655208588E-1  -4.214002750813961E-3   5.246068164706230E-2  -1.233933866024017E-1  
 8.138138138138138E8     3.628332018852234E-1  -6.104921549558640E-2   3.837235569953919E-1  -4.906911775469780E-2   3.864278197288513E-1  -3.600426763296127E-2   3.740783408284187E-2  -1.265109926462174E-1  
 8.162162162162162E8     3.673033416271210E-1  -1.070185229182243E-1   3.810199201107025E-1  -8.058447390794754E-2   3.866637051105499E-1  -6.782804429531097E-2   2.479093708097935E-2  -1.272194236516953E-1  
 8.186186186186186E8     3.657882213592529E-1  -1.562722176313400E-1   3.762689530849457E-1  -1.120687872171402E-1   3.847684860229492E-1  -1.004669144749641E-1   1.528534665703774E-2  -1.265741884708405E-1  
 8.210210210210210E8     3.558384478092194E-1  -2.072483152151108E-1   3.686278462409973E-1  -1.442789286375046E-1   3.799155652523041E-1  -1.350222826004028E-1   8.042968809604645E-3  -1.261515766382217E-1  
 8.234234234234234E8     3.372217714786530E-1  -2.578077912330627E-1   3.568915426731110E-1  -1.760720014572144E-1   3.702072799205780E-1  -1.695639789104462E-1   4.874656442552805E-3  -1.262784153223038E-1  
