#  HZ   S   RI   R     50.00 
! Rohde & Schwarz ZVB8 2Ports - Version 2.81 - 1145.1010k08 SN: 100113
! Date: 2016-03-12 01:06:30
! Measurements: S11 S21 S12 S22 
! 
 6.000000000000000E8    -7.247039675712585E-1  -4.595563113689423E-1   1.281203294638544E-4   6.262595206499100E-2   1.664595212787390E-3   6.090773269534111E-2  -4.877207875251770E-1  -7.763713598251343E-1  
 6.024024024024024E8    -7.639347314834595E-1  -3.826273083686829E-1   5.842725280672312E-3   6.561457365751267E-2   7.237259764224291E-3   6.342608481645584E-2  -5.537077784538269E-1  -7.278359532356262E-1  
 6.048048048048048E8    -7.955552339553833E-1  -3.007121980190277E-1   1.197925489395857E-2   6.800371408462524E-2   1.311153266578913E-2   6.543351709842682E-2  -6.154205203056335E-1  -6.734399199485779E-1  
 6.072072072072072E8    -8.189881443977356E-1  -2.149012535810471E-1   1.857714913785458E-2   7.011977583169937E-2   1.930655352771282E-2   6.718017160892487E-2  -6.717498898506165E-1  -6.136074662208557E-1  
 6.096096096096096E8    -8.330024480819702E-1  -1.256311386823654E-1   2.573840320110321E-2   7.166329771280289E-2   2.607498317956924E-2   6.841458380222321E-2  -7.229926586151123E-1  -5.479273200035095E-1  
 6.120120120120120E8    -8.369443416595459E-1  -3.774836286902428E-2   3.349536284804344E-2   7.279276847839356E-2   3.301001340150833E-2   6.934414803981781E-2  -7.662391066551209E-1  -4.792407751083374E-1  
 6.144144144144144E8    -8.306912183761597E-1   5.115223303437233E-2   4.200009256601334E-2   7.315739989280701E-2   4.066269844770432E-2   6.966444104909897E-2  -8.034581542015076E-1  -4.066411554813385E-1  
 6.168168168168168E8    -8.138568997383118E-1   1.393665075302124E-1   5.115942284464836E-2   7.238393276929855E-2   4.886698722839356E-2   6.897562742233276E-2  -8.342848420143127E-1  -3.300163149833679E-1  
 6.192192192192192E8    -7.867713570594788E-1   2.252619713544846E-1   6.068664044141769E-2   7.031938433647156E-2   5.756957456469536E-2   6.730616092681885E-2  -8.581041097640991E-1  -2.501872479915619E-1  
 6.216216216216216E8    -7.497338652610779E-1   3.070104420185089E-1   7.023892551660538E-2   6.683973222970963E-2   6.639659404754639E-2   6.438081711530685E-2  -8.745008707046509E-1  -1.671782732009888E-1  
 6.240240240240240E8    -7.033000588417053E-1   3.833960592746735E-1   7.976415753364563E-2   6.213143467903137E-2   7.509798556566238E-2   6.035508587956429E-2  -8.825512528419495E-1  -8.219557255506516E-2  
 6.264264264264264E8    -6.486862897872925E-1   4.525545835494995E-1   8.891133219003677E-2   5.603997781872749E-2   8.386866748332977E-2   5.512574687600136E-2  -8.814352154731751E-1   1.658740453422070E-3  
 6.288288288288288E8    -5.875563621520996E-1   5.135776400566101E-1   9.728489071130753E-2   4.832129180431366E-2   9.190975129604340E-2   4.837696999311447E-2  -8.726413846015930E-1   8.371119946241379E-2  
 6.312312312312312E8    -5.218105316162109E-1   5.668218731880188E-1   1.041428968310356E-1   3.964494913816452E-2   9.848326444625855E-2   4.073097929358482E-2  -8.569972515106201E-1   1.637140512466431E-1  
 6.336336336336336E8    -4.516915977001190E-1   6.122171282768250E-1   1.095507666468620E-1   3.112349286675453E-2   1.042677238583565E-1   3.316986933350563E-2  -8.344571590423584E-1   2.425909787416458E-1  
 6.360360360360360E8    -3.773669600486755E-1   6.503726243972778E-1   1.147581711411476E-1   2.295655570924282E-2   1.096571236848831E-1   2.594715915620327E-2  -8.043845891952515E-1   3.193406164646149E-1  
 6.384384384384384E8    -2.980899214744568E-1   6.794871091842651E-1   1.203510016202927E-1   1.428447663784027E-2   1.157171800732613E-1   1.835618168115616E-2  -7.661574482917786E-1   3.935627639293671E-1  
 6.408408408408408E8    -2.161185294389725E-1   6.978708505630493E-1   1.258393526077271E-1   4.337085876613855E-3   1.219807043671608E-1   9.393439628183842E-3  -7.201814651489258E-1   4.640649855136871E-1  
 6.432432432432432E8    -1.342340111732483E-1   7.056364417076111E-1   1.306411325931549E-1  -6.884571630507708E-3   1.274874508380890E-1  -9.873713133856654E-4  -6.670116186141968E-1   5.290880203247070E-1  
 6.456456456456456E8    -5.327993258833885E-2   7.041864991188049E-1   1.341366022825241E-1  -1.888112723827362E-2   1.320881098508835E-1  -1.244377158582211E-2  -6.074395775794983E-1   5.882672667503357E-1  
 6.480480480480480E8     2.644179761409760E-2   6.933683753013611E-1   1.368399411439896E-1  -3.121901303529739E-2   1.361685842275620E-1  -2.428841032087803E-2  -5.418804883956909E-1   6.412001848220825E-1  
 6.504504504504504E8     1.037485823035240E-1   6.718988418579102E-1   1.393170505762100E-1  -4.459374770522118E-2   1.401734054088593E-1  -3.740503638982773E-2  -4.711284637451172E-1   6.868753433227539E-1  
 6.528528528528528E8     1.751262843608856E-1   6.399646997451782E-1   1.407161653041840E-1  -5.967557802796364E-2   1.431502401828766E-1  -5.248777568340302E-2  -3.959932923316956E-1   7.239862084388733E-1  
 6.552552552552552E8     2.384082227945328E-1   6.000721454620361E-1   1.397970318794251E-1  -7.615601271390915E-2   1.440398544073105E-1  -6.928599625825882E-2  -3.185102045536041E-1   7.523085474967957E-1  
 6.576576576576576E8     2.921387255191803E-1   5.547285676002502E-1   1.366149336099625E-1  -9.339645504951477E-2   1.424775421619415E-1  -8.731459826231003E-2  -2.396677285432816E-1   7.724212408065796E-1  
 6.600600600600600E8     3.378706574440002E-1   5.070763230323792E-1   1.300488561391830E-1  -1.108332946896553E-1   1.374966949224472E-1  -1.059601753950119E-1  -1.600357145071030E-1   7.843117713928223E-1  
 6.624624624624624E8     3.769549429416657E-1   4.583007395267487E-1   1.208848133683205E-1  -1.271686851978302E-1   1.293568164110184E-1  -1.237790659070015E-1  -8.047839999198914E-2   7.886863350868225E-1  
 6.648648648648648E8     4.098137319087982E-1   4.090622067451477E-1   1.093417555093765E-1  -1.418140083551407E-1   1.182448044419289E-1  -1.402404159307480E-1  -2.378010423853993E-3   7.856787443161011E-1  
 6.672672672672672E8     4.384910762310028E-1   3.599159419536591E-1   9.613259881734848E-2  -1.540398895740509E-1   1.050419509410858E-1  -1.543480455875397E-1   7.469400763511658E-2   7.766550779342651E-1  
 6.696696696696696E8     4.642114341259003E-1   3.096177279949188E-1   8.274513483047485E-2  -1.636577248573303E-1   9.120062738656998E-2  -1.657197326421738E-1   1.513298898935318E-1   7.611426711082459E-1  
 6.720720720720720E8     4.857994019985199E-1   2.560584247112274E-1   7.036063075065613E-2  -1.721138805150986E-1   7.798151671886444E-2  -1.759687364101410E-1   2.273150384426117E-1   7.377206087112427E-1  
 6.744744744744744E8     5.015598535537720E-1   2.004028409719467E-1   5.779941380023956E-2  -1.803378611803055E-1   6.436758488416672E-2  -1.858526170253754E-1   3.004324734210968E-1   7.057301402091980E-1  
 6.768768768768768E8     5.119339823722839E-1   1.424768716096878E-1   4.521488770842552E-2  -1.881003975868225E-1   5.063328891992569E-2  -1.948757916688919E-1   3.699661195278168E-1   6.664100289344788E-1  
 6.792792792792792E8     5.137571096420288E-1   8.135724812746048E-2   3.293069824576378E-2  -1.969896405935288E-1   3.683248534798622E-2  -2.048254460096359E-1   4.350648820400238E-1   6.185059547424316E-1  
 6.816816816816816E8     5.033660531044006E-1   2.173939533531666E-2   1.840971037745476E-2  -2.071214020252228E-1   2.028856053948402E-2  -2.160713374614716E-1   4.934951364994049E-1   5.633057951927185E-1  
 6.840840840840840E8     4.834194481372833E-1  -3.121237084269524E-2   7.045948877930641E-4  -2.172334045171738E-1   7.108310092007741E-5  -2.267142236232758E-1   5.449717044830322E-1   5.026861429214478E-1  
 6.864864864864864E8     4.577952921390533E-1  -7.464051991701126E-2  -2.099979110062122E-2  -2.256811857223511E-1  -2.422676980495453E-2  -2.348863184452057E-1   5.893782973289490E-1   4.374918639659882E-1  
 6.888888888888888E8     4.326807856559753E-1  -1.094775646924973E-1  -4.533261805772781E-2  -2.300477176904678E-1  -5.083391070365906E-2  -2.383445203304291E-1   6.275112032890320E-1   3.687134087085724E-1  
 6.912912912912912E8     4.091285169124603E-1  -1.407547891139984E-1  -6.949203461408615E-2  -2.311238050460815E-1  -7.747475802898407E-2  -2.375084608793259E-1   6.587784886360169E-1   2.953070700168610E-1  
 6.936936936936936E8     3.841891288757324E-1  -1.689518243074417E-1  -9.364335983991623E-2  -2.304819077253342E-1  -1.045295298099518E-1  -2.342227846384049E-1   6.817475557327271E-1   2.183619290590286E-1  
 6.960960960960960E8     3.591751754283905E-1  -1.930904984474182E-1  -1.194405257701874E-1  -2.270216643810272E-1  -1.327611058950424E-1  -2.272557616233826E-1   6.954138875007629E-1   1.390728801488876E-1  
 6.984984984984984E8     3.359330594539642E-1  -2.141414135694504E-1  -1.454869955778122E-1  -2.201535105705261E-1  -1.608088016510010E-1  -2.158389687538147E-1   6.997302174568176E-1   5.909083038568497E-2  
 7.009009009009008E8     3.148685693740845E-1  -2.338340729475021E-1  -1.717695891857147E-1  -2.085916399955750E-1  -1.869937628507614E-1  -2.000705748796463E-1   6.951850056648254E-1  -1.957247592508793E-2  
 7.033033033033032E8     2.946271598339081E-1  -2.557488977909088E-1  -1.960823535919190E-1  -1.923652440309525E-1  -2.086435854434967E-1  -1.818367689847946E-1   6.825500726699829E-1  -9.631460160017014E-2  
 7.057057057057056E8     2.711191773414612E-1  -2.785964310169220E-1  -2.186152786016464E-1  -1.736239790916443E-1  -2.269029170274735E-1  -1.638985276222229E-1   6.611602902412415E-1  -1.699352413415909E-1  
 7.081081081081080E8     2.436601370573044E-1  -3.000792860984802E-1  -2.402995228767395E-1  -1.516283303499222E-1  -2.438935041427612E-1  -1.444368958473206E-1   6.298909187316895E-1  -2.410657107830048E-1  
 7.105105105105104E8     2.160591036081314E-1  -3.180677890777588E-1  -2.592594921588898E-1  -1.267765760421753E-1  -2.595216929912567E-1  -1.215906813740730E-1   5.901350975036621E-1  -3.071626424789429E-1  
 7.129129129129129E8     1.894296109676361E-1  -3.356952071189880E-1  -2.736001908779144E-1  -9.983129054307938E-2  -2.720715403556824E-1  -9.499140083789825E-2   5.422851443290710E-1  -3.685105741024017E-1  
 7.153153153153153E8     1.608594357967377E-1  -3.550817370414734E-1  -2.827471792697907E-1  -7.260987907648087E-2  -2.802724540233612E-1  -6.614691764116287E-2   4.869053363800049E-1  -4.248127341270447E-1  
 7.177177177177178E8     1.261304467916489E-1  -3.753021061420441E-1  -2.874211668968201E-1  -4.637818410992622E-2  -2.839035987854004E-1  -3.775593265891075E-2   4.235449731349945E-1  -4.754378497600555E-1  
 7.201201201201202E8     8.323585242033005E-2  -3.916482031345367E-1  -2.899594902992249E-1  -2.142949588596821E-2  -2.849676609039307E-1  -1.220396254211664E-2   3.526552319526672E-1  -5.168037414550781E-1  
 7.225225225225226E8     3.456005454063416E-2  -4.008828997612000E-1  -2.912387251853943E-1   3.653626656159759E-3  -2.849967777729034E-1   9.951335377991200E-3   2.770145237445831E-1  -5.464547872543335E-1  
 7.249249249249250E8    -1.727465540170670E-2  -4.003309607505798E-1  -2.922136783599854E-1   2.965182997286320E-2  -2.856003046035767E-1   2.882200479507446E-2   1.995705217123032E-1  -5.627346634864807E-1  
 7.273273273273274E8    -6.762576103210449E-2  -3.900416791439056E-1  -2.929006814956665E-1   5.678591504693031E-2  -2.872368097305298E-1   4.917912930250168E-2   1.221080571413040E-1  -5.661526918411255E-1  
 7.297297297297298E8    -1.127512902021408E-1  -3.721080422401428E-1  -2.919088602066040E-1   8.492239564657211E-2  -2.875509560108185E-1   7.381023466587067E-2   4.700754955410957E-2  -5.583287477493286E-1  
 7.321321321321322E8    -1.508050262928009E-1  -3.503053188323975E-1  -2.871610820293427E-1   1.126087531447411E-1  -2.835816442966461E-1   1.018626987934113E-1  -2.442550472915173E-2  -5.405237674713135E-1  
 7.345345345345346E8    -1.852851361036301E-1  -3.283928632736206E-1  -2.781360149383545E-1   1.389037072658539E-1  -2.746404111385346E-1   1.307607740163803E-1  -9.239784628152847E-2  -5.132947564125061E-1  
 7.369369369369370E8    -2.203561663627625E-1  -3.047792911529541E-1  -2.653089761734009E-1   1.630945652723312E-1  -2.610420584678650E-1   1.578583568334580E-1  -1.540213972330093E-1  -4.763956367969513E-1  
 7.393393393393394E8    -2.568217515945435E-1  -2.761064171791077E-1  -2.495744079351425E-1   1.841248869895935E-1  -2.448526769876480E-1   1.807128489017487E-1  -2.075545638799667E-1  -4.322965443134308E-1  
 7.417417417417418E8    -2.919254302978516E-1  -2.395998239517212E-1  -2.338869273662567E-1   2.020975947380066E-1  -2.287263274192810E-1   1.995187997817993E-1  -2.526693940162659E-1  -3.818837404251099E-1  
 7.441441441441442E8    -3.227570354938507E-1  -1.940610706806183E-1  -2.187265902757645E-1   2.191888242959976E-1  -2.139066159725189E-1   2.164362519979477E-1  -2.884139716625214E-1  -3.264707028865814E-1  
 7.465465465465466E8    -3.443473279476166E-1  -1.399124562740326E-1  -2.041443735361099E-1   2.359355390071869E-1  -1.999739110469818E-1   2.325143069028854E-1  -3.138307332992554E-1  -2.679822444915772E-1  
 7.489489489489490E8    -3.521865904331207E-1  -8.093040436506271E-2  -1.899880468845367E-1   2.538758218288422E-1  -1.867574006319046E-1   2.494832128286362E-1  -3.279877007007599E-1  -2.074652165174484E-1  
 7.513513513513514E8    -3.454513251781464E-1  -2.425414882600308E-2  -1.735903024673462E-1   2.744997739791870E-1  -1.714614927768707E-1   2.693582177162170E-1  -3.301756381988525E-1  -1.475382298231125E-1  
 7.537537537537538E8    -3.279487788677216E-1   2.508124709129334E-2  -1.515972614288330E-1   2.965632975101471E-1  -1.506889462471008E-1   2.908286750316620E-1  -3.208244442939758E-1  -9.256792813539505E-2  
 7.561561561561562E8    -3.053230643272400E-1   6.462019681930542E-2  -1.244990378618240E-1   3.157290518283844E-1  -1.228237152099609E-1   3.094466924667358E-1  -3.042902350425720E-1  -4.643056169152260E-2  
 7.585585585585586E8    -2.819381952285767E-1   9.717755019664764E-2  -9.315287321805954E-2   3.293165862560272E-1  -9.119213372468948E-2   3.220280408859253E-1  -2.855580747127533E-1  -7.637892849743366E-3  
 7.609609609609610E8    -2.583829462528229E-1   1.258502751588821E-1  -6.129826977849007E-2   3.370926380157471E-1  -6.022355705499649E-2   3.285168409347534E-1  -2.667587995529175E-1   2.666055783629417E-2  
 7.633633633633634E8    -2.339175939559937E-1   1.511794626712799E-1  -3.028804063796997E-2   3.407937586307526E-1  -3.092375770211220E-2   3.319098651409149E-1  -2.469946295022965E-1   5.971187725663185E-2  
 7.657657657657658E8    -2.084373384714127E-1   1.742610037326813E-1  -2.111438334395643E-5   3.411236405372620E-1  -2.721940167248249E-3   3.331205844879150E-1  -2.237544804811478E-1   9.161224216222763E-2  
 7.681681681681682E8    -1.813855469226837E-1   1.951287388801575E-1   2.826081775128841E-2   3.381114006042481E-1   2.519381232559681E-2   3.322204947471619E-1  -1.962940394878388E-1   1.221369355916977E-1  
 7.705705705705706E8    -1.512374132871628E-1   2.128129303455353E-1   5.437528714537621E-2   3.319545984268189E-1   5.213456600904465E-2   3.286998867988586E-1  -1.629690527915955E-1   1.503142416477203E-1  
 7.729729729729730E8    -1.178590133786202E-1   2.261686623096466E-1   7.769079506397247E-2   3.233087360858917E-1   7.660548388957977E-2   3.239790201187134E-1  -1.218923106789589E-1   1.738051474094391E-1  
 7.753753753753754E8    -8.243294060230255E-2   2.323134690523148E-1   9.797573089599609E-2   3.161480426788330E-1   9.903538972139359E-2   3.187665343284607E-1  -7.325832545757294E-2   1.869153827428818E-1  
 7.777777777777778E8    -5.052606016397476E-2   2.304542362689972E-1   1.178648769855499E-1   3.116534948348999E-1   1.213652715086937E-1   3.139589428901672E-1  -2.240053191781044E-2   1.858660429716110E-1  
 7.801801801801802E8    -2.442068792879582E-2   2.246312797069550E-1   1.401388794183731E-1   3.079411983489990E-1   1.448714286088944E-1   3.084186017513275E-1   2.351911924779415E-2   1.708084046840668E-1  
 7.825825825825826E8    -4.284021910279989E-3   2.182428389787674E-1   1.648103892803192E-1   3.028929233551025E-1   1.690421551465988E-1   3.004594147205353E-1   5.992261320352554E-2   1.468445509672165E-1  
 7.849849849849850E8     1.112247817218304E-2   2.146819233894348E-1   1.911245435476303E-1   2.951885461807251E-1   1.920691132545471E-1   2.901577949523926E-1   8.657258749008179E-2   1.201097518205643E-1  
 7.873873873873874E8     2.576531283557415E-2   2.167302966117859E-1   2.168329209089279E-1   2.850235998630524E-1   2.136622965335846E-1   2.772080302238464E-1   1.079231277108192E-1   9.254758059978485E-2  
 7.897897897897898E8     4.429050907492638E-2   2.221091240644455E-1   2.426477223634720E-1   2.728493511676788E-1   2.352482229471207E-1   2.636539638042450E-1   1.245108023285866E-1   6.234363839030266E-2  
 7.921921921921922E8     6.930404156446457E-2   2.275853902101517E-1   2.686664760112763E-1   2.573340833187103E-1   2.573315501213074E-1   2.492250800132752E-1   1.345650106668472E-1   3.020939603447914E-2  
 7.945945945945946E8     9.974950551986694E-2   2.285230606794357E-1   2.940673530101776E-1   2.385510355234146E-1   2.802277803421021E-1   2.329891920089722E-1   1.375607848167419E-1  -1.581202843226492E-3  
 7.969969969969970E8     1.322631835937500E-1   2.234601974487305E-1   3.184536993503571E-1   2.161341458559036E-1   3.037168383598328E-1   2.136752009391785E-1   1.337312459945679E-1  -3.221136704087257E-2  
 7.993993993993994E8     1.651608049869537E-1   2.126883417367935E-1   3.404104709625244E-1   1.902862042188644E-1   3.257997632026672E-1   1.906075477600098E-1   1.237613409757614E-1  -5.849127843976021E-2  
 8.018018018018018E8     1.972098946571350E-1   1.962705701589584E-1   3.592950701713562E-1   1.614580452442169E-1   3.457957804203033E-1   1.644305735826492E-1   1.100854873657227E-1  -8.001085370779038E-2  
 8.042042042042042E8     2.283380776643753E-1   1.743503659963608E-1   3.756947517395020E-1   1.303549259901047E-1   3.630976974964142E-1   1.361105293035507E-1   9.498339891433716E-2  -9.623020887374878E-2  
 8.066066066066066E8     2.562459111213684E-1   1.484612375497818E-1   3.882912397384644E-1   9.845293313264847E-2   3.772474229335785E-1   1.068684980273247E-1   7.952423393726349E-2  -1.086692959070206E-1  
 8.090090090090090E8     2.808981239795685E-1   1.181161701679230E-1   3.979285657405853E-1   6.591389328241348E-2   3.889221549034119E-1   7.668338716030121E-2   6.372949481010437E-2  -1.173123344779015E-1  
 8.114114114114114E8     3.014849126338959E-1   8.408696204423904E-2   4.053119122982025E-1   3.294649720191956E-2   3.987131714820862E-1   4.566854611039162E-2   4.859485849738121E-2  -1.221543252468109E-1  
 8.138138138138138E8     3.169274330139160E-1   4.770781472325325E-2   4.105889201164246E-1  -1.209775335155428E-3   4.067656993865967E-1   1.273658499121666E-2   3.563541173934937E-2  -1.237417608499527E-1  
 8.162162162162162E8     3.289593756198883E-1   1.032381597906351E-2   4.126188457012177E-1  -3.703988716006279E-2   4.117424190044403E-1  -2.242075279355049E-2   2.584186382591724E-2  -1.228553950786591E-1  
 8.186186186186186E8     3.371901214122772E-1  -2.958891913294792E-2   4.102272987365723E-1  -7.339423149824143E-2   4.124235808849335E-1  -5.887020751833916E-2   2.137102559208870E-2  -1.221236363053322E-1  
 8.210210210210210E8     3.407184779644013E-1  -7.196091860532761E-2   4.034403264522553E-1  -1.093172729015350E-1   4.086180925369263E-1  -9.559258073568344E-2   1.993320323526859E-2  -1.262721270322800E-1  
 8.234234234234234E8     3.384617865085602E-1  -1.163592711091042E-1   3.930689990520477E-1  -1.438723951578140E-1   4.007728099822998E-1  -1.315334886312485E-1   1.647046394646168E-2  -1.357706338167191E-1  
