#  HZ   S   RI   R     50.00 
! Rohde & Schwarz ZVB8 2Ports - Version 2.81 - 1145.1010k08 SN: 100113
! Date: 2016-05-04 02:49:16
! Measurements: S11 S21 S12 S22 
! 
 6.000000000000000E8    -8.803811073303223E-1   3.504244089126587E-1   8.758448529988527E-5  -4.269235068932176E-4   1.173480850411579E-4  -4.033423028886318E-4  -8.421570658683777E-1  -4.818740189075470E-1  
 6.024024024024024E8    -8.744146823883057E-1   3.631016612052918E-1   1.418609463144094E-4  -4.334709956310689E-4   1.364502240903676E-4  -4.099789075553417E-4  -8.465147614479065E-1  -4.732405245304108E-1  
 6.048048048048048E8    -8.680292963981628E-1   3.757881224155426E-1   1.358829031232745E-4  -4.486422694753856E-4   1.846427476266399E-4  -4.261863650754094E-4  -8.512706160545349E-1  -4.644976854324341E-1  
 6.072072072072072E8    -8.611192703247070E-1   3.893642723560333E-1   1.956936466740444E-4  -5.399358342401683E-4   1.958527718670666E-4  -4.915682366117835E-4  -8.557384014129639E-1  -4.560595154762268E-1  
 6.096096096096096E8    -8.538227677345276E-1   4.033404290676117E-1   1.817309239413589E-4  -4.596754442900419E-4   1.738318533170968E-4  -4.388727247714996E-4  -8.604107499122620E-1  -4.464678466320038E-1  
 6.120120120120120E8    -8.483949303627014E-1   4.139415919780731E-1   2.770590654108673E-4  -4.385698121041060E-4   2.480966504663229E-4  -5.153179517947137E-4  -8.642161488533020E-1  -4.386466443538666E-1  
 6.144144144144144E8    -8.413374423980713E-1   4.261336028575897E-1   2.902621927205473E-4  -4.229907935950905E-4   4.051504656672478E-4  -4.268027259968221E-4  -8.677585124969482E-1  -4.310553371906281E-1  
 6.168168168168168E8    -8.334302306175232E-1   4.382244944572449E-1   4.969503497704864E-4  -4.503827076405287E-4   5.137437256053090E-4  -4.277507832739502E-4  -8.718125820159912E-1  -4.226597249507904E-1  
 6.192192192192192E8    -8.256899118423462E-1   4.500447809696198E-1   6.177272880449891E-4  -4.773100954480469E-4   5.524578155018389E-4  -4.440527409315109E-4  -8.759723305702210E-1  -4.138334989547730E-1  
 6.216216216216216E8    -8.175030350685120E-1   4.618259072303772E-1   8.025372517295182E-4  -5.561556899920106E-4   7.218441460281611E-4  -4.776778514496982E-4  -8.805015683174133E-1  -4.038488268852234E-1  
 6.240240240240240E8    -8.091519474983215E-1   4.730409085750580E-1   9.677165071479976E-4  -6.666850531473756E-4   9.742309339344502E-4  -6.329013849608600E-4  -8.853189349174500E-1  -3.935386240482330E-1  
 6.264264264264264E8    -8.008919358253479E-1   4.850921034812927E-1   1.134521327912808E-3  -9.045055485330522E-4   1.152246957644820E-3  -7.934151217341423E-4  -8.894904255867004E-1  -3.829062283039093E-1  
 6.288288288288288E8    -7.925424575805664E-1   4.965877532958984E-1   1.267900108359754E-3  -1.146674156188965E-3   1.239674515090883E-3  -1.182211446575820E-3  -8.931953907012940E-1  -3.739006221294403E-1  
 6.312312312312312E8    -7.849757075309753E-1   5.072055459022522E-1   1.463892753235996E-3  -1.464422442950308E-3   1.421558088622987E-3  -1.490545109845698E-3  -8.962201476097107E-1  -3.651843965053558E-1  
 6.336336336336336E8    -7.779517173767090E-1   5.177261829376221E-1   1.406470197252929E-3  -1.891177729703486E-3   1.495434553362429E-3  -1.873543602414429E-3  -8.992002010345459E-1  -3.576806187629700E-1  
 6.360360360360360E8    -7.706798911094666E-1   5.286483168601990E-1   1.283091143704951E-3  -2.290632808580995E-3   1.323841395787895E-3  -2.301387256011367E-3  -9.021602869033814E-1  -3.500596582889557E-1  
 6.384384384384384E8    -7.621915936470032E-1   5.410434603691101E-1   1.072931219823659E-3  -2.652279799804092E-3   1.073226798325777E-3  -2.614924451336265E-3  -9.052433371543884E-1  -3.416081368923187E-1  
 6.408408408408408E8    -7.533989548683167E-1   5.533484816551209E-1   8.506401791237295E-4  -2.834247192367911E-3   8.134868694469333E-4  -2.916038036346436E-3  -9.086840748786926E-1  -3.327414691448212E-1  
 6.432432432432432E8    -7.443240284919739E-1   5.654439926147461E-1   4.538325592875481E-4  -3.056463319808245E-3   4.768840444739908E-4  -3.063696436583996E-3  -9.120136499404907E-1  -3.241701424121857E-1  
 6.456456456456456E8    -7.344039082527161E-1   5.769089460372925E-1   1.962203969014809E-4  -3.243480110540986E-3   2.114974922733381E-4  -3.150691743940115E-3  -9.153143763542175E-1  -3.154553771018982E-1  
 6.480480480480480E8    -7.242028117179871E-1   5.879509449005127E-1  -5.424664414022118E-5  -3.249360015615821E-3  -2.730516280280426E-5  -3.246630774810910E-3  -9.184178113937378E-1  -3.069390952587128E-1  
 6.504504504504504E8    -7.125527858734131E-1   6.000204086303711E-1  -2.802221861202270E-4  -3.276444971561432E-3  -2.428945590509102E-4  -3.309831488877535E-3  -9.207136631011963E-1  -2.977501749992371E-1  
 6.528528528528528E8    -7.013736963272095E-1   6.115068197250366E-1  -4.927656846120954E-4  -3.260361496359110E-3  -5.002250545658171E-4  -3.252888564020395E-3  -9.229549169540405E-1  -2.882835865020752E-1  
 6.552552552552552E8    -6.904555559158325E-1   6.219458580017090E-1  -6.667430279776454E-4  -3.295249538496137E-3  -6.899542058818042E-4  -3.228848334401846E-3  -9.253976941108704E-1  -2.795891463756561E-1  
 6.576576576576576E8    -6.795691251754761E-1   6.317287683486939E-1  -8.054209756664932E-4  -3.234118921682239E-3  -8.555473759770393E-4  -3.250606823712587E-3  -9.281166195869446E-1  -2.713182270526886E-1  
 6.600600600600600E8    -6.670890450477600E-1   6.421350240707398E-1  -9.146512602455914E-4  -3.245967440307140E-3  -9.376031230203807E-4  -3.233908908441663E-3  -9.311264753341675E-1  -2.629055678844452E-1  
 6.624624624624624E8    -6.539636850357056E-1   6.535441875457764E-1  -1.068800454959273E-3  -3.188830567523837E-3  -1.042702235281467E-3  -3.176681930199266E-3  -9.336192011833191E-1  -2.529909312725067E-1  
 6.648648648648648E8    -6.409244537353516E-1   6.643142700195313E-1  -1.138858264312148E-3  -3.141521941870451E-3  -1.085812575183809E-3  -3.154338104650378E-3  -9.359059333801270E-1  -2.432384341955185E-1  
 6.672672672672672E8    -6.277287602424622E-1   6.741895079612732E-1  -1.242276397533715E-3  -3.152215620502830E-3  -1.112523023039103E-3  -3.121635178104043E-3  -9.381753802299500E-1  -2.335122972726822E-1  
 6.696696696696696E8    -6.142544746398926E-1   6.836413741111755E-1  -1.214135787449777E-3  -3.172622062265873E-3  -1.161477994173765E-3  -3.184928093105555E-3  -9.401490688323975E-1  -2.244805544614792E-1  
 6.720720720720720E8    -6.000355482101440E-1   6.926611661911011E-1  -1.194935990497470E-3  -3.183605149388313E-3  -1.162298023700714E-3  -3.221068531274796E-3  -9.420695304870606E-1  -2.156002968549728E-1  
 6.744744744744744E8    -5.848991274833679E-1   7.018967270851135E-1  -1.162531669251621E-3  -3.272360656410456E-3  -1.163263805210590E-3  -3.299061674624682E-3  -9.436261057853699E-1  -2.062664777040482E-1  
 6.768768768768768E8    -5.700672268867493E-1   7.104521989822388E-1  -1.148973824456334E-3  -3.358474932610989E-3  -1.035809284076095E-3  -3.342658746987581E-3  -9.452648758888245E-1  -1.970000863075256E-1  
 6.792792792792792E8    -5.556907653808594E-1   7.182055115699768E-1  -9.713571635074914E-4  -3.472710493952036E-3  -9.944946505129337E-4  -3.492713673040271E-3  -9.469565749168396E-1  -1.875697970390320E-1  
 6.816816816816816E8    -5.412602424621582E-1   7.255929708480835E-1  -7.560740341432393E-4  -3.682705806568265E-3  -7.374905399046838E-4  -3.628408303484321E-3  -9.488497972488403E-1  -1.780336797237396E-1  
 6.840840840840840E8    -5.265691876411438E-1   7.326053977012634E-1  -5.741880158893764E-4  -4.052159376442432E-3  -4.986943094991148E-4  -4.043042194098234E-3  -9.505192637443543E-1  -1.681669801473618E-1  
 6.864864864864864E8    -5.111988186836243E-1   7.395478487014771E-1  -3.041555173695087E-4  -4.536895081400871E-3  -2.924330765381455E-4  -4.512992221862078E-3  -9.510295987129211E-1  -1.590418666601181E-1  
 6.888888888888888E8    -4.961588382720947E-1   7.460346221923828E-1  -2.107181207975373E-4  -5.421652924269438E-3  -1.545690756756812E-4  -5.280558019876480E-3  -9.518425464630127E-1  -1.491002589464188E-1  
 6.912912912912912E8    -4.827056229114533E-1   7.526050806045532E-1  -2.816706255543977E-4  -6.325173657387495E-3  -2.102399012073875E-4  -6.387413479387760E-3  -9.525983333587647E-1  -1.392887234687805E-1  
 6.936936936936936E8    -4.697285890579224E-1   7.593809366226196E-1  -6.948515074327588E-4  -7.529139518737793E-3  -6.575961597263813E-4  -7.503189612179995E-3  -9.533944725990295E-1  -1.295682489871979E-1  
 6.960960960960960E8    -4.559333622455597E-1   7.675040364265442E-1  -1.630076789297164E-3  -8.614991791546345E-3  -1.505691674537957E-3  -8.632581681013107E-3  -9.547300338745117E-1  -1.196775510907173E-1  
 6.984984984984984E8    -4.416843652725220E-1   7.756502628326416E-1  -2.747878897935152E-3  -9.449522942304611E-3  -2.765041543170810E-3  -9.396735578775406E-3  -9.557638168334961E-1  -1.066776588559151E-1  
 7.009009009009008E8    -4.261727929115295E-1   7.836841940879822E-1  -4.038264509290457E-3  -9.931464679539204E-3  -4.202612675726414E-3  -9.888892993330956E-3  -9.566397070884705E-1  -9.505394101142883E-2  
 7.033033033033032E8    -4.091927707195282E-1   7.915340065956116E-1  -5.455749109387398E-3  -1.007455028593540E-2  -5.571820773184300E-3  -9.973216801881790E-3  -9.569672942161560E-1  -8.594010025262833E-2  
 7.057057057057056E8    -3.912032842636108E-1   7.979373931884766E-1  -6.727742496877909E-3  -1.005937997251749E-2  -6.619237363338471E-3  -9.896548464894295E-3  -9.567301869392395E-1  -8.042071014642716E-2  
 7.081081081081080E8    -3.712294399738312E-1   8.042479753494263E-1  -7.886053994297981E-3  -9.786549955606461E-3  -7.702945731580257E-3  -9.888559579849243E-3  -9.570283889770508E-1  -7.336208224296570E-2  
 7.105105105105104E8    -3.503937423229218E-1   8.105075359344482E-1  -8.938086219131947E-3  -9.525417350232601E-3  -8.803151547908783E-3  -9.673548862338066E-3  -9.572361111640930E-1  -6.543925404548645E-2  
 7.129129129129129E8    -3.306483626365662E-1   8.149532675743103E-1  -9.939599782228470E-3  -9.180648252367973E-3  -9.767821058630943E-3  -9.383207187056541E-3  -9.577306509017944E-1  -5.563845112919807E-2  
 7.153153153153153E8    -3.112992048263550E-1   8.185009956359863E-1  -1.086171437054873E-2  -8.862370625138283E-3  -1.076090335845947E-2  -8.987442590296269E-3  -9.581890702247620E-1  -4.419892653822899E-2  
 7.177177177177178E8    -2.906001806259155E-1   8.219628334045410E-1  -1.177045237272978E-2  -8.507830090820789E-3  -1.164341438561678E-2  -8.600099943578243E-3  -9.584012031555176E-1  -3.178863599896431E-2  
 7.201201201201202E8    -2.678607404232025E-1   8.246497511863709E-1  -1.263556443154812E-2  -8.216374553740025E-3  -1.256207749247551E-2  -8.260188624262810E-3  -9.584491252899170E-1  -2.023892477154732E-2  
 7.225225225225226E8    -2.451812475919724E-1   8.260894417762756E-1  -1.359091140329838E-2  -7.819581776857376E-3  -1.350262667983770E-2  -7.902082055807114E-3  -9.584783315658569E-1  -8.677897974848747E-3  
 7.249249249249250E8    -2.222082465887070E-1   8.267678022384644E-1  -1.453144289553165E-2  -7.324884645640850E-3  -1.438004616647959E-2  -7.638604845851660E-3  -9.578062295913696E-1   1.742005260894075E-4  
 7.273273273273274E8    -2.009091228246689E-1   8.264475464820862E-1  -1.558968331664801E-2  -6.837988272309303E-3  -1.531940605491400E-2  -7.120537105947733E-3  -9.570257663726807E-1   9.788404218852520E-3  
 7.297297297297298E8    -1.815880537033081E-1   8.252111673355103E-1  -1.642801612615585E-2  -6.315937731415033E-3  -1.631934940814972E-2  -6.617867387831211E-3  -9.564402103424072E-1   2.034686319530010E-2  
 7.321321321321322E8    -1.623316407203674E-1   8.235584497451782E-1  -1.727089099586010E-2  -5.842136219143868E-3  -1.724725216627121E-2  -5.834626499563456E-3  -9.559813141822815E-1   3.159517049789429E-2  
 7.345345345345346E8    -1.413432508707047E-1   8.216640949249268E-1  -1.805905438959599E-2  -5.414830986410379E-3  -1.811765506863594E-2  -5.278042983263731E-3  -9.544103145599365E-1   4.233780130743980E-2  
 7.369369369369370E8    -1.184655949473381E-1   8.188812136650085E-1  -1.901919580996037E-2  -5.015661474317312E-3  -1.905387826263905E-2  -4.846554715186358E-3  -9.532605409622192E-1   5.339238047599793E-2  
 7.393393393393394E8    -9.513289481401444E-2   8.148754239082336E-1  -2.018173597753048E-2  -4.483233671635389E-3  -2.014018967747688E-2  -4.412834998220205E-3  -9.522204399108887E-1   6.434641033411026E-2  
 7.417417417417418E8    -7.154423743486404E-2   8.090718984603882E-1  -2.148194052278996E-2  -3.795588854700327E-3  -2.140012569725514E-2  -3.814604133367539E-3  -9.507364034652710E-1   7.450009882450104E-2  
 7.441441441441442E8    -4.741246253252029E-2   8.022191524505615E-1  -2.285437472164631E-2  -2.943351399153471E-3  -2.279481664299965E-2  -3.090295940637589E-3  -9.495561718940735E-1   8.365958184003830E-2  
 7.465465465465466E8    -2.489894814789295E-2   7.952063083648682E-1  -2.433424256742001E-2  -1.983654685318470E-3  -2.424139901995659E-2  -2.175936009734869E-3  -9.478369355201721E-1   9.418325126171112E-2  
 7.489489489489490E8    -2.060957718640566E-3   7.866070270538330E-1  -2.582638338208199E-2  -7.606417057104409E-4  -2.581897936761379E-2  -1.047562109306455E-3  -9.463129043579102E-1   1.037252396345139E-1  
 7.513513513513514E8     2.234803698956966E-2   7.752568721771240E-1  -2.726604789495468E-2   7.548473076894879E-4  -2.734022960066795E-2   4.541329690255225E-4  -9.448235034942627E-1   1.143945157527924E-1  
 7.537537537537538E8     4.756949096918106E-2   7.612987160682678E-1  -2.862633578479290E-2   2.604264998808503E-3  -2.876402437686920E-2   2.210037317126989E-3  -9.427807927131653E-1   1.261481195688248E-1  
 7.561561561561562E8     7.155427336692810E-2   7.451450824737549E-1  -2.975130453705788E-2   4.633452743291855E-3  -2.971985191106796E-2   4.240855108946562E-3  -9.400956034660339E-1   1.371445059776306E-1  
 7.585585585585586E8     9.376977384090424E-2   7.278875112533569E-1  -3.082551062107086E-2   6.608222145587206E-3  -3.068294376134872E-2   6.310749799013138E-3  -9.363423585891724E-1   1.499598175287247E-1  
 7.609609609609610E8     1.143587380647659E-1   7.095357179641724E-1  -3.182960301637650E-2   8.717736229300499E-3  -3.170318156480789E-2   8.299758657813072E-3  -9.326184391975403E-1   1.623522788286209E-1  
 7.633633633633634E8     1.334766149520874E-1   6.906054615974426E-1  -3.277625516057015E-2   1.101372763514519E-2  -3.260561451315880E-2   1.061358302831650E-2  -9.298980832099915E-1   1.735672056674957E-1  
 7.657657657657658E8     1.520147770643234E-1   6.701745390892029E-1  -3.345843404531479E-2   1.356509048491716E-2  -3.348530456423760E-2   1.311357133090496E-2  -9.279342889785767E-1   1.834369748830795E-1  
 7.681681681681682E8     1.693321615457535E-1   6.492186784744263E-1  -3.402138873934746E-2   1.612168923020363E-2  -3.426246345043182E-2   1.568059995770454E-2  -9.269262552261353E-1   1.921862661838532E-1  
 7.705705705705706E8     1.841282695531845E-1   6.275374889373779E-1  -3.459313884377480E-2   1.868919469416142E-2  -3.483751043677330E-2   1.824263297021389E-2  -9.238492250442505E-1   2.008710801601410E-1  
 7.729729729729730E8     1.996153593063355E-1   6.034603714942932E-1  -3.485173359513283E-2   2.165147289633751E-2  -3.539983183145523E-2   2.120450697839260E-2  -9.224394559860230E-1   2.115788757801056E-1  
 7.753753753753754E8     2.128140330314636E-1   5.767619013786316E-1  -3.505763784050942E-2   2.469331771135330E-2  -3.563416376709938E-2   2.439493313431740E-2  -9.192247986793518E-1   2.234932184219360E-1  
 7.777777777777778E8     2.231914699077606E-1   5.485866069793701E-1  -3.509186208248138E-2   2.782146073877811E-2  -3.541738167405129E-2   2.754729427397251E-2  -9.137730598449707E-1   2.356814593076706E-1  
 7.801801801801802E8     2.304207682609558E-1   5.196181535720825E-1  -3.493283689022064E-2   3.108903393149376E-2  -3.500238433480263E-2   3.074795752763748E-2  -9.050039649009705E-1   2.464745193719864E-1  
 7.825825825825826E8     2.353992462158203E-1   4.888046383857727E-1  -3.460069373250008E-2   3.467525914311409E-2  -3.450499102473259E-2   3.437063843011856E-2  -8.990480303764343E-1   2.584150135517120E-1  
 7.849849849849850E8     2.374449372291565E-1   4.598939716815949E-1  -3.380743414163590E-2   3.854575380682945E-2  -3.381508216261864E-2   3.801769018173218E-2  -8.938468694686890E-1   2.670620083808899E-1  
 7.873873873873874E8     2.380533069372177E-1   4.327256381511688E-1  -3.248775750398636E-2   4.251694679260254E-2  -3.251232579350472E-2   4.172031208872795E-2  -8.892891407012940E-1   2.752365469932556E-1  
 7.897897897897898E8     2.389511466026306E-1   4.051649868488312E-1  -3.084671497344971E-2   4.625732824206352E-2  -3.103337623178959E-2   4.547403007745743E-2  -8.865138888359070E-1   2.851513326168060E-1  
 7.921921921921922E8     2.383280098438263E-1   3.755765259265900E-1  -2.900821901857853E-2   5.002358555793762E-2  -2.939387969672680E-2   4.962876066565514E-2  -8.848912119865418E-1   2.962725162506104E-1  
 7.945945945945946E8     2.336540669202805E-1   3.480301201343536E-1  -2.673926763236523E-2   5.411945283412933E-2  -2.726018615067005E-2   5.354101955890656E-2  -8.789993524551392E-1   3.068001568317413E-1  
 7.969969969969970E8     2.275198101997376E-1   3.205428421497345E-1  -2.380312792956829E-2   5.784383788704872E-2  -2.451181784272194E-2   5.743295326828957E-2  -8.730911612510681E-1   3.178607225418091E-1  
 7.993993993993994E8     2.184842377901077E-1   2.914493978023529E-1  -2.080987393856049E-2   6.130425631999970E-2  -2.132342197000980E-2   6.110985204577446E-2  -8.671768903732300E-1   3.298316597938538E-1  
 8.018018018018018E8     2.045808583498001E-1   2.621258199214935E-1  -1.759922690689564E-2   6.474629044532776E-2  -1.783210784196854E-2   6.485858559608460E-2  -8.601530790328980E-1   3.423410952091217E-1  
 8.042042042042042E8     1.861685961484909E-1   2.357245236635208E-1  -1.373016089200974E-2   6.826356053352356E-2  -1.389328856021166E-2   6.839393079280853E-2  -8.536545038223267E-1   3.524108827114105E-1  
 8.066066066066066E8     1.660982370376587E-1   2.127069681882858E-1  -9.439072571694851E-3   7.150308787822723E-2  -9.677571244537830E-3   7.158458977937698E-2  -8.466999530792236E-1   3.644599914550781E-1  
 8.090090090090090E8     1.439373046159744E-1   1.930781006813049E-1  -4.661619197577238E-3   7.471809536218643E-2  -5.008266307413578E-3   7.484269887208939E-2  -8.393571376800537E-1   3.758499920368195E-1  
 8.114114114114114E8     1.215083822607994E-1   1.752208620309830E-1   5.161232547834516E-4   7.749073207378388E-2   1.361082540825009E-4   7.752124220132828E-2  -8.319228887557983E-1   3.869461417198181E-1  
 8.138138138138138E8     9.655763208866119E-2   1.586087346076965E-1   6.110887508839369E-3   8.022397011518478E-2   5.585021339356899E-3   8.023417741060257E-2  -8.245148062705994E-1   3.975228071212769E-1  
 8.162162162162162E8     6.789737939834595E-2   1.460057348012924E-1   1.245061121881008E-2   8.261124044656754E-2   1.201640255749226E-2   8.266087621450424E-2  -8.169196248054504E-1   4.082719981670380E-1  
 8.186186186186186E8     3.808402270078659E-2   1.413877308368683E-1   1.965023018419743E-2   8.412960916757584E-2   1.906597428023815E-2   8.413478732109070E-2  -8.083878159523010E-1   4.195891320705414E-1  
 8.210210210210210E8     1.231720205396414E-2   1.422765702009201E-1   2.679450251162052E-2   8.430102467536926E-2   2.639279142022133E-2   8.432409167289734E-2  -7.991051077842712E-1   4.313903450965881E-1  
 8.234234234234234E8    -8.315735496580601E-3   1.456736773252487E-1   3.387982770800591E-2   8.390584588050842E-2   3.352272883057594E-2   8.384107053279877E-2  -7.901281118392944E-1   4.427874088287354E-1  
