#  HZ   S   RI   R     50.00 
! Rohde & Schwarz ZVB8 2Ports - Version 2.81 - 1145.1010k08 SN: 100113
! Date: 2016-05-04 02:49:48
! Measurements: S11 S21 S12 S22 
! 
 6.000000000000000E8    -8.663476705551148E-1   3.699646294116974E-1   9.318937372881919E-5  -6.056437268853188E-4   1.152774275396951E-4  -6.503779441118240E-4  -8.446729779243469E-1  -4.757187366485596E-1  
 6.024024024024024E8    -8.594554662704468E-1   3.826775550842285E-1   1.370807731291279E-4  -6.257583154365420E-4   1.659519184613600E-4  -6.351223564706743E-4  -8.491476178169251E-1  -4.669342935085297E-1  
 6.048048048048048E8    -8.521528244018555E-1   3.961343467235565E-1   1.326708734268323E-4  -6.461727898567915E-4   4.300263390177861E-5  -5.885731079615653E-4  -8.535639047622681E-1  -4.579679965972900E-1  
 6.072072072072072E8    -8.442406058311462E-1   4.102061688899994E-1   1.936399494297802E-4  -6.752772605977953E-4   1.765349006745964E-4  -6.395707605406642E-4  -8.582442998886108E-1  -4.487650096416473E-1  
 6.096096096096096E8    -8.354313373565674E-1   4.243890345096588E-1   2.466809819452465E-4  -6.672959425486624E-4   2.437655348330736E-4  -7.433563587255776E-4  -8.630555868148804E-1  -4.394171535968781E-1  
 6.120120120120120E8    -8.287163972854614E-1   4.356605410575867E-1   2.952371141873300E-4  -6.651798612438142E-4   2.584447211120278E-4  -5.967699689790607E-4  -8.667020797729492E-1  -4.312629699707031E-1  
 6.144144144144144E8    -8.207046389579773E-1   4.478831589221954E-1   4.529739962890744E-4  -6.173655856400728E-4   3.555594012141228E-4  -6.379558471962810E-4  -8.701890707015991E-1  -4.231953918933868E-1  
 6.168168168168168E8    -8.115265369415283E-1   4.602813720703125E-1   5.575583199970424E-4  -6.146337254904211E-4   5.778134218417108E-4  -5.621623131446540E-4  -8.742864727973938E-1  -4.147422611713409E-1  
 6.192192192192192E8    -8.023285865783691E-1   4.724519848823547E-1   7.687705801799893E-4  -7.322546443901956E-4   7.562796236015856E-4  -6.856069667264819E-4  -8.786598443984985E-1  -4.056620001792908E-1  
 6.216216216216216E8    -7.923421263694763E-1   4.842006564140320E-1   9.985381038859487E-4  -8.118398836813867E-4   9.843059815466404E-4  -7.554949843324721E-4  -8.831685781478882E-1  -3.953543305397034E-1  
 6.240240240240240E8    -7.826744318008423E-1   4.955306649208069E-1   1.287777093239129E-3  -9.661855292506516E-4   1.213426119647920E-3  -9.921033633872867E-4  -8.876913189888001E-1  -3.845745623111725E-1  
 6.264264264264264E8    -7.728044390678406E-1   5.073133111000061E-1   1.503904000855982E-3  -1.277099712751806E-3   1.527329324744642E-3  -1.234525465406478E-3  -8.918687105178833E-1  -3.736776113510132E-1  
 6.288288288288288E8    -7.631624937057495E-1   5.187914371490479E-1   1.694314647465944E-3  -1.739289029501379E-3   1.745982910506427E-3  -1.730418764054775E-3  -8.952673673629761E-1  -3.643931448459625E-1  
 6.312312312312312E8    -7.543265819549561E-1   5.296160578727722E-1   1.785874483175576E-3  -2.283720765262842E-3   1.835580915212631E-3  -2.261752262711525E-3  -8.985714912414551E-1  -3.556096255779266E-1  
 6.336336336336336E8    -7.461474537849426E-1   5.403915643692017E-1   1.754105673171580E-3  -2.838580636307597E-3   1.754590659402311E-3  -2.818218199536204E-3  -9.012989997863770E-1  -3.472085595130920E-1  
 6.360360360360360E8    -7.374704480171204E-1   5.516104102134705E-1   1.545513398014009E-3  -3.461989341303706E-3   1.555890194140375E-3  -3.415222745388746E-3  -9.041397571563721E-1  -3.395877182483673E-1  
 6.384384384384384E8    -7.278133630752564E-1   5.642049908638001E-1   1.213823095895350E-3  -3.843492828309536E-3   1.227896660566330E-3  -3.861670847982168E-3  -9.072728753089905E-1  -3.305335342884064E-1  
 6.408408408408408E8    -7.173149585723877E-1   5.772396922111511E-1   7.733881357125938E-4  -4.199599847197533E-3   8.410932496190071E-4  -4.179476294666529E-3  -9.106867313385010E-1  -3.215324878692627E-1  
 6.432432432432432E8    -7.064248323440552E-1   5.896215438842773E-1   3.087092773057520E-4  -4.450225271284580E-3   2.947217144537717E-4  -4.448012448847294E-3  -9.139934778213501E-1  -3.126522600650787E-1  
 6.456456456456456E8    -6.943223476409912E-1   6.015360355377197E-1  -8.507794700562954E-5  -4.669125657528639E-3  -3.934633787139319E-5  -4.591766279190779E-3  -9.171790480613709E-1  -3.033678531646729E-1  
 6.480480480480480E8    -6.819745898246765E-1   6.130536198616028E-1  -5.433623446151614E-4  -4.741004668176174E-3  -5.719424225389957E-4  -4.739504307508469E-3  -9.204662442207336E-1  -2.947313785552979E-1  
 6.504504504504504E8    -6.678839921951294E-1   6.257279515266419E-1  -9.652168955653906E-4  -4.803906660526991E-3  -9.636785835027695E-4  -4.759961273521185E-3  -9.225337505340576E-1  -2.847132682800293E-1  
 6.528528528528528E8    -6.538169384002686E-1   6.374517679214478E-1  -1.243964536115527E-3  -4.787665326148272E-3  -1.301513635553420E-3  -4.781623370945454E-3  -9.246420264244080E-1  -2.747787535190582E-1  
 6.552552552552552E8    -6.398717164993286E-1   6.484116315841675E-1  -1.522419508546591E-3  -4.763490520417690E-3  -1.492975745350123E-3  -4.694505129009485E-3  -9.272067546844482E-1  -2.654054462909699E-1  
 6.576576576576576E8    -6.259092092514038E-1   6.581900119781494E-1  -1.814099261537194E-3  -4.693645518273115E-3  -1.748756505548954E-3  -4.695976618677378E-3  -9.297562241554260E-1  -2.569578886032105E-1  
 6.600600600600600E8    -6.101412773132324E-1   6.684742569923401E-1  -1.976717496290803E-3  -4.677091725170612E-3  -1.975433435291052E-3  -4.687224514782429E-3  -9.325670599937439E-1  -2.480262666940689E-1  
 6.624624624624624E8    -5.936496853828430E-1   6.795400977134705E-1  -2.200035611167550E-3  -4.703567828983069E-3  -2.158299786970019E-3  -4.738425835967064E-3  -9.349285364151001E-1  -2.374332994222641E-1  
 6.648648648648648E8    -5.766084194183350E-1   6.897165179252625E-1  -2.350979717448354E-3  -4.668776877224445E-3  -2.335699507966638E-3  -4.647389519959688E-3  -9.371637105941773E-1  -2.270952910184860E-1  
 6.672672672672672E8    -5.592550635337830E-1   6.988436579704285E-1  -2.518747234717012E-3  -4.665311425924301E-3  -2.400992438197136E-3  -4.691077861934900E-3  -9.390646815299988E-1  -2.169596552848816E-1  
 6.696696696696696E8    -5.415474176406860E-1   7.073364257812500E-1  -2.539845416322351E-3  -4.717107396572828E-3  -2.461650408804417E-3  -4.731140565127134E-3  -9.409707784652710E-1  -2.072994709014893E-1  
 6.720720720720720E8    -5.228477120399475E-1   7.150765657424927E-1  -2.613860648125410E-3  -4.743025172501802E-3  -2.603451488539577E-3  -4.775705747306347E-3  -9.422942996025085E-1  -1.977199763059616E-1  
 6.744744744744744E8    -5.037532448768616E-1   7.222447991371155E-1  -2.657694509252906E-3  -4.787615966051817E-3  -2.608993090689182E-3  -4.864250775426626E-3  -9.438670873641968E-1  -1.875413060188294E-1  
 6.768768768768768E8    -4.847628176212311E-1   7.285197973251343E-1  -2.543712733313441E-3  -4.956134594976902E-3  -2.565255621448159E-3  -5.001266952604055E-3  -9.455546140670776E-1  -1.776130199432373E-1  
 6.792792792792792E8    -4.663771688938141E-1   7.339913845062256E-1  -2.418534364551306E-3  -5.234717391431332E-3  -2.382342005148530E-3  -5.262709222733975E-3  -9.467767477035523E-1  -1.677516996860504E-1  
 6.816816816816816E8    -4.477212131023407E-1   7.390215992927551E-1  -2.218275563791394E-3  -5.683014169335365E-3  -2.193163381889463E-3  -5.642184522002935E-3  -9.483096003532410E-1  -1.571113765239716E-1  
 6.840840840840840E8    -4.285171329975128E-1   7.432712912559509E-1  -2.011093776673079E-3  -6.231951992958784E-3  -1.939525245688856E-3  -6.308942101895809E-3  -9.496943354606628E-1  -1.463936716318131E-1  
 6.864864864864864E8    -4.087580144405365E-1   7.471102476119995E-1  -1.739793457090855E-3  -7.242340594530106E-3  -1.727886614389718E-3  -7.220784667879343E-3  -9.498400688171387E-1  -1.364596933126450E-1  
 6.888888888888888E8    -3.901881575584412E-1   7.500573992729187E-1  -1.810713438317180E-3  -8.675994351506233E-3  -1.692077843472362E-3  -8.640627376735210E-3  -9.499816298484802E-1  -1.256837695837021E-1  
 6.912912912912912E8    -3.729064762592316E-1   7.533497810363770E-1  -2.290900796651840E-3  -1.039620488882065E-2  -2.175833797082305E-3  -1.039203535765410E-2  -9.501495957374573E-1  -1.151077970862389E-1  
 6.936936936936936E8    -3.560927510261536E-1   7.577769756317139E-1  -3.538758261129260E-3  -1.225494872778654E-2  -3.435384482145309E-3  -1.229398418217897E-2  -9.506753087043762E-1  -1.045251637697220E-1  
 6.960960960960960E8    -3.381101787090302E-1   7.634451389312744E-1  -5.447226576507092E-3  -1.395649835467339E-2  -5.393423605710268E-3  -1.387959998100996E-2  -9.509255290031433E-1  -9.380662441253662E-2  
 6.984984984984984E8    -3.184476196765900E-1   7.698301076889038E-1  -7.780310232192278E-3  -1.508485525846481E-2  -7.875367067754269E-3  -1.494376827031374E-2  -9.517437815666199E-1  -8.013799786567688E-2  
 7.009009009009008E8    -2.963164448738098E-1   7.758509516716003E-1  -1.048905029892921E-2  -1.550828292965889E-2  -1.067266520112753E-2  -1.537073124200106E-2  -9.519768953323364E-1  -6.750399619340897E-2  
 7.033033033033032E8    -2.722119390964508E-1   7.801486849784851E-1  -1.305564399808645E-2  -1.543571427464485E-2  -1.327075250446796E-2  -1.514736283570528E-2  -9.516069889068604E-1  -5.769491940736771E-2  
 7.057057057057056E8    -2.459021657705307E-1   7.818512916564941E-1  -1.536068506538868E-2  -1.475732401013374E-2  -1.550612878054380E-2  -1.473945472389460E-2  -9.510802030563355E-1  -5.124911665916443E-2  
 7.081081081081080E8    -2.169341892004013E-1   7.818800210952759E-1  -1.773861609399319E-2  -1.404911186546087E-2  -1.759836450219154E-2  -1.412570755928755E-2  -9.507625102996826E-1  -4.341055825352669E-2  
 7.105105105105104E8    -1.871080100536346E-1   7.801600694656372E-1  -1.983186043798924E-2  -1.307564601302147E-2  -1.971302740275860E-2  -1.343999058008194E-2  -9.504396319389343E-1  -3.458419069647789E-2  
 7.129129129129129E8    -1.582505255937576E-1   7.755160331726074E-1  -2.194820716977119E-2  -1.191935781389475E-2  -2.167299576103687E-2  -1.230263337492943E-2  -9.499483108520508E-1  -2.356738597154617E-2  
 7.153153153153153E8    -1.296814084053040E-1   7.683986425399780E-1  -2.390991337597370E-2  -1.088648010045290E-2  -2.365987561643124E-2  -1.119361538439989E-2  -9.496491551399231E-1  -1.099677104502916E-2  
 7.177177177177178E8    -1.000020802021027E-1   7.592121362686157E-1  -2.583502791821957E-2  -9.688863530755043E-3  -2.564220502972603E-2  -9.865950793027878E-3  -9.489358663558960E-1   2.572651021182537E-3  
 7.201201201201202E8    -7.039535045623779E-2   7.478885650634766E-1  -2.776651270687580E-2  -8.275469765067101E-3  -2.765566110610962E-2  -8.509133942425251E-3  -9.480364322662354E-1   1.527421269565821E-2  
 7.225225225225226E8    -4.173926636576653E-2   7.339187264442444E-1  -2.976242266595364E-2  -6.658313330262899E-3  -2.965207211673260E-2  -6.976414937525988E-3  -9.469646811485291E-1   2.807321585714817E-2  
 7.249249249249250E8    -1.454555895179510E-2   7.183974385261536E-1  -3.173043206334114E-2  -4.813185892999172E-3  -3.163404762744904E-2  -5.260306410491467E-3  -9.453705549240112E-1   3.835221379995346E-2  
 7.273273273273274E8     1.142377033829689E-2   6.999632120132446E-1  -3.366795927286148E-2  -2.604580251500011E-3  -3.357915952801704E-2  -3.389968769624829E-3  -9.438155889511108E-1   4.944921284914017E-2  
 7.297297297297298E8     3.519024699926376E-2   6.800834536552429E-1  -3.549040853977203E-2  -4.360769235063344E-4  -3.540977090597153E-2  -1.082542818039656E-3  -9.420965909957886E-1   6.106710433959961E-2  
 7.321321321321322E8     5.780046060681343E-2   6.587849259376526E-1  -3.715318813920021E-2   1.713175675831735E-3  -3.704116493463516E-2   1.570733962580562E-3  -9.397650957107544E-1   7.380943000316620E-2  
 7.345345345345346E8     8.083209395408630E-2   6.359964609146118E-1  -3.874498233199120E-2   4.122800659388304E-3  -3.852644935250282E-2   4.223307128995657E-3  -9.373298883438110E-1   8.608483523130417E-2  
 7.369369369369370E8     1.049893721938133E-1   6.100510954856873E-1  -4.045117646455765E-2   6.572307553142309E-3  -4.028238728642464E-2   6.766102276742458E-3  -9.346553087234497E-1   9.873202443122864E-2  
 7.393393393393394E8     1.269507855176926E-1   5.813529491424561E-1  -4.239374771714211E-2   9.485637769103050E-3  -4.215102270245552E-2   9.703557007014751E-3  -9.316805601119995E-1   1.110607907176018E-1  
 7.417417417417418E8     1.461796909570694E-1   5.507606267929077E-1  -4.425628110766411E-2   1.291903760284185E-2  -4.415543004870415E-2   1.306829694658518E-2  -9.288632869720459E-1   1.228440329432488E-1  
 7.441441441441442E8     1.640324443578720E-1   5.154303312301636E-1  -4.592110589146614E-2   1.706972904503346E-2  -4.607866704463959E-2   1.685798913240433E-2  -9.256947040557861E-1   1.338215172290802E-1  
 7.465465465465466E8     1.779118031263351E-1   4.778040051460266E-1  -4.749807715415955E-2   2.164782024919987E-2  -4.770468547940254E-2   2.136132679879665E-2  -9.219287633895874E-1   1.459836959838867E-1  
 7.489489489489490E8     1.881949752569199E-1   4.361418783664703E-1  -4.853423312306404E-2   2.707702666521072E-2  -4.883744940161705E-2   2.642669156193733E-2  -9.180896282196045E-1   1.573336869478226E-1  
 7.513513513513514E8     1.930753141641617E-1   3.906439840793610E-1  -4.889889061450958E-2   3.289286792278290E-2  -4.938793927431107E-2   3.215917572379112E-2  -9.142562747001648E-1   1.696751415729523E-1  
 7.537537537537538E8     1.913089454174042E-1   3.440290987491608E-1  -4.807598143815994E-2   3.935537114739418E-2  -4.880114644765854E-2   3.858659788966179E-2  -9.098032712936401E-1   1.830046027898789E-1  
 7.561561561561562E8     1.839282661676407E-1   2.999911308288574E-1  -4.649018496274948E-2   4.555931687355042E-2  -4.706745594739914E-2   4.482762888073921E-2  -9.046940207481384E-1   1.954705715179443E-1  
 7.585585585585586E8     1.709489822387695E-1   2.589559257030487E-1  -4.432615637779236E-2   5.136990547180176E-2  -4.472588375210762E-2   5.069962143898010E-2  -8.981221318244934E-1   2.101681083440781E-1  
 7.609609609609610E8     1.542969197034836E-1   2.224842011928558E-1  -4.180054739117622E-2   5.712081119418144E-2  -4.189689457416534E-2   5.657671391963959E-2  -8.918583989143372E-1   2.242577075958252E-1  
 7.633633633633634E8     1.323791891336441E-1   1.861733794212341E-1  -3.823448345065117E-2   6.316562741994858E-2  -3.847761079668999E-2   6.256657093763351E-2  -8.859722614288330E-1   2.377670705318451E-1  
 7.657657657657658E8     1.061833724379540E-1   1.529002040624619E-1  -3.373046964406967E-2   6.881824135780335E-2  -3.431962057948113E-2   6.821160763502121E-2  -8.808094263076782E-1   2.495488822460175E-1  
 7.681681681681682E8     7.633288204669952E-2   1.225962564349175E-1  -2.876386791467667E-2   7.378763705492020E-2  -2.981650270521641E-2   7.329729944467545E-2  -8.763957023620606E-1   2.608170211315155E-1  
 7.705705705705706E8     4.354580119252205E-2   9.820047020912170E-2  -2.351164817810059E-2   7.831158488988876E-2  -2.484862878918648E-2   7.795645296573639E-2  -8.698576092720032E-1   2.723000049591065E-1  
 7.729729729729730E8     8.513929322361946E-3   7.741962373256683E-2  -1.753238774836063E-2   8.259241282939911E-2  -1.926373690366745E-2   8.256319910287857E-2  -8.643324375152588E-1   2.855040132999420E-1  
 7.753753753753754E8    -2.719647809863091E-2   6.127936393022537E-2  -1.121253799647093E-2   8.651381731033325E-2  -1.269363611936569E-2   8.679123967885971E-2  -8.568167090415955E-1   3.003318011760712E-1  
 7.777777777777778E8    -6.438732892274857E-2   4.933324456214905E-2  -4.214562941342592E-3   9.001261740922928E-2  -5.533978343009949E-3   9.005279093980789E-2  -8.462180495262146E-1   3.149158060550690E-1  
 7.801801801801802E8    -1.022143065929413E-1   4.190733283758164E-2   2.950491616502404E-3   9.287793189287186E-2   1.904739649035037E-3   9.233988821506500E-2  -8.321853876113892E-1   3.280987441539764E-1  
 7.825825825825826E8    -1.381293237209320E-1   4.179149866104126E-2   1.056691445410252E-2   9.511286765336990E-2   9.920250624418259E-3   9.469112008810043E-2  -8.201773762702942E-1   3.425886631011963E-1  
 7.849849849849850E8    -1.698922216892242E-1   4.682026058435440E-2   1.873418129980564E-2   9.674949944019318E-2   1.795797795057297E-2   9.641019254922867E-2  -8.085044026374817E-1   3.541318774223328E-1  
 7.873873873873874E8    -2.002495378255844E-1   5.330791696906090E-2   2.728075720369816E-2   9.752435237169266E-2   2.629642374813557E-2   9.711273759603500E-2  -7.973964810371399E-1   3.655496835708618E-1  
 7.897897897897898E8    -2.276864051818848E-1   6.103234738111496E-2   3.565180674195290E-2   9.768417477607727E-2   3.488561511039734E-2   9.729009866714478E-2  -7.866679430007935E-1   3.790481090545654E-1  
 7.921921921921922E8    -2.537539899349213E-1   7.161881029605866E-2   4.438330978155136E-2   9.736473858356476E-2   4.388567060232163E-2   9.734325855970383E-2  -7.760824561119080E-1   3.939256966114044E-1  
 7.945945945945946E8    -2.784572839736939E-1   8.435817062854767E-2   5.381425097584724E-2   9.611378610134125E-2   5.301478505134583E-2   9.618950635194778E-2  -7.604002356529236E-1   4.074807763099670E-1  
 7.969969969969970E8    -3.009468317031860E-1   9.607402980327606E-2   6.312295794487000E-2   9.338524937629700E-2   6.212493777275085E-2   9.390988200902939E-2  -7.444197535514832E-1   4.207233190536499E-1  
 7.993993993993994E8    -3.244350552558899E-1   1.074919998645783E-1   7.171723246574402E-2   8.971904218196869E-2   7.075438648462296E-2   9.050616621971130E-2  -7.264443635940552E-1   4.353044629096985E-1  
 8.018018018018018E8    -3.481871783733368E-1   1.226523220539093E-1   7.973232865333557E-2   8.587761968374252E-2   7.913278788328171E-2   8.673091977834702E-2  -7.067446708679199E-1   4.489193260669708E-1  
 8.042042042042042E8    -3.690308928489685E-1   1.418919563293457E-1   8.817663043737412E-2   8.176048845052719E-2   8.759021759033203E-2   8.236373960971832E-2  -6.856325268745422E-1   4.613071978092194E-1  
 8.066066066066066E8    -3.856209218502045E-1   1.627521812915802E-1   9.662542492151260E-2   7.684493809938431E-2   9.613905102014542E-2   7.751714438199997E-2  -6.624779105186462E-1   4.740050733089447E-1  
 8.090090090090090E8    -3.989299237728119E-1   1.836938261985779E-1   1.053074598312378E-1   7.131460309028626E-2   1.048472896218300E-1   7.192820310592651E-2  -6.375523209571838E-1   4.848814904689789E-1  
 8.114114114114114E8    -4.100075960159302E-1   2.023234814405441E-1   1.138098761439323E-1   6.470177322626114E-2   1.134054511785507E-1   6.516011059284210E-2  -6.105478405952454E-1   4.941739141941071E-1  
 8.138138138138138E8    -4.216366410255432E-1   2.223069667816162E-1   1.222792416810989E-1   5.723351985216141E-2   1.219649836421013E-1   5.765288695693016E-2  -5.816162824630737E-1   5.015230178833008E-1  
 8.162162162162162E8    -4.302705228328705E-1   2.434528321027756E-1   1.308871805667877E-1   4.875961691141129E-2   1.305557936429977E-1   4.884365573525429E-2  -5.511814951896668E-1   5.068479776382446E-1  
 8.186186186186186E8    -4.351019859313965E-1   2.656961679458618E-1   1.387573927640915E-1   3.833404555916786E-2   1.384721249341965E-1   3.827100619673729E-2  -5.186644792556763E-1   5.100197196006775E-1  
 8.210210210210210E8    -4.378652870655060E-1   2.864405810832977E-1   1.454191654920578E-1   2.609965577721596E-2   1.455545425415039E-1   2.690351754426956E-2  -4.843211770057678E-1   5.110779404640198E-1  
 8.234234234234234E8    -4.389025866985321E-1   3.047036826610565E-1   1.511732637882233E-1   1.284999772906303E-2   1.511054784059525E-1   1.386407017707825E-2  -4.479114115238190E-1   5.087850093841553E-1  
