#  HZ   S   RI   R     50.00 
! Rohde & Schwarz ZVB8 2Ports - Version 2.81 - 1145.1010k08 SN: 100113
! Date: 2016-05-04 02:48:33
! Measurements: S11 S21 S12 S22 
! 
 6.000000000000000E8    -8.960436582565308E-1   3.259060084819794E-1   5.876001887372695E-5  -2.852837787941098E-4   6.746703729731962E-5  -2.520951384212822E-4  -8.397181630134583E-1  -4.876711070537567E-1  
 6.024024024024024E8    -8.910058140754700E-1   3.375822603702545E-1   1.522697712061927E-4  -2.576631086412817E-4   1.007732353173196E-4  -3.027085622306913E-4  -8.439917564392090E-1  -4.792515635490418E-1  
 6.048048048048048E8    -8.857833147048950E-1   3.501986265182495E-1   1.369570672977716E-4  -3.379264089744538E-4   2.024901186814532E-4  -2.886050497181714E-4  -8.488190174102783E-1  -4.705349504947662E-1  
 6.072072072072072E8    -8.795397877693176E-1   3.635246455669403E-1   1.576691865921021E-4  -2.607773640193045E-4   1.835028670029715E-4  -3.600079216994345E-4  -8.532803058624268E-1  -4.620899558067322E-1  
 6.096096096096096E8    -8.738618493080139E-1   3.768984973430634E-1   1.687529438640922E-4  -2.376665070187300E-4   1.687304757069796E-4  -2.463352866470814E-4  -8.580343127250671E-1  -4.532676637172699E-1  
 6.120120120120120E8    -8.692741394042969E-1   3.870169818401337E-1   1.742506283335388E-4  -1.831144472816959E-4   2.025874418905005E-4  -2.811067388392985E-4  -8.616273403167725E-1  -4.458662569522858E-1  
 6.144144144144144E8    -8.634666204452515E-1   3.985418379306793E-1   3.213114396203309E-4  -3.012453380506486E-4   2.446408325340599E-4  -3.378595283720642E-4  -8.650261163711548E-1  -4.383548796176910E-1  
 6.168168168168168E8    -8.570231795310974E-1   4.103924632072449E-1   3.434944665059447E-4  -2.454851637594402E-4   2.806608390528709E-4  -1.863155775936320E-4  -8.690026402473450E-1  -4.301847219467163E-1  
 6.192192192192192E8    -8.502815961837769E-1   4.218910038471222E-1   4.655001685023308E-4  -2.537045511417091E-4   4.518428759183735E-4  -2.699130563996732E-4  -8.734852075576782E-1  -4.213635027408600E-1  
 6.216216216216216E8    -8.433891534805298E-1   4.333327412605286E-1   5.818792851641774E-4  -3.088941739406437E-4   5.875148926861584E-4  -2.152739180019125E-4  -8.781710863113403E-1  -4.118394851684570E-1  
 6.240240240240240E8    -8.363772034645081E-1   4.441782236099243E-1   7.030473789200187E-4  -3.732367767952383E-4   7.126145646907389E-4  -3.600770432967693E-4  -8.828849196434021E-1  -4.016027152538300E-1  
 6.264264264264264E8    -8.292673826217651E-1   4.564021825790405E-1   8.735780720598996E-4  -4.701178113464266E-4   9.556422592140734E-4  -4.891092539764941E-4  -8.870558738708496E-1  -3.914477825164795E-1  
 6.288288288288288E8    -8.222941160202026E-1   4.676248133182526E-1   9.745781426317990E-4  -6.981027545407414E-4   1.002262928523123E-3  -6.992109119892120E-4  -8.906059265136719E-1  -3.826737999916077E-1  
 6.312312312312312E8    -8.157281875610352E-1   4.782651364803314E-1   1.015589921735227E-3  -9.524940396659076E-4   1.058177906088531E-3  -8.859030203893781E-4  -8.938435316085815E-1  -3.744705915451050E-1  
 6.336336336336336E8    -8.100218176841736E-1   4.886651337146759E-1   1.054558553732932E-3  -1.195979886688292E-3   1.107269432395697E-3  -1.195369753986597E-3  -8.967414498329163E-1  -3.668282032012940E-1  
 6.360360360360360E8    -8.040140271186829E-1   4.986571073532105E-1   1.033209264278412E-3  -1.420791842974722E-3   1.005094731226564E-3  -1.448936061933637E-3  -8.998631834983826E-1  -3.597777485847473E-1  
 6.384384384384384E8    -7.968668341636658E-1   5.103740096092224E-1   8.527595782652497E-4  -1.687587588094175E-3   8.789949933998287E-4  -1.654398860409856E-3  -9.029213786125183E-1  -3.514817357063294E-1  
 6.408408408408408E8    -7.895952463150024E-1   5.222513079643250E-1   6.819218979217112E-4  -1.818959251977503E-3   6.339510437101126E-4  -1.789619214832783E-3  -9.063338637351990E-1  -3.432140946388245E-1  
 6.432432432432432E8    -7.819601297378540E-1   5.336535573005676E-1   5.481695407070220E-4  -1.960256369784474E-3   5.653428961522877E-4  -2.014450496062636E-3  -9.096957445144653E-1  -3.347432315349579E-1  
 6.456456456456456E8    -7.739477753639221E-1   5.443527102470398E-1   3.910659288521856E-4  -2.037488156929612E-3   3.404477902222425E-4  -2.018719911575317E-3  -9.129714965820313E-1  -3.261724114418030E-1  
 6.480480480480480E8    -7.656981348991394E-1   5.544558167457581E-1   1.571754255564883E-4  -2.078203251585364E-3   2.066494198516011E-4  -2.073172712698579E-3  -9.163751602172852E-1  -3.183294534683228E-1  
 6.504504504504504E8    -7.563185095787048E-1   5.660676956176758E-1   8.917584636947140E-5  -2.102002734318376E-3   2.631322422530502E-5  -2.100502140820026E-3  -9.185372591018677E-1  -3.088787794113159E-1  
 6.528528528528528E8    -7.473888397216797E-1   5.770311951637268E-1  -1.013239671010524E-4  -2.126697450876236E-3  -9.373336797580123E-5  -2.080258913338184E-3  -9.208635091781616E-1  -3.000980615615845E-1  
 6.552552552552552E8    -7.386282682418823E-1   5.870693325996399E-1  -1.965456758625805E-4  -2.100950106978416E-3  -1.973682374227792E-4  -2.075213240459561E-3  -9.234653115272522E-1  -2.916733324527741E-1  
 6.576576576576576E8    -7.300858497619629E-1   5.964437127113342E-1  -2.694823779165745E-4  -2.050404436886311E-3  -2.645679051056504E-4  -2.100451150909066E-3  -9.262537956237793E-1  -2.839666903018951E-1  
 6.600600600600600E8    -7.204748988151550E-1   6.063722968101502E-1  -4.014820151496679E-4  -2.030222443863750E-3  -3.217525954823941E-4  -2.047779969871044E-3  -9.293369054794312E-1  -2.760645151138306E-1  
 6.624624624624624E8    -7.103443145751953E-1   6.175171732902527E-1  -4.658902762457728E-4  -2.049478469416499E-3  -4.543242102954537E-4  -1.973279286175966E-3  -9.318032264709473E-1  -2.662677466869354E-1  
 6.648648648648648E8    -7.001988887786865E-1   6.283019185066223E-1  -4.809970268979669E-4  -1.987745985388756E-3  -5.167301860637963E-4  -2.046959009021521E-3  -9.344892501831055E-1  -2.568264305591583E-1  
 6.672672672672672E8    -6.901577711105347E-1   6.382520794868469E-1  -5.615662666969001E-4  -1.953660743311048E-3  -5.340602947399020E-4  -2.044531749561429E-3  -9.367486238479614E-1  -2.477386295795441E-1  
 6.696696696696696E8    -6.797192692756653E-1   6.477738618850708E-1  -5.687461816705763E-4  -1.987932715564966E-3  -5.173760582692921E-4  -1.979055581614375E-3  -9.388026595115662E-1  -2.388828843832016E-1  
 6.720720720720720E8    -6.691502928733826E-1   6.570213437080383E-1  -5.100016715005040E-4  -2.063608961179853E-3  -5.346900434233248E-4  -1.998604508116841E-3  -9.406895637512207E-1  -2.306615561246872E-1  
 6.744744744744744E8    -6.574378609657288E-1   6.667820215225220E-1  -5.064971046522260E-4  -1.947984099388123E-3  -4.596577782649547E-4  -1.926556346006692E-3  -9.424123764038086E-1  -2.217666655778885E-1  
 6.768768768768768E8    -6.460127234458923E-1   6.760836243629456E-1  -4.563251277431846E-4  -2.022781409323216E-3  -4.025153757538647E-4  -1.982044195756316E-3  -9.442257881164551E-1  -2.127279043197632E-1  
 6.792792792792792E8    -6.348968744277954E-1   6.848810315132141E-1  -3.443218593019992E-4  -2.019026316702366E-3  -3.760100516956300E-4  -2.054475247859955E-3  -9.461736083030701E-1  -2.039904594421387E-1  
 6.816816816816816E8    -6.238796114921570E-1   6.934260129928589E-1  -2.152852830477059E-4  -2.065597334876657E-3  -2.485169679857791E-4  -2.123623155057430E-3  -9.482246041297913E-1  -1.950265020132065E-1  
 6.840840840840840E8    -6.126749515533447E-1   7.013946175575256E-1  -1.025863275572192E-5  -2.242399146780372E-3  -4.455490488908254E-5  -2.253284445032477E-3  -9.502606987953186E-1  -1.854937672615051E-1  
 6.864864864864864E8    -6.006358861923218E-1   7.098540067672730E-1   1.637228415347636E-4  -2.557287225499749E-3   1.747856294969097E-4  -2.508545061573386E-3  -9.508299231529236E-1  -1.770965009927750E-1  
 6.888888888888888E8    -5.892605185508728E-1   7.178599238395691E-1   3.380170965101570E-4  -2.941726706922054E-3   3.658590139821172E-4  -2.876248210668564E-3  -9.518684744834900E-1  -1.676552891731262E-1  
 6.912912912912912E8    -5.786080360412598E-1   7.255634069442749E-1   3.307876177132130E-4  -3.429289208725095E-3   4.192442866042256E-4  -3.407110925763845E-3  -9.529240131378174E-1  -1.583615541458130E-1  
 6.936936936936936E8    -5.685141086578369E-1   7.335922718048096E-1   1.731135707814246E-4  -4.150633234530687E-3   1.628449390409514E-4  -4.034151788800955E-3  -9.542729258537293E-1  -1.490656435489655E-1  
 6.960960960960960E8    -5.582855939865112E-1   7.420156002044678E-1  -1.353222178295255E-4  -4.686373751610518E-3  -1.202230705530383E-4  -4.740116186439991E-3  -9.554652571678162E-1  -1.397869735956192E-1  
 6.984984984984984E8    -5.475494265556335E-1   7.508182525634766E-1  -6.128292297944427E-4  -5.163203459233046E-3  -7.211529882624745E-4  -5.189088638871908E-3  -9.573167562484741E-1  -1.272105723619461E-1  
 7.009009009009008E8    -5.361799001693726E-1   7.596292495727539E-1  -1.344781485386193E-3  -5.441702436655760E-3  -1.531657879240811E-3  -5.414883140474558E-3  -9.585714340209961E-1  -1.161453872919083E-1  
 7.033033033033032E8    -5.240172743797302E-1   7.675248384475708E-1  -1.962905516847968E-3  -5.533494520932436E-3  -2.068128203973174E-3  -5.502156447619200E-3  -9.589550495147705E-1  -1.074724793434143E-1  
 7.057057057057056E8    -5.112441182136536E-1   7.750531435012817E-1  -2.555707003921270E-3  -5.468381568789482E-3  -2.529050223529339E-3  -5.540459416806698E-3  -9.591961503028870E-1  -1.027086451649666E-1  
 7.081081081081080E8    -4.971714019775391E-1   7.828452587127686E-1  -3.140707034617662E-3  -5.459294188767672E-3  -3.052684711292386E-3  -5.537937395274639E-3  -9.596307873725891E-1  -9.632769227027893E-2  
 7.105105105105104E8    -4.825572967529297E-1   7.912122011184692E-1  -3.594932844862342E-3  -5.394889507442713E-3  -3.433790290728211E-3  -5.431693512946367E-3  -9.600915908813477E-1  -8.900882303714752E-2  
 7.129129129129129E8    -4.690731167793274E-1   7.982553839683533E-1  -4.012235905975103E-3  -5.314361304044724E-3  -3.870018059387803E-3  -5.358194932341576E-3  -9.610362052917481E-1  -8.003441989421845E-2  
 7.153153153153153E8    -4.567144811153412E-1   8.045682311058044E-1  -4.366037901490927E-3  -5.206351634114981E-3  -4.312305711209774E-3  -5.251405294984579E-3  -9.614858031272888E-1  -6.918471306562424E-2  
 7.177177177177178E8    -4.429658353328705E-1   8.114882707595825E-1  -4.723527934402227E-3  -5.050471518188715E-3  -4.649033304303885E-3  -5.131353158503771E-3  -9.623923301696777E-1  -5.753770098090172E-2  
 7.201201201201202E8    -4.274497330188751E-1   8.187410831451416E-1  -5.043553654104471E-3  -5.016800947487354E-3  -5.064546130597591E-3  -4.970008507370949E-3  -9.627535343170166E-1  -4.677933827042580E-2  
 7.225225225225226E8    -4.116145372390747E-1   8.256638646125794E-1  -5.402574315667152E-3  -4.889621399343014E-3  -5.381822586059570E-3  -4.894565790891647E-3  -9.633094668388367E-1  -3.615133836865425E-2  
 7.249249249249250E8    -3.952373266220093E-1   8.320478200912476E-1  -5.795703735202551E-3  -4.729876760393381E-3  -5.731397308409214E-3  -4.823342896997929E-3  -9.632384777069092E-1  -2.762447670102119E-2  
 7.273273273273274E8    -3.803717195987701E-1   8.380070924758911E-1  -6.107166875153780E-3  -4.609588533639908E-3  -6.061893887817860E-3  -4.731424618512392E-3  -9.630072712898254E-1  -1.900676451623440E-2  
 7.297297297297298E8    -3.669137954711914E-1   8.427941799163818E-1  -6.520514376461506E-3  -4.448811989277601E-3  -6.387337110936642E-3  -4.494195338338614E-3  -9.630127549171448E-1  -9.153781458735466E-3  
 7.321321321321322E8    -3.545016348361969E-1   8.472762703895569E-1  -6.721317302435637E-3  -4.388907924294472E-3  -6.676756311208010E-3  -4.369201138615608E-3  -9.628913998603821E-1   1.575278933160007E-3  
 7.345345345345346E8    -3.400059640407562E-1   8.515362143516541E-1  -6.953613366931677E-3  -4.253848455846310E-3  -6.940760184079409E-3  -4.220587201416493E-3  -9.620969891548157E-1   1.102485414594412E-2  
 7.369369369369370E8    -3.246307075023651E-1   8.559828400611877E-1  -7.254754658788443E-3  -4.279572051018477E-3  -7.209768053144217E-3  -4.178558476269245E-3  -9.617915749549866E-1   2.127280831336975E-2  
 7.393393393393394E8    -3.089347183704376E-1   8.597588539123535E-1  -7.661773357540369E-3  -4.190659616142511E-3  -7.626357022672892E-3  -4.152069799602032E-3  -9.610950946807861E-1   3.116099163889885E-2  
 7.417417417417418E8    -2.933081388473511E-1   8.631072044372559E-1  -8.071617223322392E-3  -4.159877076745033E-3  -8.005174808204174E-3  -4.115374293178320E-3  -9.607652425765991E-1   4.020449519157410E-2  
 7.441441441441442E8    -2.775384485721588E-1   8.662913441658020E-1  -8.589830249547958E-3  -3.985104151070118E-3  -8.500630967319012E-3  -4.101457074284554E-3  -9.603724479675293E-1   4.849687591195107E-2  
 7.465465465465466E8    -2.626352608203888E-1   8.699342608451843E-1  -9.008890949189663E-3  -3.894544905051589E-3  -9.036728180944920E-3  -3.958915825933218E-3  -9.593264460563660E-1   5.794893577694893E-2  
 7.489489489489490E8    -2.477076351642609E-1   8.730734586715698E-1  -9.505201131105423E-3  -3.764778608456254E-3  -9.468541480600834E-3  -3.807172877714038E-3  -9.588037729263306E-1   6.667897105216980E-2  
 7.513513513513514E8    -2.308994233608246E-1   8.761531710624695E-1  -1.008324604481459E-2  -3.536553122103214E-3  -9.989283978939056E-3  -3.629735903814435E-3  -9.583366513252258E-1   7.613219320774078E-2  
 7.537537537537538E8    -2.120860517024994E-1   8.785383701324463E-1  -1.066458411514759E-2  -3.235636046156287E-3  -1.059467904269695E-2  -3.406084142625332E-3  -9.572497010231018E-1   8.728848397731781E-2  
 7.561561561561562E8    -1.935557723045349E-1   8.790871500968933E-1  -1.117750164121389E-2  -2.942303428426385E-3  -1.114651095122099E-2  -2.960480283945799E-3  -9.558439850807190E-1   9.714428335428238E-2  
 7.585585585585586E8    -1.756394356489182E-1   8.795791864395142E-1  -1.169078517705202E-2  -2.543929731473327E-3  -1.164554990828037E-2  -2.550004981458187E-3  -9.531478285789490E-1   1.087056025862694E-1  
 7.609609609609610E8    -1.583957970142365E-1   8.792515993118286E-1  -1.217481400817633E-2  -2.169091952964664E-3  -1.210628449916840E-2  -2.256169449537993E-3  -9.509990215301514E-1   1.201782450079918E-1  
 7.633633633633634E8    -1.421455740928650E-1   8.796620368957520E-1  -1.270537730306387E-2  -1.745780464261770E-3  -1.259702350944281E-2  -1.913462299853563E-3  -9.491619467735291E-1   1.304986625909805E-1  
 7.657657657657658E8    -1.261148452758789E-1   8.803722262382507E-1  -1.321508362889290E-2  -1.257975003682077E-3  -1.313435565680265E-2  -1.480464474298060E-3  -9.484551548957825E-1   1.389841884374619E-1  
 7.681681681681682E8    -1.100371256470680E-1   8.811061382293701E-1  -1.366690639406443E-2  -8.723593782633543E-4  -1.365804579108954E-2  -1.067160745151341E-3  -9.486739635467529E-1   1.461932808160782E-1  
 7.705705705705706E8    -9.512041509151459E-2   8.816345334053040E-1  -1.417392212897539E-2  -3.936324210371822E-4  -1.413414720445871E-2  -5.994616658426821E-4  -9.472848176956177E-1   1.540113240480423E-1  
 7.729729729729730E8    -7.669489830732346E-2   8.807690739631653E-1  -1.464932411909103E-2   1.087732380256057E-4  -1.466559898108244E-2  -8.022545807762072E-5  -9.469358325004578E-1   1.636630892753601E-1  
 7.753753753753754E8    -5.869002640247345E-2   8.775458335876465E-1  -1.513039600104094E-2   6.247920100577176E-4  -1.512786839157343E-2   4.020093765575439E-4  -9.457339048385620E-1   1.743767112493515E-1  
 7.777777777777778E8    -4.223915562033653E-2   8.728152513504028E-1  -1.565736345946789E-2   1.194573822431266E-3  -1.571963354945183E-2   1.010325853712857E-3  -9.416826367378235E-1   1.856283992528915E-1  
 7.801801801801802E8    -2.727835252881050E-2   8.674911260604858E-1  -1.621561869978905E-2   1.703477930277586E-3  -1.612451486289501E-2   1.595677924342454E-3  -9.348273277282715E-1   1.954798251390457E-1  
 7.825825825825826E8    -1.043146848678589E-2   8.614591360092163E-1  -1.672079414129257E-2   2.287844428792596E-3  -1.671992987394333E-2   2.201208844780922E-3  -9.307426810264587E-1   2.061195522546768E-1  
 7.849849849849850E8     5.255572032183409E-3   8.574372529983521E-1  -1.737598143517971E-2   3.074468346312642E-3  -1.730648241937161E-2   2.947815228253603E-3  -9.271755814552307E-1   2.134449183940888E-1  
 7.873873873873874E8     2.074293047189713E-2   8.551680445671082E-1  -1.794824749231339E-2   3.961673006415367E-3  -1.776156015694141E-2   3.708502510562539E-3  -9.243952035903931E-1   2.204474508762360E-1  
 7.897897897897898E8     3.888786584138870E-2   8.525516986846924E-1  -1.846319437026978E-2   4.771730396896601E-3  -1.823673956096172E-2   4.576449282467365E-3  -9.235055446624756E-1   2.287268042564392E-1  
 7.921921921921922E8     5.943511053919792E-2   8.478705883026123E-1  -1.901036128401756E-2   5.720809567719698E-3  -1.890944689512253E-2   5.571884568780661E-3  -9.241278767585754E-1   2.381583452224731E-1  
 7.945945945945946E8     7.614707946777344E-2   8.437679409980774E-1  -1.942313648760319E-2   6.850556470453739E-3  -1.946627907454968E-2   6.602600216865540E-3  -9.203553795814514E-1   2.473366856575012E-1  
 7.969969969969970E8     9.237137436866760E-2   8.378229737281799E-1  -1.987726986408234E-2   7.888671010732651E-3  -1.986515149474144E-2   7.703214883804321E-3  -9.169937372207642E-1   2.570465207099915E-1  
 7.993993993993994E8     1.083000674843788E-1   8.303027153015137E-1  -2.012056112289429E-2   8.927190676331520E-3  -2.009001560509205E-2   8.750082924962044E-3  -9.136269092559815E-1   2.674800157546997E-1  
 8.018018018018018E8     1.244436129927635E-1   8.207659125328064E-1  -2.049436606466770E-2   9.944350458681583E-3  -2.058029361069202E-2   9.908558800816536E-3  -9.095476865768433E-1   2.783420979976654E-1  
 8.042042042042042E8     1.409843266010284E-1   8.122813105583191E-1  -2.087304554879665E-2   1.111604552716017E-2  -2.091207914054394E-2   1.105887535959482E-2  -9.057622551918030E-1   2.871801853179932E-1  
 8.066066066066066E8     1.568574756383896E-1   8.028944134712219E-1  -2.127267606556416E-2   1.238055247813463E-2  -2.125229127705097E-2   1.238433364778757E-2  -9.018078446388245E-1   2.975598871707916E-1  
 8.090090090090090E8     1.719186156988144E-1   7.934194207191467E-1  -2.148064970970154E-2   1.376843545585871E-2  -2.151091396808624E-2   1.367786433547735E-2  -8.976561427116394E-1   3.073483705520630E-1  
 8.114114114114114E8     1.868640631437302E-1   7.836995720863342E-1  -2.176299132406712E-2   1.507603190839291E-2  -2.184009552001953E-2   1.511367596685886E-2  -8.935629725456238E-1   3.168419599533081E-1  
 8.138138138138138E8     2.020116448402405E-1   7.733395695686340E-1  -2.208455465734005E-2   1.662313565611839E-2  -2.221809327602387E-2   1.664595119655132E-2  -8.893977999687195E-1   3.262078166007996E-1  
 8.162162162162162E8     2.165627330541611E-1   7.617039680480957E-1  -2.244341187179089E-2   1.851293444633484E-2  -2.250973880290985E-2   1.840373501181603E-2  -8.856130838394165E-1   3.351197242736816E-1  
 8.186186186186186E8     2.286756187677383E-1   7.495700716972351E-1  -2.243597432971001E-2   2.061155624687672E-2  -2.249169163405895E-2   2.045949548482895E-2  -8.810519576072693E-1   3.444530963897705E-1  
 8.210210210210210E8     2.403123378753662E-1   7.369582056999207E-1  -2.205055579543114E-2   2.253253757953644E-2  -2.210438065230846E-2   2.252168394625187E-2  -8.762592673301697E-1   3.538636267185211E-1  
 8.234234234234234E8     2.517293095588684E-1   7.241924405097961E-1  -2.152902074158192E-2   2.452309615910053E-2  -2.162941731512547E-2   2.437639236450195E-2  -8.713448643684387E-1   3.635498583316803E-1  
