#  HZ   S   RI   R     50.00 
! Rohde & Schwarz ZVB8 2Ports - Version 2.81 - 1145.1010k08 SN: 100113
! Date: 2016-05-04 02:50:16
! Measurements: S11 S21 S12 S22 
! 
 6.000000000000000E8    -8.666147589683533E-1   3.698656558990479E-1   7.944682147353888E-5  -7.300584693439305E-4   1.261977013200522E-4  -8.076071972027421E-4  -8.482643365859985E-1  -4.653656780719757E-1  
 6.024024024024024E8    -8.596971035003662E-1   3.829669058322907E-1   1.060487629729323E-4  -7.620862452313304E-4   1.374111743643880E-4  -8.229024824686348E-4  -8.527366518974304E-1  -4.563629925251007E-1  
 6.048048048048048E8    -8.522997498512268E-1   3.963444828987122E-1   1.872050197562203E-4  -7.727120537310839E-4   1.713357341941446E-4  -8.242874755524099E-4  -8.573009967803955E-1  -4.465111494064331E-1  
 6.072072072072072E8    -8.443531990051270E-1   4.103876948356628E-1   2.409083681413904E-4  -8.391446899622679E-4   1.795533025870100E-4  -8.038018713705242E-4  -8.618242144584656E-1  -4.374085068702698E-1  
 6.096096096096096E8    -8.355387449264526E-1   4.245148301124573E-1   3.120450128335506E-4  -8.298066677525640E-4   2.444738929625601E-4  -8.109082700684667E-4  -8.666901588439941E-1  -4.272630214691162E-1  
 6.120120120120120E8    -8.288689851760864E-1   4.357382357120514E-1   3.839758574031293E-4  -8.440804085694253E-4   3.543884959071875E-4  -7.754582329653204E-4  -8.701673746109009E-1  -4.189011156558991E-1  
 6.144144144144144E8    -8.203890919685364E-1   4.482006132602692E-1   5.406896816566587E-4  -8.538982365280390E-4   5.653819534927607E-4  -8.172488887794316E-4  -8.738865852355957E-1  -4.103780686855316E-1  
 6.168168168168168E8    -8.112212419509888E-1   4.606327116489410E-1   6.627085967920721E-4  -8.082653512246907E-4   6.215414032340050E-4  -8.684916538186371E-4  -8.777833580970764E-1  -4.012864828109741E-1  
 6.192192192192192E8    -8.019111752510071E-1   4.726141989231110E-1   9.690840961411595E-4  -9.252023883163929E-4   9.369683684781194E-4  -8.596709230914712E-4  -8.821123838424683E-1  -3.912137150764465E-1  
 6.216216216216216E8    -7.923424243927002E-1   4.844809770584106E-1   1.187903224490583E-3  -1.061077229678631E-3   1.211628201417625E-3  -1.026610611006618E-3  -8.866007328033447E-1  -3.803610503673554E-1  
 6.240240240240240E8    -7.827083468437195E-1   4.956260025501251E-1   1.577537273988128E-3  -1.341143157333136E-3   1.574496738612652E-3  -1.335288397967815E-3  -8.909627795219421E-1  -3.690778315067291E-1  
 6.264264264264264E8    -7.726566791534424E-1   5.077137351036072E-1   1.879914081655443E-3  -1.697751809842885E-3   1.960690598934889E-3  -1.814060145989060E-3  -8.948628902435303E-1  -3.575154244899750E-1  
 6.288288288288288E8    -7.630933523178101E-1   5.192843675613403E-1   2.148816362023354E-3  -2.364206127822399E-3   2.213136991485953E-3  -2.286856062710285E-3  -8.983234763145447E-1  -3.472607731819153E-1  
 6.312312312312312E8    -7.541003823280335E-1   5.298359394073486E-1   2.269768854603171E-3  -3.031202591955662E-3   2.261840971186757E-3  -2.997600473463535E-3  -9.013369679450989E-1  -3.378725647926331E-1  
 6.336336336336336E8    -7.455243468284607E-1   5.407425761222839E-1   2.160738920792937E-3  -3.807761939242482E-3   2.161810873076320E-3  -3.763167187571526E-3  -9.042085409164429E-1  -3.290868997573853E-1  
 6.360360360360360E8    -7.366973161697388E-1   5.517074465751648E-1   1.954148989170790E-3  -4.515790380537510E-3   1.890851301141083E-3  -4.520137794315815E-3  -9.068847298622131E-1  -3.203956186771393E-1  
 6.384384384384384E8    -7.270683050155640E-1   5.643259286880493E-1   1.466652378439903E-3  -5.181658547371626E-3   1.449134433642030E-3  -5.184516310691834E-3  -9.097398519515991E-1  -3.105211853981018E-1  
 6.408408408408408E8    -7.163857817649841E-1   5.769419670104981E-1   8.017884683795273E-4  -5.629669874906540E-3   8.821058436296880E-4  -5.656002555042505E-3  -9.131225347518921E-1  -3.005573153495789E-1  
 6.432432432432432E8    -7.053837776184082E-1   5.896150469779968E-1   1.492668379796669E-4  -6.036764010787010E-3   2.426429709885269E-4  -6.026892922818661E-3  -9.161013960838318E-1  -2.909997999668121E-1  
 6.456456456456456E8    -6.936842203140259E-1   6.011939048767090E-1  -3.581153578124940E-4  -6.258042063564062E-3  -3.301670658402145E-4  -6.282784510403872E-3  -9.193080067634583E-1  -2.811421155929565E-1  
 6.480480480480480E8    -6.811144351959229E-1   6.125919818878174E-1  -9.526119101792574E-4  -6.492860149592161E-3  -9.061251184903085E-4  -6.377654150128365E-3  -9.222840070724487E-1  -2.712107300758362E-1  
 6.504504504504504E8    -6.668628454208374E-1   6.251908540725708E-1  -1.556410687044263E-3  -6.574083585292101E-3  -1.547024119645357E-3  -6.561391986906529E-3  -9.240092635154724E-1  -2.601381242275238E-1  
 6.528528528528528E8    -6.531212925910950E-1   6.368269324302673E-1  -2.062151674181223E-3  -6.526137236505747E-3  -2.068274887278676E-3  -6.587404757738113E-3  -9.262176752090454E-1  -2.491021901369095E-1  
 6.552552552552552E8    -6.392361521720886E-1   6.474824547767639E-1  -2.556811552494764E-3  -6.540977396070957E-3  -2.541166264563799E-3  -6.539606023579836E-3  -9.283519983291626E-1  -2.387305349111557E-1  
 6.576576576576576E8    -6.248534917831421E-1   6.572141647338867E-1  -2.945201238617301E-3  -6.502456963062286E-3  -2.881124848499894E-3  -6.521784700453281E-3  -9.306440353393555E-1  -2.287659049034119E-1  
 6.600600600600600E8    -6.093317866325378E-1   6.675335764884949E-1  -3.315284149721265E-3  -6.432290188968182E-3  -3.268857486546040E-3  -6.451154593378305E-3  -9.329287409782410E-1  -2.186968922615051E-1  
 6.624624624624624E8    -5.930668711662293E-1   6.785658597946167E-1  -3.577336436137557E-3  -6.383009254932404E-3  -3.555597737431526E-3  -6.401845254004002E-3  -9.349573254585266E-1  -2.066649794578552E-1  
 6.648648648648648E8    -5.763181447982788E-1   6.888414025306702E-1  -3.799573518335819E-3  -6.385801360011101E-3  -3.805910935625434E-3  -6.414650473743677E-3  -9.364815354347229E-1  -1.945188939571381E-1  
 6.672672672672672E8    -5.588911771774292E-1   6.979603767395020E-1  -4.115479998290539E-3  -6.408999674022198E-3  -4.024764057248831E-3  -6.445565260946751E-3  -9.381166696548462E-1  -1.829508990049362E-1  
 6.696696696696696E8    -5.412561297416687E-1   7.065119743347168E-1  -4.295218735933304E-3  -6.480765063315630E-3  -4.197396337985992E-3  -6.523029878735542E-3  -9.393191933631897E-1  -1.715552359819412E-1  
 6.720720720720720E8    -5.227916836738586E-1   7.139298915863037E-1  -4.425642080605030E-3  -6.614113226532936E-3  -4.350534640252590E-3  -6.645106710493565E-3  -9.401049017906189E-1  -1.602309197187424E-1  
 6.744744744744744E8    -5.039608478546143E-1   7.209805846214294E-1  -4.570859950035811E-3  -6.764813326299191E-3  -4.489982966333628E-3  -6.792767439037561E-3  -9.408000707626343E-1  -1.482593566179276E-1  
 6.768768768768768E8    -4.851015210151672E-1   7.271504402160645E-1  -4.666681867092848E-3  -7.003213744610548E-3  -4.547180142253637E-3  -7.002381607890129E-3  -9.416339397430420E-1  -1.360665708780289E-1  
 6.792792792792792E8    -4.666945338249207E-1   7.328367829322815E-1  -4.543271847069264E-3  -7.343136239796877E-3  -4.526880104094744E-3  -7.338723633438349E-3  -9.418786168098450E-1  -1.240182965993881E-1  
 6.816816816816816E8    -4.483112692832947E-1   7.377538084983826E-1  -4.380790051072836E-3  -8.034375496208668E-3  -4.340582992881537E-3  -8.031605742871761E-3  -9.421080946922302E-1  -1.113096326589584E-1  
 6.840840840840840E8    -4.292745590209961E-1   7.420079708099365E-1  -4.213240928947926E-3  -8.965192362666130E-3  -4.149941261857748E-3  -9.074249304831028E-3  -9.420511722564697E-1  -9.807837754487991E-2  
 6.864864864864864E8    -4.097956717014313E-1   7.460982799530029E-1  -4.254333674907684E-3  -1.052669063210487E-2  -4.159680102020502E-3  -1.052132435142994E-2  -9.404580593109131E-1  -8.578095585107803E-2  
 6.888888888888888E8    -3.911468088626862E-1   7.496429681777954E-1  -4.677990451455116E-3  -1.257113926112652E-2  -4.538789391517639E-3  -1.250018831342459E-2  -9.385045170783997E-1  -7.264382392168045E-2  
 6.912912912912912E8    -3.736386597156525E-1   7.530344128608704E-1  -5.936866626143456E-3  -1.512230373919010E-2  -5.702423397451639E-3  -1.506709773093462E-2  -9.367323517799377E-1  -5.989822000265122E-2  
 6.936936936936936E8    -3.566702902317047E-1   7.578273415565491E-1  -8.228444494307041E-3  -1.762256585061550E-2  -8.052247576415539E-3  -1.763784699141979E-2  -9.347065687179565E-1  -4.699600487947464E-2  
 6.960960960960960E8    -3.380137383937836E-1   7.636638283729553E-1  -1.159114018082619E-2  -1.978249289095402E-2  -1.153882592916489E-2  -1.979273930191994E-2  -9.328548908233643E-1  -3.414072468876839E-2  
 6.984984984984984E8    -3.183551132678986E-1   7.698866724967957E-1  -1.566021330654621E-2  -2.099218219518662E-2  -1.587194763123989E-2  -2.083904296159744E-2  -9.310281872749329E-1  -1.817336119711399E-2  
 7.009009009009008E8    -2.962055504322052E-1   7.757291793823242E-1  -2.016889117658138E-2  -2.121580392122269E-2  -2.041101269423962E-2  -2.084736339747906E-2  -9.289005398750305E-1  -3.494301345199347E-3  
 7.033033033033032E8    -2.710415720939636E-1   7.792000174522400E-1  -2.440492995083332E-2  -2.018798515200615E-2  -2.458774670958519E-2  -1.990093104541302E-2  -9.265766739845276E-1   8.777758106589317E-3  
 7.057057057057056E8    -2.442845106124878E-1   7.801863551139832E-1  -2.829528413712978E-2  -1.862181536853313E-2  -2.824456244707108E-2  -1.854992471635342E-2  -9.238638281822205E-1   1.811294071376324E-2  
 7.081081081081080E8    -2.153506129980087E-1   7.796056270599365E-1  -3.196500614285469E-2  -1.684379018843174E-2  -3.166922181844711E-2  -1.705096662044525E-2  -9.206690192222595E-1   2.962407842278481E-2  
 7.105105105105104E8    -1.856217384338379E-1   7.771491408348084E-1  -3.561268001794815E-2  -1.456080004572868E-2  -3.511226177215576E-2  -1.511280797421932E-2  -9.173843264579773E-1   4.201995953917503E-2  
 7.129129129129129E8    -1.575574129819870E-1   7.717711925506592E-1  -3.878162056207657E-2  -1.214301306754351E-2  -3.854824230074883E-2  -1.275717746466398E-2  -9.131029844284058E-1   5.665308982133865E-2  
 7.153153153153153E8    -1.297163963317871E-1   7.643554806709290E-1  -4.196781665086746E-2  -9.606230072677136E-3  -4.164372384548187E-2  -1.013859268277884E-2  -9.082225561141968E-1   7.286516577005386E-2  
 7.177177177177178E8    -1.011479049921036E-1   7.548217773437500E-1  -4.513254761695862E-2  -6.872270721942186E-3  -4.508500173687935E-2  -7.242832798510790E-3  -9.027326703071594E-1   9.020154178142548E-2  
 7.201201201201202E8    -7.134845107793808E-2   7.426063418388367E-1  -4.844843596220017E-2  -3.521136008203030E-3  -4.827275872230530E-2  -3.931888844817877E-3  -8.968519568443298E-1   1.066720932722092E-1  
 7.225225225225226E8    -4.373620450496674E-2   7.284303903579712E-1  -5.183421447873116E-2   1.114654442062601E-4  -5.174370482563973E-2  -2.875153440982103E-4  -8.901745080947876E-1   1.235909983515739E-1  
 7.249249249249250E8    -1.752294041216373E-2   7.127948403358460E-1  -5.494048446416855E-2   4.661345388740301E-3  -5.497423931956291E-2   3.586416132748127E-3  -8.823134899139404E-1   1.383940875530243E-1  
 7.273273273273274E8     7.006989791989327E-3   6.951057314872742E-1  -5.808356776833534E-2   9.701551869511604E-3  -5.822703987360001E-2   8.356391452252865E-3  -8.734351992607117E-1   1.535607874393463E-1  
 7.297297297297298E8     3.025800175964832E-2   6.753790378570557E-1  -6.086294725537300E-2   1.505080517381430E-2  -6.096340343356133E-2   1.388669107109308E-2  -8.636115193367004E-1   1.701092123985291E-1  
 7.321321321321322E8     5.222779139876366E-2   6.544002294540405E-1  -6.330593675374985E-2   2.045953832566738E-2  -6.322077661752701E-2   2.019627764821053E-2  -8.525573611259460E-1   1.871713250875473E-1  
 7.345345345345346E8     7.489120215177536E-2   6.321518421173096E-1  -6.555356085300446E-2   2.619509771466255E-2  -6.519088149070740E-2   2.616906352341175E-2  -8.401612639427185E-1   2.036653161048889E-1  
 7.369369369369370E8     9.845267981290817E-2   6.052886247634888E-1  -6.821545213460922E-2   3.244846686720848E-2  -6.797694414854050E-2   3.265828266739845E-2  -8.265060186386108E-1   2.209805101156235E-1  
 7.393393393393394E8     1.193076297640801E-1   5.742399692535400E-1  -7.113644480705261E-2   4.062591865658760E-2  -7.086354494094849E-2   4.071769863367081E-2  -8.110208511352539E-1   2.381913959980011E-1  
 7.417417417417418E8     1.362982243299484E-1   5.400701165199280E-1  -7.310852408409119E-2   5.071731284260750E-2  -7.317789644002914E-2   5.049001052975655E-2  -7.939490079879761E-1   2.540664374828339E-1  
 7.441441441441442E8     1.496769934892654E-1   5.061857700347900E-1  -7.378186285495758E-2   6.204400584101677E-2  -7.428283244371414E-2   6.160454824566841E-2  -7.750299572944641E-1   2.682209312915802E-1  
 7.465465465465466E8     1.587742865085602E-1   4.732283353805542E-1  -7.302829623222351E-2   7.422178983688355E-2  -7.362930476665497E-2   7.420767098665237E-2  -7.532664537429810E-1   2.822951376438141E-1  
 7.489489489489490E8     1.646291464567184E-1   4.354989528656006E-1  -7.020235061645508E-2   8.789642900228500E-2  -7.102821022272110E-2   8.789268881082535E-2  -7.308403253555298E-1   2.947532832622528E-1  
 7.513513513513514E8     1.660077422857285E-1   3.964213132858276E-1  -6.471828371286392E-2   1.024758592247963E-1  -6.563486903905869E-2   1.023930162191391E-1  -7.072085738182068E-1   3.061423003673554E-1  
 7.537537537537538E8     1.620712131261826E-1   3.575217723846436E-1  -5.569633841514587E-2   1.172904670238495E-1  -5.723646655678749E-2   1.168491467833519E-1  -6.814975142478943E-1   3.174688816070557E-1  
 7.561561561561562E8     1.541621237993240E-1   3.210015296936035E-1  -4.420615360140801E-2   1.308091431856155E-1  -4.545424506068230E-2   1.299349367618561E-1  -6.529876589775085E-1   3.262121379375458E-1  
 7.585585585585586E8     1.435509175062180E-1   2.881328463554382E-1  -3.066055662930012E-2   1.428561508655548E-1  -3.213340416550636E-2   1.414414048194885E-1  -6.208462119102478E-1   3.355656862258911E-1  
 7.609609609609610E8     1.301008164882660E-1   2.565135657787323E-1  -1.497979834675789E-2   1.545099914073944E-1  -1.678154431283474E-2   1.527616083621979E-1  -5.853860378265381E-1   3.417316377162933E-1  
 7.633633633633634E8     1.144387200474739E-1   2.260522097349167E-1   4.300507716834545E-3   1.651176363229752E-1   1.632267609238625E-3   1.634697616100311E-1  -5.474631786346436E-1   3.425216078758240E-1  
 7.657657657657658E8     9.744205325841904E-2   1.990768164396286E-1   2.608448266983032E-2   1.726064085960388E-1   2.335291914641857E-2   1.720231324434280E-1  -5.092319250106812E-1   3.373417258262634E-1  
 7.681681681681682E8     7.850914448499680E-2   1.743584871292114E-1   4.989384114742279E-2   1.766529828310013E-1   4.810236021876335E-2   1.773308515548706E-1  -4.696216881275177E-1   3.266600072383881E-1  
 7.705705705705706E8     5.794857814908028E-2   1.529681235551834E-1   7.535089552402496E-2   1.771284788846970E-1   7.417545467615128E-2   1.783234328031540E-1  -4.286883473396301E-1   3.107748925685883E-1  
 7.729729729729730E8     3.664575889706612E-2   1.326926499605179E-1   1.025764495134354E-1   1.728457063436508E-1   1.023616790771484E-1   1.747713536024094E-1  -3.875188231468201E-1   2.887197732925415E-1  
 7.753753753753754E8     1.338656432926655E-2   1.125641837716103E-1   1.306440383195877E-1   1.635413169860840E-1   1.314796805381775E-1   1.651936620473862E-1  -3.459935784339905E-1   2.580623626708984E-1  
 7.777777777777778E8    -1.155711431056261E-2   9.362873435020447E-2   1.584589630365372E-1   1.483055353164673E-1   1.587127596139908E-1   1.490494906902313E-1  -3.084520399570465E-1   2.190472483634949E-1  
 7.801801801801802E8    -3.888851404190064E-2   7.618041336536408E-2   1.835125684738159E-1   1.278188377618790E-1   1.833899021148682E-1   1.264411658048630E-1  -2.749517261981964E-1   1.689818054437637E-1  
 7.825825825825826E8    -6.921607255935669E-2   6.305579096078873E-2   2.056566476821899E-1   1.006086170673370E-1   2.042451798915863E-1   1.006794497370720E-1  -2.527914047241211E-1   1.151687353849411E-1  
 7.849849849849850E8    -9.857884049415588E-2   5.392367020249367E-2   2.220786660909653E-1   6.794473528862000E-2   2.200920730829239E-1   6.948616355657578E-2  -2.416464090347290E-1   5.534027889370918E-2  
 7.873873873873874E8    -1.267903596162796E-1   4.529497772455216E-2   2.305342406034470E-1   3.218001872301102E-2   2.281837165355682E-1   3.548580780625343E-2  -2.419972568750382E-1  -4.478819668292999E-3  
 7.897897897897898E8    -1.578305065631867E-1   3.748330846428871E-2   2.305776029825211E-1  -3.313000081107020E-3   2.290645241737366E-1   4.426809027791023E-5  -2.546485066413879E-1  -6.601718813180924E-2  
 7.921921921921922E8    -1.910579055547714E-1   3.352639079093933E-2   2.233113050460815E-1  -3.745532035827637E-2   2.236310988664627E-1  -3.403486683964729E-2  -2.797905504703522E-1  -1.242509409785271E-1  
 7.945945945945946E8    -2.247535288333893E-1   3.316536545753479E-2   2.106095999479294E-1  -6.802537292242050E-2   2.113014012575150E-1  -6.479034572839737E-2  -3.139608800411224E-1  -1.738331913948059E-1  
 7.969969969969970E8    -2.602680623531342E-1   3.520346805453301E-2   1.922183036804199E-1  -9.377752244472504E-2   1.932081133127213E-1  -9.141972661018372E-2  -3.553690612316132E-1  -2.138920873403549E-1  
 7.993993993993994E8    -2.960833013057709E-1   4.118107259273529E-2   1.711379140615463E-1  -1.134553924202919E-1   1.716004759073257E-1  -1.123319268226624E-1  -4.006283879280090E-1  -2.439591735601425E-1  
 8.018018018018018E8    -3.290931284427643E-1   5.371914058923721E-2   1.492268592119217E-1  -1.275912374258041E-1   1.482197940349579E-1  -1.275551468133926E-1  -4.485480785369873E-1  -2.654191553592682E-1  
 8.042042042042042E8    -3.612795770168304E-1   7.264636456966400E-2   1.265303194522858E-1  -1.377570778131485E-1   1.253922730684280E-1  -1.375336945056915E-1  -4.946333467960358E-1  -2.783821523189545E-1  
 8.066066066066066E8    -3.893569111824036E-1   9.549582749605179E-2   1.043876633048058E-1  -1.435898095369339E-1   1.041732132434845E-1  -1.432956010103226E-1  -5.393834114074707E-1  -2.832950949668884E-1  
 8.090090090090090E8    -4.125021100044251E-1   1.190143674612045E-1   8.384254574775696E-2  -1.462191045284271E-1   8.388423174619675E-2  -1.460243016481400E-1  -5.816838741302490E-1  -2.818159759044647E-1  
 8.114114114114114E8    -4.344269931316376E-1   1.426844298839569E-1   6.492192298173904E-2  -1.458439230918884E-1   6.536915153264999E-2  -1.456392556428909E-1  -6.200449466705322E-1  -2.756542861461639E-1  
 8.138138138138138E8    -4.551186561584473E-1   1.685026139020920E-1   4.847615212202072E-2  -1.435048282146454E-1   4.926935583353043E-2  -1.435877829790115E-1  -6.548084020614624E-1  -2.663408517837524E-1  
 8.162162162162162E8    -4.721054434776306E-1   1.978810280561447E-1   3.364443033933640E-2  -1.405366659164429E-1   3.458510711789131E-2  -1.406881511211395E-1  -6.870448589324951E-1  -2.540956735610962E-1  
 8.186186186186186E8    -4.833469092845917E-1   2.290634661912918E-1   1.947269029915333E-2  -1.363403350114822E-1   2.047836594283581E-2  -1.365410536527634E-1  -7.151582241058350E-1  -2.391411215066910E-1  
 8.210210210210210E8    -4.893309175968170E-1   2.578615844249725E-1   6.597783882170916E-3  -1.305033415555954E-1   7.434937637299299E-3  -1.305951029062271E-1  -7.405074238777161E-1  -2.230056971311569E-1  
 8.234234234234234E8    -4.918581545352936E-1   2.832132279872894E-1  -4.030791111290455E-3  -1.235804483294487E-1  -3.599778981879354E-3  -1.234523728489876E-1  -7.629576921463013E-1  -2.057789415121079E-1  
