#  HZ   S   RI   R     50.00 
! Rohde & Schwarz ZVB8 2Ports - Version 2.81 - 1145.1010k08 SN: 100113
! Date: 2016-05-04 02:50:20
! Measurements: S11 S21 S12 S22 
! 
 6.000000000000000E8    -8.665921688079834E-1   3.701596260070801E-1   1.379825407639146E-4  -8.319332264363766E-4   5.258716555545107E-5  -7.975600892677903E-4  -8.487592339515686E-1  -4.640614688396454E-1  
 6.024024024024024E8    -8.596231937408447E-1   3.829771578311920E-1   1.791871181922033E-4  -8.170396904461086E-4   1.451458956580609E-4  -7.952203741297126E-4  -8.532292246818543E-1  -4.546896219253540E-1  
 6.048048048048048E8    -8.523308038711548E-1   3.966003358364105E-1   1.696258113952354E-4  -8.685301872901619E-4   1.634859945625067E-4  -8.699443424120545E-4  -8.576950430870056E-1  -4.454026222229004E-1  
 6.072072072072072E8    -8.443975448608398E-1   4.104637801647186E-1   2.104530722135678E-4  -8.516059606336057E-4   1.775041455402970E-4  -8.901968831196427E-4  -8.623481988906860E-1  -4.361843168735504E-1  
 6.096096096096096E8    -8.357633948326111E-1   4.246776700019836E-1   2.834150509443134E-4  -8.615938713774085E-4   1.967661955859512E-4  -8.647221839055419E-4  -8.668904304504395E-1  -4.260933399200440E-1  
 6.120120120120120E8    -8.287146091461182E-1   4.357022643089294E-1   3.573620342649519E-4  -8.718101307749748E-4   3.462167805992067E-4  -8.484880672767758E-4  -8.704892396926880E-1  -4.173980653285980E-1  
 6.144144144144144E8    -8.205384612083435E-1   4.482094645500183E-1   5.146056064404547E-4  -8.373587043024600E-4   5.383758689276874E-4  -8.382924133911729E-4  -8.743366599082947E-1  -4.087936580181122E-1  
 6.168168168168168E8    -8.113556504249573E-1   4.606395065784454E-1   6.833770312368870E-4  -8.519610855728388E-4   7.085826946422458E-4  -8.905230206437409E-4  -8.781250715255737E-1  -3.996032178401947E-1  
 6.192192192192192E8    -8.019806146621704E-1   4.726788401603699E-1   9.470614022575319E-4  -9.548772359266877E-4   9.836138924583793E-4  -9.186555980704725E-4  -8.825320005416870E-1  -3.896342813968658E-1  
 6.216216216216216E8    -7.923561930656433E-1   4.842958152294159E-1   1.270925975404680E-3  -1.068716752342880E-3   1.320657785981894E-3  -1.182141597382724E-3  -8.868910670280457E-1  -3.784989416599274E-1  
 6.240240240240240E8    -7.824559211730957E-1   4.956937134265900E-1   1.614252338185906E-3  -1.384568517096341E-3   1.617978676222265E-3  -1.360090100206435E-3  -8.912804722785950E-1  -3.670482933521271E-1  
 6.264264264264264E8    -7.725690603256226E-1   5.078274011611939E-1   1.973519567400217E-3  -1.852682093158364E-3   1.991744851693511E-3  -1.814692048355937E-3  -8.955431580543518E-1  -3.553993105888367E-1  
 6.288288288288288E8    -7.628142833709717E-1   5.190100669860840E-1   2.213323954492807E-3  -2.387981396168470E-3   2.293072175234556E-3  -2.415563678368926E-3  -8.985576033592224E-1  -3.451878130435944E-1  
 6.312312312312312E8    -7.540624737739563E-1   5.297799706459045E-1   2.293008845299482E-3  -3.173200413584709E-3   2.294383244588971E-3  -3.124790498986840E-3  -9.016003608703613E-1  -3.357019126415253E-1  
 6.336336336336336E8    -7.455154657363892E-1   5.405325889587402E-1   2.152679022401571E-3  -3.917160443961620E-3   2.272227313369513E-3  -3.825220745056868E-3  -9.044305086135864E-1  -3.266488909721375E-1  
 6.360360360360360E8    -7.366905808448792E-1   5.516245961189270E-1   1.889557344838977E-3  -4.751773085445166E-3   1.887013087980449E-3  -4.609930794686079E-3  -9.072820544242859E-1  -3.182004094123840E-1  
 6.384384384384384E8    -7.269780039787293E-1   5.640394687652588E-1   1.440703752450645E-3  -5.367729347199202E-3   1.418723491951823E-3  -5.294105038046837E-3  -9.100092649459839E-1  -3.082987666130066E-1  
 6.408408408408408E8    -7.164571881294251E-1   5.769847035408020E-1   8.551743812859058E-4  -5.847654305398464E-3   8.131858194246888E-4  -5.814394913613796E-3  -9.128842949867249E-1  -2.982679903507233E-1  
 6.432432432432432E8    -7.054114341735840E-1   5.894529819488525E-1   2.100383571814746E-4  -6.226181518286467E-3   2.079394616885111E-4  -6.149596534669399E-3  -9.162521362304688E-1  -2.879978418350220E-1  
 6.456456456456456E8    -6.936969161033630E-1   6.012301445007324E-1  -4.934222670271993E-4  -6.556877866387367E-3  -3.880241711158305E-4  -6.449808832257986E-3  -9.190942645072937E-1  -2.780742347240448E-1  
 6.480480480480480E8    -6.810539364814758E-1   6.129111051559448E-1  -1.027469872497022E-3  -6.630900781601667E-3  -1.016436610370874E-3  -6.623192690312862E-3  -9.223430752754211E-1  -2.679751813411713E-1  
 6.504504504504504E8    -6.670054197311401E-1   6.253085732460022E-1  -1.613379688933492E-3  -6.679954938590527E-3  -1.594730420038104E-3  -6.701929029077292E-3  -9.240313768386841E-1  -2.566607594490051E-1  
 6.528528528528528E8    -6.530357003211975E-1   6.370134353637695E-1  -2.194155007600784E-3  -6.737533025443554E-3  -2.080249367281795E-3  -6.788256578147411E-3  -9.261696338653565E-1  -2.456912696361542E-1  
 6.552552552552552E8    -6.389905214309692E-1   6.476585865020752E-1  -2.637275960296392E-3  -6.730036810040474E-3  -2.590328920632601E-3  -6.762968841940165E-3  -9.282950162887573E-1  -2.352130860090256E-1  
 6.576576576576576E8    -6.247432827949524E-1   6.572187542915344E-1  -3.107471857219935E-3  -6.700689438730478E-3  -3.060727147385478E-3  -6.672191899269819E-3  -9.304255247116089E-1  -2.252073287963867E-1  
 6.600600600600600E8    -6.092471480369568E-1   6.676669716835022E-1  -3.466173075139523E-3  -6.658231839537621E-3  -3.423668211326003E-3  -6.625734269618988E-3  -9.329001307487488E-1  -2.145989686250687E-1  
 6.624624624624624E8    -5.928905010223389E-1   6.786543726921082E-1  -3.774172160774469E-3  -6.618570070713759E-3  -3.703514114022255E-3  -6.666754838079214E-3  -9.347184896469116E-1  -2.024648189544678E-1  
 6.648648648648648E8    -5.761781930923462E-1   6.886275410652161E-1  -4.095765296369791E-3  -6.660828366875649E-3  -3.970567602664232E-3  -6.629731506109238E-3  -9.364059567451477E-1  -1.900829523801804E-1  
 6.672672672672672E8    -5.589355230331421E-1   6.979323625564575E-1  -4.333827178925276E-3  -6.607063580304384E-3  -4.164217971265316E-3  -6.692702881991863E-3  -9.377858638763428E-1  -1.781615316867828E-1  
 6.696696696696696E8    -5.411396622657776E-1   7.061855196952820E-1  -4.510639235377312E-3  -6.719954311847687E-3  -4.444113466888666E-3  -6.693882402032614E-3  -9.387879371643066E-1  -1.664254069328308E-1  
 6.720720720720720E8    -5.229439139366150E-1   7.137582898139954E-1  -4.615189507603645E-3  -6.882588379085064E-3  -4.576520062983036E-3  -6.829368881881237E-3  -9.395209550857544E-1  -1.548534631729126E-1  
 6.744744744744744E8    -5.041213631629944E-1   7.209978699684143E-1  -4.715658724308014E-3  -6.930467672646046E-3  -4.768598824739456E-3  -6.991353351622820E-3  -9.399712681770325E-1  -1.426141113042831E-1  
 6.768768768768768E8    -4.850738644599915E-1   7.271052598953247E-1  -4.836919717490673E-3  -7.217954378575087E-3  -4.864003043621779E-3  -7.223423570394516E-3  -9.404120445251465E-1  -1.302658468484879E-1  
 6.792792792792792E8    -4.665405452251434E-1   7.326452136039734E-1  -4.784672055393457E-3  -7.594947237521410E-3  -4.701953381299973E-3  -7.601666729897261E-3  -9.407202601432800E-1  -1.176064386963844E-1  
 6.816816816816816E8    -4.479492604732513E-1   7.377862930297852E-1  -4.667367320507765E-3  -8.285458199679852E-3  -4.592079203575850E-3  -8.341908454895020E-3  -9.405987858772278E-1  -1.048835888504982E-1  
 6.840840840840840E8    -4.289421439170837E-1   7.419773340225220E-1  -4.547525662928820E-3  -9.406209923326969E-3  -4.472086206078529E-3  -9.358896873891354E-3  -9.402137994766235E-1  -9.134016931056976E-2  
 6.864864864864864E8    -4.094007909297943E-1   7.460201978683472E-1  -4.580270498991013E-3  -1.099347230046988E-2  -4.482044372707605E-3  -1.098706852644682E-2  -9.382823109626770E-1  -7.871271669864655E-2  
 6.888888888888888E8    -3.908451497554779E-1   7.495424151420593E-1  -5.162745714187622E-3  -1.317130494862795E-2  -4.906148184090853E-3  -1.305504515767098E-2  -9.360331296920776E-1  -6.499045342206955E-2  
 6.912912912912912E8    -3.736810982227325E-1   7.529441118240356E-1  -6.494195666164160E-3  -1.576769910752773E-2  -6.221333984285593E-3  -1.579699292778969E-2  -9.337707757949829E-1  -5.180730670690537E-2  
 6.936936936936936E8    -3.569406270980835E-1   7.576907277107239E-1  -8.902504108846188E-3  -1.840698346495628E-2  -8.784494362771511E-3  -1.840183325111866E-2  -9.313865900039673E-1  -3.866679593920708E-2  
 6.960960960960960E8    -3.387297391891480E-1   7.637528777122498E-1  -1.251709181815386E-2  -2.055162750184536E-2  -1.241284608840942E-2  -2.060616761445999E-2  -9.291094541549683E-1  -2.546828612685204E-2  
 6.984984984984984E8    -3.184895813465118E-1   7.701071500778198E-1  -1.690946891903877E-2  -2.187698893249035E-2  -1.704436354339123E-2  -2.157780155539513E-2  -9.268878102302551E-1  -9.358532726764679E-3  
 7.009009009009008E8    -2.959514260292053E-1   7.757235169410706E-1  -2.156230062246323E-2  -2.190280146896839E-2  -2.192087657749653E-2  -2.147979661822319E-2  -9.241837263107300E-1   5.962572526186705E-3  
 7.033033033033032E8    -2.705396413803101E-1   7.790949940681458E-1  -2.603599429130554E-2  -2.081284485757351E-2  -2.637411095201969E-2  -2.042756602168083E-2  -9.208983778953552E-1   1.899210363626480E-2  
 7.057057057057056E8    -2.437211126089096E-1   7.801205515861511E-1  -3.025789931416512E-2  -1.908363215625286E-2  -3.027955442667007E-2  -1.900272816419601E-2  -9.174520373344421E-1   2.889427728950977E-2  
 7.081081081081080E8    -2.150222212076187E-1   7.792785763740540E-1  -3.415151685476303E-2  -1.696836389601231E-2  -3.401942178606987E-2  -1.729235053062439E-2  -9.139769077301025E-1   4.076336696743965E-2  
 7.105105105105104E8    -1.850959360599518E-1   7.767318487167358E-1  -3.803600370883942E-2  -1.455210149288178E-2  -3.760654479265213E-2  -1.519437413662672E-2  -9.097941517829895E-1   5.372293293476105E-2  
 7.129129129129129E8    -1.568472832441330E-1   7.712171673774719E-1  -4.152433201670647E-2  -1.179934199899435E-2  -4.120112955570221E-2  -1.262789871543646E-2  -9.049138426780701E-1   6.825319677591324E-2  
 7.153153153153153E8    -1.295222043991089E-1   7.639207243919373E-1  -4.490600898861885E-2  -9.041097015142441E-3  -4.457051306962967E-2  -9.586323983967304E-3  -8.991854190826416E-1   8.531996607780457E-2  
 7.177177177177178E8    -1.014040783047676E-1   7.544658184051514E-1  -4.833320528268814E-2  -5.925985053181648E-3  -4.819951206445694E-2  -6.248017773032188E-3  -8.924400806427002E-1   1.032177880406380E-1  
 7.201201201201202E8    -7.276374101638794E-2   7.429570555686951E-1  -5.183342471718788E-2  -2.333313925191760E-3  -5.176049470901489E-2  -2.661145990714431E-3  -8.851084113121033E-1   1.201927885413170E-1  
 7.225225225225226E8    -4.447693005204201E-2   7.283284664154053E-1  -5.541475862264633E-2   1.957441447302699E-3  -5.532473698258400E-2   1.534945564344525E-3  -8.765637278556824E-1   1.380407661199570E-1  
 7.249249249249250E8    -1.746434345841408E-2   7.116779685020447E-1  -5.883910134434700E-2   7.044910453259945E-3  -5.880025774240494E-2   5.847919732332230E-3  -8.669177889823914E-1   1.536598056554794E-1  
 7.273273273273274E8     7.743624970316887E-3   6.931598782539368E-1  -6.208169832825661E-2   1.277226302772760E-2  -6.222963333129883E-2   1.125668734312058E-2  -8.559737205505371E-1   1.698677837848663E-1  
 7.297297297297298E8     3.060140833258629E-2   6.733850240707398E-1  -6.490775942802429E-2   1.881367899477482E-2  -6.513362377882004E-2   1.762334816157818E-2  -8.438658118247986E-1   1.865263134241104E-1  
 7.321321321321322E8     5.191266536712647E-2   6.528195142745972E-1  -6.733278930187225E-2   2.500131540000439E-2  -6.733252108097076E-2   2.493519522249699E-2  -8.302176594734192E-1   2.038312852382660E-1  
 7.345345345345346E8     7.358208298683167E-2   6.315284967422485E-1  -6.950207054615021E-2   3.144514933228493E-2  -6.932151317596436E-2   3.185657411813736E-2  -8.157479763031006E-1   2.203880548477173E-1  
 7.369369369369370E8     9.621594101190567E-2   6.063917875289917E-1  -7.215968519449234E-2   3.862956911325455E-2  -7.192765921354294E-2   3.954480588436127E-2  -7.988215088844299E-1   2.379704266786575E-1  
 7.393393393393394E8     1.164912506937981E-1   5.756230354309082E-1  -7.482897490262985E-2   4.813232645392418E-2  -7.456474006175995E-2   4.873571172356606E-2  -7.801158428192139E-1   2.547218799591065E-1  
 7.417417417417418E8     1.330368220806122E-1   5.423046946525574E-1  -7.636596262454987E-2   5.968153476715088E-2  -7.629187405109406E-2   5.975332856178284E-2  -7.590419054031372E-1   2.696436047554016E-1  
 7.441441441441442E8     1.464173495769501E-1   5.072517991065979E-1  -7.605871558189392E-2   7.306361943483353E-2  -7.654615491628647E-2   7.227721810340881E-2  -7.361106872558594E-1   2.824582457542419E-1  
 7.465465465465466E8     1.556416302919388E-1   4.719972610473633E-1  -7.382023334503174E-2   8.736845850944519E-2  -7.467322051525116E-2   8.621525764465332E-2  -7.096151113510132E-1   2.948073148727417E-1  
 7.489489489489490E8     1.608850210905075E-1   4.346580207347870E-1  -6.899487227201462E-2   1.027885898947716E-1  -7.030627131462097E-2   1.014854907989502E-1  -6.819387674331665E-1   3.042246103286743E-1  
 7.513513513513514E8     1.619744598865509E-1   3.960965871810913E-1  -6.096576154232025E-2   1.187820732593536E-1  -6.259413063526154E-2   1.176258772611618E-1  -6.523788571357727E-1   3.124672174453735E-1  
 7.537537537537538E8     1.580729484558106E-1   3.584360480308533E-1  -4.880337417125702E-2   1.343233436346054E-1  -5.081555992364883E-2   1.335407793521881E-1  -6.203191280364990E-1   3.191094398498535E-1  
 7.561561561561562E8     1.506685465574265E-1   3.239491879940033E-1  -3.372034803032875E-2   1.481981873512268E-1  -3.542612120509148E-2   1.474424749612808E-1  -5.856109261512756E-1   3.219655752182007E-1  
 7.585585585585586E8     1.406986862421036E-1   2.922122180461884E-1  -1.631358079612255E-2   1.599254608154297E-1  -1.752301491796970E-2   1.589003503322601E-1  -5.478844642639160E-1   3.236044049263001E-1  
 7.609609609609610E8     1.300697922706604E-1   2.650792002677918E-1   3.138493280857801E-3   1.700187176465988E-1   2.391833113506436E-3   1.691566705703735E-1  -5.070347189903259E-1   3.202174901962280E-1  
 7.633633633633634E8     1.168881878256798E-1   2.363907992839813E-1   2.664135955274105E-2   1.782170236110687E-1   2.568070776760578E-2   1.775289773941040E-1  -4.651952087879181E-1   3.091385662555695E-1  
 7.657657657657658E8     1.027453765273094E-1   2.102171331644058E-1   5.320744216442108E-2   1.823479980230331E-1   5.234129726886749E-2   1.823750883340836E-1  -4.248566329479218E-1   2.904998064041138E-1  
 7.681681681681682E8     8.574004471302033E-2   1.835870891809464E-1   8.186060935258865E-2   1.814367324113846E-1   8.044351637363434E-2   1.823642104864121E-1  -3.872082233428955E-1   2.662892937660217E-1  
 7.705705705705706E8     6.689278781414032E-2   1.597840040922165E-1   1.113005355000496E-1   1.751934885978699E-1   1.091888621449471E-1   1.767785102128983E-1  -3.498994708061218E-1   2.347937077283859E-1  
 7.729729729729730E8     4.660273343324661E-2   1.361472606658936E-1   1.409851014614105E-1   1.624159514904022E-1   1.384620964527130E-1   1.656577736139298E-1  -3.154264390468597E-1   1.951760798692703E-1  
 7.753753753753754E8     2.434662729501724E-2   1.123987585306168E-1   1.688590794801712E-1   1.433596014976502E-1   1.667558252811432E-1   1.470656991004944E-1  -2.861923277378082E-1   1.465373188257217E-1  
 7.777777777777778E8    -9.720970992930234E-4   8.908463269472122E-2   1.929965466260910E-1   1.182311028242111E-1   1.911597549915314E-1   1.214672401547432E-1  -2.654475271701813E-1   9.132586419582367E-2  
 7.801801801801802E8    -2.896000817418098E-2   6.810662150382996E-2   2.113978862762451E-1   8.935762196779251E-2   2.092405408620834E-1   9.108194708824158E-2  -2.548166215419769E-1   3.096684440970421E-2  
 7.825825825825826E8    -5.940715223550797E-2   5.220668017864227E-2   2.236784994602203E-1   5.640680715441704E-2   2.222616523504257E-1   5.745755136013031E-2  -2.575017809867859E-1  -2.974813990294933E-2  
 7.849849849849850E8    -9.000252187252045E-2   4.096768423914909E-2   2.288917452096939E-1   2.079486474394798E-2   2.273460328578949E-1   2.208431996405125E-2  -2.727283537387848E-1  -8.929618448019028E-2  
 7.873873873873874E8    -1.222042441368103E-1   3.108630701899529E-2   2.258744686841965E-1  -1.413036882877350E-2   2.239320874214172E-1  -1.317779812961817E-2  -2.987549304962158E-1  -1.436039656400681E-1  
 7.897897897897898E8    -1.577065736055374E-1   2.367425709962845E-2   2.157343477010727E-1  -4.573326557874680E-2   2.139232307672501E-1  -4.502234235405922E-2  -3.336703777313232E-1  -1.907029449939728E-1  
 7.921921921921922E8    -1.943655908107758E-1   2.121534012258053E-2   2.004595100879669E-1  -7.334651052951813E-2   1.997728198766708E-1  -7.250731438398361E-2  -3.763644099235535E-1  -2.295836210250855E-1  
 7.945945945945946E8    -2.310793548822403E-1   2.336179278790951E-2   1.820320636034012E-1  -9.661476314067841E-2   1.815311014652252E-1  -9.515640884637833E-2  -4.219421744346619E-1  -2.576452791690826E-1  
 7.969969969969970E8    -2.676708400249481E-1   2.786107920110226E-2   1.602267175912857E-1  -1.146124750375748E-1   1.605198234319687E-1  -1.129726469516754E-1  -4.683359563350678E-1  -2.757919728755951E-1  
 7.993993993993994E8    -3.064644336700440E-1   3.733298182487488E-2   1.373822689056397E-1  -1.270044595003128E-1   1.387849152088165E-1  -1.255241483449936E-1  -5.121943950653076E-1  -2.856754660606384E-1  
 8.018018018018018E8    -3.428099751472473E-1   5.391744896769524E-2   1.152449175715447E-1  -1.345411837100983E-1   1.169238612055779E-1  -1.339479535818100E-1  -5.548987984657288E-1  -2.888208925724030E-1  
 8.042042042042042E8    -3.725206255912781E-1   7.438752800226212E-2   9.486935287714005E-2  -1.385782063007355E-1   9.596231579780579E-2  -1.382306069135666E-1  -5.954189300537109E-1  -2.876372635364533E-1  
 8.066066066066066E8    -3.968626856803894E-1   9.773160517215729E-2   7.631496340036392E-2  -1.396155655384064E-1   7.683518528938294E-2  -1.395742446184158E-1  -6.343327164649963E-1  -2.809308469295502E-1  
 8.090090090090090E8    -4.186930656433106E-1   1.221800819039345E-1   5.914771184325218E-2  -1.387470662593842E-1   5.942568555474281E-2  -1.387298703193665E-1  -6.694913506507874E-1  -2.701378762722015E-1  
 8.114114114114114E8    -4.394132792949677E-1   1.465006172657013E-1   4.390221834182739E-2  -1.360658407211304E-1   4.425883293151856E-2  -1.359523981809616E-1  -7.005534172058106E-1  -2.568923532962799E-1  
 8.138138138138138E8    -4.593077898025513E-1   1.729652732610703E-1   3.077234514057636E-2  -1.324541717767716E-1   3.128675743937492E-2  -1.322320848703384E-1  -7.279607057571411E-1  -2.421129196882248E-1  
 8.162162162162162E8    -4.752580225467682E-1   2.027691155672073E-1   1.870878972113133E-2  -1.283324062824249E-1   1.949387602508068E-2  -1.283605396747589E-1  -7.526122927665710E-1  -2.265437692403793E-1  
 8.186186186186186E8    -4.854762554168701E-1   2.339436262845993E-1   7.421553600579500E-3  -1.238922700285912E-1   8.015105500817299E-3  -1.236116662621498E-1  -7.735456824302673E-1  -2.090353518724442E-1  
 8.210210210210210E8    -4.894849956035614E-1   2.607059478759766E-1  -2.785513876006007E-3  -1.179295852780342E-1  -2.438177587464452E-3  -1.176211014389992E-1  -7.916430234909058E-1  -1.917948573827744E-1  
 8.234234234234234E8    -4.918538630008698E-1   2.862735986709595E-1  -1.141800079494715E-2  -1.110979989171028E-1  -1.116537023335695E-2  -1.109262853860855E-1  -8.081709742546082E-1  -1.743338257074356E-1  
