#  HZ   S   RI   R     50.00 
! Rohde & Schwarz ZVB8 2Ports - Version 2.81 - 1145.1010k08 SN: 100113
! Date: 2016-05-04 02:50:11
! Measurements: S11 S21 S12 S22 
! 
 6.000000000000000E8    -8.666006326675415E-1   3.700538873672485E-1   9.497955034021288E-5  -7.076507317833602E-4   5.270840847515501E-5  -7.512349984608591E-4  -8.473293185234070E-1  -4.683673083782196E-1  
 6.024024024024024E8    -8.597440123558044E-1   3.828778266906738E-1   1.439286716049537E-4  -7.962011732161045E-4   1.390196266584098E-4  -7.628516177646816E-4  -8.518614768981934E-1  -4.591838717460632E-1  
 6.048048048048048E8    -8.522635698318481E-1   3.964404761791229E-1   1.539526856504381E-4  -7.701079593971372E-4   1.781101018423215E-4  -7.438639295287430E-4  -8.562442660331726E-1  -4.500968158245087E-1  
 6.072072072072072E8    -8.443073034286499E-1   4.102290570735931E-1   1.937964407261461E-4  -8.060125983320177E-4   2.306246897205710E-4  -8.425468695349991E-4  -8.609334826469421E-1  -4.406954944133759E-1  
 6.096096096096096E8    -8.354034423828125E-1   4.247770607471466E-1   1.541712408652529E-4  -7.174582569859922E-4   2.505494630895555E-4  -7.467166869901121E-4  -8.657326102256775E-1  -4.307869970798492E-1  
 6.120120120120120E8    -8.288996815681458E-1   4.357945621013641E-1   3.975097788497806E-4  -7.599459495395422E-4   2.820693480316550E-4  -7.343955221585929E-4  -8.691876530647278E-1  -4.227086901664734E-1  
 6.144144144144144E8    -8.201521635055542E-1   4.483454823493958E-1   4.858181637246162E-4  -7.382806506939232E-4   4.913969314657152E-4  -7.015856681391597E-4  -8.729591369628906E-1  -4.137727618217468E-1  
 6.168168168168168E8    -8.109464645385742E-1   4.610762000083923E-1   7.317076670005918E-4  -7.457849569618702E-4   6.840645219199359E-4  -7.231893832795322E-4  -8.767375946044922E-1  -4.051281511783600E-1  
 6.192192192192192E8    -8.019616007804871E-1   4.727150499820709E-1   9.619630291126669E-4  -8.496454684063792E-4   8.568648481741548E-4  -8.774285670369864E-4  -8.813075423240662E-1  -3.956048786640167E-1  
 6.216216216216216E8    -7.921586036682129E-1   4.846602380275726E-1   1.171945594251156E-3  -9.806059533730149E-4   1.183767453767359E-3  -9.607493411749601E-4  -8.854612708091736E-1  -3.847601711750031E-1  
 6.240240240240240E8    -7.824102640151978E-1   4.961044490337372E-1   1.453606528230012E-3  -1.229771994985640E-3   1.437716069631279E-3  -1.183447195217013E-3  -8.900088667869568E-1  -3.735089004039764E-1  
 6.264264264264264E8    -7.724677324295044E-1   5.079478025436401E-1   1.858929870650172E-3  -1.632303348742425E-3   1.860180520452559E-3  -1.532078487798572E-3  -8.942251205444336E-1  -3.622844219207764E-1  
 6.288288288288288E8    -7.630063891410828E-1   5.190404057502747E-1   2.071787370368838E-3  -2.155938651412725E-3   2.031041542068124E-3  -2.168098231777549E-3  -8.976327180862427E-1  -3.524952828884125E-1  
 6.312312312312312E8    -7.539448142051697E-1   5.300213694572449E-1   2.131043002009392E-3  -2.812051679939032E-3   2.072393428534269E-3  -2.792045939713717E-3  -9.006804227828980E-1  -3.431251049041748E-1  
 6.336336336336336E8    -7.453347444534302E-1   5.408201217651367E-1   2.078913850709796E-3  -3.493085736408830E-3   2.097284188494086E-3  -3.532859496772289E-3  -9.034836888313294E-1  -3.343634307384491E-1  
 6.360360360360360E8    -7.369658350944519E-1   5.517005920410156E-1   1.744843553751707E-3  -4.154212772846222E-3   1.820742967538536E-3  -4.159774165600538E-3  -9.062961339950562E-1  -3.261636197566986E-1  
 6.384384384384384E8    -7.268723845481873E-1   5.643004179000855E-1   1.415958628058434E-3  -4.798201378434897E-3   1.377989305183291E-3  -4.759144503623247E-3  -9.092490673065186E-1  -3.167880177497864E-1  
 6.408408408408408E8    -7.163966298103333E-1   5.769989490509033E-1   8.680447353981435E-4  -5.343480035662651E-3   9.377082460559905E-4  -5.289552733302116E-3  -9.124900698661804E-1  -3.071518540382385E-1  
 6.432432432432432E8    -7.054955959320068E-1   5.894325971603394E-1   2.528461627662182E-4  -5.568201187998056E-3   2.495914523024112E-4  -5.571841727942228E-3  -9.158054590225220E-1  -2.973752617835999E-1  
 6.456456456456456E8    -6.937311887741089E-1   6.016024351119995E-1  -2.271748235216364E-4  -5.857369862496853E-3  -3.256713389419019E-4  -5.823176819831133E-3  -9.188649654388428E-1  -2.879182100296021E-1  
 6.480480480480480E8    -6.810562610626221E-1   6.129906177520752E-1  -8.148159831762314E-4  -6.018260493874550E-3  -8.336515747942030E-4  -5.944087635725737E-3  -9.220016598701477E-1  -2.783291339874268E-1  
 6.504504504504504E8    -6.670546531677246E-1   6.252518296241760E-1  -1.275119138881564E-3  -6.028771400451660E-3  -1.314208609983325E-3  -6.017262581735849E-3  -9.237993359565735E-1  -2.676075398921967E-1  
 6.528528528528528E8    -6.528229117393494E-1   6.369726657867432E-1  -1.796153141185641E-3  -6.065563764423132E-3  -1.792416558600962E-3  -6.078972481191158E-3  -9.258265495300293E-1  -2.569776475429535E-1  
 6.552552552552552E8    -6.390410065650940E-1   6.475130319595337E-1  -2.227952005341649E-3  -6.087922025471926E-3  -2.186672063544393E-3  -6.103824824094772E-3  -9.283989667892456E-1  -2.469282150268555E-1  
 6.576576576576576E8    -6.250397562980652E-1   6.573454737663269E-1  -2.634708303958178E-3  -6.065549794584513E-3  -2.599148545414209E-3  -6.018315441906452E-3  -9.307026267051697E-1  -2.375417500734329E-1  
 6.600600600600600E8    -6.094325184822083E-1   6.675998568534851E-1  -2.911688294261694E-3  -5.980144720524550E-3  -2.875435398891568E-3  -5.956932436674833E-3  -9.332845807075501E-1  -2.277881205081940E-1  
 6.624624624624624E8    -5.931210517883301E-1   6.786523461341858E-1  -3.155897371470928E-3  -5.893472116440535E-3  -3.119640983641148E-3  -5.887879524379969E-3  -9.352863430976868E-1  -2.163987010717392E-1  
 6.648648648648648E8    -5.761901736259460E-1   6.886711120605469E-1  -3.390752477571368E-3  -5.920648109167814E-3  -3.353899810463190E-3  -5.886836443096399E-3  -9.373375177383423E-1  -2.049343436956406E-1  
 6.672672672672672E8    -5.589664578437805E-1   6.980141997337341E-1  -3.600384574383497E-3  -5.940834991633892E-3  -3.512990428134799E-3  -5.886512808501720E-3  -9.389510154724121E-1  -1.937863081693649E-1  
 6.696696696696696E8    -5.413304567337036E-1   7.062413692474365E-1  -3.724361769855022E-3  -6.038001738488674E-3  -3.710307180881500E-3  -6.036907434463501E-3  -9.404019713401794E-1  -1.825494319200516E-1  
 6.720720720720720E8    -5.229493975639343E-1   7.139831185340881E-1  -3.798884106799960E-3  -6.036520469933748E-3  -3.777271602302790E-3  -6.091199815273285E-3  -9.415675401687622E-1  -1.723210960626602E-1  
 6.744744744744744E8    -5.035942792892456E-1   7.209653854370117E-1  -3.922727890312672E-3  -6.254454143345356E-3  -3.958113957196474E-3  -6.237116176635027E-3  -9.424571990966797E-1  -1.608564108610153E-1  
 6.768768768768768E8    -4.850042462348938E-1   7.272210121154785E-1  -3.952893428504467E-3  -6.401116494089365E-3  -3.946101758629084E-3  -6.396136712282896E-3  -9.433652758598328E-1  -1.496221274137497E-1  
 6.792792792792792E8    -4.668882787227631E-1   7.328771352767944E-1  -3.898208262398839E-3  -6.745960097759962E-3  -3.828293643891811E-3  -6.754209287464619E-3  -9.440721869468689E-1  -1.381126344203949E-1  
 6.816816816816816E8    -4.481645822525024E-1   7.378318309783936E-1  -3.742089029401541E-3  -7.318931631743908E-3  -3.640328999608755E-3  -7.355778478085995E-3  -9.449570775032044E-1  -1.264204084873200E-1  
 6.840840840840840E8    -4.293421506881714E-1   7.422249317169190E-1  -3.512901952490211E-3  -8.193205110728741E-3  -3.459590254351497E-3  -8.246383629739285E-3  -9.453336000442505E-1  -1.140552386641502E-1  
 6.864864864864864E8    -4.096285104751587E-1   7.462461590766907E-1  -3.444202244281769E-3  -9.492404758930206E-3  -3.359870752319694E-3  -9.487524628639221E-3  -9.445399045944214E-1  -1.025384515523911E-1  
 6.888888888888888E8    -3.909318447113037E-1   7.495238184928894E-1  -3.795185592025518E-3  -1.140053756535053E-2  -3.595821093767881E-3  -1.138416305184364E-2  -9.434787631034851E-1  -9.025096893310547E-2  
 6.912912912912912E8    -3.736831247806549E-1   7.529211640357971E-1  -4.811375401914120E-3  -1.367276813834906E-2  -4.641761537641287E-3  -1.362201198935509E-2  -9.424345493316650E-1  -7.792751491069794E-2  
 6.936936936936936E8    -3.568632602691650E-1   7.578299641609192E-1  -6.717757787555456E-3  -1.595180481672287E-2  -6.566178519278765E-3  -1.593705080449581E-2  -9.414433240890503E-1  -6.612117588520050E-2  
 6.960960960960960E8    -3.386073112487793E-1   7.636837959289551E-1  -9.517955593764782E-3  -1.785994693636894E-2  -9.532624855637550E-3  -1.780302636325359E-2  -9.406387805938721E-1  -5.392706766724587E-2  
 6.984984984984984E8    -3.186727762222290E-1   7.701815962791443E-1  -1.298744324594736E-2  -1.907974109053612E-2  -1.314960233867168E-2  -1.889216154813767E-2  -9.399712085723877E-1  -3.889402747154236E-2  
 7.009009009009008E8    -2.964384853839874E-1   7.757691144943237E-1  -1.678647100925446E-2  -1.933402940630913E-2  -1.709859631955624E-2  -1.893396303057671E-2  -9.386620521545410E-1  -2.472761087119579E-2  
 7.033033033033032E8    -2.711982429027557E-1   7.796660661697388E-1  -2.042200975120068E-2  -1.869925670325756E-2  -2.073190733790398E-2  -1.835168525576592E-2  -9.371854662895203E-1  -1.330890227109194E-2  
 7.057057057057056E8    -2.448896765708923E-1   7.805641889572144E-1  -2.377971261739731E-2  -1.748381927609444E-2  -2.383657544851303E-2  -1.741912215948105E-2  -9.353505373001099E-1  -5.118391942232847E-3  
 7.081081081081080E8    -2.160889208316803E-1   7.801319360733032E-1  -2.699301950633526E-2  -1.604089513421059E-2  -2.673089317977428E-2  -1.629408262670040E-2  -9.338058233261108E-1   4.739020019769669E-3  
 7.105105105105104E8    -1.862605661153793E-1   7.777416706085205E-1  -3.007538616657257E-2  -1.429511327296495E-2  -2.967500500380993E-2  -1.474907901138067E-2  -9.316256046295166E-1   1.607174985110760E-2  
 7.129129129129129E8    -1.576146185398102E-1   7.726191878318787E-1  -3.291809931397438E-2  -1.244545262306929E-2  -3.258729726076126E-2  -1.298871263861656E-2  -9.292266368865967E-1   2.930851280689240E-2  
 7.153153153153153E8    -1.297222524881363E-1   7.654925584793091E-1  -3.560687601566315E-2  -1.047612261027098E-2  -3.530707582831383E-2  -1.089920382946730E-2  -9.262911677360535E-1   4.430457577109337E-2  
 7.177177177177178E8    -1.007170081138611E-1   7.558124065399170E-1  -3.832897171378136E-2  -8.327778428792954E-3  -3.815271332859993E-2  -8.586402982473373E-3  -9.229903221130371E-1   6.041244417428970E-2  
 7.201201201201202E8    -7.141733914613724E-2   7.441058754920960E-1  -4.111372679471970E-2  -5.760293453931809E-3  -4.097874462604523E-2  -6.162325851619244E-3  -9.192617535591126E-1   7.566393166780472E-2  
 7.225225225225226E8    -4.370180517435074E-2   7.300865650177002E-1  -4.386755451560020E-2  -2.924520289525390E-3  -4.376925155520439E-2  -3.326628357172012E-3  -9.152846336364746E-1   9.110955148935318E-2  
 7.249249249249250E8    -1.644314453005791E-2   7.140244245529175E-1  -4.655503854155541E-2   5.578146665357053E-4  -4.658884927630425E-2  -4.480731149669737E-4  -9.101690053939819E-1   1.044788360595703E-1  
 7.273273273273274E8     8.562611415982246E-3   6.965639591217041E-1  -4.923007637262344E-2   4.264859482645989E-3  -4.934423789381981E-2   3.087807679548860E-3  -9.046122431755066E-1   1.185903251171112E-1  
 7.297297297297298E8     3.124497644603252E-2   6.777793169021606E-1  -5.162163451313973E-2   8.117973804473877E-3  -5.182364955544472E-2   7.386433426290751E-3  -8.985913991928101E-1   1.330823302268982E-1  
 7.321321321321322E8     5.322577804327011E-2   6.574341058731079E-1  -5.383737385272980E-2   1.199661288410425E-2  -5.384099856019020E-2   1.216462254524231E-2  -8.919531106948853E-1   1.488009095191956E-1  
 7.345345345345346E8     7.633547484874725E-2   6.349716782569885E-1  -5.582660064101219E-2   1.605618931353092E-2  -5.580420792102814E-2   1.647424697875977E-2  -8.846307992935181E-1   1.639791429042816E-1  
 7.369369369369370E8     1.005341187119484E-1   6.085314750671387E-1  -5.840764194726944E-2   2.048936113715172E-2  -5.825403332710266E-2   2.092778868973255E-2  -8.763327598571777E-1   1.798533797264099E-1  
 7.393393393393394E8     1.222260743379593E-1   5.770096182823181E-1  -6.137952208518982E-2   2.630067244172096E-2  -6.114389374852181E-2   2.641332335770130E-2  -8.673288226127625E-1   1.959604769945145E-1  
 7.417417417417418E8     1.403277963399887E-1   5.426363945007324E-1  -6.398800760507584E-2   3.354374691843987E-2  -6.383379548788071E-2   3.317196667194367E-2  -8.575347661972046E-1   2.109675109386444E-1  
 7.441441441441442E8     1.551271378993988E-1   5.062348246574402E-1  -6.563284248113632E-2   4.198339581489563E-2  -6.589688360691071E-2   4.110302776098251E-2  -8.466422557830811E-1   2.251403033733368E-1  
 7.465465465465466E8     1.655130237340927E-1   4.706103503704071E-1  -6.655595451593399E-2   5.105032026767731E-2  -6.704782694578171E-2   5.025470629334450E-2  -8.340877890586853E-1   2.404773831367493E-1  
 7.489489489489490E8     1.719788908958435E-1   4.333959519863129E-1  -6.625405699014664E-2   6.087850406765938E-2  -6.699891388416290E-2   6.035915389657021E-2  -8.208718895912170E-1   2.545925676822662E-1  
 7.513513513513514E8     1.740588992834091E-1   3.925497531890869E-1  -6.431631743907929E-2   7.177517563104630E-2  -6.522195786237717E-2   7.153470814228058E-2  -8.069373965263367E-1   2.692451179027557E-1  
 7.537537537537538E8     1.705403774976730E-1   3.524813354015350E-1  -6.018923595547676E-2   8.320665359497070E-2  -6.114562973380089E-2   8.325255662202835E-2  -7.914731502532959E-1   2.849389314651489E-1  
 7.561561561561562E8     1.619059443473816E-1   3.129592835903168E-1  -5.407794937491417E-2   9.422979503870010E-2  -5.515599250793457E-2   9.389819204807282E-2  -7.741658687591553E-1   2.992948591709137E-1  
 7.585585585585586E8     1.502078920602799E-1   2.777800559997559E-1  -4.702417552471161E-2   1.044862046837807E-1  -4.778798297047615E-2   1.037544384598732E-1  -7.547974586486816E-1   3.153331875801086E-1  
 7.609609609609610E8     1.354327797889710E-1   2.445514500141144E-1  -3.889986500144005E-2   1.147379279136658E-1  -3.966733813285828E-2   1.135275661945343E-1  -7.336981296539307E-1   3.311496376991272E-1  
 7.633633633633634E8     1.179267540574074E-1   2.122724354267120E-1  -2.873570844531059E-2   1.250997930765152E-1  -3.017857298254967E-2   1.236788257956505E-1  -7.109486460685730E-1   3.446368277072907E-1  
 7.657657657657658E8     9.650886058807373E-2   1.815197020769119E-1  -1.620799116790295E-2   1.347456723451614E-1  -1.830502040684223E-2   1.336892247200012E-1  -6.877723336219788E-1   3.558659553527832E-1  
 7.681681681681682E8     7.283693552017212E-2   1.545460671186447E-1  -2.338293008506298E-3   1.428259760141373E-1  -4.324199631810188E-3   1.429102122783661E-1  -6.629006862640381E-1   3.654088973999023E-1  
 7.705705705705706E8     4.795613139867783E-2   1.333795040845871E-1   1.288834959268570E-2   1.497360318899155E-1   1.107484381645918E-2   1.499892324209213E-1  -6.355736255645752E-1   3.740240335464478E-1  
 7.729729729729730E8     2.197623997926712E-2   1.146827638149262E-1   3.014221973717213E-2   1.549522429704666E-1   2.861806564033032E-2   1.559449732303619E-1  -6.055808067321777E-1   3.822521269321442E-1  
 7.753753753753754E8    -7.325042970478535E-3   9.706096351146698E-2   4.937079548835754E-2   1.584379374980927E-1   4.818823561072350E-2   1.596802920103073E-1  -5.709310770034790E-1   3.885801136493683E-1  
 7.777777777777778E8    -3.849890083074570E-2   8.237905800342560E-2   7.046517729759216E-2   1.594738811254501E-1   6.891246140003204E-2   1.600925028324127E-1  -5.312954783439636E-1   3.900614678859711E-1  
 7.801801801801802E8    -7.090329378843308E-2   7.110443711280823E-2   9.316703677177429E-2   1.578084081411362E-1   9.068021178245544E-2   1.576180160045624E-1  -4.864703714847565E-1   3.848909735679627E-1  
 7.825825825825826E8    -1.038734465837479E-1   6.676807999610901E-2   1.167448088526726E-1   1.524056047201157E-1   1.146130785346031E-1   1.526608467102051E-1  -4.419256746768951E-1   3.755475878715515E-1  
 7.849849849849850E8    -1.327539980411530E-1   6.774827092885971E-2   1.415764540433884E-1   1.420179009437561E-1   1.389964371919632E-1   1.428884714841843E-1  -3.982029855251312E-1   3.576426506042481E-1  
 7.873873873873874E8    -1.578637212514877E-1   6.861903518438339E-2   1.650776863098145E-1   1.264859884977341E-1   1.626793742179871E-1   1.274839937686920E-1  -3.544312119483948E-1   3.327358067035675E-1  
 7.897897897897898E8    -1.792499721050263E-1   6.898679584264755E-2   1.857671588659287E-1   1.072407215833664E-1   1.846146136522293E-1   1.074135974049568E-1  -3.124346435070038E-1   3.006076216697693E-1  
 7.921921921921922E8    -2.018598020076752E-1   7.015446573495865E-2   2.040960192680359E-1   8.283037692308426E-2   2.037071436643601E-1   8.343749493360519E-2  -2.744296193122864E-1   2.604845166206360E-1  
 7.945945945945946E8    -2.236264944076538E-1   7.142814248800278E-2   2.188770920038223E-1   5.435915291309357E-2   2.179913073778153E-1   5.559749156236649E-2  -2.424045801162720E-1   2.121447622776032E-1  
 7.969969969969970E8    -2.475031465291977E-1   7.097210735082626E-2   2.271285951137543E-1   2.240657992660999E-2   2.265779823064804E-1   2.396108582615852E-2  -2.187020778656006E-1   1.548805683851242E-1  
 7.993993993993994E8    -2.757389545440674E-1   7.206123322248459E-2   2.286401540040970E-1  -1.060010492801666E-2   2.281520217657089E-1  -9.498138912022114E-3  -2.056809812784195E-1   9.405123442411423E-2  
 8.018018018018018E8    -3.061513602733612E-1   7.880301773548126E-2   2.235071957111359E-1  -4.314250871539116E-2   2.235534340143204E-1  -4.168815538287163E-2  -2.045699954032898E-1   3.077274188399315E-2  
 8.042042042042042E8    -3.347676396369934E-1   8.973211050033569E-2   2.123744040727615E-1  -7.366066426038742E-2   2.126855403184891E-1  -7.223029434680939E-2  -2.166786193847656E-1  -3.357835486531258E-2  
 8.066066066066066E8    -3.622418344020844E-1   1.055525913834572E-1   1.956402212381363E-1  -1.007031202316284E-1   1.969543695449829E-1  -9.901136904954910E-2  -2.413650304079056E-1  -9.363888949155808E-2  
 8.090090090090090E8    -3.865117728710175E-1   1.225211620330811E-1   1.752008199691773E-1  -1.232627704739571E-1   1.768974065780640E-1  -1.218600422143936E-1  -2.771515250205994E-1  -1.461498588323593E-1  
 8.114114114114114E8    -4.108788669109345E-1   1.407855451107025E-1   1.520893424749374E-1  -1.402559578418732E-1   1.535145640373230E-1  -1.392578184604645E-1  -3.207049071788788E-1  -1.887753158807755E-1  
 8.138138138138138E8    -4.347698688507080E-1   1.626625359058380E-1   1.292255520820618E-1  -1.518733650445938E-1   1.300553232431412E-1  -1.513625979423523E-1  -3.679890930652618E-1  -2.209117114543915E-1  
 8.162162162162162E8    -4.540079236030579E-1   1.878362745046616E-1   1.065124273300171E-1  -1.602180004119873E-1   1.071000620722771E-1  -1.596530079841614E-1  -4.163050651550293E-1  -2.428879886865616E-1  
 8.186186186186186E8    -4.682073593139648E-1   2.154930680990219E-1   8.344354480504990E-2  -1.647809147834778E-1   8.333972096443176E-2  -1.641264855861664E-1  -4.640617668628693E-1  -2.561403512954712E-1  
 8.210210210210210E8    -4.771903157234192E-1   2.415369153022766E-1   6.076822057366371E-2  -1.649370342493057E-1   6.095714494585991E-2  -1.642773002386093E-1  -5.069916248321533E-1  -2.620415687561035E-1  
 8.234234234234234E8    -4.841018915176392E-1   2.679336369037628E-1   4.000889509916306E-2  -1.611631214618683E-1   4.066382721066475E-2  -1.607994884252548E-1  -5.499997735023499E-1  -2.628206610679627E-1  
