#  HZ   S   RI   R     50.00 
! Rohde & Schwarz ZVB8 2Ports - Version 2.81 - 1145.1010k08 SN: 100113
! Date: 2016-05-04 02:48:53
! Measurements: S11 S21 S12 S22 
! 
 6.000000000000000E8    -8.908784985542297E-1   3.343472778797150E-1   5.826247070217505E-5  -3.270547895226628E-4   1.407331437803805E-4  -3.463795001152903E-4  -8.408252000808716E-1  -4.851626753807068E-1  
 6.024024024024024E8    -8.856289982795715E-1   3.460117280483246E-1   1.764864427968860E-4  -3.160176274832338E-4   1.279904681723565E-4  -3.400736604817212E-4  -8.450333476066589E-1  -4.768032133579254E-1  
 6.048048048048048E8    -8.798571825027466E-1   3.590020835399628E-1   1.651051716180518E-4  -2.496501256246120E-4   1.535371702630073E-4  -3.713973856065422E-4  -8.497873544692993E-1  -4.681974649429321E-1  
 6.072072072072072E8    -8.737823963165283E-1   3.724887371063232E-1   1.104573893826455E-4  -3.776289231609553E-4   1.832749985624105E-4  -3.848766209557653E-4  -8.544955849647522E-1  -4.597743749618530E-1  
 6.096096096096096E8    -8.673084378242493E-1   3.855452239513397E-1   2.257385785924271E-4  -3.695819177664816E-4   2.388042921666056E-4  -2.644214837346226E-4  -8.591837286949158E-1  -4.505253136157990E-1  
 6.120120120120120E8    -8.623956441879273E-1   3.959674537181854E-1   2.770511782728136E-4  -3.734717029146850E-4   2.254340506624430E-4  -3.094332059845328E-4  -8.627529740333557E-1  -4.430696368217468E-1  
 6.144144144144144E8    -8.563202023506165E-1   4.079187214374542E-1   3.376560925971717E-4  -3.789686306845397E-4   3.305120335426182E-4  -2.740070340223610E-4  -8.662644624710083E-1  -4.356739521026611E-1  
 6.168168168168168E8    -8.494616150856018E-1   4.198041856288910E-1   4.361952014733106E-4  -3.070653183385730E-4   3.450475342106074E-4  -2.917987294495106E-4  -8.702579140663147E-1  -4.273351728916168E-1  
 6.192192192192192E8    -8.423118591308594E-1   4.313270747661591E-1   4.869610420428217E-4  -3.338189853820950E-4   5.256925942376256E-4  -2.158330462407321E-4  -8.744533061981201E-1  -4.187374711036682E-1  
 6.216216216216216E8    -8.353031277656555E-1   4.428040087223053E-1   6.626030663028359E-4  -3.996580489911139E-4   5.508610629476607E-4  -3.664027899503708E-4  -8.791858553886414E-1  -4.089410305023193E-1  
 6.240240240240240E8    -8.278248310089111E-1   4.538052678108215E-1   8.290670812129974E-4  -3.769963805098087E-4   8.616157574579120E-4  -4.115373885724694E-4  -8.836227059364319E-1  -3.985579013824463E-1  
 6.264264264264264E8    -8.206470608711243E-1   4.659647345542908E-1   8.942791610024869E-4  -6.176283350214362E-4   9.490833035670221E-4  -5.574735114350915E-4  -8.883124589920044E-1  -3.881958127021790E-1  
 6.288288288288288E8    -8.133169412612915E-1   4.773182570934296E-1   1.111157005652785E-3  -8.316436433233321E-4   1.105721690692008E-3  -8.149254717864096E-4  -8.914664387702942E-1  -3.793560564517975E-1  
 6.312312312312312E8    -8.066294193267822E-1   4.879864454269409E-1   1.177110942080617E-3  -1.071536447852850E-3   1.234321505762637E-3  -1.085550175048411E-3  -8.947538733482361E-1  -3.711439967155457E-1  
 6.336336336336336E8    -8.000687360763550E-1   4.984212219715118E-1   1.197221456095576E-3  -1.380228321067989E-3   1.146082649938762E-3  -1.353443949483335E-3  -8.977965116500855E-1  -3.634308278560638E-1  
 6.360360360360360E8    -7.937260866165161E-1   5.089656710624695E-1   1.101679168641567E-3  -1.648261328227818E-3   1.094590290449560E-3  -1.672722282819450E-3  -9.008830785751343E-1  -3.558633327484131E-1  
 6.384384384384384E8    -7.862375974655151E-1   5.208134651184082E-1   9.582607308402658E-4  -1.953256782144308E-3   9.707883582450450E-4  -1.983317313715816E-3  -9.039915800094605E-1  -3.477161824703217E-1  
 6.408408408408408E8    -7.785016298294067E-1   5.329105257987976E-1   8.379287901334465E-4  -2.143638907000423E-3   7.598887896165252E-4  -2.097973832860589E-3  -9.072480797767639E-1  -3.390955924987793E-1  
 6.432432432432432E8    -7.704056501388550E-1   5.442555546760559E-1   5.413016770035029E-4  -2.349859802052379E-3   5.265240906737745E-4  -2.262012101709843E-3  -9.106808900833130E-1  -3.304433226585388E-1  
 6.456456456456456E8    -7.617903947830200E-1   5.554308295249939E-1   3.296686627436429E-4  -2.324819099158049E-3   3.330495674163103E-4  -2.337581245228648E-3  -9.139645099639893E-1  -3.219061493873596E-1  
 6.480480480480480E8    -7.531290054321289E-1   5.657177567481995E-1   1.652381615713239E-4  -2.426233375445008E-3   1.738015998853371E-4  -2.438290044665337E-3  -9.173748493194580E-1  -3.141695857048035E-1  
 6.504504504504504E8    -7.431431412696838E-1   5.774972438812256E-1  -6.099482197896577E-5  -2.458469476550818E-3  -2.029871939157601E-5  -2.531949663534761E-3  -9.197229146957398E-1  -3.044063448905945E-1  
 6.528528528528528E8    -7.334785461425781E-1   5.885688662528992E-1  -1.914124150061980E-4  -2.455254783853889E-3  -1.701949950074777E-4  -2.439689822494984E-3  -9.218630790710449E-1  -2.953695952892304E-1  
 6.552552552552552E8    -7.242414355278015E-1   5.988033413887024E-1  -3.874768444802612E-4  -2.400960074737668E-3  -3.439857682678849E-4  -2.403118414804339E-3  -9.244959354400635E-1  -2.870883643627167E-1  
 6.576576576576576E8    -7.150180935859680E-1   6.082860827445984E-1  -4.664761945605278E-4  -2.406579675152898E-3  -3.568503307178617E-4  -2.367477864027023E-3  -9.271613359451294E-1  -2.791005969047546E-1  
 6.600600600600600E8    -7.044685482978821E-1   6.186411976814270E-1  -5.317705217748880E-4  -2.436860930174589E-3  -4.719071730505675E-4  -2.353690331801772E-3  -9.302335977554321E-1  -2.709660232067108E-1  
 6.624624624624624E8    -6.935141086578369E-1   6.297557950019836E-1  -5.417268257588148E-4  -2.374781062826514E-3  -5.804142565466464E-4  -2.400199417024851E-3  -9.326715469360352E-1  -2.613497078418732E-1  
 6.648648648648648E8    -6.827456355094910E-1   6.405572891235352E-1  -6.076733116060495E-4  -2.312297234311700E-3  -6.223771488294005E-4  -2.308593131601811E-3  -9.349195361137390E-1  -2.517794072628021E-1  
 6.672672672672672E8    -6.717454791069031E-1   6.506100296974182E-1  -6.556622684001923E-4  -2.348738955333829E-3  -6.241927621886134E-4  -2.347266767174006E-3  -9.374787211418152E-1  -2.423274219036102E-1  
 6.696696696696696E8    -6.606642007827759E-1   6.603808999061585E-1  -6.780761177651584E-4  -2.299124142155051E-3  -6.639549974352121E-4  -2.327092923223972E-3  -9.394326806068420E-1  -2.336144149303436E-1  
 6.720720720720720E8    -6.489120721817017E-1   6.696787476539612E-1  -6.596713792532682E-4  -2.367356792092323E-3  -6.416649557650089E-4  -2.378911944106221E-3  -9.412829875946045E-1  -2.248721718788147E-1  
 6.744744744744744E8    -6.365293860435486E-1   6.793737411499023E-1  -6.213217275217176E-4  -2.304797992110252E-3  -6.399528356269002E-4  -2.364013111218810E-3  -9.430752992630005E-1  -2.160034775733948E-1  
 6.768768768768768E8    -6.239354610443115E-1   6.885162591934204E-1  -5.500599509105086E-4  -2.424819394946098E-3  -5.440514069050551E-4  -2.372620394453406E-3  -9.448357224464417E-1  -2.069480419158936E-1  
 6.792792792792792E8    -6.117807626724243E-1   6.970630288124085E-1  -4.756704147439450E-4  -2.466634614393115E-3  -4.528429417405278E-4  -2.454595873132348E-3  -9.467192292213440E-1  -1.979676485061646E-1  
 6.816816816816816E8    -6.001303195953369E-1   7.054825425148010E-1  -2.309623378096148E-4  -2.580429660156369E-3  -2.261575718875974E-4  -2.557799685746431E-3  -9.486497640609741E-1  -1.886542439460754E-1  
 6.840840840840840E8    -5.876718163490295E-1   7.134910225868225E-1  -1.121911918744445E-4  -2.771413419395685E-3  -7.247097528306767E-5  -2.795903244987130E-3  -9.504182934761047E-1  -1.791082024574280E-1  
 6.864864864864864E8    -5.746859908103943E-1   7.215422987937927E-1   1.300430449191481E-4  -3.128576790913940E-3   8.154671377269551E-5  -3.091721562668681E-3  -9.510444402694702E-1  -1.703007519245148E-1  
 6.888888888888888E8    -5.623681545257568E-1   7.292512655258179E-1   3.123922215308994E-4  -3.620611736550927E-3   3.211175499018282E-4  -3.630478866398335E-3  -9.519207477569580E-1  -1.608628332614899E-1  
 6.912912912912912E8    -5.507373213768005E-1   7.368351221084595E-1   3.638631314970553E-4  -4.322658758610487E-3   3.672897873912007E-4  -4.259528126567602E-3  -9.529053568840027E-1  -1.511835902929306E-1  
 6.936936936936936E8    -5.398824810981751E-1   7.444739937782288E-1   1.233980583492667E-4  -5.143538117408752E-3   1.918067282531411E-4  -5.101824179291725E-3  -9.542974233627319E-1  -1.419199556112289E-1  
 6.960960960960960E8    -5.287345051765442E-1   7.528757452964783E-1  -3.288169100414962E-4  -5.933252628892660E-3  -3.242023813072592E-4  -5.844887346029282E-3  -9.554586410522461E-1  -1.322073340415955E-1  
 6.984984984984984E8    -5.170525312423706E-1   7.616878151893616E-1  -1.136303762905300E-3  -6.463492754846811E-3  -1.044558943249285E-3  -6.431776098906994E-3  -9.569301009178162E-1  -1.197367757558823E-1  
 7.009009009009008E8    -5.044777989387512E-1   7.704622745513916E-1  -1.937840832397342E-3  -6.823248695582151E-3  -1.957247965037823E-3  -6.759250536561012E-3  -9.581487774848938E-1  -1.083446741104126E-1  
 7.033033033033032E8    -4.908151030540466E-1   7.785187363624573E-1  -2.665688050910831E-3  -7.004003971815109E-3  -2.767646685242653E-3  -6.900226697325707E-3  -9.586764574050903E-1  -9.958439320325851E-2  
 7.057057057057056E8    -4.769912064075470E-1   7.859269976615906E-1  -3.440283471718431E-3  -6.975041236728430E-3  -3.465569810941815E-3  -6.897725630551577E-3  -9.585136771202087E-1  -9.461399167776108E-2  
 7.081081081081080E8    -4.611937403678894E-1   7.932702302932739E-1  -4.150628577917814E-3  -6.961720529943705E-3  -4.062773659825325E-3  -6.942969746887684E-3  -9.590428471565247E-1  -8.787553757429123E-2  
 7.105105105105104E8    -4.448825716972351E-1   8.014269471168518E-1  -4.704546649008989E-3  -6.777163594961166E-3  -4.590057767927647E-3  -6.877239327877760E-3  -9.594780206680298E-1  -8.055271208286285E-2  
 7.129129129129129E8    -4.300568103790283E-1   8.078457117080689E-1  -5.301469471305609E-3  -6.717297248542309E-3  -5.215161014348269E-3  -6.724489852786064E-3  -9.598791599273682E-1  -7.118672877550125E-2  
 7.153153153153153E8    -4.154039919376373E-1   8.141588568687439E-1  -5.744172260165215E-3  -6.635101512074471E-3  -5.765053443610668E-3  -6.594424135982990E-3  -9.605337977409363E-1  -6.009310856461525E-2  
 7.177177177177178E8    -3.997323513031006E-1   8.203229308128357E-1  -6.373528391122818E-3  -6.509960163384676E-3  -6.325268652290106E-3  -6.566790398210287E-3  -9.611036181449890E-1  -4.801553860306740E-2  
 7.201201201201202E8    -3.821096718311310E-1   8.265292644500732E-1  -6.815837230533361E-3  -6.379007361829281E-3  -6.792993284761906E-3  -6.452245172113180E-3  -9.616032838821411E-1  -3.712218254804611E-2  
 7.225225225225226E8    -3.646144270896912E-1   8.320119976997376E-1  -7.349197287112474E-3  -6.289558019489050E-3  -7.360599935054779E-3  -6.282359827309847E-3  -9.619979262351990E-1  -2.619081735610962E-2  
 7.249249249249250E8    -3.470135629177094E-1   8.373497724533081E-1  -8.025034330785275E-3  -6.172637455165386E-3  -7.885769009590149E-3  -6.261710543185473E-3  -9.617751836776733E-1  -1.764395833015442E-2  
 7.273273273273274E8    -3.300484120845795E-1   8.418552279472351E-1  -8.514591492712498E-3  -5.948600359261036E-3  -8.317654021084309E-3  -6.152781192213297E-3  -9.614404439926148E-1  -8.421544916927815E-3  
 7.297297297297298E8    -3.149130940437317E-1   8.456876277923584E-1  -9.109816513955593E-3  -5.722567439079285E-3  -8.873090147972107E-3  -5.854225717484951E-3  -9.613649249076843E-1   1.402478665113449E-3  
 7.321321321321322E8    -3.009375333786011E-1   8.488411307334900E-1  -9.483742527663708E-3  -5.546845495700836E-3  -9.464926086366177E-3  -5.567066837102175E-3  -9.608712792396545E-1   1.232479978352785E-2  
 7.345345345345346E8    -2.849893271923065E-1   8.519117832183838E-1  -9.949039667844772E-3  -5.383028183132410E-3  -9.931330569088459E-3  -5.324517376720905E-3  -9.599480628967285E-1   2.226089686155319E-2  
 7.369369369369370E8    -2.676744163036346E-1   8.551683425903320E-1  -1.038601621985436E-2  -5.329131148755550E-3  -1.037788670510054E-2  -5.214103031903505E-3  -9.592051506042481E-1   3.286300227046013E-2  
 7.393393393393394E8    -2.499103695154190E-1   8.580230474472046E-1  -1.098734512925148E-2  -5.230981856584549E-3  -1.101897656917572E-2  -5.099069327116013E-3  -9.583802223205566E-1   4.348931461572647E-2  
 7.417417417417418E8    -2.321873009204865E-1   8.600735664367676E-1  -1.163091883063316E-2  -5.069646053016186E-3  -1.165115833282471E-2  -5.069114733487368E-3  -9.576511979103088E-1   5.257622897624970E-2  
 7.441441441441442E8    -2.138460427522659E-1   8.616856336593628E-1  -1.244520116597414E-2  -4.853738471865654E-3  -1.233202405273914E-2  -4.996499978005886E-3  -9.571754932403565E-1   6.102034077048302E-2  
 7.465465465465466E8    -1.967295259237289E-1   8.635658025741577E-1  -1.323015987873077E-2  -4.605155903846026E-3  -1.319095306098461E-2  -4.673494491726160E-3  -9.558513760566711E-1   7.093220204114914E-2  
 7.489489489489490E8    -1.789017617702484E-1   8.645741343498230E-1  -1.409669592976570E-2  -4.197534639388323E-3  -1.398548670113087E-2  -4.398902878165245E-3  -9.551792740821838E-1   8.008200675249100E-2  
 7.513513513513514E8    -1.593064218759537E-1   8.649091720581055E-1  -1.487811747938395E-2  -3.783122869208455E-3  -1.487027388066053E-2  -3.982513211667538E-3  -9.542643427848816E-1   8.989061415195465E-2  
 7.537537537537538E8    -1.382583230733872E-1   8.642250895500183E-1  -1.583180390298367E-2  -3.078330773860216E-3  -1.572182774543762E-2  -3.342329757288098E-3  -9.530805349349976E-1   1.010862737894058E-1  
 7.561561561561562E8    -1.174630299210548E-1   8.618388772010803E-1  -1.655133068561554E-2  -2.448437502607703E-3  -1.653863862156868E-2  -2.590258140116930E-3  -9.510182738304138E-1   1.113286912441254E-1  
 7.585585585585586E8    -9.742360562086105E-2   8.586611747741699E-1  -1.723853312432766E-2  -1.816586824133992E-3  -1.714650914072990E-2  -1.871583168394864E-3  -9.481979012489319E-1   1.234745606780052E-1  
 7.609609609609610E8    -7.847713679075241E-2   8.550875186920166E-1  -1.804166287183762E-2  -1.085310708731413E-3  -1.788059063255787E-2  -1.173156895674765E-3  -9.454173445701599E-1   1.352319121360779E-1  
 7.633633633633634E8    -6.041944772005081E-2   8.516919016838074E-1  -1.875780150294304E-2  -2.463893033564091E-4  -1.859863102436066E-2  -4.413236165419221E-4  -9.433185458183289E-1   1.459218114614487E-1  
 7.657657657657658E8    -4.273071512579918E-2   8.486629724502564E-1  -1.948679611086845E-2   6.094753043726087E-4  -1.947511546313763E-2   3.443087043706328E-4  -9.421846866607666E-1   1.549472957849503E-1  
 7.681681681681682E8    -2.472192794084549E-2   8.454541563987732E-1  -2.015359327197075E-2   1.504639280028641E-3  -2.019377052783966E-2   1.292095286771655E-3  -9.423022270202637E-1   1.622939705848694E-1  
 7.705705705705706E8    -7.841824553906918E-3   8.420722484588623E-1  -2.079120092093945E-2   2.364455489441752E-3  -2.088532969355583E-2   2.100127516314387E-3  -9.402730464935303E-1   1.707368642091751E-1  
 7.729729729729730E8     1.202521566301584E-2   8.369318246841431E-1  -2.153840661048889E-2   3.300308017060161E-3  -2.170025371015072E-2   2.973919734358788E-3  -9.394893050193787E-1   1.808362007141113E-1  
 7.753753753753754E8     3.177275136113167E-2   8.291356563568115E-1  -2.225049026310444E-2   4.466802813112736E-3  -2.248130552470684E-2   4.093134310096502E-3  -9.375545382499695E-1   1.918552368879318E-1  
 7.777777777777778E8     4.953490570187569E-2   8.195664882659912E-1  -2.296930178999901E-2   5.618576891720295E-3  -2.308671176433563E-2   5.295594688504934E-3  -9.330829977989197E-1   2.033608555793762E-1  
 7.801801801801802E8     6.600980460643768E-2   8.088032007217407E-1  -2.373868785798550E-2   6.690453272312880E-3  -2.362536266446114E-2   6.504841614514589E-3  -9.256379008293152E-1   2.133453786373138E-1  
 7.825825825825826E8     8.294413983821869E-2   7.976638674736023E-1  -2.440153993666172E-2   8.025228977203369E-3  -2.436828240752220E-2   7.925468496978283E-3  -9.210729598999023E-1   2.249601781368256E-1  
 7.849849849849850E8     9.885817021131516E-2   7.880483865737915E-1  -2.506678551435471E-2   9.648564271628857E-3  -2.504804916679859E-2   9.463773109018803E-3  -9.168689846992493E-1   2.323475778102875E-1  
 7.873873873873874E8     1.147388443350792E-1   7.799378037452698E-1  -2.563216164708138E-2   1.132212765514851E-2  -2.551479078829289E-2   1.103006396442652E-2  -9.136193394660950E-1   2.395348548889160E-1  
 7.897897897897898E8     1.329670250415802E-1   7.708841562271118E-1  -2.603467553853989E-2   1.303930953145027E-2  -2.590146288275719E-2   1.274360623210669E-2  -9.119374752044678E-1   2.485131472349167E-1  
 7.921921921921922E8     1.528662145137787E-1   7.596719264984131E-1  -2.639005146920681E-2   1.477981824427843E-2  -2.654962055385113E-2   1.463589817285538E-2  -9.120585322380066E-1   2.585182487964630E-1  
 7.945945945945946E8     1.691206097602844E-1   7.491129636764526E-1  -2.667278796434403E-2   1.685199886560440E-2  -2.680655010044575E-2   1.650779321789742E-2  -9.077583551406860E-1   2.679023146629334E-1  
 7.969969969969970E8     1.848746538162231E-1   7.368170022964478E-1  -2.668010070919991E-2   1.879267208278179E-2  -2.688912302255631E-2   1.844890601933003E-2  -9.034743905067444E-1   2.781795263290405E-1  
 7.993993993993994E8     2.000463157892227E-1   7.227685451507568E-1  -2.667152881622315E-2   2.062425017356873E-2  -2.683363482356072E-2   2.037616260349751E-2  -8.995329737663269E-1   2.891530394554138E-1  
 8.018018018018018E8     2.150187343358994E-1   7.057247161865234E-1  -2.679607644677162E-2   2.252690866589546E-2  -2.690397948026657E-2   2.240712754428387E-2  -8.945699930191040E-1   3.001588582992554E-1  
 8.042042042042042E8     2.296096384525299E-1   6.888013482093811E-1  -2.681090310215950E-2   2.471126802265644E-2  -2.692565880715847E-2   2.462791465222836E-2  -8.900337815284729E-1   3.093821108341217E-1  
 8.066066066066066E8     2.422332316637039E-1   6.718567609786987E-1  -2.671806141734123E-2   2.702527865767479E-2  -2.682346105575562E-2   2.699690684676170E-2  -8.852938413619995E-1   3.205039501190186E-1  
 8.090090090090090E8     2.536147534847260E-1   6.543591022491455E-1  -2.642465569078922E-2   2.952395565807819E-2  -2.653995715081692E-2   2.947308495640755E-2  -8.803253769874573E-1   3.302520215511322E-1  
 8.114114114114114E8     2.649176418781281E-1   6.373679637908936E-1  -2.595962770283222E-2   3.203388303518295E-2  -2.607361972332001E-2   3.202624991536140E-2  -8.751773238182068E-1   3.404531776905060E-1  
 8.138138138138138E8     2.758552432060242E-1   6.178859472274780E-1  -2.559513971209526E-2   3.472485765814781E-2  -2.564811147749424E-2   3.474373370409012E-2  -8.703666329383850E-1   3.500067293643951E-1  
 8.162162162162162E8     2.843226790428162E-1   5.966533422470093E-1  -2.486648596823216E-2   3.804751113057137E-2  -2.491608448326588E-2   3.801104426383972E-2  -8.654973506927490E-1   3.594461083412170E-1  
 8.186186186186186E8     2.886643707752228E-1   5.763294100761414E-1  -2.336009219288826E-2   4.135608673095703E-2  -2.355662919580936E-2   4.127998650074005E-2  -8.598064780235291E-1   3.693539202213287E-1  
 8.210210210210210E8     2.909948825836182E-1   5.563955903053284E-1  -2.134188078343868E-2   4.446966573596001E-2  -2.157695777714253E-2   4.435690119862557E-2  -8.539389967918396E-1   3.793599903583527E-1  
 8.234234234234234E8     2.927912473678589E-1   5.382056832313538E-1  -1.903046667575836E-2   4.733883216977119E-2  -1.924720220267773E-2   4.711324349045754E-2  -8.482859134674072E-1   3.893218636512756E-1  
