#  HZ   S   RI   R     50.00 
! Rohde & Schwarz ZVB8 2Ports - Version 2.81 - 1145.1010k08 SN: 100113
! Date: 2016-05-04 02:50:29
! Measurements: S11 S21 S12 S22 
! 
 6.000000000000000E8    -8.667869567871094E-1   3.698707520961762E-1   4.479508788790554E-5  -8.381676743738353E-4   9.622448851587251E-5  -7.996323402039707E-4  -8.502162098884583E-1  -4.589724838733673E-1  
 6.024024024024024E8    -8.598207235336304E-1   3.827700614929199E-1   1.658287947066128E-4  -8.852728642523289E-4   1.465550303691998E-4  -8.909269236028194E-4  -8.548564314842224E-1  -4.493694007396698E-1  
 6.048048048048048E8    -8.522086143493652E-1   3.963801562786102E-1   1.820826291805133E-4  -9.364947909489274E-4   1.474269083701074E-4  -1.003586919978261E-3  -8.593024015426636E-1  -4.397372007369995E-1  
 6.072072072072072E8    -8.443377017974854E-1   4.102630913257599E-1   1.918477064464241E-4  -9.148188401013613E-4   2.177989081246778E-4  -9.330356842838228E-4  -8.639034628868103E-1  -4.299876093864441E-1  
 6.096096096096096E8    -8.357699513435364E-1   4.244022071361542E-1   1.711437216727063E-4  -9.854239178821445E-4   3.008843923453242E-4  -8.484319550916553E-4  -8.686069250106812E-1  -4.194208681583405E-1  
 6.120120120120120E8    -8.286188840866089E-1   4.355941712856293E-1   3.978061431553215E-4  -9.387999307364225E-4   3.602169745136052E-4  -9.169957484118640E-4  -8.722522258758545E-1  -4.108199179172516E-1  
 6.144144144144144E8    -8.204596042633057E-1   4.482491910457611E-1   5.501645500771701E-4  -9.643496014177799E-4   4.908925038762391E-4  -9.625885286368430E-4  -8.757992386817932E-1  -4.017642140388489E-1  
 6.168168168168168E8    -8.111389279365540E-1   4.607101380825043E-1   7.744996109977365E-4  -1.011030864901841E-3   8.456935174763203E-4  -9.854735108092427E-4  -8.796557188034058E-1  -3.918838202953339E-1  
 6.192192192192192E8    -8.020827770233154E-1   4.727169871330261E-1   1.029622508212924E-3  -1.102015026845038E-3   1.006527920253575E-3  -1.082872622646391E-3  -8.839253187179565E-1  -3.816031217575073E-1  
 6.216216216216216E8    -7.925401926040649E-1   4.842784106731415E-1   1.320795854553580E-3  -1.305813202634454E-3   1.354714389890432E-3  -1.291856169700623E-3  -8.884596228599548E-1  -3.701183795928955E-1  
 6.240240240240240E8    -7.824344635009766E-1   4.958271384239197E-1   1.708798692561686E-3  -1.532713766209781E-3   1.789531903341413E-3  -1.541077159345150E-3  -8.928077220916748E-1  -3.583163917064667E-1  
 6.264264264264264E8    -7.727037668228149E-1   5.078089237213135E-1   2.078651450574398E-3  -2.115844748914242E-3   2.176661044359207E-3  -2.030776115134358E-3  -8.966313004493713E-1  -3.458689451217651E-1  
 6.288288288288288E8    -7.630816102027893E-1   5.191981196403503E-1   2.305831061676145E-3  -2.749744569882751E-3   2.353062387555838E-3  -2.686529885977507E-3  -9.000751376152039E-1  -3.348833918571472E-1  
 6.312312312312312E8    -7.544956803321838E-1   5.299207568168640E-1   2.406787592917681E-3  -3.681316971778870E-3   2.473085187375546E-3  -3.549759509041905E-3  -9.029387831687927E-1  -3.249167799949646E-1  
 6.336336336336336E8    -7.457138299942017E-1   5.406858921051025E-1   2.342636231333017E-3  -4.398874938488007E-3   2.339432481676340E-3  -4.424633458256722E-3  -9.057855606079102E-1  -3.155566453933716E-1  
 6.360360360360360E8    -7.370314598083496E-1   5.519077777862549E-1   1.989610027521849E-3  -5.227426066994667E-3   2.063373103737831E-3  -5.302736535668373E-3  -9.083138704299927E-1  -3.065322339534760E-1  
 6.384384384384384E8    -7.270745038986206E-1   5.643774867057800E-1   1.422659493982792E-3  -6.009579636156559E-3   1.488402253016830E-3  -5.949670448899269E-3  -9.106814861297607E-1  -2.962008416652679E-1  
 6.408408408408408E8    -7.165606021881104E-1   5.770750641822815E-1   7.793714175932109E-4  -6.595561280846596E-3   8.361477521248162E-4  -6.580319721251726E-3  -9.137908220291138E-1  -2.854222953319550E-1  
 6.432432432432432E8    -7.054136991500855E-1   5.896980166435242E-1  -1.274618625757285E-5  -7.050836924463511E-3   1.044249729602598E-4  -6.938129197806120E-3  -9.167852401733398E-1  -2.747130095958710E-1  
 6.456456456456456E8    -6.934767961502075E-1   6.016085743904114E-1  -6.923434557393193E-4  -7.265451364219189E-3  -6.089489324949682E-4  -7.328188512474299E-3  -9.195457100868225E-1  -2.639560401439667E-1  
 6.480480480480480E8    -6.811102628707886E-1   6.129499077796936E-1  -1.418347703292966E-3  -7.511951960623264E-3  -1.388194970786572E-3  -7.454321254044771E-3  -9.225487709045410E-1  -2.533282935619354E-1  
 6.504504504504504E8    -6.671389341354370E-1   6.253075599670410E-1  -2.064529573544860E-3  -7.657656446099281E-3  -2.052143914625049E-3  -7.651336491107941E-3  -9.240838885307312E-1  -2.411866635084152E-1  
 6.528528528528528E8    -6.530951261520386E-1   6.369293928146362E-1  -2.720471005886793E-3  -7.624941878020763E-3  -2.681076759472489E-3  -7.646595127880573E-3  -9.258075952529907E-1  -2.293390631675720E-1  
 6.552552552552552E8    -6.389861106872559E-1   6.476701498031616E-1  -3.297303570434451E-3  -7.695197127759457E-3  -3.240013029426336E-3  -7.648720871657133E-3  -9.276453852653503E-1  -2.177174091339111E-1  
 6.576576576576576E8    -6.250159144401550E-1   6.574441194534302E-1  -3.832769347354770E-3  -7.660662289708853E-3  -3.733904799446464E-3  -7.616175804287195E-3  -9.295161962509155E-1  -2.067603468894959E-1  
 6.600600600600600E8    -6.090791821479797E-1   6.678287982940674E-1  -4.317403305321932E-3  -7.584857754409313E-3  -4.220824223011732E-3  -7.612504530698061E-3  -9.316086769104004E-1  -1.953137814998627E-1  
 6.624624624624624E8    -5.925633311271668E-1   6.789552569389343E-1  -4.700100980699062E-3  -7.591567467898130E-3  -4.605604335665703E-3  -7.574860006570816E-3  -9.327778816223145E-1  -1.817896962165833E-1  
 6.648648648648648E8    -5.760980248451233E-1   6.889069676399231E-1  -5.050232633948326E-3  -7.569103501737118E-3  -4.981049336493015E-3  -7.608193904161453E-3  -9.338885545730591E-1  -1.682195961475372E-1  
 6.672672672672672E8    -5.591414570808411E-1   6.979908347129822E-1  -5.377451889216900E-3  -7.601983379572630E-3  -5.324196070432663E-3  -7.580078672617674E-3  -9.346646070480347E-1  -1.549960374832153E-1  
 6.696696696696696E8    -5.413717627525330E-1   7.065370678901672E-1  -5.662209354341030E-3  -7.755292113870382E-3  -5.565156694501638E-3  -7.737034931778908E-3  -9.350396394729614E-1  -1.416935473680496E-1  
 6.720720720720720E8    -5.228307247161865E-1   7.141521573066711E-1  -5.961031652987003E-3  -7.907510735094547E-3  -5.931888241320849E-3  -7.913503795862198E-3  -9.347832798957825E-1  -1.285665482282639E-1  
 6.744744744744744E8    -5.034457445144653E-1   7.212767601013184E-1  -6.200799718499184E-3  -8.126841858029366E-3  -6.145156454294920E-3  -8.109692484140396E-3  -9.344099164009094E-1  -1.148917302489281E-1  
 6.768768768768768E8    -4.842606484889984E-1   7.273897528648377E-1  -6.314067170023918E-3  -8.377726189792156E-3  -6.267053540796042E-3  -8.396605961024761E-3  -9.337615966796875E-1  -1.008105203509331E-1  
 6.792792792792792E8    -4.659309685230255E-1   7.329946756362915E-1  -6.406468339264393E-3  -8.911669254302979E-3  -6.329939700663090E-3  -8.925419300794601E-3  -9.325457215309143E-1  -8.634875714778900E-2  
 6.816816816816816E8    -4.473052024841309E-1   7.379657030105591E-1  -6.338393315672875E-3  -9.718326851725578E-3  -6.214441265910864E-3  -9.828438982367516E-3  -9.308114647865295E-1  -7.117250561714172E-2  
 6.840840840840840E8    -4.285934269428253E-1   7.422384619712830E-1  -6.322719622403383E-3  -1.111357472836971E-2  -6.236316636204720E-3  -1.113850250840187E-2  -9.284994602203369E-1  -5.562575533986092E-2  
 6.864864864864864E8    -4.091649055480957E-1   7.463164925575256E-1  -6.588652264326811E-3  -1.305388379842043E-2  -6.487739272415638E-3  -1.304140500724316E-2  -9.244670867919922E-1  -4.078359901905060E-2  
 6.888888888888888E8    -3.908836841583252E-1   7.498399615287781E-1  -7.546303793787956E-3  -1.571581698954105E-2  -7.297644857317209E-3  -1.582562737166882E-2  -9.195579290390015E-1  -2.524979226291180E-2  
 6.912912912912912E8    -3.737584352493286E-1   7.531747221946716E-1  -9.710709564387798E-3  -1.894190907478333E-2  -9.428217075765133E-3  -1.898571848869324E-2  -9.144192934036255E-1  -9.956791996955872E-3  
 6.936936936936936E8    -3.564747869968414E-1   7.580679655075073E-1  -1.322973519563675E-2  -2.201485820114613E-2  -1.300590299069881E-2  -2.208432741463184E-2  -9.087618589401245E-1   4.776596091687679E-3  
 6.960960960960960E8    -3.373285233974457E-1   7.637255191802979E-1  -1.820312626659870E-2  -2.432229742407799E-2  -1.801407337188721E-2  -2.429982647299767E-2  -9.035884737968445E-1   1.955568604171276E-2  
 6.984984984984984E8    -3.168015778064728E-1   7.699438333511353E-1  -2.407429739832878E-2  -2.539068832993507E-2  -2.431471273303032E-2  -2.508620359003544E-2  -8.975769877433777E-1   3.763849660754204E-2  
 7.009009009009008E8    -2.935520708560944E-1   7.749717235565186E-1  -3.033724613487721E-2  -2.485137060284615E-2  -3.063401207327843E-2  -2.424026466906071E-2  -8.911257982254028E-1   5.508338660001755E-2  
 7.033033033033032E8    -2.678873836994171E-1   7.778795957565308E-1  -3.651537001132965E-2  -2.281714044511318E-2  -3.657576814293861E-2  -2.229344286024571E-2  -8.840175271034241E-1   7.015360891819000E-2  
 7.057057057057056E8    -2.416936457157135E-1   7.781394720077515E-1  -4.197237640619278E-2  -1.988762430846691E-2  -4.186526313424110E-2  -1.971075497567654E-2  -8.763549327850342E-1   8.270982652902603E-2  
 7.081081081081080E8    -2.135118395090103E-1   7.769747376441956E-1  -4.710340127348900E-2  -1.638818718492985E-2  -4.691116884350777E-2  -1.678126305341721E-2  -8.678705096244812E-1   9.712052345275879E-2  
 7.105105105105104E8    -1.851555854082108E-1   7.741603255271912E-1  -5.222082883119583E-2  -1.221865508705378E-2  -5.196135118603706E-2  -1.307697314769030E-2  -8.578182458877564E-1   1.126597523689270E-1  
 7.129129129129129E8    -1.572842448949814E-1   7.683192491531372E-1  -5.686894059181213E-2  -7.501408923417330E-3  -5.667377635836601E-2  -8.509247563779354E-3  -8.455806374549866E-1   1.303585916757584E-1  
 7.153153153153153E8    -1.300173997879028E-1   7.602906823158264E-1  -6.134647503495216E-2  -2.575815655291081E-3  -6.118218228220940E-2  -3.387451637536287E-3  -8.314705491065979E-1   1.493137180805206E-1  
 7.177177177177178E8    -1.017781123518944E-1   7.501448988914490E-1  -6.590627878904343E-2   3.125818446278572E-3  -6.563838571310043E-2   2.502953168004751E-3  -8.158732056617737E-1   1.689914613962174E-1  
 7.201201201201202E8    -7.272275537252426E-2   7.371869683265686E-1  -7.031127810478210E-2   9.885394945740700E-3  -7.019481062889099E-2   9.116388857364655E-3  -7.975854277610779E-1   1.881832033395767E-1  
 7.225225225225226E8    -4.535713419318199E-2   7.222806215286255E-1  -7.451459020376205E-2   1.777935586869717E-2  -7.442229986190796E-2   1.688671857118607E-2  -7.765619158744812E-1   2.067046314477921E-1  
 7.249249249249250E8    -1.987197063863277E-2   7.058740854263306E-1  -7.798901200294495E-2   2.700155042111874E-2  -7.853916287422180E-2   2.559634298086166E-2  -7.528961896896362E-1   2.223229259252548E-1  
 7.273273273273274E8     2.395553281530738E-3   6.888120174407959E-1  -8.069990575313568E-2   3.756578639149666E-2  -8.172219991683960E-2   3.600962460041046E-2  -7.260720133781433E-1   2.366732060909271E-1  
 7.297297297297298E8     2.308341488242149E-2   6.700280904769898E-1  -8.226379007101059E-2   4.887600988149643E-2  -8.322770148515701E-2   4.799312725663185E-2  -6.968181133270264E-1   2.491836398839951E-1  
 7.321321321321322E8     4.321794584393501E-2   6.496510505676270E-1  -8.280971646308899E-2   6.068874895572662E-2  -8.296006172895432E-2   6.105626001954079E-2  -6.641713380813599E-1   2.598138153553009E-1  
 7.345345345345346E8     6.402301043272018E-2   6.279894709587097E-1  -8.205521851778030E-2   7.347739487886429E-2  -8.171407133340836E-2   7.380823045969009E-2  -6.293733716011047E-1   2.676155567169190E-1  
 7.369369369369370E8     8.511421084403992E-2   6.025103330612183E-1  -8.050062507390976E-2   8.799086511135101E-2  -7.989787310361862E-2   8.811540156602860E-2  -5.898545384407044E-1   2.717536985874176E-1  
 7.393393393393394E8     1.027222946286202E-1   5.737628340721130E-1  -7.634409517049789E-2   1.053621992468834E-1  -7.589638978242874E-2   1.051910966634750E-1  -5.472291707992554E-1   2.695433497428894E-1  
 7.417417417417418E8     1.168429180979729E-1   5.437160134315491E-1  -6.747873127460480E-2   1.244664415717125E-1  -6.784512847661972E-2   1.236460655927658E-1  -5.031583309173584E-1   2.589316964149475E-1  
 7.441441441441442E8     1.288638710975647E-1   5.132898688316345E-1  -5.319238826632500E-2   1.434910744428635E-1  -5.495814606547356E-2   1.421934813261032E-1  -4.592408239841461E-1   2.390455901622772E-1  
 7.465465465465466E8     1.376555860042572E-1   4.856136143207550E-1  -3.465449437499046E-2   1.603291481733322E-1  -3.665247187018395E-2   1.596131622791290E-1  -4.173565506935120E-1   2.111629396677017E-1  
 7.489489489489490E8     1.452545672655106E-1   4.571503698825836E-1  -1.108198147267103E-2   1.739593446254730E-1  -1.325990818440914E-2   1.738761961460114E-1  -3.812964260578156E-1   1.749723851680756E-1  
 7.513513513513514E8     1.513228267431259E-1   4.264318346977234E-1   1.680851168930531E-2   1.832335740327835E-1   1.467867381870747E-2   1.836159080266953E-1  -3.516209721565247E-1   1.331428736448288E-1  
 7.537537537537538E8     1.554229855537415E-1   3.948601186275482E-1   4.817120730876923E-2   1.857100427150726E-1   4.633077979087830E-2   1.866856813430786E-1  -3.289266526699066E-1   8.672338724136353E-2  
 7.561561561561562E8     1.581641286611557E-1   3.626822829246521E-1   7.995596528053284E-2   1.810782104730606E-1   7.883983105421066E-2   1.814375519752502E-1  -3.137107193470001E-1   3.540389984846115E-2  
 7.585585585585586E8     1.587143987417221E-1   3.301083147525787E-1   1.094743907451630E-1   1.700105369091034E-1   1.088919714093208E-1   1.693672239780426E-1  -3.063074350357056E-1  -1.706555485725403E-2  
 7.609609609609610E8     1.574369519948959E-1   2.957150042057037E-1   1.370400041341782E-1   1.527727842330933E-1   1.350938379764557E-1   1.520795077085495E-1  -3.099318146705627E-1  -7.115775346755981E-2  
 7.633633633633634E8     1.537963002920151E-1   2.592959702014923E-1   1.608721017837524E-1   1.298775225877762E-1   1.577778756618500E-1   1.307764500379562E-1  -3.255003392696381E-1  -1.219082698225975E-1  
 7.657657657657658E8     1.455822885036469E-1   2.201729267835617E-1   1.790096014738083E-1   1.027221009135246E-1   1.762478649616242E-1   1.054662838578224E-1  -3.500416576862335E-1  -1.680808365345001E-1  
 7.681681681681682E8     1.319406926631928E-1   1.808179318904877E-1   1.904000788927078E-1   7.353612780570984E-2   1.891367584466934E-1   7.697389274835587E-2  -3.811806142330170E-1  -2.097158133983612E-1  
 7.705705705705706E8     1.131721660494804E-1   1.446980834007263E-1   1.954485625028610E-1   4.424930736422539E-2   1.949227154254913E-1   4.755206033587456E-2  -4.164593219757080E-1  -2.438321113586426E-1  
 7.729729729729730E8     8.979547023773193E-2   1.099068075418472E-1   1.946162432432175E-1   1.577009074389935E-2   1.955094635486603E-1   1.843103393912315E-2  -4.560168981552124E-1  -2.710492014884949E-1  
 7.753753753753754E8     6.014155969023705E-2   7.672514021396637E-2   1.892177015542984E-1  -1.021165866404772E-2   1.903726607561112E-1  -8.928131312131882E-3  -4.978252947330475E-1  -2.900203466415405E-1  
 7.777777777777778E8     2.289678342640400E-2   4.605856910347939E-2   1.800146996974945E-1  -3.390626236796379E-2   1.804642975330353E-1  -3.241216391324997E-2  -5.389797687530518E-1  -3.004506230354309E-1  
 7.801801801801802E8    -1.930516585707665E-2   2.119726501405239E-2   1.683984249830246E-1  -5.374712124466896E-2   1.673552691936493E-1  -5.223093554377556E-2  -5.777724981307983E-1  -3.041848540306091E-1  
 7.825825825825826E8    -6.369683146476746E-2   5.970415193587542E-3   1.545381247997284E-1  -7.073710113763809E-2   1.535943299531937E-1  -6.970161199569702E-2  -6.156417727470398E-1  -3.032269775867462E-1  
 7.849849849849850E8    -1.078053563833237E-1  -9.225847898051143E-4   1.389607191085815E-1  -8.522868901491165E-2   1.386773437261581E-1  -8.333000540733337E-2  -6.489214301109314E-1  -2.992998361587524E-1  
 7.873873873873874E8    -1.491977423429489E-1  -3.141188994050026E-3   1.223298683762550E-1  -9.600393474102020E-2   1.226883530616760E-1  -9.366869926452637E-2  -6.786261796951294E-1  -2.925225198268890E-1  
 7.897897897897898E8    -1.901403516530991E-1  -1.401711953803897E-3   1.059211641550064E-1  -1.031941995024681E-1   1.066292375326157E-1  -1.011438220739365E-1  -7.078495025634766E-1  -2.836007177829742E-1  
 7.921921921921922E8    -2.290855944156647E-1   5.121215712279081E-3   9.029769897460938E-2  -1.076448485255241E-1   9.190607815980911E-2  -1.064785420894623E-1  -7.361547350883484E-1  -2.727939188480377E-1  
 7.945945945945946E8    -2.641304433345795E-1   1.514113135635853E-2   7.582595944404602E-2  -1.104078665375710E-1   7.734545320272446E-2  -1.094069927930832E-1  -7.594645023345947E-1  -2.582904100418091E-1  
 7.969969969969970E8    -2.976196706295013E-1   2.651367709040642E-2   6.218630820512772E-2  -1.111620217561722E-1   6.356713920831680E-2  -1.105407103896141E-1  -7.805447578430176E-1  -2.425434142351151E-1  
 7.993993993993994E8    -3.308411538600922E-1   4.085952043533325E-2   4.972748085856438E-2  -1.101709678769112E-1   5.056460201740265E-2  -1.098892912268639E-1  -7.998241782188416E-1  -2.260411828756332E-1  
 8.018018018018018E8    -3.618266880512238E-1   6.037209555506706E-2   3.872781619429588E-2  -1.081440821290016E-1   3.901412338018417E-2  -1.080687791109085E-1  -8.169199824333191E-1  -2.085483223199844E-1  
 8.042042042042042E8    -3.894433677196503E-1   8.423651754856110E-2   2.865980193018913E-2  -1.055390238761902E-1   2.872041799128056E-2  -1.053858101367950E-1  -8.317766785621643E-1  -1.926478296518326E-1  
 8.066066066066066E8    -4.121143221855164E-1   1.102961301803589E-1   1.976150460541248E-2  -1.023457273840904E-1   1.972940005362034E-2  -1.019879877567291E-1  -8.452562093734741E-1  -1.751270890235901E-1  
 8.090090090090090E8    -4.310755133628845E-1   1.362906098365784E-1   1.168128196150065E-2  -9.887494891881943E-2   1.180541049689055E-2  -9.865881502628326E-2  -8.567676544189453E-1  -1.580975800752640E-1  
 8.114114114114114E8    -4.485134184360504E-1   1.610894054174423E-1   4.473561421036720E-3  -9.491836279630661E-2   4.822908435016871E-3  -9.473951905965805E-2  -8.667134046554565E-1  -1.415691077709198E-1  
 8.138138138138138E8    -4.655055403709412E-1   1.875223219394684E-1  -1.679612090811133E-3  -9.084454923868179E-2  -1.040702103637159E-3  -9.102365374565125E-2  -8.758069276809692E-1  -1.262810081243515E-1  
 8.162162162162162E8    -4.792121350765228E-1   2.168482244014740E-1  -7.361258845776320E-3  -8.716720342636108E-2  -6.759512703865767E-3  -8.743564784526825E-2  -8.835858702659607E-1  -1.110223829746246E-1  
 8.186186186186186E8    -4.871394932270050E-1   2.471159249544144E-1  -1.303136907517910E-2  -8.330415934324265E-2  -1.237052027136087E-2  -8.352948725223541E-2  -8.901168704032898E-1  -9.550959616899490E-2  
 8.210210210210210E8    -4.887520968914032E-1   2.719244956970215E-1  -1.784371770918369E-2  -7.881628721952438E-2  -1.754688844084740E-2  -7.878864556550980E-2  -8.960471153259277E-1  -7.954869419336319E-2  
 8.234234234234234E8    -4.897832572460175E-1   2.962893843650818E-1  -2.197449468076229E-2  -7.396885007619858E-2  -2.174731902778149E-2  -7.390401512384415E-2  -9.013879299163818E-1  -6.420707702636719E-2  
