#  HZ   S   RI   R     50.00 
! Rohde & Schwarz ZVB8 2Ports - Version 2.81 - 1145.1010k08 SN: 100113
! Date: 2016-03-12 03:12:04
! Measurements: S11 S21 S12 S22 
! 
 6.000000000000000E8    -6.988161206245422E-1  -5.191385149955750E-1   1.334742177277803E-2   7.976326346397400E-2   1.429873984307051E-2   7.869620621204376E-2  -5.789226889610291E-1  -6.607959270477295E-1  
 6.024024024024024E8    -7.416814565658569E-1  -4.461704790592194E-1   2.169547975063324E-2   8.215145766735077E-2   2.244791015982628E-2   8.072882890701294E-2  -6.364389061927795E-1  -5.973772406578064E-1  
 6.048048048048048E8    -7.771654129028320E-1  -3.686460554599762E-1   3.065542876720429E-2   8.353648334741592E-2   3.126158937811852E-2   8.184448629617691E-2  -6.875703930854797E-1  -5.288681387901306E-1  
 6.072072072072072E8    -8.051630258560181E-1  -2.880802750587463E-1   4.008504748344421E-2   8.396110683679581E-2   4.036876559257507E-2   8.212064206600189E-2  -7.316847443580627E-1  -4.554515182971954E-1  
 6.096096096096096E8    -8.255601525306702E-1  -2.044017463922501E-1   4.975765570998192E-2   8.347963541746140E-2   4.984469711780548E-2   8.149646222591400E-2  -7.686803340911865E-1  -3.766647875308991E-1  
 6.120120120120120E8    -8.369706869125366E-1  -1.214950308203697E-1   5.961274728178978E-2   8.228415250778198E-2   5.914014205336571E-2   8.034721016883850E-2  -7.967152595520020E-1  -2.950590252876282E-1  
 6.144144144144144E8    -8.399113416671753E-1  -3.690261021256447E-2   6.981135159730911E-2   8.033014088869095E-2   6.901113688945770E-2   7.844040542840958E-2  -8.154990673065186E-1  -2.101779431104660E-1  
 6.168168168168168E8    -8.333089947700501E-1   4.814327880740166E-2   8.062814176082611E-2   7.713238149881363E-2   7.930696755647659E-2   7.545947283506393E-2  -8.250135183334351E-1  -1.227313205599785E-1  
 6.192192192192192E8    -8.173233866691589E-1   1.318417787551880E-1   9.157662838697434E-2   7.262082397937775E-2   8.992590755224228E-2   7.125861942768097E-2  -8.246325254440308E-1  -3.363531455397606E-2  
 6.216216216216216E8    -7.924240231513977E-1   2.137645930051804E-1   1.029068753123283E-1   6.689497083425522E-2   1.008367612957954E-1   6.585536152124405E-2  -8.132298588752747E-1   5.605464801192284E-2  
 6.240240240240240E8    -7.584584355354309E-1   2.918873727321625E-1   1.144054681062698E-1   5.951877310872078E-2   1.120278537273407E-1   5.860613286495209E-2  -7.907072901725769E-1   1.436006724834442E-1  
 6.264264264264264E8    -7.156465053558350E-1   3.647013604640961E-1   1.258752793073654E-1   5.016176402568817E-2   1.233527809381485E-1   4.970020800828934E-2  -7.579324841499329E-1   2.263866364955902E-1  
 6.288288288288288E8    -6.658528447151184E-1   4.302157759666443E-1   1.365400850772858E-1   3.857791796326637E-2   1.338892281055450E-1   3.837952017784119E-2  -7.162317633628845E-1   3.028150796890259E-1  
 6.312312312312312E8    -6.115092039108276E-1   4.883607923984528E-1   1.456375420093536E-1   2.498317323625088E-2   1.428427845239639E-1   2.503333613276482E-2  -6.666925549507141E-1   3.726496398448944E-1  
 6.336336336336336E8    -5.534837841987610E-1   5.399904251098633E-1   1.526144146919251E-1   1.047731004655361E-2   1.499734371900559E-1   1.078742370009422E-2  -6.101558208465576E-1   4.361122846603394E-1  
 6.360360360360360E8    -4.915834963321686E-1   5.859770178794861E-1   1.585040241479874E-1  -4.541199188679457E-3   1.559342741966248E-1  -4.038312938064337E-3  -5.471803545951843E-1   4.922019243240356E-1  
 6.384384384384384E8    -4.249853491783142E-1   6.252444386482239E-1   1.635437905788422E-1  -2.066227793693543E-2   1.610167473554611E-1  -1.975162513554096E-2  -4.778210222721100E-1   5.399498343467712E-1  
 6.408408408408408E8    -3.549276888370514E-1   6.558611392974854E-1   1.673359125852585E-1  -3.899703174829483E-2   1.648064702749252E-1  -3.771625459194183E-2  -4.031992256641388E-1   5.779177546501160E-1  
 6.432432432432432E8    -2.841311097145081E-1   6.777006983757019E-1   1.680570840835571E-1  -5.878287553787231E-2   1.657094955444336E-1  -5.741983652114868E-2  -3.259435594081879E-1   6.057405471801758E-1  
 6.456456456456456E8    -2.145148068666458E-1   6.930617094039917E-1   1.653432399034500E-1  -7.854264974594116E-2   1.629581749439240E-1  -7.697333395481110E-2  -2.473364025354385E-1   6.241830587387085E-1  
 6.480480480480480E8    -1.447433680295944E-1   7.030568122863770E-1   1.605891287326813E-1  -9.695740044116974E-2   1.583073586225510E-1  -9.521510452032089E-2  -1.675887703895569E-1   6.334759593009949E-1  
 6.504504504504504E8    -7.415221631526947E-2   7.062852382659912E-1   1.550261080265045E-1  -1.150932088494301E-1   1.525611132383347E-1  -1.131829097867012E-1  -8.677047491073608E-2   6.323650479316711E-1  
 6.528528528528528E8    -4.693013150244951E-3   7.011989355087280E-1   1.474981606006622E-1  -1.340235769748688E-1   1.451095640659332E-1  -1.317326575517654E-1  -7.763132452964783E-3   6.199398636817932E-1  
 6.552552552552552E8     6.060613691806793E-2   6.904206275939941E-1   1.369899660348892E-1  -1.526353806257248E-1   1.348874568939209E-1  -1.499388515949249E-1   6.655301153659821E-2   5.974607467651367E-1  
 6.576576576576576E8     1.231715753674507E-1   6.752586364746094E-1   1.244061067700386E-1  -1.696987301111221E-1   1.225206851959229E-1  -1.663923114538193E-1   1.361221671104431E-1   5.663462877273560E-1  
 6.600600600600600E8     1.848668903112412E-1   6.559268236160278E-1   1.098016723990440E-1  -1.859570145606995E-1   1.084003821015358E-1  -1.818689703941345E-1   2.008158117532730E-1   5.274655222892761E-1  
 6.624624624624624E8     2.450515329837799E-1   6.318243145942688E-1   9.366178512573242E-2  -2.010171562433243E-1   9.278407692909241E-2  -1.960760056972504E-1   2.595113217830658E-1   4.806673824787140E-1  
 6.648648648648648E8     3.036428391933441E-1   6.023985743522644E-1   7.589501142501831E-2  -2.149761468172073E-1   7.561819255352020E-2  -2.092543691396713E-1   3.106999397277832E-1   4.269434809684753E-1  
 6.672672672672672E8     3.597313165664673E-1   5.671442151069641E-1   5.634481459856033E-2  -2.274714112281799E-1   5.666265636682510E-2  -2.210043519735336E-1   3.535167276859283E-1   3.672517240047455E-1  
 6.696696696696696E8     4.124856889247894E-1   5.261355638504028E-1   3.525376319885254E-2  -2.383379489183426E-1   3.648782521486282E-2  -2.312105298042297E-1   3.868736028671265E-1   3.022189140319824E-1  
 6.720720720720720E8     4.612893760204315E-1   4.792302250862122E-1   1.252057403326035E-2  -2.475442737340927E-1   1.477459445595741E-2  -2.400508821010590E-1   4.095680117607117E-1   2.334739863872528E-1  
 6.744744744744744E8     5.047799348831177E-1   4.268508553504944E-1  -1.183433085680008E-2  -2.548688650131226E-1  -8.092418313026428E-3  -2.470424175262451E-1   4.208339750766754E-1   1.633130609989166E-1  
 6.768768768768768E8     5.410470366477966E-1   3.696866333484650E-1  -3.776294365525246E-2  -2.604437470436096E-1  -3.205796703696251E-2  -2.527343034744263E-1   4.212051928043366E-1   9.341985732316971E-2  
 6.792792792792792E8     5.697110891342163E-1   3.100949227809906E-1  -6.592839956283569E-2  -2.639651298522949E-1  -5.835576727986336E-2  -2.567111849784851E-1   4.101246297359467E-1   2.582976222038269E-2  
 6.816816816816816E8     5.912477970123291E-1   2.495992332696915E-1  -9.649462997913361E-2  -2.639242410659790E-1  -8.695054054260254E-2  -2.576859593391419E-1   3.892223536968231E-1  -3.761674836277962E-2  
 6.840840840840840E8     6.064592599868774E-1   1.890817284584045E-1  -1.287319660186768E-1  -2.596468627452850E-1  -1.174987852573395E-1  -2.549917101860046E-1   3.589456081390381E-1  -9.548592567443848E-2  
 6.864864864864864E8     6.164647936820984E-1   1.288786232471466E-1  -1.618452072143555E-1  -2.493465244770050E-1  -1.489295959472656E-1  -2.470609396696091E-1   3.218239247798920E-1  -1.466391533613205E-1  
 6.888888888888888E8     6.217450499534607E-1   6.829150766134262E-2  -1.931197792291641E-1  -2.334098666906357E-1  -1.789993047714233E-1  -2.340638041496277E-1   2.781058847904205E-1  -1.927703022956848E-1  
 6.912912912912912E8     6.211646199226379E-1   7.559143938124180E-3  -2.219299972057343E-1  -2.141924053430557E-1  -2.077258229255676E-1  -2.176696956157684E-1   2.256608903408051E-1  -2.314399033784866E-1  
 6.936936936936936E8     6.141330599784851E-1  -5.177425965666771E-2  -2.490554898977280E-1  -1.908947229385376E-1  -2.361861169338226E-1  -1.970290988683701E-1   1.671593189239502E-1  -2.581491470336914E-1  
 6.960960960960960E8     6.026389002799988E-1  -1.092035025358200E-1  -2.726263105869293E-1  -1.624961644411087E-1  -2.623334228992462E-1  -1.702027469873428E-1   1.070906817913055E-1  -2.732766270637512E-1  
 6.984984984984984E8     5.873218178749085E-1  -1.655334383249283E-1  -2.908524870872498E-1  -1.303838342428207E-1  -2.837679088115692E-1  -1.387809365987778E-1   4.697754606604576E-2  -2.780181467533112E-1  
 7.009009009009008E8     5.673581361770630E-1  -2.218373864889145E-1  -3.025583624839783E-1  -9.558565169572830E-2  -2.986369431018829E-1  -1.047367304563522E-1  -1.070478465408087E-2  -2.746638357639313E-1  
 7.033033033033032E8     5.411707758903503E-1  -2.782216370105743E-1  -3.077018857002258E-1  -6.094375252723694E-2  -3.065039217472076E-1  -7.306118309497833E-2  -6.969570368528366E-2  -2.649310231208801E-1  
 7.057057057057056E8     5.074891448020935E-1  -3.320858180522919E-1  -3.088704943656921E-1  -2.830583974719048E-2  -3.108182549476624E-1  -4.513852298259735E-2  -1.302616447210312E-1  -2.429683059453964E-1  
 7.081081081081080E8     4.663168787956238E-1  -3.827742338180542E-1  -3.072286248207092E-1   3.796322736889124E-3  -3.138343393802643E-1  -1.806611008942127E-2  -1.870645433664322E-1  -2.058185338973999E-1  
 7.105105105105104E8     4.203521907329559E-1  -4.277673959732056E-1  -3.024091720581055E-1   3.344645723700523E-2  -3.144052028656006E-1   9.894830174744129E-3  -2.343667149543762E-1  -1.561560183763504E-1  
 7.129129129129129E8     3.698212504386902E-1  -4.674139320850372E-1  -2.953708767890930E-1   5.917848274111748E-2  -3.123658895492554E-1   3.821151331067085E-2  -2.702662050724030E-1  -9.679045528173447E-2  
 7.153153153153153E8     3.147520720958710E-1  -5.005373358726502E-1  -2.876405715942383E-1   8.184085786342621E-2  -3.083442151546478E-1   6.743582338094711E-2  -2.926116287708283E-1  -2.978836558759213E-2  
 7.177177177177178E8     2.556398808956146E-1  -5.267748236656189E-1  -2.796930372714996E-1   1.030030101537705E-1  -3.020763397216797E-1   9.675298631191254E-2  -2.989163100719452E-1   4.077756032347679E-2  
 7.201201201201202E8     1.925393193960190E-1  -5.456201434135437E-1  -2.714561820030212E-1   1.246380656957626E-1  -2.941761016845703E-1   1.257523298263550E-1  -2.890302538871765E-1   1.093372106552124E-1  
 7.225225225225226E8     1.263559609651566E-1  -5.555677413940430E-1  -2.616730630397797E-1   1.483283787965775E-1  -2.851263880729675E-1   1.534720659255981E-1  -2.661973834037781E-1   1.708912849426270E-1  
 7.249249249249250E8     6.010527163743973E-2  -5.556014776229858E-1  -2.485605776309967E-1   1.748976260423660E-1  -2.739987373352051E-1   1.804644018411636E-1  -2.347478270530701E-1   2.234501838684082E-1  
 7.273273273273274E8    -2.375152660533786E-3  -5.466138720512390E-1  -2.307553589344025E-1   2.005005031824112E-1  -2.576184272766113E-1   2.069837301969528E-1  -1.985624879598618E-1   2.681793272495270E-1  
 7.297297297297298E8    -6.004619225859642E-2  -5.313692092895508E-1  -2.104131132364273E-1   2.216591238975525E-1  -2.358018457889557E-1   2.317629754543304E-1  -1.579601168632507E-1   3.087293505668640E-1  
 7.321321321321322E8    -1.124412640929222E-1  -5.108725428581238E-1  -1.899086982011795E-1   2.379955053329468E-1  -2.099202126264572E-1   2.534581422805786E-1  -1.104800105094910E-1   3.450559675693512E-1  
 7.345345345345346E8    -1.602643728256226E-1  -4.864002764225006E-1  -1.696408838033676E-1   2.509756386280060E-1  -1.813995987176895E-1   2.717718183994293E-1  -5.465836077928543E-2   3.740039169788361E-1  
 7.369369369369370E8    -2.048244029283524E-1  -4.584950506687164E-1  -1.490957736968994E-1   2.614844441413879E-1  -1.519413590431213E-1   2.854655086994171E-1   6.631915457546711E-3   3.928362131118774E-1  
 7.393393393393394E8    -2.465568780899048E-1  -4.273513257503510E-1  -1.286833286285400E-1   2.703271508216858E-1  -1.233646571636200E-1   2.950129806995392E-1   7.093001157045364E-2   4.005533754825592E-1  
 7.417417417417418E8    -2.855597436428070E-1  -3.927355408668518E-1  -1.087895333766937E-1   2.779507935047150E-1  -9.682352840900421E-2   3.015986979007721E-1   1.361181586980820E-1   3.967718482017517E-1  
 7.441441441441442E8    -3.211157321929932E-1  -3.531498312950134E-1  -8.928189426660538E-2   2.857626974582672E-1  -7.241576164960861E-2   3.069440722465515E-1   1.994800418615341E-1   3.811774253845215E-1  
 7.465465465465466E8    -3.510458767414093E-1  -3.095285892486572E-1  -6.901221722364426E-2   2.944915294647217E-1  -4.837875068187714E-2   3.118914067745209E-1   2.570923864841461E-1   3.541445434093475E-1  
 7.489489489489490E8    -3.750178217887878E-1  -2.629508078098297E-1  -4.622314497828484E-2   3.035624623298645E-1  -2.279829047620297E-2   3.165459334850311E-1   3.057861626148224E-1   3.192971348762512E-1  
 7.513513513513514E8    -3.925229907035828E-1  -2.146648019552231E-1  -1.993194036185741E-2   3.107832968235016E-1   5.428348202258349E-3   3.185108304023743E-1   3.457112312316895E-1   2.808152437210083E-1  
 7.537537537537538E8    -4.044564664363861E-1  -1.656696200370789E-1   9.489228017628193E-3   3.139932751655579E-1   3.536539152264595E-2   3.160991668701172E-1   3.797075450420380E-1   2.409365624189377E-1  
 7.561561561561562E8    -4.109818041324616E-1  -1.170407384634018E-1   3.798044845461845E-2   3.127908408641815E-1   6.483421474695206E-2   3.081258237361908E-1   4.096405804157257E-1   2.003714591264725E-1  
 7.585585585585586E8    -4.119603037834168E-1  -6.838045269250870E-2   6.555845588445664E-2   3.078498542308807E-1   9.157892316579819E-2   2.964254617691040E-1   4.372138082981110E-1   1.571303308010101E-1  
 7.609609609609610E8    -4.072581231594086E-1  -2.067691646516323E-2   9.149879217147827E-2   2.999951839447022E-1   1.145176738500595E-1   2.824434340000153E-1   4.611445069313049E-1   1.102672666311264E-1  
 7.633633633633634E8    -3.964551389217377E-1   2.508603781461716E-2   1.154017746448517E-1   2.902291119098663E-1   1.338912546634674E-1   2.683527171611786E-1   4.805008471012116E-1   5.984504148364067E-2  
 7.657657657657658E8    -3.803495764732361E-1   6.730301678180695E-2   1.380822360515595E-1   2.795007824897766E-1   1.514986753463745E-1   2.548997700214386E-1   4.941813945770264E-1   6.637891288846731E-3  
 7.681681681681682E8    -3.605863749980927E-1   1.044058129191399E-1   1.591896265745163E-1   2.673074007034302E-1   1.685251146554947E-1   2.415673881769180E-1   5.017087459564209E-1  -4.827772453427315E-2  
 7.705705705705706E8    -3.385521471500397E-1   1.372141689062119E-1   1.788934469223023E-1   2.532896399497986E-1   1.850111186504364E-1   2.274751961231232E-1   5.039989948272705E-1  -1.043218970298767E-1  
 7.729729729729730E8    -3.154563009738922E-1   1.667993813753128E-1   1.971191018819809E-1   2.373538315296173E-1   2.002107501029968E-1   2.132376581430435E-1   5.004022121429443E-1  -1.629188656806946E-1  
 7.753753753753754E8    -2.915908992290497E-1   1.938163638114929E-1   2.141836583614349E-1   2.209670394659042E-1   2.143656313419342E-1   1.980546265840530E-1   4.867181479930878E-1  -2.229363769292831E-1  
 7.777777777777778E8    -2.674517333507538E-1   2.185739278793335E-1   2.297573387622833E-1   2.035805284976959E-1   2.270557135343552E-1   1.814363747835159E-1   4.627176225185394E-1  -2.794691920280457E-1  
 7.801801801801802E8    -2.431801259517670E-1   2.421707510948181E-1   2.430663108825684E-1   1.859598904848099E-1   2.369953095912933E-1   1.643768846988678E-1   4.310262799263001E-1  -3.301722705364227E-1  
 7.825825825825826E8    -2.173552066087723E-1   2.656686007976532E-1   2.557260394096375E-1   1.692942529916763E-1   2.451663911342621E-1   1.483488976955414E-1   3.938267230987549E-1  -3.742437362670898E-1  
 7.849849849849850E8    -1.893258243799210E-1   2.885424494743347E-1   2.688573598861694E-1   1.520865112543106E-1   2.526336908340454E-1   1.332330852746964E-1   3.529703319072723E-1  -4.111557304859161E-1  
 7.873873873873874E8    -1.584831178188324E-1   3.103800415992737E-1   2.815154790878296E-1   1.342045068740845E-1   2.594776451587677E-1   1.177451163530350E-1   3.100250959396362E-1  -4.421911239624023E-1  
 7.897897897897898E8    -1.239559650421143E-1   3.305710852146149E-1   2.931159138679504E-1   1.150572970509529E-1   2.661941051483154E-1   1.020623221993446E-1   2.655048072338104E-1  -4.686637222766876E-1  
 7.921921921921922E8    -8.402309566736221E-2   3.490117490291596E-1   3.030174374580383E-1   9.445682913064957E-2   2.729001641273499E-1   8.675400912761688E-2   2.194609344005585E-1  -4.911128282546997E-1  
 7.945945945945946E8    -3.751985728740692E-2   3.629205524921417E-1   3.121395409107208E-1   7.424657046794891E-2   2.807038128376007E-1   7.238540053367615E-2   1.716452389955521E-1  -5.090484023094177E-1  
 7.969969969969970E8     1.366262603551149E-2   3.675555288791657E-1   3.223151266574860E-1   5.300148203969002E-2   2.910334467887878E-1   5.688435211777687E-2   1.218514367938042E-1  -5.212129354476929E-1  
 7.993993993993994E8     6.506838649511337E-2   3.619582951068878E-1   3.323119580745697E-1   2.822051383554936E-2   3.025698959827423E-1   3.708232939243317E-2   7.293616980314255E-2  -5.256909132003784E-1  
 8.018018018018018E8     1.135007515549660E-1   3.475329279899597E-1   3.394454717636108E-1  -9.470652730669826E-5   3.123666346073151E-1   1.341618504375219E-2   2.754956111311913E-2  -5.256433486938477E-1  
 8.042042042042042E8     1.591733098030090E-1   3.267610669136047E-1   3.437190651893616E-1  -3.126890212297440E-2   3.198237419128418E-1  -1.326815225183964E-2  -1.424639765173197E-2  -5.225939750671387E-1  
 8.066066066066066E8     1.992235034704208E-1   3.014332652091980E-1   3.434000611305237E-1  -6.416814029216766E-2   3.234527111053467E-1  -4.174915701150894E-2  -5.334033444523811E-2  -5.177103877067566E-1  
 8.090090090090090E8     2.357178777456284E-1   2.722392380237579E-1   3.382352292537689E-1  -9.701272100210190E-2   3.227599859237671E-1  -7.140608131885529E-2  -9.107749909162521E-2  -5.112037658691406E-1  
 8.114114114114114E8     2.672386169433594E-1   2.394763082265854E-1   3.282163441181183E-1  -1.290582567453384E-1   3.176896274089813E-1  -1.012621000409126E-1  -1.270630955696106E-1  -5.033575296401978E-1  
 8.138138138138138E8     2.950958907604218E-1   2.039039134979248E-1   3.134603500366211E-1  -1.587856411933899E-1   3.083911836147308E-1  -1.296706795692444E-1  -1.623473018407822E-1  -4.950352311134338E-1  
 8.162162162162162E8     3.185164630413055E-1   1.653537303209305E-1   2.960367500782013E-1  -1.853832155466080E-1   2.962060570716858E-1  -1.558797657489777E-1  -1.972283571958542E-1  -4.861972033977509E-1  
 8.186186186186186E8     3.369653522968292E-1   1.240423992276192E-1   2.761020958423615E-1  -2.092508822679520E-1   2.815950810909271E-1  -1.800924390554428E-1  -2.325291782617569E-1  -4.767599701881409E-1  
 8.210210210210210E8     3.498601019382477E-1   8.092204481363297E-2   2.540437579154968E-1  -2.294918298721314E-1   2.646297514438629E-1  -2.021768391132355E-1  -2.700739204883575E-1  -4.668650031089783E-1  
 8.234234234234234E8     3.577656745910645E-1   3.665871918201447E-2   2.313539981842041E-1  -2.463863343000412E-1   2.466943264007568E-1  -2.214663028717041E-1  -3.113221228122711E-1  -4.539264440536499E-1  
