#  HZ   S   RI   R     50.00 
! Rohde & Schwarz ZVB8 2Ports - Version 2.81 - 1145.1010k08 SN: 100113
! Date: 2016-03-12 01:59:33
! Measurements: S11 S21 S12 S22 
! 
 6.000000000000000E8    -6.758421063423157E-1   6.957764923572540E-2   3.785105794668198E-2   9.143936634063721E-2   3.748783096671104E-2   8.371864259243012E-2  -4.851716458797455E-1  -7.756949663162231E-1  
 6.024024024024024E8    -6.449035406112671E-1   1.578311175107956E-1   5.041042342782021E-2   9.237366169691086E-2   4.820432513952255E-2   8.412365615367889E-2  -5.508849024772644E-1  -7.272637486457825E-1  
 6.048048048048048E8    -6.011522412300110E-1   2.404029071331024E-1   6.388053297996521E-2   9.094411134719849E-2   5.962060019373894E-2   8.276106417179108E-2  -6.117992997169495E-1  -6.731758713722229E-1  
 6.072072072072072E8    -5.456985831260681E-1   3.151853084564209E-1   7.745847851037979E-2   8.715497702360153E-2   7.103548198938370E-2   7.949892431497574E-2  -6.677937507629395E-1  -6.138696074485779E-1  
 6.096096096096096E8    -4.808760881423950E-1   3.803632259368897E-1   9.064184129238129E-2   8.114445954561234E-2   8.228138834238052E-2   7.484204322099686E-2  -7.181200385093689E-1  -5.492039918899536E-1  
 6.120120120120120E8    -4.098372459411621E-1   4.339148700237274E-1   1.029853224754334E-1   7.335401326417923E-2   9.274547547101975E-2   6.894715875387192E-2  -7.616230845451355E-1  -4.813233911991119E-1  
 6.144144144144144E8    -3.320661783218384E-1   4.772059619426727E-1   1.143567487597466E-1   6.366453319787979E-2   1.028257682919502E-1   6.178760901093483E-2  -7.988167405128479E-1  -4.097998738288879E-1  
 6.168168168168168E8    -2.481753826141357E-1   5.091919302940369E-1   1.242447942495346E-1   5.259291082620621E-2   1.118821725249291E-1   5.340265855193138E-2  -8.297092914581299E-1  -3.344683051109314E-1  
 6.192192192192192E8    -1.588207632303238E-1   5.278968214988709E-1   1.330007016658783E-1   4.060180857777596E-2   1.204556226730347E-1   4.444494843482971E-2  -8.542723059654236E-1  -2.558046877384186E-1  
 6.216216216216216E8    -6.665609776973724E-2   5.311346650123596E-1   1.409148871898651E-1   2.788033895194531E-2   1.287711113691330E-1   3.481036424636841E-2  -8.716439008712769E-1  -1.740785688161850E-1  
 6.240240240240240E8     2.546409890055656E-2   5.173861980438232E-1   1.482526063919067E-1   1.405372750014067E-2   1.373911052942276E-1   2.396097034215927E-2  -8.810102343559265E-1  -8.979721367359161E-2  
 6.264264264264264E8     1.128528192639351E-1   4.852771162986755E-1   1.549446582794190E-1  -1.473857555538416E-3   1.459408998489380E-1   1.124564837664366E-2  -8.814951777458191E-1  -5.917011294513941E-3  
 6.288288288288288E8     1.892027705907822E-1   4.360660612583160E-1   1.598542928695679E-1  -1.912750676274300E-2   1.537259370088577E-1  -3.930463455617428E-3  -8.736307621002197E-1   7.646452635526657E-2  
 6.312312312312312E8     2.493208050727844E-1   3.758389055728912E-1   1.616352051496506E-1  -3.822296485304833E-2   1.592903137207031E-1  -2.154839597642422E-2  -8.583567142486572E-1   1.570194661617279E-1  
 6.336336336336336E8     2.935997247695923E-1   3.111320734024048E-1   1.604175120592117E-1  -5.743620172142983E-2   1.621062159538269E-1  -4.028179869055748E-2  -8.356679677963257E-1   2.356870174407959E-1  
 6.360360360360360E8     3.252689540386200E-1   2.453845441341400E-1   1.568128913640976E-1  -7.589713484048843E-2   1.625463813543320E-1  -5.937088280916214E-2  -8.057683706283569E-1   3.117273449897766E-1  
 6.384384384384384E8     3.461338579654694E-1   1.783215701580048E-1   1.512846052646637E-1  -9.454818069934845E-2   1.609221696853638E-1  -7.937058806419373E-2  -7.683506608009338E-1   3.845104575157166E-1  
 6.408408408408408E8     3.540230691432953E-1   1.121636033058167E-1   1.429481655359268E-1  -1.129229292273521E-1   1.562544107437134E-1  -1.001573801040649E-1  -7.243639826774597E-1   4.529740512371063E-1  
 6.432432432432432E8     3.516857922077179E-1   5.088352039456368E-2   1.316477209329605E-1  -1.299424767494202E-1   1.476817876100540E-1  -1.206999048590660E-1  -6.739590167999268E-1   5.169814229011536E-1  
 6.456456456456456E8     3.434196114540100E-1  -4.573514219373465E-3   1.180205568671227E-1  -1.444557011127472E-1   1.358132660388947E-1  -1.392167955636978E-1  -6.183337569236755E-1   5.760352015495300E-1  
 6.480480480480480E8     3.321464955806732E-1  -5.793428048491478E-2   1.038439273834229E-1  -1.561487019062042E-1   1.224286109209061E-1  -1.550787389278412E-1  -5.575111508369446E-1   6.301755905151367E-1  
 6.504504504504504E8     3.136736452579498E-1  -1.125872507691383E-1   9.001721441745758E-2  -1.667102724313736E-1   1.087571233510971E-1  -1.698247492313385E-1  -4.906809031963348E-1   6.792008876800537E-1  
 6.528528528528528E8     2.837012112140656E-1  -1.640180051326752E-1   7.546842843294144E-2  -1.768763512372971E-1   9.325426071882248E-2  -1.845256090164185E-1  -4.190567135810852E-1   7.207664847373962E-1  
 6.552552552552552E8     2.451589256525040E-1  -2.063668370246887E-1   5.927291139960289E-2  -1.861147284507752E-1   7.538829743862152E-2  -1.976581215858460E-1  -3.437961041927338E-1   7.550505995750427E-1  
 6.576576576576576E8     2.024037688970566E-1  -2.392331808805466E-1   4.212088137865067E-2  -1.935740113258362E-1   5.550176650285721E-2  -2.086720615625382E-1  -2.655918002128601E-1   7.813935279846191E-1  
 6.600600600600600E8     1.581060886383057E-1  -2.632080614566803E-1   2.371753938496113E-2  -1.993003189563751E-1   3.376176580786705E-2  -2.171262502670288E-1  -1.844799965620041E-1   8.001855015754700E-1  
 6.624624624624624E8     1.144392713904381E-1  -2.810075879096985E-1   4.950204864144325E-3  -2.026844471693039E-1   1.107758469879627E-2  -2.223253250122070E-1  -1.015471890568733E-1   8.112986683845520E-1  
 6.648648648648648E8     7.031787931919098E-2  -2.943247556686401E-1  -1.332911010831595E-2  -2.043075412511826E-1  -1.164685748517513E-2  -2.248888015747070E-1  -1.776324771344662E-2   8.138087987899780E-1  
 6.672672672672672E8     2.507710643112660E-2  -3.022753596305847E-1  -3.123000077903271E-2  -2.043513506650925E-1  -3.421043232083321E-2  -2.247791737318039E-1   6.599243730306625E-2   8.082562685012817E-1  
 6.696696696696696E8    -2.100406214594841E-2  -3.057113885879517E-1  -4.829308390617371E-2  -2.032831162214279E-1  -5.599143356084824E-2  -2.225874364376068E-1   1.496295630931854E-1   7.938809990882874E-1  
 6.720720720720720E8    -6.954307109117508E-2  -3.031940162181854E-1  -6.505583971738815E-2  -2.019380033016205E-1  -7.708441466093063E-2  -2.192805260419846E-1   2.319052815437317E-1   7.705315947532654E-1  
 6.744744744744744E8    -1.187138408422470E-1  -2.922884225845337E-1  -8.216104656457901E-2  -2.001769393682480E-1  -9.830045700073242E-2  -2.147343009710312E-1   3.116358518600464E-1   7.379063963890076E-1  
 6.768768768768768E8    -1.669251620769501E-1  -2.721436619758606E-1  -1.002718731760979E-1  -1.980432868003845E-1  -1.196551546454430E-1  -2.088265419006348E-1   3.872873187065125E-1   6.961563229560852E-1  
 6.792792792792792E8    -2.102055549621582E-1  -2.418439090251923E-1  -1.201116144657135E-1  -1.945610493421555E-1  -1.420196890830994E-1  -2.007399797439575E-1   4.579702019691467E-1   6.453943252563477E-1  
 6.816816816816816E8    -2.451038509607315E-1  -2.045428007841110E-1  -1.413621157407761E-1  -1.886332333087921E-1  -1.646839231252670E-1  -1.894242912530899E-1   5.218342542648315E-1   5.872329473495483E-1  
 6.840840840840840E8    -2.705347836017609E-1  -1.630607396364212E-1  -1.631632596254349E-1  -1.791781187057495E-1  -1.867299824953079E-1  -1.743137091398239E-1   5.788962244987488E-1   5.220247507095337E-1  
 6.864864864864864E8    -2.858790159225464E-1  -1.218563541769981E-1  -1.842605769634247E-1  -1.657548844814301E-1  -2.066166102886200E-1  -1.553288102149963E-1   6.285790205001831E-1   4.506419301033020E-1  
 6.888888888888888E8    -2.960839271545410E-1  -8.512320369482040E-2  -2.027432471513748E-1  -1.490083485841751E-1  -2.221816629171372E-1  -1.337584704160690E-1   6.709315180778503E-1   3.736040294170380E-1  
 6.912912912912912E8    -3.061743974685669E-1  -4.895663261413574E-2  -2.186975330114365E-1  -1.324758380651474E-1  -2.348546683788300E-1  -1.125010028481484E-1   7.044279575347900E-1   2.909972667694092E-1  
 6.936936936936936E8    -3.116908967494965E-1  -8.823223412036896E-3  -2.342305481433868E-1  -1.152527034282684E-1  -2.466639876365662E-1  -9.060230106115341E-2   7.272865176200867E-1   2.038668543100357E-1  
 6.960960960960960E8    -3.094981312751770E-1   3.168544918298721E-2  -2.497328370809555E-1  -9.587823599576950E-2  -2.573141753673554E-1  -6.684293597936630E-2   7.384428381919861E-1   1.145674511790276E-1  
 6.984984984984984E8    -3.001129329204559E-1   6.871586292982101E-2  -2.640516459941864E-1  -7.373569160699844E-2  -2.658187747001648E-1  -4.107358306646347E-2   7.379012107849121E-1   2.491035312414169E-2  
 7.009009009009008E8    -2.865152657032013E-1   9.942406415939331E-2  -2.760881185531616E-1  -4.809214174747467E-2  -2.712170481681824E-1  -1.379010733217001E-2   7.259874343872070E-1  -6.310258805751801E-2  
 7.033033033033032E8    -2.730149328708649E-1   1.245516464114189E-1  -2.845117449760437E-1  -1.870699599385262E-2  -2.730194926261902E-1   1.267010532319546E-2   7.033418416976929E-1  -1.466617137193680E-1  
 7.057057057057056E8    -2.616306841373444E-1   1.464346647262573E-1  -2.882816195487976E-1   1.253691501915455E-2  -2.712858021259308E-1   3.749776259064674E-2   6.709604263305664E-1  -2.238409370183945E-1  
 7.081081081081080E8    -2.526241540908814E-1   1.686301976442337E-1  -2.873538136482239E-1   4.479204863309860E-2  -2.665717601776123E-1   6.116141006350517E-2   6.292855143547058E-1  -2.963809370994568E-1  
 7.105105105105104E8    -2.457748800516129E-1   1.925330013036728E-1  -2.823072075843811E-1   7.477851212024689E-2  -2.593157887458801E-1   8.376540988683701E-2   5.784409642219544E-1  -3.627515435218811E-1  
 7.129129129129129E8    -2.392358332872391E-1   2.208785861730576E-1  -2.747838199138641E-1   1.018150970339775E-1  -2.499306201934815E-1   1.052979752421379E-1   5.183946490287781E-1  -4.218586385250092E-1  
 7.153153153153153E8    -2.283112406730652E-1   2.539022564888001E-1  -2.657189667224884E-1   1.264867484569550E-1  -2.390943318605423E-1   1.267577558755875E-1   4.508755207061768E-1  -4.723190665245056E-1  
 7.177177177177178E8    -2.104024142026901E-1   2.890849411487579E-1  -2.546402215957642E-1   1.499974131584168E-1  -2.262240350246429E-1   1.471871882677078E-1   3.769769072532654E-1  -5.129217505455017E-1  
 7.201201201201202E8    -1.849742531776428E-1   3.240189254283905E-1  -2.416156083345413E-1   1.732112318277359E-1  -2.131104469299316E-1   1.658680588006973E-1   2.994057238101959E-1  -5.423812866210938E-1  
 7.225225225225226E8    -1.518360227346420E-1   3.570432066917419E-1  -2.260549962520599E-1   1.964805722236633E-1  -2.007956057786942E-1   1.822889149188995E-1   2.208195477724075E-1  -5.594487786293030E-1  
 7.249249249249250E8    -1.107459589838982E-1   3.853550851345062E-1  -2.071675509214401E-1   2.210618704557419E-1  -1.896375715732575E-1   1.977675110101700E-1   1.438824236392975E-1  -5.631485581398010E-1  
 7.273273273273274E8    -6.502246856689453E-2   4.061880111694336E-1  -1.845807731151581E-1   2.445809245109558E-1  -1.763313859701157E-1   2.140376567840576E-1   7.031913101673126E-2  -5.561100244522095E-1  
 7.297297297297298E8    -1.793556660413742E-2   4.198933541774750E-1  -1.593973785638809E-1   2.643303871154785E-1  -1.591258794069290E-1   2.306646108627319E-1  -2.018394879996777E-4  -5.400734543800354E-1  
 7.321321321321322E8     2.922743000090122E-2   4.276040196418762E-1  -1.334284842014313E-1   2.790660858154297E-1  -1.382850408554077E-1   2.458492517471314E-1  -6.701907515525818E-2  -5.150919556617737E-1  
 7.345345345345346E8     7.626868039369583E-2   4.293947517871857E-1  -1.072638481855393E-1   2.900035977363586E-1  -1.150310933589935E-1   2.592042982578278E-1  -1.287163347005844E-1  -4.805436134338379E-1  
 7.369369369369370E8     1.230215132236481E-1   4.257943630218506E-1  -7.995010912418366E-2   2.974894344806671E-1  -8.996660262346268E-2   2.698451876640320E-1  -1.823052912950516E-1  -4.377459585666657E-1  
 7.393393393393394E8     1.694250702857971E-1   4.175565242767334E-1  -5.235666036605835E-2   3.015961647033691E-1  -6.467022001743317E-2   2.772623896598816E-1  -2.261683791875839E-1  -3.897639214992523E-1  
 7.417417417417418E8     2.154547423124313E-1   4.042243063449860E-1  -2.480214275419712E-2   3.026669621467590E-1  -4.012835025787354E-2   2.819513380527496E-1  -2.607949078083038E-1  -3.388795554637909E-1  
 7.441441441441442E8     2.604777216911316E-1   3.847551941871643E-1   1.772369840182364E-3   3.017645180225372E-1  -1.656640507280827E-2   2.849280238151550E-1  -2.869178056716919E-1  -2.862051725387573E-1  
 7.465465465465466E8     3.015388250350952E-1   3.594562411308289E-1   2.865701727569103E-2   2.991836071014404E-1   7.187283132225275E-3   2.867922484874725E-1  -3.047020733356476E-1  -2.327617257833481E-1  
 7.489489489489490E8     3.383751809597015E-1   3.307523727416992E-1   5.552667751908302E-2   2.936726510524750E-1   3.206158429384232E-2   2.861801683902741E-1  -3.141208887100220E-1  -1.793473660945892E-1  
 7.513513513513514E8     3.722820281982422E-1   2.992027997970581E-1   8.148605376482010E-2   2.848089039325714E-1   5.718977004289627E-2   2.822772562503815E-1  -3.146120011806488E-1  -1.271398365497589E-1  
 7.537537537537538E8     4.029283821582794E-1   2.639120817184448E-1   1.059806868433952E-1   2.723342180252075E-1   8.204554766416550E-2   2.747167050838471E-1  -3.077001869678497E-1  -7.867607474327087E-2  
 7.561561561561562E8     4.296902716159821E-1   2.265095561742783E-1   1.261361986398697E-1   2.582738697528839E-1   1.043888628482819E-1   2.635582685470581E-1  -2.965183854103088E-1  -3.507088869810104E-2  
 7.585585585585586E8     4.524395465850830E-1   1.870067417621613E-1   1.436593979597092E-1   2.440214604139328E-1   1.241157948970795E-1   2.517982423305512E-1  -2.820100784301758E-1   6.371574476361275E-3  
 7.609609609609610E8     4.716322720050812E-1   1.467110812664032E-1   1.599133908748627E-1   2.300938218832016E-1   1.424867510795593E-1   2.399879992008209E-1  -2.625772953033447E-1   4.654558002948761E-2  
 7.633633633633634E8     4.873339831829071E-1   1.055078878998756E-1   1.755858659744263E-1   2.152500897645950E-1   1.602266430854797E-1   2.276076227426529E-1  -2.369632571935654E-1   8.301088958978653E-2  
 7.657657657657658E8     5.003525018692017E-1   6.399027258157730E-2   1.895988583564758E-1   1.988901197910309E-1   1.772352010011673E-1   2.138790488243103E-1  -2.066474556922913E-1   1.145116910338402E-1  
 7.681681681681682E8     5.116953849792481E-1   2.125989645719528E-2   2.005553841590881E-1   1.820984333753586E-1   1.922654211521149E-1   1.989254504442215E-1  -1.728493273258209E-1   1.409438699483872E-1  
 7.705705705705706E8     5.190747976303101E-1  -2.387258037924767E-2   2.084291726350784E-1   1.662734299898148E-1   2.054261714220047E-1   1.840330511331558E-1  -1.346841156482697E-1   1.627196818590164E-1  
 7.729729729729730E8     5.206459164619446E-1  -7.172638922929764E-2   2.154082059860230E-1   1.518615633249283E-1   2.180680930614471E-1   1.710309684276581E-1  -9.126749634742737E-2   1.775879561901093E-1  
 7.753753753753754E8     5.166375637054443E-1  -1.190388724207878E-1   2.238207161426544E-1   1.390673667192459E-1   2.315054088830948E-1   1.572171002626419E-1  -4.535501077771187E-2   1.810244619846344E-1  
 7.777777777777778E8     5.076994895935059E-1  -1.639379858970642E-1   2.333679795265198E-1   1.256550401449204E-1   2.450074106454849E-1   1.414324641227722E-1  -2.331489697098732E-3   1.737323105335236E-1  
 7.801801801801802E8     4.964502453804016E-1  -2.057720273733139E-1   2.430951297283173E-1   1.108715012669563E-1   2.567984759807587E-1   1.233228519558907E-1   3.542236983776093E-2   1.582581996917725E-1  
 7.825825825825826E8     4.847323596477509E-1  -2.461175769567490E-1   2.521579265594482E-1   9.524406492710114E-2   2.658576071262360E-1   1.047671884298325E-1   6.616258621215820E-2   1.375861912965775E-1  
 7.849849849849850E8     4.724193513393402E-1  -2.869743108749390E-1   2.610748410224915E-1   7.869805395603180E-2   2.735299766063690E-1   8.681026846170425E-2   9.069560468196869E-2   1.140623614192009E-1  
 7.873873873873874E8     4.582372307777405E-1  -3.293158411979675E-1   2.696157991886139E-1   6.139542162418366E-2   2.803097963333130E-1   6.830783933401108E-2   1.094399541616440E-1   8.942910283803940E-2  
 7.897897897897898E8     4.393183290958405E-1  -3.731849193572998E-1   2.776823341846466E-1   4.315499961376190E-2   2.870952188968658E-1   4.895840585231781E-2   1.248264461755753E-1   6.478071957826614E-2  
 7.921921921921922E8     4.146535992622376E-1  -4.171651005744934E-1   2.846589684486389E-1   2.244532294571400E-2   2.942625880241394E-1   2.787997759878635E-2   1.376028358936310E-1   3.864381834864616E-2  
 7.945945945945946E8     3.848953843116760E-1  -4.600803554058075E-1   2.893664538860321E-1   1.471070718253031E-4   3.002362251281738E-1   4.393940791487694E-3   1.466201245784760E-1   1.085644867271185E-2  
 7.969969969969970E8     3.495675325393677E-1  -5.010821223258972E-1   2.922034263610840E-1  -2.359080314636231E-2   3.043821156024933E-1  -2.145544625818729E-2   1.513004750013351E-1  -1.931595616042614E-2  
 7.993993993993994E8     3.094698488712311E-1  -5.390455126762390E-1   2.913018465042114E-1  -4.870326444506645E-2   3.046970963478088E-1  -4.955650866031647E-2   1.493151634931564E-1  -5.017460137605667E-2  
 8.018018018018018E8     2.643023729324341E-1  -5.742806792259216E-1   2.868310213088989E-1  -7.280964404344559E-2   3.002652525901794E-1  -7.726908475160599E-2   1.405098587274551E-1  -7.909958809614182E-2  
 8.042042042042042E8     2.124899923801422E-1  -6.068132519721985E-1   2.803421318531036E-1  -9.543228894472122E-2   2.930779755115509E-1  -1.027887985110283E-1   1.265142858028412E-1  -1.039175540208817E-1  
 8.066066066066066E8     1.567843705415726E-1  -6.331951022148132E-1   2.733900249004364E-1  -1.167359203100205E-1   2.850939333438873E-1  -1.264631301164627E-1   1.095739901065826E-1  -1.233449056744576E-1  
 8.090090090090090E8     9.826557338237763E-2  -6.528285741806030E-1   2.655202448368073E-1  -1.380767673254013E-1   2.754436433315277E-1  -1.501630544662476E-1   9.115123003721237E-2  -1.376334875822067E-1  
 8.114114114114114E8     3.789767250418663E-2  -6.658070087432861E-1   2.561150789260864E-1  -1.599256098270416E-1   2.639668583869934E-1  -1.738191246986389E-1   7.321763783693314E-2  -1.475781351327896E-1  
 8.138138138138138E8    -2.289176173508167E-2  -6.723513007164002E-1   2.439154088497162E-1  -1.815892159938812E-1   2.490583062171936E-1  -1.969829499721527E-1   5.754135921597481E-2  -1.537580788135529E-1  
 8.162162162162162E8    -8.393841236829758E-2  -6.742044091224670E-1   2.292876243591309E-1  -2.021714001893997E-1   2.314038872718811E-1  -2.184290736913681E-1   4.425980895757675E-2  -1.587618291378021E-1  
 8.186186186186186E8    -1.457752138376236E-1  -6.702729463577271E-1   2.118310630321503E-1  -2.210643142461777E-1   2.106700539588928E-1  -2.374797165393829E-1   3.323027864098549E-2  -1.634746193885803E-1  
 8.210210210210210E8    -2.079560309648514E-1  -6.602172851562500E-1   1.928581744432449E-1  -2.373213917016983E-1   1.883582025766373E-1  -2.532224059104919E-1   2.376370504498482E-2  -1.708228588104248E-1  
 8.234234234234234E8    -2.695523500442505E-1  -6.439315676689148E-1   1.729155778884888E-1  -2.514623701572418E-1   1.654489785432816E-1  -2.661073803901672E-1   1.199835352599621E-2  -1.814951300621033E-1  
