#  HZ   S   RI   R     50.00 
! Rohde & Schwarz ZVB8 2Ports - Version 2.81 - 1145.1010k08 SN: 100113
! Date: 2016-03-12 02:41:09
! Measurements: S11 S21 S12 S22 
! 
 6.000000000000000E8    -6.967403292655945E-1  -5.224177241325378E-1   1.031050831079483E-2   6.019777059555054E-2   1.138269063085318E-2   5.879391357302666E-2  -4.971481561660767E-1  -7.584189772605896E-1  
 6.024024024024024E8    -7.402082085609436E-1  -4.506188333034515E-1   1.618520729243755E-2   6.159969046711922E-2   1.703562401235104E-2   5.989685282111168E-2  -5.617228150367737E-1  -7.084281444549561E-1  
 6.048048048048048E8    -7.765923738479614E-1  -3.740572035312653E-1   2.236521244049072E-2   6.248899549245834E-2   2.301635220646858E-2   6.046537309885025E-2  -6.217254996299744E-1  -6.527873277664185E-1  
 6.072072072072072E8    -8.058156371116638E-1  -2.933830022811890E-1   2.886702679097652E-2   6.270658969879150E-2   2.918000705540180E-2   6.045173481106758E-2  -6.762955188751221E-1  -5.918506383895874E-1  
 6.096096096096096E8    -8.271471261978149E-1  -2.094179540872574E-1   3.575675934553146E-2   6.231645122170448E-2   3.565596416592598E-2   5.991963669657707E-2  -7.253608703613281E-1  -5.254779458045960E-1  
 6.120120120120120E8    -8.386296033859253E-1  -1.259996891021729E-1   4.273977875709534E-2   6.118626520037651E-2   4.203058406710625E-2   5.873844400048256E-2  -7.671982645988464E-1  -4.559389650821686E-1  
 6.144144144144144E8    -8.412439227104187E-1  -4.163402318954468E-2   4.979383945465088E-2   5.925667285919190E-2   4.863754287362099E-2   5.692984908819199E-2  -8.022525310516357E-1  -3.822360038757324E-1  
 6.168168168168168E8    -8.349727392196655E-1   4.336222261190414E-2   5.689771473407745E-2   5.643621087074280E-2   5.513231083750725E-2   5.441324412822723E-2  -8.310608863830566E-1  -3.050941526889801E-1  
 6.192192192192192E8    -8.194037675857544E-1   1.267385780811310E-1   6.386320292949677E-2   5.288558080792427E-2   6.156163662672043E-2   5.113504827022553E-2  -8.524658679962158E-1  -2.248876243829727E-1  
 6.216216216216216E8    -7.944765686988831E-1   2.076632976531982E-1   7.061456888914108E-2   4.842762276530266E-2   6.784372031688690E-2   4.710593447089195E-2  -8.662143349647522E-1  -1.416573971509934E-1  
 6.240240240240240E8    -7.613421678543091E-1   2.838031053543091E-1   7.704111933708191E-2   4.300361871719360E-2   7.389672845602036E-2   4.213133081793785E-2  -8.715707659721375E-1  -5.710132792592049E-2  
 6.264264264264264E8    -7.214461565017700E-1   3.545937240123749E-1   8.260672539472580E-2   3.707108646631241E-2   7.935260981321335E-2   3.667233139276505E-2  -8.691270351409912E-1   2.680908329784870E-2  
 6.288288288288288E8    -6.757889389991760E-1   4.200599491596222E-1   8.749201148748398E-2   3.059200383722782E-2   8.414475619792938E-2   3.088298439979553E-2  -8.583624958992004E-1   1.094602197408676E-1  
 6.312312312312312E8    -6.262605786323547E-1   4.802509248256683E-1   9.162823855876923E-2   2.422198094427586E-2   8.820525556802750E-2   2.495063096284866E-2  -8.395930528640747E-1   1.906586885452271E-1  
 6.336336336336336E8    -5.717080831527710E-1   5.362891554832459E-1   9.570397436618805E-2   1.810767874121666E-2   9.241736680269241E-2   1.936611160635948E-2  -8.129155039787293E-1   2.703231871128082E-1  
 6.360360360360360E8    -5.109884142875671E-1   5.874309539794922E-1   1.001783683896065E-1   1.170376501977444E-2   9.700580686330795E-2   1.340099237859249E-2  -7.779080867767334E-1   3.467370569705963E-1  
 6.384384384384384E8    -4.443223476409912E-1   6.320206522941589E-1   1.048696562647820E-1   4.245024174451828E-3   1.018704995512962E-1   6.538182031363249E-3  -7.348244786262512E-1   4.190548062324524E-1  
 6.408408408408408E8    -3.729474842548370E-1   6.683877706527710E-1   1.091300398111343E-1  -4.295974504202604E-3   1.065605133771896E-1  -1.498518395237625E-3  -6.841145157814026E-1   4.866227507591248E-1  
 6.432432432432432E8    -2.981629371643066E-1   6.959255337715149E-1   1.128444150090218E-1  -1.399626396596432E-2   1.108014583587647E-1  -1.069367490708828E-2  -6.265668869018555E-1   5.479803085327148E-1  
 6.456456456456456E8    -2.224840968847275E-1   7.142274975776672E-1   1.153601408004761E-1  -2.477880567312241E-2   1.138549745082855E-1  -2.122508734464645E-2  -5.634153485298157E-1   6.029827594757080E-1  
 6.480480480480480E8    -1.473286896944046E-1   7.253719568252564E-1   1.163228154182434E-1  -3.575269505381584E-2   1.154115125536919E-1  -3.194341808557510E-2  -4.951204359531403E-1   6.510917544364929E-1  
 6.504504504504504E8    -7.158255577087402E-2   7.290962338447571E-1   1.167172044515610E-1  -4.637041687965393E-2   1.164310872554779E-1  -4.240636155009270E-2  -4.219730198383331E-1   6.919150948524475E-1  
 6.528528528528528E8     4.004973918199539E-3   7.240459918975830E-1   1.168281212449074E-1  -5.778685212135315E-2   1.174332201480866E-1  -5.383431166410446E-2  -3.447465598583221E-1   7.243430614471436E-1  
 6.552552552552552E8     7.673408091068268E-2   7.108073830604553E-1   1.158427596092224E-1  -6.998771429061890E-2   1.170772016048431E-1  -6.611787527799606E-2  -2.653536200523377E-1   7.475541830062866E-1  
 6.576576576576576E8     1.463927030563355E-1   6.902320981025696E-1   1.138156875967979E-1  -8.248484134674072E-2   1.160714402794838E-1  -7.870833575725555E-2  -1.846735775470734E-1   7.621825337409973E-1  
 6.600600600600600E8     2.126679718494415E-1   6.623224020004273E-1   1.105168759822846E-1  -9.625501930713654E-2   1.136594712734222E-1  -9.276907891035080E-2  -1.027713194489479E-1   7.673289179801941E-1  
 6.624624624624624E8     2.739159464836121E-1   6.284446716308594E-1   1.050818637013435E-1  -1.105150207877159E-1   1.089293137192726E-1  -1.074174121022224E-1  -2.233463525772095E-2   7.638809680938721E-1  
 6.648648648648648E8     3.303912281990051E-1   5.895013213157654E-1   9.763745218515396E-2  -1.245587393641472E-1   1.021746769547463E-1  -1.220601424574852E-1   5.580633878707886E-2   7.523785829544067E-1  
 6.672672672672672E8     3.811650872230530E-1   5.455502271652222E-1   8.849218487739563E-2  -1.383302062749863E-1   9.308824688196182E-2  -1.366449296474457E-1   1.312360018491745E-1   7.330465316772461E-1  
 6.696696696696696E8     4.254731833934784E-1   4.975703656673431E-1   7.686746865510941E-2  -1.513970196247101E-1   8.161214739084244E-2  -1.507108062505722E-1   2.027213424444199E-1   7.067446708679199E-1  
 6.720720720720720E8     4.631336033344269E-1   4.478945434093475E-1   6.285568326711655E-2  -1.630689501762390E-1   6.733024120330811E-2  -1.634324789047241E-1   2.703653872013092E-1   6.745782494544983E-1  
 6.744744744744744E8     4.957928955554962E-1   3.980042040348053E-1   4.720292612910271E-2  -1.723542064428330E-1   5.123595520853996E-2  -1.736528426408768E-1   3.347461223602295E-1   6.370484828948975E-1  
 6.768768768768768E8     5.250245332717896E-1   3.471133708953857E-1   3.108655847609043E-2  -1.794310510158539E-1   3.456313163042069E-2  -1.814270317554474E-1   3.955257833003998E-1   5.931860208511353E-1  
 6.792792792792792E8     5.505501031875610E-1   2.935155332088471E-1   1.470574270933867E-2  -1.852901279926300E-1   1.762516424059868E-2  -1.878428310155869E-1   4.512768387794495E-1   5.429823398590088E-1  
 6.816816816816816E8     5.705678462982178E-1   2.376492917537689E-1  -2.497876062989235E-3  -1.899853795766830E-1  -5.017305375076830E-4  -1.929112821817398E-1   5.016945004463196E-1   4.871597588062286E-1  
 6.840840840840840E8     5.842757821083069E-1   1.807165741920471E-1  -2.070915512740612E-2  -1.930898129940033E-1  -1.959854178130627E-2  -1.962739676237106E-1   5.460631251335144E-1   4.263338744640350E-1  
 6.864864864864864E8     5.922288298606873E-1   1.243792250752449E-1  -3.991201147437096E-2  -1.941332370042801E-1  -3.956327214837074E-2  -1.973122209310532E-1   5.840979814529419E-1   3.607129454612732E-1  
 6.888888888888888E8     5.960887670516968E-1   6.869893521070480E-2  -5.955439805984497E-2  -1.927167624235153E-1  -5.988914147019386E-2  -1.955935060977936E-1   6.157858967781067E-1   2.904877960681915E-1  
 6.912912912912912E8     5.948995947837830E-1   1.369820721447468E-2  -7.841318100690842E-2  -1.891594529151917E-1  -8.003343641757965E-2  -1.916151791810989E-1   6.397662162780762E-1   2.160898298025131E-1  
 6.936936936936936E8     5.893782377243042E-1  -3.997307270765305E-2  -9.687416255474091E-2  -1.839012801647186E-1  -9.981473535299301E-2  -1.851423680782318E-1   6.548442840576172E-1   1.382815539836884E-1  
 6.960960960960960E8     5.803154110908508E-1  -9.235990047454834E-2  -1.147366315126419E-1  -1.766005307435989E-1  -1.190637573599815E-1  -1.761633753776550E-1   6.605135798454285E-1   5.849685147404671E-2  
 6.984984984984984E8     5.681353211402893E-1  -1.444352120161057E-1  -1.314067244529724E-1  -1.673731654882431E-1  -1.369812190532684E-1  -1.649217605590820E-1   6.558067798614502E-1  -2.234224043786526E-2  
 7.009009009009008E8     5.521829128265381E-1  -1.966126114130020E-1  -1.468722671270371E-1  -1.562825739383698E-1  -1.527233570814133E-1  -1.519527584314346E-1   6.404024362564087E-1  -1.016389802098274E-1  
 7.033033033033032E8     5.308403372764587E-1  -2.495576888322830E-1  -1.609215140342712E-1  -1.432479768991470E-1  -1.652210503816605E-1  -1.388794928789139E-1   6.152400970458984E-1  -1.778043657541275E-1  
 7.057057057057056E8     5.028476119041443E-1  -3.015670180320740E-1  -1.734907478094101E-1  -1.295958608388901E-1  -1.754045337438583E-1  -1.272956430912018E-1   5.796945095062256E-1  -2.485531419515610E-1  
 7.081081081081080E8     4.676064550876617E-1  -3.516526222229004E-1  -1.859249174594879E-1  -1.152291744947434E-1  -1.854608803987503E-1  -1.156406030058861E-1   5.336236953735352E-1  -3.138409554958344E-1  
 7.105105105105104E8     4.265175163745880E-1  -3.970892131328583E-1  -1.968004852533341E-1  -1.000423356890678E-1  -1.950711011886597E-1  -1.029536649584770E-1   4.788855016231537E-1  -3.715800940990448E-1  
 7.129129129129129E8     3.807803094387054E-1  -4.369844198226929E-1  -2.057512402534485E-1  -8.524157851934433E-2  -2.040775865316391E-1  -8.878453820943832E-2   4.153369367122650E-1  -4.213836789131165E-1  
 7.153153153153153E8     3.309846818447113E-1  -4.703504443168640E-1  -2.135415375232697E-1  -7.131557166576386E-2  -2.126286625862122E-1  -7.360377162694931E-2   3.441209197044373E-1  -4.608802795410156E-1  
 7.177177177177178E8     2.784361243247986E-1  -4.973770081996918E-1  -2.209692895412445E-1  -5.743740126490593E-2  -2.208799719810486E-1  -5.774494260549545E-2   2.672722637653351E-1  -4.885035753250122E-1  
 7.201201201201202E8     2.231412827968597E-1  -5.192589759826660E-1  -2.289189249277115E-1  -4.243732243776321E-2  -2.293166816234589E-1  -4.169293865561485E-2   1.886168867349625E-1  -5.021162033081055E-1  
 7.225225225225226E8     1.649207323789597E-1  -5.355851650238037E-1  -2.370683103799820E-1  -2.427861467003822E-2  -2.375745624303818E-1  -2.504815720021725E-2   1.124367341399193E-1  -5.019438862800598E-1  
 7.249249249249250E8     1.042113527655602E-1  -5.447131395339966E-1  -2.436383962631226E-1  -2.275339327752590E-3  -2.447146177291870E-1  -8.064212277531624E-3   4.160466045141220E-2  -4.893924295902252E-1  
 7.273273273273274E8     4.410182312130928E-2  -5.468422174453735E-1  -2.473723143339157E-1   2.096741646528244E-2  -2.499281167984009E-1   1.070053316652775E-2  -2.318464778363705E-2  -4.668800532817841E-1  
 7.297297297297298E8    -1.441124454140663E-2  -5.427578687667847E-1  -2.484503984451294E-1   4.307882860302925E-2  -2.528865635395050E-1   3.163813427090645E-2  -8.152008801698685E-2  -4.362171292304993E-1  
 7.321321321321322E8    -7.099671661853790E-2  -5.319766998291016E-1  -2.476062476634979E-1   6.325742602348328E-2  -2.533350884914398E-1   5.406643077731133E-2  -1.331191062927246E-1  -3.985490500926971E-1  
 7.345345345345346E8    -1.250102519989014E-1  -5.154101848602295E-1  -2.459078133106232E-1   8.186604827642441E-2  -2.515884935855866E-1   7.697521150112152E-2  -1.763157844543457E-1  -3.549954593181610E-1  
 7.369369369369370E8    -1.773642003536224E-1  -4.928856790065765E-1  -2.434460371732712E-1   1.004016846418381E-1  -2.483733892440796E-1   1.001437082886696E-1  -2.106619030237198E-1  -3.080787360668182E-1  
 7.393393393393394E8    -2.268590927124023E-1  -4.646427929401398E-1  -2.402168512344360E-1   1.201654449105263E-1  -2.440139949321747E-1   1.232465058565140E-1  -2.369232475757599E-1  -2.594076693058014E-1  
 7.417417417417418E8    -2.727564573287964E-1  -4.309686124324799E-1  -2.356315851211548E-1   1.414632499217987E-1  -2.379773706197739E-1   1.469423621892929E-1  -2.558148801326752E-1  -2.094402611255646E-1  
 7.441441441441442E8    -3.143554329872131E-1  -3.921280801296234E-1  -2.281251251697540E-1   1.639548689126968E-1  -2.295175790786743E-1   1.707185208797455E-1  -2.671706378459930E-1  -1.581126451492310E-1  
 7.465465465465466E8    -3.507476449012756E-1  -3.485735058784485E-1  -2.183059304952622E-1   1.866424530744553E-1  -2.184587419033051E-1   1.938842236995697E-1  -2.691960334777832E-1  -1.062886640429497E-1  
 7.489489489489490E8    -3.809720277786255E-1  -3.010377585887909E-1  -2.057828307151794E-1   2.094940990209580E-1  -2.046527713537216E-1   2.170069664716721E-1  -2.611466646194458E-1  -5.702679231762886E-2  
 7.513513513513514E8    -4.045177698135376E-1  -2.503496408462524E-1  -1.892114430665970E-1   2.317657768726349E-1  -1.865633577108383E-1   2.391860336065292E-1  -2.452131211757660E-1  -1.319056376814842E-2  
 7.537537537537538E8    -4.214693903923035E-1  -1.979791969060898E-1  -1.689233332872391E-1   2.518917620182037E-1  -1.647044718265533E-1   2.585194110870361E-1  -2.240844070911408E-1   2.520989067852497E-2  
 7.561561561561562E8    -4.319176375865936E-1  -1.451310813426971E-1  -1.480995118618012E-1   2.686047852039337E-1  -1.405014693737030E-1   2.740343511104584E-1  -1.987135708332062E-1   5.834930762648583E-2  
 7.585585585585586E8    -4.352735579013825E-1  -9.244716912508011E-2  -1.262847185134888E-1   2.835273146629334E-1  -1.159818321466446E-1   2.866531610488892E-1  -1.691295355558395E-1   8.590771257877350E-2  
 7.609609609609610E8    -4.318795502185822E-1  -4.126819595694542E-2  -1.030883044004440E-1   2.969697415828705E-1  -9.111365675926209E-2   2.971121072769165E-1  -1.362191736698151E-1   1.062317043542862E-1  
 7.633633633633634E8    -4.226879477500916E-1   6.412464659661055E-3  -7.836338132619858E-2   3.082775175571442E-1  -6.654763221740723E-2   3.052980601787567E-1  -1.034709885716438E-1   1.185753419995308E-1  
 7.657657657657658E8    -4.100940227508545E-1   5.059180408716202E-2  -5.304793640971184E-2   3.177004158496857E-1  -4.213302582502365E-2   3.125177621841431E-1  -7.309950888156891E-2   1.257808506488800E-1  
 7.681681681681682E8    -3.943965733051300E-1   9.207515418529511E-2  -2.722093649208546E-2   3.251915872097015E-1  -1.692628674209118E-2   3.189626336097717E-1  -4.383958503603935E-2   1.303959935903549E-1  
 7.705705705705706E8    -3.752245306968689E-1   1.309959888458252E-1  -2.678308519534767E-4   3.306508660316467E-1   1.020237430930138E-2   3.246399462223053E-1  -1.394142303615809E-2   1.317762732505798E-1  
 7.729729729729730E8    -3.525636494159699E-1   1.678221076726914E-1   2.926417440176010E-2   3.332253396511078E-1   3.901612758636475E-2   3.284779489040375E-1   1.624697633087635E-2   1.283472329378128E-1  
 7.753753753753754E8    -3.275381922721863E-1   2.014979720115662E-1   5.961235240101814E-2   3.324155211448669E-1   6.951417773962021E-2   3.276953399181366E-1   4.476248845458031E-2   1.191087439656258E-1  
 7.777777777777778E8    -3.009463250637054E-1   2.325131744146347E-1   8.883491158485413E-2   3.279001712799072E-1   9.887120872735977E-2   3.218950629234314E-1   6.981179118156433E-2   1.056888401508331E-1  
 7.801801801801802E8    -2.726128399372101E-1   2.617109715938568E-1   1.161717623472214E-1   3.216320574283600E-1   1.257235705852509E-1   3.129887282848358E-1   9.209587424993515E-2   8.907052874565125E-2  
 7.825825825825826E8    -2.414948493242264E-1   2.895015180110931E-1   1.429806649684906E-1   3.140483796596527E-1   1.500018686056137E-1   3.021974861621857E-1   1.104359701275826E-1   6.946416199207306E-2  
 7.849849849849850E8    -2.067462205886841E-1   3.153452873229981E-1   1.699638664722443E-1   3.051241934299469E-1   1.722147017717362E-1   2.904037237167358E-1   1.243760660290718E-1   4.722364991903305E-2  
 7.873873873873874E8    -1.687654405832291E-1   3.369885683059692E-1   1.963596642017365E-1   2.944496273994446E-1   1.929453760385513E-1   2.775743901729584E-1   1.325573921203613E-1   2.516970038414002E-2  
 7.897897897897898E8    -1.283097267150879E-1   3.546046614646912E-1   2.223535776138306E-1   2.815251052379608E-1   2.137686312198639E-1   2.636403143405914E-1   1.386699676513672E-1   4.809813108295202E-3  
 7.921921921921922E8    -8.468155562877655E-2   3.683998286724091E-1   2.475822418928146E-1   2.655428051948547E-1   2.340337932109833E-1   2.492553889751434E-1   1.435744017362595E-1  -1.594527624547482E-2  
 7.945945945945946E8    -3.785533085465431E-2   3.770345151424408E-1   2.717848122119904E-1   2.472392767667770E-1   2.549784779548645E-1   2.340717762708664E-1   1.458654105663300E-1  -3.852469101548195E-2  
 7.969969969969970E8     1.103729289025068E-2   3.786331415176392E-1   2.949009835720062E-1   2.265461236238480E-1   2.762258946895599E-1   2.170971781015396E-1   1.423542499542236E-1  -6.054989993572235E-2  
 7.993993993993994E8     5.923827365040779E-2   3.729973137378693E-1   3.161188066005707E-1   2.030373066663742E-1   2.969173491001129E-1   1.969720870256424E-1   1.359717994928360E-1  -7.769539952278137E-2  
 8.018018018018018E8     1.062701344490051E-1   3.604476749897003E-1   3.352642059326172E-1   1.778950393199921E-1   3.162894248962402E-1   1.750416159629822E-1   1.317267119884491E-1  -9.172192215919495E-2  
 8.042042042042042E8     1.513413935899735E-1   3.425528109073639E-1   3.533902168273926E-1   1.505610346794128E-1   3.347724080085754E-1   1.507201343774796E-1   1.296197324991226E-1  -1.067292839288712E-1  
 8.066066066066066E8     1.933317780494690E-1   3.199723064899445E-1   3.695334792137146E-1   1.211619451642036E-1   3.510192930698395E-1   1.247047260403633E-1   1.270061433315277E-1  -1.249270439147949E-1  
 8.090090090090090E8     2.318753004074097E-1   2.919287383556366E-1   3.829963207244873E-1   8.992739766836166E-2   3.654507100582123E-1   9.670010209083557E-2   1.199668943881989E-1  -1.452473402023315E-1  
 8.114114114114114E8     2.655668258666992E-1   2.594310045242310E-1   3.938275277614594E-1   5.625986680388451E-2   3.775437176227570E-1   6.620957702398300E-2   1.087085232138634E-1  -1.632003039121628E-1  
 8.138138138138138E8     2.940793335437775E-1   2.240826040506363E-1   4.004484713077545E-1   2.088750898838043E-2   3.862520754337311E-1   3.387428075075150E-2   9.692393988370895E-2  -1.785939335823059E-1  
 8.162162162162162E8     3.180508613586426E-1   1.869846433401108E-1   4.035107493400574E-1  -1.530072744935751E-2   3.916768729686737E-1   2.724881342146546E-4   8.497576415538788E-2  -1.936383247375488E-1  
 8.186186186186186E8     3.384538590908051E-1   1.484539806842804E-1   4.021750986576080E-1  -5.166868492960930E-2   3.931574523448944E-1  -3.397413343191147E-2   7.204608619213104E-2  -2.095227986574173E-1  
 8.210210210210210E8     3.549284338951111E-1   1.071157082915306E-1   3.967445194721222E-1  -8.745727688074112E-2   3.911907374858856E-1  -6.822771579027176E-2   5.595104023814201E-2  -2.264082878828049E-1  
 8.234234234234234E8     3.667654395103455E-1   6.371986120939255E-2   3.877953588962555E-1  -1.224135756492615E-1   3.858760595321655E-1  -1.021114885807037E-1   3.576971590518951E-2  -2.420024722814560E-1  
