#  HZ   S   RI   R     50.00 
! Rohde & Schwarz ZVB8 2Ports - Version 2.81 - 1145.1010k08 SN: 100113
! Date: 2016-03-12 02:53:47
! Measurements: S11 S21 S12 S22 
! 
 6.000000000000000E8    -6.888079047203064E-1  -5.220700502395630E-1   1.070157531648874E-2   6.673337519168854E-2   1.167360693216324E-2   6.537310779094696E-2  -5.240467786788940E-1  -7.353619337081909E-1  
 6.024024024024024E8    -7.323715090751648E-1  -4.502928853034973E-1   1.757267490029335E-2   6.856334954500198E-2   1.834688335657120E-2   6.687255948781967E-2  -5.873933434486389E-1  -6.812820434570313E-1  
 6.048048048048048E8    -7.684351801872253E-1  -3.735829293727875E-1   2.506996132433415E-2   6.962627172470093E-2   2.563858218491077E-2   6.765499711036682E-2  -6.453534364700317E-1  -6.213517189025879E-1  
 6.072072072072072E8    -7.964565157890320E-1  -2.937562763690949E-1   3.290871903300285E-2   6.954655796289444E-2   3.316495940089226E-2   6.723871827125549E-2  -6.972305774688721E-1  -5.564513802528381E-1  
 6.096096096096096E8    -8.166769146919251E-1  -2.116401046514511E-1   4.076527431607246E-2   6.819029897451401E-2   4.052145034074783E-2   6.585256010293961E-2  -7.434402704238892E-1  -4.864589869976044E-1  
 6.120120120120120E8    -8.284068703651428E-1  -1.306334882974625E-1   4.788814485073090E-2   6.624308228492737E-2   4.715852811932564E-2   6.401926279067993E-2  -7.818162441253662E-1  -4.134356379508972E-1  
 6.144144144144144E8    -8.325912952423096E-1  -4.818698391318321E-2   5.465941876173019E-2   6.401380151510239E-2   5.340894684195519E-2   6.184036657214165E-2  -8.133565783500671E-1  -3.367875814437866E-1  
 6.168168168168168E8    -8.282749056816101E-1   3.564898669719696E-2   6.155715882778168E-2   6.161576136946678E-2   5.983576923608780E-2   5.968593060970306E-2  -8.382242321968079E-1  -2.563661932945252E-1  
 6.192192192192192E8    -8.142853379249573E-1   1.191251426935196E-1   6.873419880867004E-2   5.887975916266441E-2   6.655738502740860E-2   5.726410821080208E-2  -8.549941778182983E-1  -1.726265549659729E-1  
 6.216216216216216E8    -7.909596562385559E-1   2.003187239170075E-1   7.648957520723343E-2   5.545954033732414E-2   7.383703440427780E-2   5.428069829940796E-2  -8.635159134864807E-1  -8.602523058652878E-2  
 6.240240240240240E8    -7.589676380157471E-1   2.775260806083679E-1   8.447853475809097E-2   5.125982314348221E-2   8.154622465372086E-2   5.043968558311462E-2  -8.623132109642029E-1   1.894456800073385E-3  
 6.264264264264264E8    -7.187657952308655E-1   3.500089943408966E-1   9.274604916572571E-2   4.574991017580032E-2   8.949749171733856E-2   4.544003307819367E-2  -8.513301014900208E-1   8.869029581546783E-2  
 6.288288288288288E8    -6.713129878044128E-1   4.163659811019898E-1   1.007069647312164E-1   3.916707634925842E-2   9.740272909402847E-2   3.941168263554573E-2  -8.314496278762817E-1   1.722963303327560E-1  
 6.312312312312312E8    -6.183662414550781E-1   4.755712747573853E-1   1.084185242652893E-1   3.144413977861404E-2   1.050361096858978E-1   3.212434425950050E-2  -8.032138347625732E-1   2.532983422279358E-1  
 6.336336336336336E8    -5.611303448677063E-1   5.269938707351685E-1   1.155427470803261E-1   2.225570380687714E-2   1.123672798275948E-1   2.356503717601299E-2  -7.661980986595154E-1   3.307195305824280E-1  
 6.360360360360360E8    -5.020390152931213E-1   5.718449950218201E-1   1.216724365949631E-1   1.201321929693222E-2   1.186906471848488E-1   1.370887178927660E-2  -7.210582494735718E-1   4.032681286334992E-1  
 6.384384384384384E8    -4.402617514133453E-1   6.114844679832459E-1   1.267626881599426E-1   8.697457378730178E-4   1.242235302925110E-1   3.016553586348891E-3  -6.681029796600342E-1   4.702078700065613E-1  
 6.408408408408408E8    -3.751341104507446E-1   6.455549597740173E-1   1.309455186128616E-1  -1.136563718318939E-2   1.286968290805817E-1  -8.743535727262497E-3  -6.082222461700440E-1   5.306050181388855E-1  
 6.432432432432432E8    -3.077890574932098E-1   6.733495593070984E-1   1.334461569786072E-1  -2.442974224686623E-2   1.316228955984116E-1  -2.135039679706097E-2  -5.423517823219299E-1   5.833080410957336E-1  
 6.456456456456456E8    -2.386977672576904E-1   6.959468722343445E-1   1.343766897916794E-1  -3.698523342609406E-2   1.330458521842957E-1  -3.399965912103653E-2  -4.713900685310364E-1   6.284691691398621E-1  
 6.480480480480480E8    -1.664594113826752E-1   7.121704816818237E-1   1.350661367177963E-1  -4.939614608883858E-2   1.341046541929245E-1  -4.632736742496491E-2  -3.963251113891602E-1   6.654261946678162E-1  
 6.504504504504504E8    -9.191597998142242E-2   7.200517058372498E-1   1.356764435768127E-1  -6.268984079360962E-2   1.352618932723999E-1  -5.957857146859169E-2  -3.173797130584717E-1   6.930211782455444E-1  
 6.528528528528528E8    -1.798604801297188E-2   7.185811400413513E-1   1.350213140249252E-1  -7.782183587551117E-2   1.350645571947098E-1  -7.448283582925797E-2  -2.367561012506485E-1   7.101306915283203E-1  
 6.552552552552552E8     5.314820632338524E-2   7.091299891471863E-1   1.319831609725952E-1  -9.374534338712692E-2   1.326690465211868E-1  -9.025065600872040E-2  -1.571266353130341E-1   7.172878384590149E-1  
 6.576576576576576E8     1.210530772805214E-1   6.939076185226440E-1   1.268852055072784E-1  -1.093024164438248E-1   1.280412226915360E-1  -1.058751791715622E-1  -7.904251664876938E-2   7.156001329421997E-1  
 6.600600600600600E8     1.878821551799774E-1   6.725734472274780E-1   1.198918744921684E-1  -1.248989328742027E-1   1.218478828668594E-1  -1.213928833603859E-1  -2.852394478395581E-3   7.059068083763123E-1  
 6.624624624624624E8     2.515352666378021E-1   6.452290415763855E-1   1.111156493425369E-1  -1.400143951177597E-1   1.136479228734970E-1  -1.367973983287811E-1   7.042009383440018E-2   6.889094114303589E-1  
 6.648648648648648E8     3.123983144760132E-1   6.122413277626038E-1   1.002524569630623E-1  -1.543731838464737E-1   1.033369004726410E-1  -1.513826102018356E-1   1.397712826728821E-1   6.651521921157837E-1  
 6.672672672672672E8     3.699317276477814E-1   5.734372735023499E-1   8.861531317234039E-2  -1.673624068498612E-1   9.195299446582794E-2  -1.646001338958740E-1   2.059084624052048E-1   6.356613039970398E-1  
 6.696696696696696E8     4.234211742877960E-1   5.284667015075684E-1   7.612089067697525E-2  -1.797109246253967E-1   7.972163707017899E-2  -1.774950176477432E-1   2.684946656227112E-1   5.991482138633728E-1  
 6.720720720720720E8     4.715955853462219E-1   4.776307046413422E-1   6.274745613336563E-2  -1.919659525156021E-1   6.627950072288513E-2  -1.904160976409912E-1   3.265376985073090E-1   5.556568503379822E-1  
 6.744744744744744E8     5.133533477783203E-1   4.212591946125031E-1   4.757665842771530E-2  -2.041233181953430E-1   5.118998140096664E-2  -2.030880600214005E-1   3.774490952491760E-1   5.063045024871826E-1  
 6.768768768768768E8     5.469849705696106E-1   3.603930473327637E-1   3.032667562365532E-2  -2.161083221435547E-1   3.414528816938400E-2  -2.157246768474579E-1   4.216910600662231E-1   4.524466693401337E-1  
 6.792792792792792E8     5.714511871337891E-1   2.979234457015991E-1   1.017821021378040E-2  -2.277414500713348E-1   1.396098081022501E-2  -2.278232127428055E-1   4.584806263446808E-1   3.949712514877319E-1  
 6.816816816816816E8     5.875056982040405E-1   2.360113561153412E-1  -1.341001037508249E-2  -2.373917400836945E-1  -9.964880533516407E-3  -2.379869222640991E-1   4.879509508609772E-1   3.352154791355133E-1  
 6.840840840840840E8     5.971318483352661E-1   1.754176765680313E-1  -3.969034180045128E-2  -2.436980158090591E-1  -3.667007014155388E-2  -2.447599619626999E-1   5.108552575111389E-1   2.739498913288117E-1  
 6.864864864864864E8     6.004921197891235E-1   1.169391870498657E-1  -6.789954006671906E-2  -2.464396804571152E-1  -6.536086648702622E-2  -2.478926479816437E-1   5.277483463287354E-1   2.116346657276154E-1  
 6.888888888888888E8     5.991488099098206E-1   6.098404526710510E-2  -9.723006933927536E-2  -2.452050745487213E-1  -9.499766677618027E-2  -2.467677295207977E-1   5.386301875114441E-1   1.468443423509598E-1  
 6.912912912912912E8     5.933081507682800E-1   7.589487824589014E-3  -1.270110160112381E-1  -2.408311814069748E-1  -1.254725754261017E-1  -2.422751039266586E-1   5.412224531173706E-1   8.034922927618027E-2  
 6.936936936936936E8     5.845219492912293E-1  -4.224343225359917E-2  -1.578324884176254E-1  -2.326728105545044E-1  -1.576719582080841E-1  -2.332337945699692E-1   5.350816249847412E-1   1.480565872043371E-2  
 6.960960960960960E8     5.741440653800964E-1  -8.993701636791229E-2  -1.888175755739212E-1  -2.186135351657867E-1  -1.900569647550583E-1  -2.178400605916977E-1   5.211872458457947E-1  -4.839068651199341E-2  
 6.984984984984984E8     5.629653930664063E-1  -1.371465772390366E-1  -2.180375158786774E-1  -1.989993155002594E-1  -2.205422520637512E-1  -1.962031126022339E-1   5.000715255737305E-1  -1.083751469850540E-1  
 7.009009009009008E8     5.501245856285095E-1  -1.854397952556610E-1  -2.436080425977707E-1  -1.731008738279343E-1  -2.462034076452255E-1  -1.686409860849381E-1   4.730385839939117E-1  -1.647988110780716E-1  
 7.033033033033032E8     5.337923765182495E-1  -2.358245104551315E-1  -2.639306783676148E-1  -1.425167471170425E-1  -2.651640474796295E-1  -1.393250375986099E-1   4.400356411933899E-1  -2.167247384786606E-1  
 7.057057057057056E8     5.115643143653870E-1  -2.879223227500916E-1  -2.782090902328491E-1  -1.092305779457092E-1  -2.777273058891296E-1  -1.101574674248695E-1   4.021394550800324E-1  -2.633613944053650E-1  
 7.081081081081080E8     4.814701676368713E-1  -3.407426774501801E-1  -2.869785428047180E-1  -7.523732632398605E-2  -2.856521606445313E-1  -8.147099614143372E-2   3.579840064048767E-1  -3.063791692256928E-1  
 7.105105105105104E8     4.442873001098633E-1  -3.907272815704346E-1  -2.906489670276642E-1  -4.307682067155838E-2  -2.900819182395935E-1  -5.304750055074692E-2   3.072703778743744E-1  -3.440607786178589E-1  
 7.129129129129129E8     4.009485244750977E-1  -4.362647831439972E-1  -2.898543179035187E-1  -1.404324080795050E-2  -2.910147905349731E-1  -2.449806779623032E-2   2.494606822729111E-1  -3.751831352710724E-1  
 7.153153153153153E8     3.508374989032745E-1  -4.770896136760712E-1  -2.863499820232391E-1   1.130411308258772E-2  -2.892260253429413E-1   3.377859480679035E-3   1.849714666604996E-1  -3.980167508125305E-1  
 7.177177177177178E8     2.940708994865418E-1  -5.112431645393372E-1  -2.818371057510376E-1   3.386678546667099E-2  -2.856676578521729E-1   2.945894002914429E-2   1.148747950792313E-1  -4.097030758857727E-1  
 7.201201201201202E8     2.313950657844544E-1  -5.362226366996765E-1  -2.770678400993347E-1   5.592543259263039E-2  -2.816635668277741E-1   5.411141365766525E-2   4.274640604853630E-2  -4.070376157760620E-1  
 7.225225225225226E8     1.660576760768890E-1  -5.519192218780518E-1  -2.715043127536774E-1   7.917602360248566E-2  -2.774938941001892E-1   7.658312469720841E-2  -2.623337693512440E-2  -3.901021778583527E-1  
 7.249249249249250E8     1.003758087754250E-1  -5.585949420928955E-1  -2.645500898361206E-1   1.041780710220337E-1  -2.735357284545898E-1   9.756335616111755E-2  -8.853121101856232E-2  -3.595311939716339E-1  
 7.273273273273274E8     3.619100525975227E-2  -5.570938587188721E-1  -2.554004490375519E-1   1.292816996574402E-1  -2.680962383747101E-1   1.195726394653320E-1  -1.418211758136749E-1  -3.175554573535919E-1  
 7.297297297297298E8    -2.512529119849205E-2  -5.480275154113770E-1  -2.450507432222366E-1   1.528517007827759E-1  -2.601784169673920E-1   1.438755840063095E-1  -1.835749745368958E-1  -2.665446698665619E-1  
 7.321321321321322E8    -8.246336877346039E-2  -5.319020748138428E-1  -2.330406755208969E-1   1.747652292251587E-1  -2.482135742902756E-1   1.700999289751053E-1  -2.121450603008270E-1  -2.105041891336441E-1  
 7.345345345345346E8    -1.352447271347046E-1  -5.096253156661987E-1  -2.192569524049759E-1   1.955598443746567E-1  -2.318447083234787E-1   1.969779133796692E-1  -2.265807390213013E-1  -1.534176915884018E-1  
 7.369369369369370E8    -1.837302595376968E-1  -4.825447201728821E-1  -2.018496990203857E-1   2.158343344926834E-1  -2.101568430662155E-1   2.224673330783844E-1  -2.291404157876968E-1  -1.007404252886772E-1  
 7.393393393393394E8    -2.285321503877640E-1  -4.520808756351471E-1  -1.803208589553833E-1   2.338114678859711E-1  -1.842754334211350E-1   2.439249902963638E-1  -2.251225411891937E-1  -5.409853905439377E-2  
 7.417417417417418E8    -2.696059644222260E-1  -4.181526899337769E-1  -1.559809893369675E-1   2.477433681488037E-1  -1.561968922615051E-1   2.594158351421356E-1  -2.171917110681534E-1  -1.052901241928339E-2  
 7.441441441441442E8    -3.081128895282745E-1  -3.801544308662415E-1  -1.307371705770493E-1   2.574336826801300E-1  -1.280995160341263E-1   2.692911922931671E-1  -2.036853432655335E-1   3.158621117472649E-2  
 7.465465465465466E8    -3.419968783855438E-1  -3.363973796367645E-1  -1.063516885042191E-1   2.634165585041046E-1  -1.015640422701836E-1   2.746107578277588E-1  -1.840131580829620E-1   7.052119076251984E-2  
 7.489489489489490E8    -3.682478070259094E-1  -2.880274653434753E-1  -8.369439095258713E-2   2.669449746608734E-1  -7.726113498210907E-2   2.768636047840118E-1  -1.589905023574829E-1   1.055026873946190E-1  
 7.513513513513514E8    -3.855656087398529E-1  -2.384352982044220E-1  -6.192337721586227E-2   2.689927518367767E-1  -5.391317233443260E-2   2.773703634738922E-1  -1.285888552665710E-1   1.364304125308991E-1  
 7.537537537537538E8    -3.966239988803864E-1  -1.903711408376694E-1  -4.044675827026367E-2   2.690390944480896E-1  -3.140985965728760E-2   2.756284773349762E-1  -9.284465759992600E-2   1.623724550008774E-1  
 7.561561561561562E8    -4.020543992519379E-1  -1.443979293107987E-1  -2.225781977176666E-2   2.675011754035950E-1  -1.075179595500231E-2   2.715672850608826E-1  -5.165855213999748E-2   1.815315037965775E-1  
 7.585585585585586E8    -4.037269949913025E-1  -1.010070741176605E-1  -5.544566083699465E-3   2.663989365100861E-1   7.696188520640135E-3   2.672421336174011E-1  -6.461780983954668E-3   1.910950392484665E-1  
 7.609609609609610E8    -4.033562541007996E-1  -5.912658572196960E-2   1.121547166258097E-2   2.656358778476715E-1   2.489389479160309E-2   2.631665766239166E-1   3.832194954156876E-2   1.897975057363510E-1  
 7.633633633633634E8    -4.004060029983521E-1  -1.726211234927177E-2   2.791764214634895E-2   2.643949687480927E-1   4.078409075737000E-2   2.587886452674866E-1   7.905212044715881E-2   1.802491843700409E-1  
 7.657657657657658E8    -3.935238718986511E-1   2.509273774921894E-2   4.435370862483978E-2   2.632680535316467E-1   5.609407275915146E-2   2.554628252983093E-1   1.157166361808777E-1   1.651610583066940E-1  
 7.681681681681682E8    -3.812723755836487E-1   6.682449579238892E-2   6.105554848909378E-2   2.619388401508331E-1   7.173129916191101E-2   2.528718411922455E-1   1.481934487819672E-1   1.455283015966415E-1  
 7.705705705705706E8    -3.624970614910126E-1   1.055761426687241E-1   7.837251573801041E-2   2.596567273139954E-1   8.874896168708801E-2   2.499163746833801E-1   1.764601469039917E-1   1.222590804100037E-1  
 7.729729729729730E8    -3.380445837974548E-1   1.398403644561768E-1   9.645159542560577E-2   2.553816437721252E-1   1.059233173727989E-1   2.464162558317184E-1   2.010401338338852E-1   9.647711366415024E-2  
 7.753753753753754E8    -3.110179901123047E-1   1.652995795011520E-1   1.144049912691116E-1   2.506021857261658E-1   1.235474124550819E-1   2.415376454591751E-1   2.221751362085342E-1   6.792192161083221E-2  
 7.777777777777778E8    -2.890939116477966E-1   1.836847215890884E-1   1.327357292175293E-1   2.454018890857697E-1   1.415103822946549E-1   2.352104783058167E-1   2.392939925193787E-1   3.599643707275391E-2  
 7.801801801801802E8    -2.726532816886902E-1   2.018559724092484E-1   1.519759893417358E-1   2.386804223060608E-1   1.596603691577911E-1   2.262887954711914E-1   2.504752278327942E-1   1.402106485329568E-3  
 7.825825825825826E8    -2.591485083103180E-1   2.235160320997238E-1   1.711763590574265E-1   2.297517955303192E-1   1.759446114301682E-1   2.148980200290680E-1   2.556920051574707E-1  -3.297991305589676E-2  
 7.849849849849850E8    -2.452114373445511E-1   2.495697736740112E-1   1.894519329071045E-1   2.191676497459412E-1   1.894934475421906E-1   2.025506943464279E-1   2.566322386264801E-1  -6.620416045188904E-2  
 7.873873873873874E8    -2.284704148769379E-1   2.802341580390930E-1   2.064309120178223E-1   2.083746194839478E-1   2.012209147214890E-1   1.901472061872482E-1   2.540535330772400E-1  -9.952883422374725E-2  
 7.897897897897898E8    -2.043089121580124E-1   3.147301673889160E-1   2.232118248939514E-1   1.969865411520004E-1   2.126085013151169E-1   1.783902943134308E-1   2.473085969686508E-1  -1.328679621219635E-1  
 7.921921921921922E8    -1.694859713315964E-1   3.496375083923340E-1   2.403705418109894E-1   1.841048449277878E-1   2.250160872936249E-1   1.672160625457764E-1   2.363141626119614E-1  -1.658719480037689E-1  
 7.945945945945946E8    -1.247420012950897E-1   3.786572813987732E-1   2.572036683559418E-1   1.691978126764298E-1   2.382734119892120E-1   1.553252786397934E-1   2.203638553619385E-1  -1.973204463720322E-1  
 7.969969969969970E8    -7.396444678306580E-2   3.996749818325043E-1   2.736141681671143E-1   1.525911092758179E-1   2.522080838680267E-1   1.422999650239945E-1   2.001497298479080E-1  -2.263111621141434E-1  
 7.993993993993994E8    -1.977234520018101E-2   4.126514494419098E-1   2.888523638248444E-1   1.342760622501373E-1   2.661759555339813E-1   1.276222765445709E-1   1.759958118200302E-1  -2.516255676746368E-1  
 8.018018018018018E8     3.793750330805779E-2   4.172044098377228E-1   3.034829795360565E-1   1.141737550497055E-1   2.800454199314117E-1   1.114115864038467E-1   1.487379670143127E-1  -2.728657424449921E-1  
 8.042042042042042E8     9.786236286163330E-2   4.129544198513031E-1   3.178964853286743E-1   9.202216565608978E-2   2.942003011703491E-1   9.347888827323914E-2   1.196670234203339E-1  -2.897354960441589E-1  
 8.066066066066066E8     1.563521474599838E-1   3.993811011314392E-1   3.309834003448486E-1   6.754349917173386E-2   3.076508045196533E-1   7.370378077030182E-2   8.967007696628571E-2  -3.007757663726807E-1  
 8.090090090090090E8     2.125089168548584E-1   3.769301772117615E-1   3.423946201801300E-1   4.044252261519432E-2   3.204523324966431E-1   5.115712061524391E-2   6.086187809705734E-2  -3.067115247249603E-1  
 8.114114114114114E8     2.647629082202911E-1   3.454986810684204E-1   3.509945869445801E-1   1.025445200502873E-2   3.313917815685272E-1   2.548656053841114E-2   3.513978794217110E-2  -3.088599443435669E-1  
 8.138138138138138E8     3.111755847930908E-1   3.071791827678680E-1   3.551526069641113E-1  -2.160690538585186E-2   3.387089371681213E-1  -2.792716724798083E-3   1.247873902320862E-2  -3.105176687240601E-1  
 8.162162162162162E8     3.514197766780853E-1   2.630880177021027E-1   3.550977110862732E-1  -5.388006567955017E-2   3.424180448055267E-1  -3.179935738444328E-2  -9.111047722399235E-3  -3.123321831226349E-1  
 8.186186186186186E8     3.851840794086456E-1   2.144565731287003E-1   3.512294292449951E-1  -8.534419536590576E-2   3.430224955081940E-1  -6.097169592976570E-2  -3.050596266984940E-2  -3.144064247608185E-1  
 8.210210210210210E8     4.121740162372589E-1   1.612328290939331E-1   3.443422317504883E-1  -1.156903803348541E-1   3.409436643123627E-1  -9.012286365032196E-2  -5.196442827582359E-2  -3.166386783123016E-1  
 8.234234234234234E8     4.316128492355347E-1   1.046350896358490E-1   3.351235091686249E-1  -1.451009362936020E-1   3.365933895111084E-1  -1.193596497178078E-1  -7.472681254148483E-2  -3.185639977455139E-1  
