#  HZ   S   RI   R     50.00 
! Rohde & Schwarz ZVB8 2Ports - Version 2.81 - 1145.1010k08 SN: 100113
! Date: 2016-03-12 03:21:34
! Measurements: S11 S21 S12 S22 
! 
 6.000000000000000E8    -6.974778175354004E-1  -5.182115435600281E-1   2.269247174263001E-2   9.402804076671600E-2   2.337328530848026E-2   9.341977536678314E-2  -6.286629438400269E-1  -5.736499428749085E-1  
 6.024024024024024E8    -7.397429347038269E-1  -4.453211426734924E-1   3.357937559485436E-2   9.632605314254761E-2   3.412343561649323E-2   9.553571045398712E-2  -6.789333224296570E-1  -4.994018971920013E-1  
 6.048048048048048E8    -7.743433713912964E-1  -3.679571449756622E-1   4.529441520571709E-2   9.720080345869064E-2   4.583773389458656E-2   9.619100391864777E-2  -7.205632925033569E-1  -4.198762476444244E-1  
 6.072072072072072E8    -8.014894127845764E-1  -2.876718938350678E-1   5.741973593831062E-2   9.659063071012497E-2   5.802339687943459E-2   9.545615315437317E-2  -7.537015676498413E-1  -3.356748521327972E-1  
 6.096096096096096E8    -8.209291696548462E-1  -2.051352858543396E-1   6.979028880596161E-2   9.443850070238113E-2   7.025273144245148E-2   9.320401400327683E-2  -7.770898938179016E-1  -2.470674216747284E-1  
 6.120120120120120E8    -8.321192264556885E-1  -1.236966177821159E-1   8.171433955430985E-2   9.130603075027466E-2   8.201484382152557E-2   9.001895040273666E-2  -7.888113856315613E-1  -1.572138369083405E-1  
 6.144144144144144E8    -8.352764248847961E-1  -4.007387161254883E-2   9.388379752635956E-2   8.727519214153290E-2   9.388604760169983E-2   8.608914911746979E-2  -7.897176742553711E-1  -6.493609398603439E-2  
 6.168168168168168E8    -8.291928768157959E-1   4.433059319853783E-2   1.068700104951859E-1   8.233093470335007E-2   1.066929921507835E-1   8.124766498804092E-2  -7.784338593482971E-1   2.791939675807953E-2  
 6.192192192192192E8    -8.132999539375305E-1   1.272195875644684E-1   1.204675137996674E-1   7.544656842947006E-2   1.201987564563751E-1   7.428193092346191E-2  -7.541496157646179E-1   1.193539723753929E-1  
 6.216216216216216E8    -7.882895469665527E-1   2.079491168260574E-1   1.344877332448959E-1   6.636226922273636E-2   1.341045796871185E-1   6.521310657262802E-2  -7.170687913894653E-1   2.069623619318008E-1  
 6.240240240240240E8    -7.543747425079346E-1   2.843539714813232E-1   1.486087739467621E-1   5.446248874068260E-2   1.480260193347931E-1   5.323858186602593E-2  -6.677836775779724E-1   2.879099845886231E-1  
 6.264264264264264E8    -7.129167318344116E-1   3.545336425304413E-1   1.613896042108536E-1   3.971628844738007E-2   1.607275605201721E-1   3.814198821783066E-2  -6.082287430763245E-1   3.596379160881043E-1  
 6.288288288288288E8    -6.655325889587402E-1   4.183985590934753E-1   1.722704917192459E-1   2.256457880139351E-2   1.712544262409210E-1   2.063930965960026E-2  -5.412977337837219E-1   4.202870726585388E-1  
 6.312312312312312E8    -6.139341592788696E-1   4.755668342113495E-1   1.804596334695816E-1   3.668537596240640E-3   1.790285408496857E-1   1.452037133276463E-3  -4.679374992847443E-1   4.707772135734558E-1  
 6.336336336336336E8    -5.591065883636475E-1   5.270876884460449E-1   1.865875869989395E-1  -1.579632610082626E-2   1.845430433750153E-1  -1.843626052141190E-2  -3.884911239147186E-1   5.108361244201660E-1  
 6.360360360360360E8    -5.001802444458008E-1   5.736973881721497E-1   1.912726163864136E-1  -3.615303337574005E-2   1.883886009454727E-1  -3.901396691799164E-2  -3.037869334220886E-1   5.381212830543518E-1  
 6.384384384384384E8    -4.364294409751892E-1   6.142122745513916E-1   1.943483054637909E-1  -5.810898914933205E-2   1.906829178333283E-1  -6.102479994297028E-2  -2.165939360857010E-1   5.511051416397095E-1  
 6.408408408408408E8    -3.692243397235870E-1   6.469011306762695E-1   1.950068026781082E-1  -8.245825022459030E-2   1.900627017021179E-1  -8.500677347183228E-2  -1.298617720603943E-1   5.493057370185852E-1  
 6.432432432432432E8    -3.004941642284393E-1   6.722325682640076E-1   1.916958689689636E-1  -1.081229150295258E-1   1.854567974805832E-1  -1.099512353539467E-1  -4.727326333522797E-2   5.338711738586426E-1  
 6.456456456456456E8    -2.317437827587128E-1   6.908595561981201E-1   1.839907914400101E-1  -1.333585530519486E-1   1.764758974313736E-1  -1.341870874166489E-1   2.932211570441723E-2   5.067850351333618E-1  
 6.480480480480480E8    -1.622097194194794E-1   7.036972641944885E-1   1.733877211809158E-1  -1.569398194551468E-1   1.649188101291657E-1  -1.563564389944077E-1   1.002418994903565E-1   4.700510501861572E-1  
 6.504504504504504E8    -9.174918383359909E-2   7.095507979393005E-1   1.614577770233154E-1  -1.803487241268158E-1   1.520963311195374E-1  -1.778067052364349E-1   1.646606624126434E-1   4.212008714675903E-1  
 6.528528528528528E8    -2.253761701285839E-2   7.074689269065857E-1   1.456547975540161E-1  -2.048863619565964E-1   1.360176354646683E-1  -1.999285370111466E-1   2.168235629796982E-1   3.609668314456940E-1  
 6.552552552552552E8     4.324373230338097E-2   6.997375488281250E-1   1.245046332478523E-1  -2.281107306480408E-1   1.154904663562775E-1  -2.202346324920654E-1   2.532583773136139E-1   2.953287065029144E-1  
 6.576576576576576E8     1.064123213291168E-1   6.879163980484009E-1   9.942737221717835E-2  -2.479741573333740E-1   9.194332361221314E-2  -2.372194975614548E-1   2.762028872966766E-1   2.284813821315765E-1  
 6.600600600600600E8     1.691727489233017E-1   6.724899411201477E-1   7.043526321649551E-2  -2.641679942607880E-1   6.559567153453827E-2  -2.506152391433716E-1   2.864708602428436E-1   1.629737168550491E-1  
 6.624624624624624E8     2.322702258825302E-1   6.526253819465637E-1   3.985554352402687E-2  -2.752893269062042E-1   3.815305978059769E-2  -2.598358094692230E-1   2.877908349037170E-1   1.002435460686684E-1  
 6.648648648648648E8     2.954866588115692E-1   6.264470815658569E-1   8.746951818466187E-3  -2.829971909523010E-1   1.080377679318190E-2  -2.661169469356537E-1   2.796497046947479E-1   3.936063498258591E-2  
 6.672672672672672E8     3.561483621597290E-1   5.928955078125000E-1  -2.319200336933136E-2  -2.871714830398560E-1  -1.733743213117123E-2  -2.698215842247009E-1   2.621624469757080E-1  -1.769111864268780E-2  
 6.696696696696696E8     4.139873981475830E-1   5.525825619697571E-1  -5.546927079558373E-2  -2.878187894821167E-1  -4.568848386406899E-2  -2.709141075611115E-1   2.356373369693756E-1  -7.091617584228516E-2  
 6.720720720720720E8     4.673422574996948E-1   5.057151317596436E-1  -8.877716958522797E-2  -2.847798764705658E-1  -7.481321692466736E-2  -2.694745063781738E-1   1.998632550239563E-1  -1.172184795141220E-1  
 6.744744744744744E8     5.152004361152649E-1   4.534577727317810E-1  -1.219452470541000E-1  -2.770479023456574E-1  -1.041297763586044E-1  -2.645766437053680E-1   1.577477753162384E-1  -1.550309956073761E-1  
 6.768768768768768E8     5.576002001762390E-1   3.958537876605988E-1  -1.540168821811676E-1  -2.650657594203949E-1  -1.327664703130722E-1  -2.566116750240326E-1   1.109673306345940E-1  -1.851334869861603E-1  
 6.792792792792792E8     5.928488969802856E-1   3.341414928436279E-1  -1.847893148660660E-1  -2.498388737440109E-1  -1.610444635152817E-1  -2.461370527744293E-1   5.891072750091553E-2  -2.069492042064667E-1  
 6.816816816816816E8     6.208997964859009E-1   2.693276405334473E-1  -2.149115800857544E-1  -2.300980985164642E-1  -1.899152398109436E-1  -2.318965941667557E-1   3.222737926989794E-3  -2.175287306308746E-1  
 6.840840840840840E8     6.424558162689209E-1   2.028232216835022E-1  -2.419262379407883E-1  -2.052117139101028E-1  -2.173667103052139E-1  -2.129429876804352E-1  -5.242640525102615E-2  -2.174625247716904E-1  
 6.864864864864864E8     6.573852896690369E-1   1.336984485387802E-1  -2.647348344326019E-1  -1.766205579042435E-1  -2.421731948852539E-1  -1.902826428413391E-1  -1.066986247897148E-1  -2.072383165359497E-1  
 6.888888888888888E8     6.646695137023926E-1   6.228933110833168E-2  -2.827434539794922E-1  -1.453693062067032E-1  -2.635522186756134E-1  -1.646249294281006E-1  -1.583871543407440E-1  -1.887790113687515E-1  
 6.912912912912912E8     6.627714037895203E-1  -9.775135666131973E-3  -2.961863279342651E-1  -1.138822957873344E-1  -2.819204926490784E-1  -1.370421946048737E-1  -2.083695232868195E-1  -1.609965115785599E-1  
 6.936936936936936E8     6.510287523269653E-1  -8.014711737632752E-2  -3.059604167938232E-1  -8.203370124101639E-2  -2.982310354709625E-1  -1.070872992277145E-1  -2.533031105995178E-1  -1.226401701569557E-1  
 6.960960960960960E8     6.314606070518494E-1  -1.475068181753159E-1  -3.122678399085999E-1  -4.986610636115074E-2  -3.114372789859772E-1  -7.427827268838882E-2  -2.910043001174927E-1  -7.484877109527588E-2  
 6.984984984984984E8     6.045590639114380E-1  -2.108947336673737E-1  -3.151348531246185E-1  -1.705925166606903E-2  -3.211546838283539E-1  -3.860918059945107E-2  -3.177703917026520E-1  -1.894316449761391E-2  
 7.009009009009008E8     5.710704922676086E-1  -2.696011960506439E-1  -3.135802149772644E-1   1.655210182070732E-2  -3.254114389419556E-1  -1.266406732611358E-3  -3.322623372077942E-1   3.954587876796722E-2  
 7.033033033033032E8     5.325813293457031E-1  -3.228039443492889E-1  -3.065740168094635E-1   5.048502981662750E-2  -3.234246671199799E-1   3.480490297079086E-2  -3.377164602279663E-1   9.702733159065247E-2  
 7.057057057057056E8     4.898197352886200E-1  -3.712853193283081E-1  -2.944911122322083E-1   8.223406970500946E-2  -3.163914978504181E-1   6.700120866298676E-2  -3.355524837970734E-1   1.544910520315170E-1  
 7.081081081081080E8     4.422143101692200E-1  -4.159291386604309E-1  -2.788332104682922E-1   1.111858785152435E-1  -3.057963550090790E-1   9.688919037580490E-2  -3.240473568439484E-1   2.120591998100281E-1  
 7.105105105105104E8     3.908237516880035E-1  -4.546157717704773E-1  -2.610380053520203E-1   1.358479559421539E-1  -2.914884388446808E-1   1.250246912240982E-1  -3.033019304275513E-1   2.673091888427734E-1  
 7.129129129129129E8     3.373122811317444E-1  -4.868183135986328E-1  -2.420806586742401E-1   1.554457098245621E-1  -2.736354470252991E-1   1.512537896633148E-1  -2.749703824520111E-1   3.194539844989777E-1  
 7.153153153153153E8     2.808966636657715E-1  -5.137531161308289E-1  -2.237099707126617E-1   1.703543812036514E-1  -2.530387341976166E-1   1.747972667217255E-1  -2.380474358797073E-1   3.692445158958435E-1  
 7.177177177177178E8     2.212352305650711E-1  -5.340769886970520E-1  -2.061998397111893E-1   1.828663498163223E-1  -2.310224324464798E-1   1.955461651086807E-1  -1.917404830455780E-1   4.145149290561676E-1  
 7.201201201201202E8     1.591125577688217E-1  -5.478993654251099E-1  -1.887025982141495E-1   1.936746090650559E-1  -2.086338698863983E-1   2.124848067760468E-1  -1.381628662347794E-1   4.525031745433807E-1  
 7.225225225225226E8     9.360959380865097E-2  -5.550804138183594E-1  -1.719687134027481E-1   2.036433666944504E-1  -1.886152178049088E-1   2.252176403999329E-1  -8.008813112974167E-2   4.822844266891480E-1  
 7.249249249249250E8     2.566418610513210E-2  -5.520403385162354E-1  -1.555661112070084E-1   2.149523943662643E-1  -1.720689833164215E-1   2.360996603965759E-1  -1.887161657214165E-2   5.034944415092468E-1  
 7.273273273273274E8    -3.950849547982216E-2  -5.379574894905090E-1  -1.386861950159073E-1   2.274929434061050E-1  -1.545096784830093E-1   2.482921630144119E-1   4.500847309827805E-2   5.156247019767761E-1  
 7.297297297297298E8    -9.788309037685394E-2  -5.149453282356262E-1  -1.206727996468544E-1   2.390438020229340E-1  -1.329288929700851E-1   2.608048617839813E-1   1.106452196836472E-1   5.189733505249023E-1  
 7.321321321321322E8    -1.489841192960739E-1  -4.864442646503449E-1  -1.022544428706169E-1   2.477536946535111E-1  -1.075921058654785E-1   2.709368169307709E-1   1.773399710655212E-1   5.137034654617310E-1  
 7.345345345345346E8    -1.933851987123489E-1  -4.534179568290710E-1  -8.381565660238266E-2   2.544562220573425E-1  -8.033064752817154E-2   2.779431641101837E-1   2.441385239362717E-1   4.984998703002930E-1  
 7.369369369369370E8    -2.316971123218536E-1  -4.179272949695587E-1  -6.475739926099777E-2   2.589324116706848E-1  -5.279230326414108E-2   2.808023095130920E-1   3.086842894554138E-1   4.737832248210907E-1  
 7.393393393393394E8    -2.656096518039703E-1  -3.814812004566193E-1  -4.580423608422279E-2   2.617583870887756E-1  -2.725520730018616E-2   2.805496454238892E-1   3.693386018276215E-1   4.403211772441864E-1  
 7.417417417417418E8    -2.962325513362885E-1  -3.430119156837463E-1  -2.692688256502152E-2   2.630804479122162E-1  -4.095640499144793E-3   2.777600288391113E-1   4.244564473628998E-1   3.999485075473785E-1  
 7.441441441441442E8    -3.229947388172150E-1  -3.012104034423828E-1  -8.884589187800884E-3   2.641358375549316E-1   1.653921417891979E-2   2.742556631565094E-1   4.748187363147736E-1   3.525232374668121E-1  
 7.465465465465466E8    -3.431561887264252E-1  -2.564742565155029E-1   9.504677727818489E-3   2.655284404754639E-1   3.600469604134560E-2   2.706398069858551E-1   5.174921751022339E-1   2.982200980186462E-1  
 7.489489489489490E8    -3.571487367153168E-1  -2.116635292768478E-1   2.910201437771320E-2   2.665672898292542E-1   5.552736669778824E-2   2.666560113430023E-1   5.506204962730408E-1   2.396243661642075E-1  
 7.513513513513514E8    -3.651023209095001E-1  -1.663571298122406E-1   5.057706683874130E-2   2.663857340812683E-1   7.608886063098908E-2   2.615733146667481E-1   5.745122432708740E-1   1.792016178369522E-1  
 7.537537537537538E8    -3.674503862857819E-1  -1.232700273394585E-1   7.409769296646118E-2   2.629465162754059E-1   9.749718755483627E-2   2.533304095268250E-1   5.906471014022827E-1   1.192165240645409E-1  
 7.561561561561562E8    -3.665530383586884E-1  -8.306672424077988E-2   9.594976156949997E-2   2.568690776824951E-1   1.175683662295342E-1   2.415851950645447E-1   6.011136770248413E-1   6.010054051876068E-2  
 7.585585585585586E8    -3.632043898105621E-1  -4.421254247426987E-2   1.173651069402695E-1   2.482808232307434E-1   1.359286904335022E-1   2.277830392122269E-1   6.069154143333435E-1   8.305262890644372E-4  
 7.609609609609610E8    -3.569087684154511E-1  -6.194183602929115E-3   1.371278464794159E-1   2.366329580545425E-1   1.510236561298370E-1   2.124203592538834E-1   6.083692908287048E-1  -5.807132273912430E-2  
 7.633633633633634E8    -3.468240499496460E-1   3.141782805323601E-2   1.541223973035812E-1   2.239700406789780E-1   1.626159697771072E-1   1.976389735937119E-1   6.052757501602173E-1  -1.179022565484047E-1  
 7.657657657657658E8    -3.325971662998200E-1   6.626876443624497E-2   1.695305109024048E-1   2.114135622978210E-1   1.729537695646286E-1   1.845397651195526E-1   5.964543819427490E-1  -1.781267672777176E-1  
 7.681681681681682E8    -3.157685101032257E-1   9.864412248134613E-2   1.836590915918350E-1   1.989727169275284E-1   1.829603314399719E-1   1.724814027547836E-1   5.814390778541565E-1  -2.379640340805054E-1  
 7.705705705705706E8    -2.952612936496735E-1   1.282541751861572E-1   1.972426474094391E-1   1.865700185298920E-1   1.937100440263748E-1   1.614620834589005E-1   5.606134533882141E-1  -2.965302467346191E-1  
 7.729729729729730E8    -2.716659307479858E-1   1.540815383195877E-1   2.118150889873505E-1   1.724502295255661E-1   2.057120203971863E-1   1.502140909433365E-1   5.329873561859131E-1  -3.531042337417603E-1  
 7.753753753753754E8    -2.474955171346664E-1   1.751067787408829E-1   2.262964546680450E-1   1.565071195363998E-1   2.181076258420944E-1   1.364836692810059E-1   4.975677132606506E-1  -4.054415225982666E-1  
 7.777777777777778E8    -2.242715656757355E-1   1.921484321355820E-1   2.390064746141434E-1   1.382130682468414E-1   2.288079708814621E-1   1.201296299695969E-1   4.573666453361511E-1  -4.516675174236298E-1  
 7.801801801801802E8    -2.033341079950333E-1   2.074152082204819E-1   2.495084851980209E-1   1.190061941742897E-1   2.368270903825760E-1   1.025128513574600E-1   4.129653275012970E-1  -4.925783872604370E-1  
 7.825825825825826E8    -1.842326521873474E-1   2.229633778333664E-1   2.583675682544708E-1   9.988851100206375E-2   2.423831075429916E-1   8.522059768438339E-2   3.659791350364685E-1  -5.268266797065735E-1  
 7.849849849849850E8    -1.653634756803513E-1   2.405377328395844E-1   2.665628790855408E-1   8.009440451860428E-2   2.463019490242004E-1   6.857113540172577E-2   3.175470232963562E-1  -5.551345348358154E-1  
 7.873873873873874E8    -1.445304155349731E-1   2.608312368392944E-1   2.729554474353790E-1   5.968457460403442E-2   2.484753876924515E-1   5.173640325665474E-2   2.676365077495575E-1  -5.783520936965942E-1  
 7.897897897897898E8    -1.176525577902794E-1   2.824013233184815E-1   2.773731946945190E-1   3.941697627305985E-2   2.496009767055512E-1   3.553169220685959E-2   2.173270136117935E-1  -5.977299213409424E-1  
 7.921921921921922E8    -8.401228487491608E-2   3.023052513599396E-1   2.799660265445709E-1   1.886461488902569E-2   2.509010732173920E-1   2.023331448435783E-2   1.665737926959992E-1  -6.141188740730286E-1  
 7.945945945945946E8    -4.345271736383438E-2   3.167996406555176E-1   2.810996770858765E-1  -1.124753500334919E-3   2.526568472385407E-1   5.637119989842176E-3   1.151894032955170E-1  -6.279408931732178E-1  
 7.969969969969970E8     6.983699859119952E-4   3.231475353240967E-1   2.824499011039734E-1  -2.139955386519432E-2   2.556817531585693E-1  -9.955996647477150E-3   6.132000312209129E-2  -6.380288600921631E-1  
 7.993993993993994E8     4.466168582439423E-2   3.219001889228821E-1   2.820985615253449E-1  -4.339827224612236E-2   2.579607069492340E-1  -2.791992947459221E-2   7.398801855742931E-3  -6.426597237586975E-1  
 8.018018018018018E8     8.857843279838562E-2   3.147440552711487E-1   2.788901627063751E-1  -6.544638425111771E-2   2.582439184188843E-1  -4.670945182442665E-2  -4.646116867661476E-2  -6.438250541687012E-1  
 8.042042042042042E8     1.330165565013886E-1   3.007349371910095E-1   2.744497358798981E-1  -8.740591257810593E-2   2.573241591453552E-1  -6.549937278032303E-2  -1.001430451869965E-1  -6.412424445152283E-1  
 8.066066066066066E8     1.739597916603088E-1   2.799609899520874E-1   2.684625983238220E-1  -1.094365492463112E-1   2.555034756660461E-1  -8.471848070621491E-2  -1.539255380630493E-1  -6.338587999343872E-1  
 8.090090090090090E8     2.108896821737289E-1   2.534641027450562E-1   2.601809203624725E-1  -1.310578882694244E-1   2.518247365951538E-1  -1.044372767210007E-1  -2.065809816122055E-1  -6.211444735527039E-1  
 8.114114114114114E8     2.429854273796082E-1   2.221865504980087E-1   2.497672587633133E-1  -1.523233056068420E-1   2.463036328554153E-1  -1.244560629129410E-1  -2.573170661926270E-1  -6.038761138916016E-1  
 8.138138138138138E8     2.702031731605530E-1   1.876368373632431E-1   2.371369451284409E-1  -1.724354475736618E-1   2.385469526052475E-1  -1.442602127790451E-1  -3.062908649444580E-1  -5.836812257766724E-1  
 8.162162162162162E8     2.919471561908722E-1   1.497745215892792E-1   2.229533940553665E-1  -1.914602667093277E-1   2.294045835733414E-1  -1.637077778577805E-1  -3.544915318489075E-1  -5.598542690277100E-1  
 8.186186186186186E8     3.078407645225525E-1   1.104769185185432E-1   2.063778340816498E-1  -2.093746215105057E-1   2.177932560443878E-1  -1.830585896968842E-1  -4.007566869258881E-1  -5.326282978057861E-1  
 8.210210210210210E8     3.187201619148254E-1   7.011481374502182E-2   1.879858076572418E-1  -2.245993316173554E-1   2.039154917001724E-1  -2.009295374155045E-1  -4.464408755302429E-1  -5.020719170570374E-1  
 8.234234234234234E8     3.247282207012177E-1   2.817998826503754E-2   1.689258068799973E-1  -2.376124858856201E-1   1.888870894908905E-1  -2.171675115823746E-1  -4.912515282630920E-1  -4.666071236133575E-1  
