#  HZ   S   RI   R     50.00 
! Rohde & Schwarz ZVB8 2Ports - Version 2.81 - 1145.1010k08 SN: 100113
! Date: 2016-03-12 03:31:20
! Measurements: S11 S21 S12 S22 
! 
 6.000000000000000E8    -6.886245012283325E-1  -5.180754661560059E-1   3.289690986275673E-2   9.742333739995956E-2   3.339281305670738E-2   9.741298109292984E-2  -6.486530900001526E-1  -5.078361034393311E-1  
 6.024024024024024E8    -7.310738563537598E-1  -4.467751383781433E-1   4.485926777124405E-2   9.899509698152542E-2   4.539399221539497E-2   9.881138056516647E-2  -6.911166906356812E-1  -4.274410009384155E-1  
 6.048048048048048E8    -7.664333581924439E-1  -3.712861835956574E-1   5.748591572046280E-2   9.900475293397903E-2   5.829545110464096E-2   9.863855689764023E-2  -7.237169146537781E-1  -3.425278365612030E-1  
 6.072072072072072E8    -7.948228716850281E-1  -2.921325564384460E-1   7.083199173212051E-2   9.734235703945160E-2   7.168693840503693E-2   9.678613394498825E-2  -7.458233833312988E-1  -2.540305554866791E-1  
 6.096096096096096E8    -8.150691390037537E-1  -2.097800523042679E-1   8.448496460914612E-2   9.393784403800964E-2   8.558563888072968E-2   9.325155615806580E-2  -7.572421431541443E-1  -1.623185425996780E-1  
 6.120120120120120E8    -8.262438774108887E-1  -1.283953189849854E-1   9.811822324991226E-2   8.888364583253861E-2   9.910518676042557E-2   8.808002620935440E-2  -7.559199929237366E-1  -7.092349231243134E-2  
 6.144144144144144E8    -8.289798498153687E-1  -4.676396772265434E-2   1.115654110908508E-1   8.203233033418655E-2   1.126497834920883E-1   8.111828565597534E-2  -7.425483465194702E-1   1.978948153555393E-2  
 6.168168168168168E8    -8.232579827308655E-1   3.506577014923096E-2   1.247314959764481E-1   7.317683100700378E-2   1.257634758949280E-1   7.213015109300613E-2  -7.172085046768189E-1   1.091056540608406E-1  
 6.192192192192192E8    -8.095094561576843E-1   1.154507920145989E-1   1.370026022195816E-1   6.271330267190933E-2   1.380194872617722E-1   6.138837710022926E-2  -6.793646812438965E-1   1.945776641368866E-1  
 6.216216216216216E8    -7.880499362945557E-1   1.945399492979050E-1   1.490046828985214E-1   5.075746774673462E-2   1.498623490333557E-1   4.906615242362022E-2  -6.284704804420471E-1   2.746722698211670E-1  
 6.240240240240240E8    -7.584317922592163E-1   2.702300250530243E-1   1.602780371904373E-1   3.698199242353439E-2   1.609727144241333E-1   3.458282351493835E-2  -5.661250352859497E-1   3.459402322769165E-1  
 6.264264264264264E8    -7.215893268585205E-1   3.420328199863434E-1   1.703648269176483E-1   2.153838612139225E-2   1.705805808305740E-1   1.849345304071903E-2  -4.944809973239899E-1   4.063014090061188E-1  
 6.288288288288288E8    -6.777908205986023E-1   4.091829955577850E-1   1.795831769704819E-1   4.858743399381638E-3   1.791479438543320E-1   8.843400282785296E-4  -4.146151542663574E-1   4.544148743152618E-1  
 6.312312312312312E8    -6.279169917106628E-1   4.710407853126526E-1   1.877534389495850E-1  -1.389754749834538E-2   1.862297207117081E-1  -1.856863312423229E-2  -3.276334702968597E-1   4.883620738983154E-1  
 6.336336336336336E8    -5.724529027938843E-1   5.267252922058106E-1   1.941704303026199E-1  -3.455653041601181E-2   1.913722902536392E-1  -3.992172703146935E-2  -2.362869977951050E-1   5.063493251800537E-1  
 6.360360360360360E8    -5.122474431991577E-1   5.763153433799744E-1   1.988740861415863E-1  -5.732127651572228E-2   1.942424178123474E-1  -6.295315921306610E-2  -1.441493630409241E-1   5.071510076522827E-1  
 6.384384384384384E8    -4.470890462398529E-1   6.189475655555725E-1   2.009752690792084E-1  -8.232378959655762E-2   1.944348663091660E-1  -8.748840540647507E-2  -5.496304482221603E-2   4.900643527507782E-1  
 6.408408408408408E8    -3.783268034458160E-1   6.534773707389832E-1   2.000059038400650E-1  -1.096871942281723E-1   1.912240982055664E-1  -1.137127429246903E-1   2.707957848906517E-2   4.563106000423431E-1  
 6.432432432432432E8    -3.080367445945740E-1   6.800113320350647E-1   1.941543221473694E-1  -1.386219263076782E-1   1.832567900419235E-1  -1.409626901149750E-1   9.745442122220993E-2   4.087078869342804E-1  
 6.456456456456456E8    -2.372857630252838E-1   6.996490955352783E-1   1.833636015653610E-1  -1.673286408185959E-1   1.707015335559845E-1  -1.671342700719833E-1   1.547315865755081E-1   3.514471948146820E-1  
 6.480480480480480E8    -1.660473495721817E-1   7.125410437583923E-1   1.680193841457367E-1  -1.950608789920807E-1   1.543482840061188E-1  -1.915514022111893E-1   1.984468251466751E-1   2.868828177452087E-1  
 6.504504504504504E8    -9.479874372482300E-2   7.190472483634949E-1   1.486795395612717E-1  -2.215195149183273E-1   1.348516643047333E-1  -2.142512947320938E-1   2.274066507816315E-1   2.174661308526993E-1  
 6.528528528528528E8    -2.381995692849159E-2   7.184783816337585E-1   1.243516206741333E-1  -2.461213469505310E-1   1.118303015828133E-1  -2.347234934568405E-1   2.399852126836777E-1   1.467251032590866E-1  
 6.552552552552552E8     4.522334039211273E-2   7.117134332656860E-1   9.574656933546066E-2  -2.672390043735504E-1   8.578557521104813E-2  -2.520313262939453E-1   2.381897419691086E-1   7.965286076068878E-2  
 6.576576576576576E8     1.124014630913734E-1   6.990283131599426E-1   6.399901211261749E-2  -2.845048308372498E-1   5.792666599154472E-2  -2.659839689731598E-1   2.239290773868561E-1   1.733011193573475E-2  
 6.600600600600600E8     1.782117933034897E-1   6.805073618888855E-1   2.849368564784527E-2  -2.977526485919952E-1   2.730924636125565E-2  -2.768907845020294E-1   1.981541812419891E-1  -3.748901560902596E-2  
 6.624624624624624E8     2.423266768455505E-1   6.567056179046631E-1  -9.719314053654671E-3  -3.055442869663239E-1  -5.004973150789738E-3  -2.836429774761200E-1   1.643857508897781E-1  -8.259304612874985E-2  
 6.648648648648648E8     3.043022751808167E-1   6.270451545715332E-1  -4.896572977304459E-2  -3.074552118778229E-1  -3.848185762763023E-2  -2.861865758895874E-1   1.254051327705383E-1  -1.182540208101273E-1  
 6.672672672672672E8     3.633145689964294E-1   5.914842486381531E-1  -8.873615413904190E-2  -3.039579391479492E-1  -7.283773273229599E-2  -2.846143543720245E-1   8.249588310718536E-2  -1.442892253398895E-1  
 6.696696696696696E8     4.187240004539490E-1   5.502175092697144E-1  -1.286342591047287E-1  -2.939627766609192E-1  -1.079401671886444E-1  -2.783145904541016E-1   3.834544867277145E-2  -1.598911285400391E-1  
 6.720720720720720E8     4.702382087707520E-1   5.038955807685852E-1  -1.666677296161652E-1  -2.767891883850098E-1  -1.424931883811951E-1  -2.662539780139923E-1  -3.471008269116283E-3  -1.665263026952744E-1  
 6.744744744744744E8     5.178903341293335E-1   4.524732232093811E-1  -2.005966752767563E-1  -2.536705434322357E-1  -1.741950809955597E-1  -2.488199472427368E-1  -4.185821115970612E-2  -1.684592217206955E-1  
 6.768768768768768E8     5.600437521934509E-1   3.952240347862244E-1  -2.297181785106659E-1  -2.262283563613892E-1  -2.022161632776260E-1  -2.277691960334778E-1  -7.970271259546280E-2  -1.670663356781006E-1  
 6.792792792792792E8     5.953601002693176E-1   3.334121108055115E-1  -2.541489005088806E-1  -1.961966753005981E-1  -2.274607270956039E-1  -2.039595693349838E-1  -1.176077201962471E-1  -1.609079390764237E-1  
 6.816816816816816E8     6.234685182571411E-1   2.681227326393127E-1  -2.740689218044281E-1  -1.632205694913864E-1  -2.497647404670715E-1  -1.769389659166336E-1  -1.544010341167450E-1  -1.497687846422195E-1  
 6.840840840840840E8     6.439141631126404E-1   2.008217275142670E-1  -2.885244190692902E-1  -1.281990408897400E-1  -2.679544389247894E-1  -1.470326632261276E-1  -1.903289854526520E-1  -1.344297081232071E-1  
 6.864864864864864E8     6.570851206779480E-1   1.321039348840714E-1  -2.970403134822846E-1  -9.212504327297211E-2  -2.814244925975800E-1  -1.151706799864769E-1  -2.260635942220688E-1  -1.144684478640556E-1  
 6.888888888888888E8     6.631930470466614E-1   6.259722262620926E-2  -3.001769185066223E-1  -5.664751678705216E-2  -2.899907231330872E-1  -8.277698606252670E-2  -2.614522874355316E-1  -8.776574581861496E-2  
 6.912912912912912E8     6.613957881927490E-1  -7.056486327201128E-3  -2.984550297260284E-1  -2.320856042206287E-2  -2.946188449859619E-1  -5.048267915844917E-2  -2.939825057983398E-1  -5.363044887781143E-2  
 6.936936936936936E8     6.516356468200684E-1  -7.541000843048096E-2  -2.928183376789093E-1   7.722390349954367E-3  -2.955564558506012E-1  -1.819620840251446E-2  -3.219925165176392E-1  -1.350468676537275E-2  
 6.960960960960960E8     6.344088912010193E-1  -1.416725069284439E-1  -2.836253345012665E-1   3.651571646332741E-2  -2.920430004596710E-1   1.410323753952980E-2  -3.452849090099335E-1   3.225893154740334E-2  
 6.984984984984984E8     6.109262704849243E-1  -2.050374150276184E-1  -2.710306644439697E-1   6.170944124460220E-2  -2.841182351112366E-1   4.432686790823937E-2  -3.639933764934540E-1   8.419870585203171E-2  
 7.009009009009008E8     5.811360478401184E-1  -2.657192945480347E-1  -2.566974759101868E-1   8.321757614612579E-2  -2.731606066226959E-1   7.076331973075867E-2  -3.746983110904694E-1   1.429673433303833E-1  
 7.033033033033032E8     5.441378355026245E-1  -3.230467438697815E-1  -2.414008080959320E-1   1.022075042128563E-1  -2.613568007946014E-1   9.292389452457428E-2  -3.759085834026337E-1   2.059015929698944E-1  
 7.057057057057056E8     5.009346008300781E-1  -3.750680088996887E-1  -2.258105129003525E-1   1.190315783023834E-1  -2.494513541460037E-1   1.112411767244339E-1  -3.663763701915741E-1   2.705146670341492E-1  
 7.081081081081080E8     4.519236385822296E-1  -4.226189553737640E-1  -2.098046690225601E-1   1.341722011566162E-1  -2.368991374969482E-1   1.280754357576370E-1  -3.441419601440430E-1   3.352960944175720E-1  
 7.105105105105104E8     3.984868526458740E-1  -4.638831913471222E-1  -1.945443898439407E-1   1.461585909128189E-1  -2.235984206199646E-1   1.434767693281174E-1  -3.098285794258118E-1   3.975428938865662E-1  
 7.129129129129129E8     3.410347998142242E-1  -4.980367422103882E-1  -1.815227866172791E-1   1.556234806776047E-1  -2.101027369499207E-1   1.583636105060577E-1  -2.624735832214356E-1   4.540510773658752E-1  
 7.153153153153153E8     2.802873849868774E-1  -5.237141847610474E-1  -1.699694693088532E-1   1.646356433629990E-1  -1.954538375139237E-1   1.743948310613632E-1  -2.043151557445526E-1   5.020015239715576E-1  
 7.177177177177178E8     2.184867411851883E-1  -5.410192012786865E-1  -1.586485058069229E-1   1.733844429254532E-1  -1.791208088397980E-1   1.897230297327042E-1  -1.384387761354446E-1   5.400362610816956E-1  
 7.201201201201202E8     1.558641344308853E-1  -5.512596964836121E-1  -1.468440145254135E-1   1.828801333904266E-1  -1.622339636087418E-1   2.040418684482575E-1  -6.717016547918320E-2   5.673148632049561E-1  
 7.225225225225226E8     9.262841939926148E-2  -5.550047159194946E-1  -1.335581541061401E-1   1.932206153869629E-1  -1.454830765724182E-1   2.165040224790573E-1   5.671654827892780E-3   5.828565955162048E-1  
 7.249249249249250E8     2.914946526288986E-2  -5.510605573654175E-1  -1.177815645933151E-1   2.045619636774063E-1  -1.289776563644409E-1   2.273328155279160E-1   7.643217593431473E-2   5.875728130340576E-1  
 7.273273273273274E8    -3.179822862148285E-2  -5.393338799476624E-1  -9.977590292692184E-2   2.145458906888962E-1  -1.100948005914688E-1   2.367139905691147E-1   1.452969610691071E-1   5.834921598434448E-1  
 7.297297297297298E8    -8.834320306777954E-2  -5.218896865844727E-1  -8.177409321069717E-2   2.215332835912705E-1  -8.864205330610275E-2   2.437137365341187E-1   2.126308381557465E-1   5.726196169853210E-1  
 7.321321321321322E8    -1.407766342163086E-1  -4.990161955356598E-1  -6.547585874795914E-2   2.254983037710190E-1  -6.577529013156891E-2   2.476253956556320E-1   2.796847522258759E-1   5.546779632568359E-1  
 7.345345345345346E8    -1.895081698894501E-1  -4.704090654850006E-1  -5.058008804917336E-2   2.280907481908798E-1  -4.327750951051712E-2   2.492508590221405E-1   3.462204039096832E-1   5.284505486488342E-1  
 7.369369369369370E8    -2.342827916145325E-1  -4.369449317455292E-1  -3.629831969738007E-2   2.298985570669174E-1  -2.187889628112316E-2   2.487317621707916E-1   4.102923870086670E-1   4.934207499027252E-1  
 7.393393393393394E8    -2.751315534114838E-1  -3.985628187656403E-1  -2.224709279835224E-2   2.316416054964066E-1  -2.290365519002080E-3   2.470305114984512E-1   4.699124395847321E-1   4.498877227306366E-1  
 7.417417417417418E8    -3.102867603302002E-1  -3.550312817096710E-1  -7.753113284707069E-3   2.339625656604767E-1   1.597909443080425E-2   2.451001703739166E-1   5.232489109039307E-1   3.988162279129028E-1  
 7.441441441441442E8    -3.375193178653717E-1  -3.070592582225800E-1   8.394037373363972E-3   2.361488640308380E-1   3.402795270085335E-2   2.426270693540573E-1   5.689428448677063E-1   3.419343829154968E-1  
 7.465465465465466E8    -3.559601902961731E-1  -2.582918405532837E-1   2.582173235714436E-2   2.373895645141602E-1   5.188469961285591E-2   2.389374226331711E-1   6.068271398544312E-1   2.812446951866150E-1  
 7.489489489489490E8    -3.668476343154907E-1  -2.111139148473740E-1   4.413772001862526E-2   2.371203452348709E-1   6.954359263181686E-2   2.339447587728500E-1   6.367008686065674E-1   2.181474119424820E-1  
 7.513513513513514E8    -3.726246058940888E-1  -1.667599231004715E-1   6.332951039075851E-2   2.350322008132935E-1   8.732933551073074E-2   2.271353900432587E-1   6.590291261672974E-1   1.529532819986343E-1  
 7.537537537537538E8    -3.749467730522156E-1  -1.240623816847801E-1   8.315497636795044E-2   2.302956581115723E-1   1.046804413199425E-1   2.182128429412842E-1   6.749771833419800E-1   8.601532131433487E-2  
 7.561561561561562E8    -3.739679157733917E-1  -8.348264545202255E-2   1.015816032886505E-1   2.237544655799866E-1   1.209399849176407E-1   2.066500633955002E-1   6.838125586509705E-1   1.814883016049862E-2  
 7.585585585585586E8    -3.698870241641998E-1  -4.427850991487503E-2   1.189363002777100E-1   2.156174182891846E-1   1.348920315504074E-1   1.939404010772705E-1   6.862795352935791E-1  -5.024195462465286E-2  
 7.609609609609610E8    -3.629869520664215E-1  -6.473162677139044E-3   1.354841887950897E-1   2.057772874832153E-1   1.467904895544052E-1   1.809172630310059E-1   6.818844079971314E-1  -1.186490952968597E-1  
 7.633633633633634E8    -3.534733355045319E-1   3.008221834897995E-2   1.504018455743790E-1   1.949785202741623E-1   1.564301401376724E-1   1.683913469314575E-1   6.710758209228516E-1  -1.863532066345215E-1  
 7.657657657657658E8    -3.402351140975952E-1   6.546310335397720E-2   1.643550843000412E-1   1.840629875659943E-1   1.652736514806747E-1   1.572750210762024E-1   6.536119580268860E-1  -2.531100213527679E-1  
 7.681681681681682E8    -3.237522840499878E-1   9.781955182552338E-2   1.778814494609833E-1   1.731228083372116E-1   1.748881042003632E-1   1.470616310834885E-1   6.294607520103455E-1  -3.172298669815064E-1  
 7.705705705705706E8    -3.044486939907074E-1   1.274584084749222E-1   1.914817243814468E-1   1.609186232089996E-1   1.853441894054413E-1   1.363263428211212E-1   6.000777482986450E-1  -3.781937658786774E-1  
 7.729729729729730E8    -2.828519642353058E-1   1.538072973489761E-1   2.048111408948898E-1   1.459857970476151E-1   1.962618082761765E-1   1.243874728679657E-1   5.658110976219177E-1  -4.371569454669952E-1  
 7.753753753753754E8    -2.611005604267120E-1   1.767112612724304E-1   2.167776376008987E-1   1.292180567979813E-1   2.060059458017349E-1   1.102169454097748E-1   5.243145227432251E-1  -4.930366277694702E-1  
 7.777777777777778E8    -2.401023060083389E-1   1.979807615280151E-1   2.263488471508026E-1   1.112028136849403E-1   2.136671096086502E-1   9.436002373695374E-2   4.756245613098145E-1  -5.438979864120483E-1  
 7.801801801801802E8    -2.191511392593384E-1   2.192582190036774E-1   2.332019060850143E-1   9.318922460079193E-2   2.182859331369400E-1   7.861717045307159E-2   4.214575290679932E-1  -5.873773097991943E-1  
 7.825825825825826E8    -1.958519071340561E-1   2.413091659545898E-1   2.386568039655685E-1   7.680218666791916E-2   2.209354788064957E-1   6.430017203092575E-2   3.639825880527496E-1  -6.230637431144714E-1  
 7.849849849849850E8    -1.691708415746689E-1   2.622961401939392E-1   2.446556091308594E-1   6.054016202688217E-2   2.232901751995087E-1   5.167822167277336E-2   3.049432933330536E-1  -6.506887674331665E-1  
 7.873873873873874E8    -1.399058550596237E-1   2.806730270385742E-1   2.505662739276886E-1   4.381474107503891E-2   2.256575375795364E-1   3.857433795928955E-2   2.451420575380325E-1  -6.728466749191284E-1  
 7.897897897897898E8    -1.084726527333260E-1   2.968398332595825E-1   2.552476525306702E-1   2.599949575960636E-2   2.277642935514450E-1   2.512784302234650E-2   1.840652823448181E-1  -6.905718445777893E-1  
 7.921921921921922E8    -7.375096529722214E-2   3.114210069179535E-1   2.579044103622437E-1   7.602617610245943E-3   2.295389026403427E-1   1.191581133753061E-2   1.218195557594299E-1  -7.040790915489197E-1  
 7.945945945945946E8    -3.405929729342461E-2   3.229456543922424E-1   2.592653632164002E-1  -1.014219503849745E-2   2.318231761455536E-1  -8.348042611032724E-4   5.746138840913773E-2  -7.122264504432678E-1  
 7.969969969969970E8     1.009363122284412E-2   3.282082080841065E-1   2.610364258289337E-1  -2.777740173041821E-2   2.356949150562286E-1  -1.394020859152079E-2  -7.652546279132366E-3  -7.137605547904968E-1  
 7.993993993993994E8     5.614141747355461E-2   3.244444429874420E-1   2.628155946731567E-1  -4.741320759057999E-2   2.403933107852936E-1  -2.964664250612259E-2  -7.220839709043503E-2  -7.075316905975342E-1  
 8.018018018018018E8     1.002371087670326E-1   3.119293451309204E-1   2.626534700393677E-1  -6.927046179771423E-2   2.439438253641129E-1  -4.833954572677612E-2  -1.335282623767853E-1  -6.942986249923706E-1  
 8.042042042042042E8     1.413882672786713E-1   2.933648228645325E-1   2.598435282707214E-1  -9.309957921504974E-2   2.452989965677261E-1  -6.916589289903641E-2  -1.896185278892517E-1  -6.767156720161438E-1  
 8.066066066066066E8     1.774924099445343E-1   2.704915404319763E-1   2.533996403217316E-1  -1.171788275241852E-1   2.434170842170715E-1  -9.102075546979904E-2  -2.416437566280365E-1  -6.561568379402161E-1  
 8.090090090090090E8     2.097679972648621E-1   2.438687384128571E-1   2.431904673576355E-1  -1.404066830873489E-1   2.382640242576599E-1  -1.128006428480148E-1  -2.909013032913208E-1  -6.334881186485291E-1  
 8.114114114114114E8     2.380605936050415E-1   2.142664343118668E-1   2.302537262439728E-1  -1.619373708963394E-1   2.303566634654999E-1  -1.339585781097412E-1  -3.382240533828735E-1  -6.088878512382507E-1  
 8.138138138138138E8     2.621491253376007E-1   1.820570826530457E-1   2.147578150033951E-1  -1.813623160123825E-1   2.198722511529923E-1  -1.537822335958481E-1  -3.846936821937561E-1  -5.823405981063843E-1  
 8.162162162162162E8     2.824063301086426E-1   1.475713700056076E-1   1.978970766067505E-1  -1.984922736883164E-1   2.078680843114853E-1  -1.722562164068222E-1  -4.305094480514526E-1  -5.523810386657715E-1  
 8.186186186186186E8     2.974053323268890E-1   1.108734086155891E-1   1.796368658542633E-1  -2.137036919593811E-1   1.940062046051025E-1  -1.896429508924484E-1  -4.749507308006287E-1  -5.189729928970337E-1  
 8.210210210210210E8     3.073860406875610E-1   7.322943955659866E-2   1.601577401161194E-1  -2.264939844608307E-1   1.786783486604691E-1  -2.055690139532089E-1  -5.180094242095947E-1  -4.815299212932587E-1  
 8.234234234234234E8     3.129987120628357E-1   3.595946729183197E-2   1.400065869092941E-1  -2.374038696289063E-1   1.619436740875244E-1  -2.200281918048859E-1  -5.584758520126343E-1  -4.393568634986877E-1  
