#  HZ   S   RI   R     50.00 
! Rohde & Schwarz ZVB8 2Ports - Version 2.81 - 1145.1010k08 SN: 100113
! Date: 2016-03-12 02:07:58
! Measurements: S11 S21 S12 S22 
! 
 6.000000000000000E8    -6.319040656089783E-1   1.419746726751328E-1   4.407647997140884E-2   9.033549576997757E-2   4.270699620246887E-2   8.208148181438446E-2  -4.836707711219788E-1  -7.756611108779907E-1  
 6.024024024024024E8    -5.899998545646668E-1   2.248494178056717E-1   5.672196298837662E-2   9.016912430524826E-2   5.333678424358368E-2   8.171953260898590E-2  -5.491614937782288E-1  -7.275011539459229E-1  
 6.048048048048048E8    -5.365450978279114E-1   3.015437722206116E-1   7.002029567956924E-2   8.783147484064102E-2   6.443239748477936E-2   7.972916215658188E-2  -6.102451086044312E-1  -6.739381551742554E-1  
 6.072072072072072E8    -4.722651839256287E-1   3.703693449497223E-1   8.329091966152191E-2   8.339929580688477E-2   7.550229877233505E-2   7.623348385095596E-2  -6.666265130043030E-1  -6.148121953010559E-1  
 6.096096096096096E8    -3.972314894199371E-1   4.290079176425934E-1   9.639760851860046E-2   7.701846957206726E-2   8.660635352134705E-2   7.140148431062698E-2  -7.171539068222046E-1  -5.505279898643494E-1  
 6.120120120120120E8    -3.145336806774139E-1   4.739672243595123E-1   1.089351475238800E-1   6.879749894142151E-2   9.731619805097580E-2   6.543898582458496E-2  -7.608871459960938E-1  -4.825512468814850E-1  
 6.144144144144144E8    -2.248017340898514E-1   5.038380026817322E-1   1.208567172288895E-1   5.840669199824333E-2   1.079227775335312E-1   5.793881043791771E-2  -7.984987497329712E-1  -4.106512963771820E-1  
 6.168168168168168E8    -1.316760331392288E-1   5.180403590202332E-1   1.314349621534348E-1   4.597814753651619E-2   1.179349571466446E-1   4.873741418123245E-2  -8.292434811592102E-1  -3.349181711673737E-1  
 6.192192192192192E8    -3.816793859004974E-2   5.156679153442383E-1   1.405146569013596E-1   3.192683309316635E-2   1.273509413003922E-1   3.822576999664307E-2  -8.533249497413635E-1  -2.562146484851837E-1  
 6.216216216216216E8     5.355494096875191E-2   4.966192841529846E-1   1.480390131473541E-1   1.637762784957886E-2   1.359960734844208E-1   2.618323266506195E-2  -8.700202107429504E-1  -1.745150089263916E-1  
 6.240240240240240E8     1.392845213413239E-1   4.602833390235901E-1   1.538449972867966E-1  -3.326819860376418E-4   1.439433842897415E-1   1.252569910138845E-2  -8.790115714073181E-1  -9.121054410934448E-2  
 6.264264264264264E8     2.141920179128647E-1   4.079287648200989E-1   1.578597873449326E-1  -1.859614439308643E-2   1.509866714477539E-1  -3.089326899498701E-3  -8.796092271804810E-1  -8.025721646845341E-3  
 6.288288288288288E8     2.731302976608276E-1   3.432054221630096E-1   1.587134152650833E-1  -3.825779631733894E-2   1.555452346801758E-1  -2.106997370719910E-2  -8.721354007720947E-1   7.306195795536041E-2  
 6.312312312312312E8     3.139190375804901E-1   2.739181816577911E-1   1.555614918470383E-1  -5.754944309592247E-2   1.566900163888931E-1  -3.993623331189156E-2  -8.578041195869446E-1   1.527971774339676E-1  
 6.336336336336336E8     3.403656184673309E-1   2.062031179666519E-1   1.496858596801758E-1  -7.484768331050873E-2   1.549997776746750E-1  -5.792929232120514E-2  -8.367506861686707E-1   2.312066555023193E-1  
 6.360360360360360E8     3.579218387603760E-1   1.405781656503677E-1   1.430677920579910E-1  -9.046116471290588E-2   1.520516276359558E-1  -7.511907070875168E-2  -8.083599209785461E-1   3.076387643814087E-1  
 6.384384384384384E8     3.670201301574707E-1   7.380582392215729E-2   1.355510354042053E-1  -1.057637482881546E-1   1.479670256376267E-1  -9.256578981876373E-2  -7.720416188240051E-1   3.810715079307556E-1  
 6.408408408408408E8     3.648144602775574E-1   7.276522461324930E-3   1.261584311723709E-1  -1.210672035813332E-1   1.417027264833450E-1  -1.107249334454536E-1  -7.286362051963806E-1   4.505530595779419E-1  
 6.432432432432432E8     3.522095680236816E-1  -5.479218438267708E-2   1.145859584212303E-1  -1.351242959499359E-1   1.321216821670532E-1  -1.286537200212479E-1  -6.788950562477112E-1   5.157399773597717E-1  
 6.456456456456456E8     3.330597579479218E-1  -1.118036806583405E-1   1.017134115099907E-1  -1.470120400190353E-1   1.203170195221901E-1  -1.447774916887283E-1  -6.235189437866211E-1   5.760412812232971E-1  
 6.480480480480480E8     3.081592321395874E-1  -1.667915135622025E-1   8.851102739572525E-2  -1.572556197643280E-1   1.074445545673370E-1  -1.594207733869553E-1  -5.621855258941650E-1   6.312386393547058E-1  
 6.504504504504504E8     2.735803723335266E-1  -2.197872102260590E-1   7.524728775024414E-2  -1.670433133840561E-1   9.362461417913437E-2  -1.735499501228333E-1  -4.953789710998535E-1   6.808476448059082E-1  
 6.528528528528528E8     2.271542847156525E-1  -2.661427259445190E-1   6.081623211503029E-2  -1.766463816165924E-1   7.761994004249573E-2  -1.874487996101379E-1  -4.233648478984833E-1   7.233929634094238E-1  
 6.552552552552552E8     1.719656586647034E-1  -2.991287112236023E-1   4.445180296897888E-2  -1.854415088891983E-1   5.855021998286247E-2  -2.002013027667999E-1  -3.474172651767731E-1   7.582132220268250E-1  
 6.576576576576576E8     1.151330992579460E-1  -3.173426985740662E-1   2.608303353190422E-2  -1.923298388719559E-1   3.663055598735809E-2  -2.100970894098282E-1  -2.686120569705963E-1   7.851636409759522E-1  
 6.600600600600600E8     6.179218739271164E-2  -3.237140476703644E-1   6.271669641137123E-3  -1.963876932859421E-1   1.263658609241247E-2  -2.161436825990677E-1  -1.870995610952377E-1   8.044219613075256E-1  
 6.624624624624624E8     1.449991203844547E-2  -3.228466212749481E-1  -1.368934102356434E-2  -1.976213753223419E-1  -1.170652918517590E-2  -2.182094752788544E-1  -1.036417409777641E-1   8.156307339668274E-1  
 6.648648648648648E8    -2.724776417016983E-2  -3.186213076114655E-1  -3.315462917089462E-2  -1.961744427680969E-1  -3.567307069897652E-2  -2.164406627416611E-1  -1.946569606661797E-2   8.186593651771545E-1  
 6.672672672672672E8    -6.583175063133240E-2  -3.142157793045044E-1  -5.113165080547333E-2  -1.922688186168671E-1  -5.817194283008575E-2  -2.112502455711365E-1   6.475718319416046E-2   8.133648633956909E-1  
 6.696696696696696E8    -1.056369394063950E-1  -3.104511201381683E-1  -6.718999892473221E-2  -1.867887377738953E-1  -7.810123264789581E-2  -2.036234587430954E-1   1.483379155397415E-1   7.994850873947144E-1  
 6.720720720720720E8    -1.499078571796417E-1  -3.028365075588226E-1  -8.139497786760330E-2  -1.813818514347076E-1  -9.592171758413315E-2  -1.955586522817612E-1   2.313002347946167E-1   7.767715454101563E-1  
 6.744744744744744E8    -1.959462463855743E-1  -2.877737581729889E-1  -9.531094878911972E-2  -1.762976348400116E-1  -1.128877177834511E-1  -1.871317774057388E-1   3.117818832397461E-1   7.447883486747742E-1  
 6.768768768768768E8    -2.421733289957047E-1  -2.649267911911011E-1  -1.090975776314735E-1  -1.711299568414688E-1  -1.288651376962662E-1  -1.781466603279114E-1   3.883345127105713E-1   7.038139104843140E-1  
 6.792792792792792E8    -2.866469919681549E-1  -2.319137752056122E-1  -1.234935596585274E-1  -1.662413179874420E-1  -1.448494642972946E-1  -1.688730269670487E-1   4.604679644107819E-1   6.538040637969971E-1  
 6.816816816816816E8    -3.241337835788727E-1  -1.887142956256867E-1  -1.395269781351090E-1  -1.604636907577515E-1  -1.616123467683792E-1  -1.580908447504044E-1   5.265060067176819E-1   5.956088304519653E-1  
 6.840840840840840E8    -3.509896397590637E-1  -1.390355378389359E-1  -1.565940082073212E-1  -1.526304334402084E-1  -1.783670783042908E-1  -1.450658142566681E-1   5.855116248130798E-1   5.299097895622253E-1  
 6.864864864864864E8    -3.659745752811432E-1  -8.813885599374771E-2  -1.741662323474884E-1  -1.415070146322250E-1  -1.941111981868744E-1  -1.289122551679611E-1   6.370063424110413E-1   4.577797353267670E-1  
 6.888888888888888E8    -3.733195960521698E-1  -4.074568673968315E-2  -1.899963021278381E-1  -1.274023056030273E-1  -2.068986892700195E-1  -1.106111556291580E-1   6.807458400726318E-1   3.793287277221680E-1  
 6.912912912912912E8    -3.769431412220001E-1   5.254485644400120E-3  -2.040882855653763E-1  -1.127891242504120E-1  -2.175451666116715E-1  -9.203115850687027E-2   7.153297066688538E-1   2.954039871692658E-1  
 6.936936936936936E8    -3.745712339878082E-1   5.190745368599892E-2  -2.178010046482086E-1  -9.749194979667664E-2  -2.272263169288635E-1  -7.259682565927506E-2   7.392242550849915E-1   2.067281603813171E-1  
 6.960960960960960E8    -3.649378120899200E-1   9.660071134567261E-2  -2.314340174198151E-1  -7.985983043909073E-2  -2.360777407884598E-1  -5.140509456396103E-2   7.513454556465149E-1   1.152664944529533E-1  
 6.984984984984984E8    -3.499035835266113E-1   1.362412124872208E-1  -2.435771673917770E-1  -5.948127806186676E-2  -2.424960434436798E-1  -2.810970693826675E-2   7.511083483695984E-1   2.363424748182297E-2  
 7.009009009009008E8    -3.324945867061615E-1   1.708969771862030E-1  -2.531200647354126E-1  -3.647914901375771E-2  -2.459194660186768E-1  -4.179640207439661E-3   7.395191788673401E-1  -6.619580090045929E-2  
 7.033033033033032E8    -3.147954642772675E-1   2.017254829406738E-1  -2.596225440502167E-1  -1.098149921745062E-2  -2.462575286626816E-1   1.835419237613678E-2   7.169949412345886E-1  -1.517604887485504E-1  
 7.057057057057056E8    -2.973545789718628E-1   2.307242304086685E-1  -2.625579535961151E-1   1.602445542812347E-2  -2.441792190074921E-1   3.909647837281227E-2   6.845569610595703E-1  -2.311304956674576E-1  
 7.081081081081080E8    -2.794751524925232E-1   2.599084377288818E-1  -2.619268596172333E-1   4.431494325399399E-2  -2.401023209095001E-1   5.899845436215401E-2   6.425883769989014E-1  -3.057978153228760E-1  
 7.105105105105104E8    -2.617420256137848E-1   2.887198925018311E-1  -2.570433914661408E-1   7.099868357181549E-2  -2.333695441484451E-1   7.832936197519302E-2   5.915997028350830E-1  -3.744057714939117E-1  
 7.129129129129129E8    -2.440553456544876E-1   3.204877972602844E-1  -2.499227076768875E-1   9.404495358467102E-2  -2.247652560472488E-1   9.615088254213333E-2   5.315213799476624E-1  -4.367278218269348E-1  
 7.153153153153153E8    -2.204417884349823E-1   3.558092713356018E-1  -2.423027008771896E-1   1.145789995789528E-1  -2.157007008790970E-1   1.130121424794197E-1   4.625562131404877E-1  -4.913545548915863E-1  
 7.177177177177178E8    -1.891719102859497E-1   3.902913033962250E-1  -2.344070225954056E-1   1.343171745538712E-1  -2.064258009195328E-1   1.297995150089264E-1   3.854001164436340E-1  -5.362924337387085E-1  
 7.201201201201202E8    -1.507367193698883E-1   4.218723475933075E-1  -2.249440401792526E-1   1.549692898988724E-1  -1.971221715211868E-1   1.460275948047638E-1   3.030757606029511E-1  -5.684415698051453E-1  
 7.225225225225226E8    -1.058504134416580E-1   4.492515921592712E-1  -2.124634832143784E-1   1.770666986703873E-1  -1.879085153341293E-1   1.614620238542557E-1   2.196197360754013E-1  -5.871300697326660E-1  
 7.249249249249250E8    -5.492492020130158E-2   4.711444079875946E-1  -1.960048228502274E-1   1.997597217559815E-1  -1.788588464260101E-1   1.754484921693802E-1   1.375892460346222E-1  -5.924780964851379E-1  
 7.273273273273274E8     4.539572910289280E-5   4.860776364803314E-1  -1.769314855337143E-1   2.205748707056046E-1  -1.687526404857636E-1   1.892844289541245E-1   5.734958872199059E-2  -5.864075422286987E-1  
 7.297297297297298E8     5.700497701764107E-2   4.930781126022339E-1  -1.570453792810440E-1   2.383299618959427E-1  -1.565788239240646E-1   2.038447856903076E-1  -2.083254419267178E-2  -5.691090822219849E-1  
 7.321321321321322E8     1.136535331606865E-1   4.919160604476929E-1  -1.370635181665421E-1   2.530502974987030E-1  -1.419111341238022E-1   2.186851650476456E-1  -9.541724622249603E-2  -5.401524901390076E-1  
 7.345345345345346E8     1.683535128831863E-1   4.830655157566071E-1  -1.166858971118927E-1   2.659597098827362E-1  -1.249497607350349E-1   2.339337617158890E-1  -1.636396497488022E-1  -4.996117055416107E-1  
 7.369369369369370E8     2.212870568037033E-1   4.676140248775482E-1  -9.424328058958054E-2   2.769290506839752E-1  -1.052297353744507E-1   2.480579167604446E-1  -2.222338020801544E-1  -4.494651257991791E-1  
 7.393393393393394E8     2.715025842189789E-1   4.465220570564270E-1  -7.021643221378326E-2   2.854802310466766E-1  -8.429154753684998E-2   2.600596249103546E-1  -2.701548933982849E-1  -3.929688334465027E-1  
 7.417417417417418E8     3.190795481204987E-1   4.212649464607239E-1  -4.524959996342659E-2   2.916028797626495E-1  -6.273092329502106E-2   2.701138556003571E-1  -3.073917329311371E-1  -3.315445780754089E-1  
 7.441441441441442E8     3.651779294013977E-1   3.905730545520783E-1  -2.006895095109940E-2   2.960028648376465E-1  -4.100053012371063E-2   2.788245379924774E-1  -3.329729437828064E-1  -2.663041651248932E-1  
 7.465465465465466E8     4.073694646358490E-1   3.531301319599152E-1   6.416282616555691E-3   2.990067303180695E-1  -1.777859590947628E-2   2.868387103080750E-1  -3.452752232551575E-1  -2.000755518674851E-1  
 7.489489489489490E8     4.437994956970215E-1   3.109953403472900E-1   3.439293429255486E-2   2.993844747543335E-1   8.096144534647465E-3   2.926839292049408E-1  -3.448629379272461E-1  -1.367366462945938E-1  
 7.513513513513514E8     4.740159511566162E-1   2.645705342292786E-1   6.328046321868897E-2   2.956995964050293E-1   3.614741563796997E-2   2.949514091014862E-1  -3.335697054862976E-1  -7.842636853456497E-2  
 7.537537537537538E8     4.977667033672333E-1   2.158307880163193E-1   9.188610315322876E-2   2.878259718418121E-1   6.552751362323761E-2   2.924684584140778E-1  -3.140624761581421E-1  -2.716382592916489E-2  
 7.561561561561562E8     5.145522952079773E-1   1.673140823841095E-1   1.176532730460167E-1   2.767991721630096E-1   9.434667229652405E-2   2.849729359149933E-1  -2.892847359180450E-1   1.575552672147751E-2  
 7.585585585585586E8     5.269033908843994E-1   1.203172728419304E-1   1.411820054054260E-1   2.629294693470001E-1   1.207793727517128E-1   2.737525105476379E-1  -2.626724839210510E-1   5.134025588631630E-2  
 7.609609609609610E8     5.363261699676514E-1   7.396765798330307E-2   1.619637906551361E-1   2.472536861896515E-1   1.445180177688599E-1   2.603672444820404E-1  -2.354111969470978E-1   8.228300511837006E-2  
 7.633633633633634E8     5.429255366325378E-1   2.789340913295746E-2   1.801284551620483E-1   2.305691391229630E-1   1.654454767704010E-1   2.460118681192398E-1  -2.068467587232590E-1   1.105784252285957E-1  
 7.657657657657658E8     5.466797351837158E-1  -1.850433275103569E-2   1.958192288875580E-1   2.135342210531235E-1   1.846734285354614E-1   2.312824130058289E-1  -1.747866272926331E-1   1.361473202705383E-1  
 7.681681681681682E8     5.473306179046631E-1  -6.499758362770081E-2   2.092432230710983E-1   1.966976523399353E-1   2.026662528514862E-1   2.161162048578262E-1  -1.387911736965179E-1   1.568750888109207E-1  
 7.705705705705706E8     5.441094040870667E-1  -1.120197102427483E-1   2.207833528518677E-1   1.804771125316620E-1   2.200542539358139E-1   2.005163282155991E-1  -9.993011504411697E-2   1.725335419178009E-1  
 7.729729729729730E8     5.349576473236084E-1  -1.606132239103317E-1   2.316431701183319E-1   1.640102416276932E-1   2.372299730777741E-1   1.850249618291855E-1  -5.741531029343605E-2   1.825718581676483E-1  
 7.753753753753754E8     5.194935798645020E-1  -2.071358114480972E-1   2.431087791919708E-1   1.482700258493424E-1   2.542970776557922E-1   1.676604300737381E-1  -1.123956963419914E-2   1.831626296043396E-1  
 7.777777777777778E8     5.001006722450256E-1  -2.488753199577332E-1   2.554885745048523E-1   1.319438666105270E-1   2.709799110889435E-1   1.478633582592011E-1   3.403684869408608E-2   1.721120774745941E-1  
 7.801801801801802E8     4.793463349342346E-1  -2.861445546150208E-1   2.683866918087006E-1   1.132385358214378E-1   2.858035564422607E-1   1.250608116388321E-1   7.382364571094513E-2   1.500992029905319E-1  
 7.825825825825826E8     4.594750106334686E-1  -3.202390670776367E-1   2.801540791988373E-1   9.165880084037781E-2   2.973352372646332E-1   9.948489069938660E-2   1.041341722011566E-1   1.209295839071274E-1  
 7.849849849849850E8     4.412395656108856E-1  -3.539276123046875E-1   2.892177999019623E-1   6.721415370702744E-2   3.044332563877106E-1   7.312673330307007E-2   1.245453134179115E-1   8.964335173368454E-2  
 7.873873873873874E8     4.237231314182282E-1  -3.894066512584686E-1   2.945306897163391E-1   4.242920130491257E-2   3.070978224277496E-1   4.684468358755112E-2   1.383733004331589E-1   5.962610989809036E-2  
 7.897897897897898E8     4.038446843624115E-1  -4.276887774467468E-1   2.966153621673584E-1   1.874985732138157E-2   3.072940111160278E-1   2.205794118344784E-2   1.487721502780914E-1   3.034138306975365E-2  
 7.921921921921922E8     3.782488405704498E-1  -4.684851765632629E-1   2.966300249099731E-1  -3.918602596968412E-3   3.069291114807129E-1  -9.621601784601808E-4   1.555822342634201E-1  -3.337330708745867E-4  
 7.945945945945946E8     3.464098870754242E-1  -5.095431804656982E-1   2.960681319236755E-1  -2.534384094178677E-2   3.072645366191864E-1  -2.336517907679081E-2   1.574205607175827E-1  -3.216331452131271E-2  
 7.969969969969970E8     3.078639507293701E-1  -5.485846996307373E-1   2.957498431205750E-1  -4.756459221243858E-2   3.080047965049744E-1  -4.760792106389999E-2   1.527627408504486E-1  -6.462617963552475E-2  
 7.993993993993994E8     2.636705935001373E-1  -5.838379263877869E-1   2.933174669742584E-1  -7.157520949840546E-2   3.061805367469788E-1  -7.445678114891052E-2   1.405346989631653E-1  -9.425531327724457E-2  
 8.018018018018018E8     2.144635319709778E-1  -6.148190498352051E-1   2.877001464366913E-1  -9.558621793985367E-2   3.004356622695923E-1  -1.019756346940994E-1   1.233390644192696E-1  -1.183962896466255E-1  
 8.042042042042042E8     1.593385934829712E-1  -6.426466107368469E-1   2.800703048706055E-1  -1.192739531397820E-1   2.919308841228485E-1  -1.286644190549851E-1   1.043788120150566E-1  -1.367619484663010E-1  
 8.066066066066066E8     1.016634032130241E-1  -6.641313433647156E-1   2.706620395183563E-1  -1.423005610704422E-1   2.809456288814545E-1  -1.541263610124588E-1   8.528873324394226E-2  -1.512382775545120E-1  
 8.090090090090090E8     4.078497365117073E-2  -6.793090701103210E-1   2.587832808494568E-1  -1.646389961242676E-1   2.669633626937866E-1  -1.784739494323731E-1   6.533798575401306E-2  -1.625405848026276E-1  
 8.114114114114114E8    -2.183090895414352E-2  -6.878046393394470E-1   2.449602633714676E-1  -1.857244819402695E-1   2.505276501178742E-1  -2.011918425559998E-1   4.458824172616005E-2  -1.701344698667526E-1  
 8.138138138138138E8    -8.518745750188828E-2  -6.897220611572266E-1   2.294134050607681E-1  -2.057731300592423E-1   2.320552617311478E-1  -2.221620827913284E-1   2.444351837038994E-2  -1.740386933088303E-1  
 8.162162162162162E8    -1.483584642410278E-1  -6.854079961776733E-1   2.115490734577179E-1  -2.247604578733444E-1   2.111320644617081E-1  -2.414810061454773E-1   5.301467608660460E-3  -1.737070977687836E-1  
 8.186186186186186E8    -2.110624164342880E-1  -6.753941774368286E-1   1.912929266691208E-1  -2.415330857038498E-1   1.876038908958435E-1  -2.579594254493713E-1  -9.025226347148418E-3  -1.697583496570587E-1  
 8.210210210210210E8    -2.735202014446259E-1  -6.587620377540588E-1   1.696289330720902E-1  -2.552422583103180E-1   1.628105193376541E-1  -2.708033323287964E-1  -1.793610863387585E-2  -1.681905537843704E-1  
 8.234234234234234E8    -3.346986770629883E-1  -6.361822485923767E-1   1.475569903850555E-1  -2.664350271224976E-1   1.378795951604843E-1  -2.802944779396057E-1  -2.669194154441357E-2  -1.712611615657806E-1  
