#  HZ   S   RI   R     50.00 
! Rohde & Schwarz ZVB8 2Ports - Version 2.81 - 1145.1010k08 SN: 100113
! Date: 2016-05-17 22:38:01
! Measurements: S11 S21 S12 S22 
! 
 6.000000000000000E8    -7.841296195983887E-1   5.083860754966736E-1  -1.668985933065414E-3  -2.630866598337889E-3  -1.679313136264682E-3  -2.591283526271582E-3  -9.264056086540222E-1   2.778412103652954E-1  
 6.024024024024024E8    -7.745628356933594E-1   5.191705226898193E-1  -1.643212512135506E-3  -2.610261319205165E-3  -1.610095263458788E-3  -2.592136850580573E-3  -9.217608571052551E-1   2.903314828872681E-1  
 6.048048048048048E8    -7.646639347076416E-1   5.307700037956238E-1  -1.642937422730029E-3  -2.667895751073957E-3  -1.631231629289687E-3  -2.738521900027990E-3  -9.174186587333679E-1   3.017495274543762E-1  
 6.072072072072072E8    -7.536726593971252E-1   5.429031252861023E-1  -1.671017729677260E-3  -2.758055226877332E-3  -1.633024658076465E-3  -2.822123002260923E-3  -9.124820232391357E-1   3.135076165199280E-1  
 6.096096096096096E8    -7.424510717391968E-1   5.549294352531433E-1  -1.577518298290670E-3  -2.987112151458859E-3  -1.618153648450971E-3  -2.930127317085862E-3  -9.075193405151367E-1   3.248811960220337E-1  
 6.120120120120120E8    -7.331086993217468E-1   5.642355680465698E-1  -1.600726041942835E-3  -3.093009581789374E-3  -1.588304527103901E-3  -3.077168017625809E-3  -9.031901359558106E-1   3.341412544250488E-1  
 6.144144144144144E8    -7.226747274398804E-1   5.745266675949097E-1  -1.471883966587484E-3  -3.336084075272083E-3  -1.496714889071882E-3  -3.325734054669738E-3  -8.987250924110413E-1   3.453966975212097E-1  
 6.168168168168168E8    -7.117652297019959E-1   5.851477980613709E-1  -1.425401191227138E-3  -3.664975520223379E-3  -1.299394061788917E-3  -3.638894297182560E-3  -8.933269977569580E-1   3.566237092018127E-1  
 6.192192192192192E8    -7.002342343330383E-1   5.950517654418945E-1  -1.238786964677274E-3  -4.117952194064856E-3  -1.270710374228656E-3  -4.150470718741417E-3  -8.875832557678223E-1   3.682846128940582E-1  
 6.216216216216216E8    -6.881197690963745E-1   6.047463417053223E-1  -1.195069635286927E-3  -4.755714908242226E-3  -1.156415324658155E-3  -4.680990707129240E-3  -8.816392421722412E-1   3.796530961990356E-1  
 6.240240240240240E8    -6.759596467018127E-1   6.136649847030640E-1  -1.272336929105222E-3  -5.464548245072365E-3  -1.129437005147338E-3  -5.557445809245110E-3  -8.753574490547180E-1   3.906549513339996E-1  
 6.264264264264264E8    -6.645649671554565E-1   6.225589513778687E-1  -1.519021810963750E-3  -6.473264656960964E-3  -1.403886592015624E-3  -6.559981498867273E-3  -8.686867356300354E-1   4.037452936172485E-1  
 6.288288288288288E8    -6.533051133155823E-1   6.311034560203552E-1  -2.035927260294557E-3  -7.577682845294476E-3  -1.900494447909296E-3  -7.617538329213858E-3  -8.619831800460815E-1   4.150844514369965E-1  
 6.312312312312312E8    -6.429901123046875E-1   6.391406655311585E-1  -3.018472343683243E-3  -8.622958324849606E-3  -2.914631506428123E-3  -8.719818666577339E-3  -8.551936745643616E-1   4.257278144359589E-1  
 6.336336336336336E8    -6.330873370170593E-1   6.478126049041748E-1  -4.232621751725674E-3  -9.513927623629570E-3  -4.131421912461519E-3  -9.580136276781559E-3  -8.487315773963928E-1   4.354735016822815E-1  
 6.360360360360360E8    -6.226705908775330E-1   6.574425101280212E-1  -5.618424154818058E-3  -1.022210996598005E-2  -5.644188728183508E-3  -1.027904544025660E-2  -8.422174453735352E-1   4.446800947189331E-1  
 6.384384384384384E8    -6.111089587211609E-1   6.671106219291687E-1  -7.280434481799603E-3  -1.059728860855103E-2  -7.259170990437269E-3  -1.053126342594624E-2  -8.359059691429138E-1   4.555400013923645E-1  
 6.408408408408408E8    -5.988650918006897E-1   6.771342158317566E-1  -8.903158828616142E-3  -1.058840099722147E-2  -8.873496204614639E-3  -1.054955366998911E-2  -8.287279009819031E-1   4.664584100246429E-1  
 6.432432432432432E8    -5.855473875999451E-1   6.868384480476379E-1  -1.041541621088982E-2  -1.038978807628155E-2  -1.036605052649975E-2  -1.041388697922230E-2  -8.211813569068909E-1   4.763621985912323E-1  
 6.456456456456456E8    -5.707306265830994E-1   6.964617371559143E-1  -1.198015641421080E-2  -1.014101412147284E-2  -1.191456243395805E-2  -1.011941675096750E-2  -8.131244182586670E-1   4.867404401302338E-1  
 6.480480480480480E8    -5.557663440704346E-1   7.050013542175293E-1  -1.346191298216581E-2  -9.607415646314621E-3  -1.339510548859835E-2  -9.642593562602997E-3  -8.049329519271851E-1   4.972640573978424E-1  
 6.504504504504504E8    -5.394642353057861E-1   7.145701646804810E-1  -1.472302805632353E-2  -8.984053507447243E-3  -1.475313026458025E-2  -8.979515172541142E-3  -7.922899723052979E-1   5.085671544075012E-1  
 6.528528528528528E8    -5.227876901626587E-1   7.233648896217346E-1  -1.592476852238178E-2  -8.329422213137150E-3  -1.595625840127468E-2  -8.360323496162891E-3  -7.804979085922241E-1   5.219332575798035E-1  
 6.552552552552552E8    -5.053327679634094E-1   7.312707304954529E-1  -1.713669300079346E-2  -7.699748035520315E-3  -1.714213192462921E-2  -7.761615328490734E-3  -7.713670134544373E-1   5.351729989051819E-1  
 6.576576576576576E8    -4.867107272148132E-1   7.379090189933777E-1  -1.843887753784657E-2  -7.036014460027218E-3  -1.838519982993603E-2  -7.096726913005114E-3  -7.643499970436096E-1   5.461586117744446E-1  
 6.600600600600600E8    -4.661307036876679E-1   7.441012859344482E-1  -1.979437842965126E-2  -6.283193361014128E-3  -1.970181055366993E-2  -6.346942391246557E-3  -7.563245892524719E-1   5.538735389709473E-1  
 6.624624624624624E8    -4.469621181488037E-1   7.500727176666260E-1  -2.110074274241924E-2  -5.407824646681547E-3  -2.104370854794979E-2  -5.540594924241304E-3  -7.446600794792175E-1   5.653703808784485E-1  
 6.648648648648648E8    -4.277384877204895E-1   7.552953362464905E-1  -2.243511006236076E-2  -4.467047285288572E-3  -2.240328490734100E-2  -4.646543879061937E-3  -7.331305742263794E-1   5.763663053512573E-1  
 6.672672672672672E8    -4.079349040985107E-1   7.593981623649597E-1  -2.383612841367722E-2  -3.511917777359486E-3  -2.381313405930996E-2  -3.650590777397156E-3  -7.212002873420715E-1   5.869819521903992E-1  
 6.696696696696696E8    -3.869855999946594E-1   7.626582980155945E-1  -2.528270520269871E-2  -2.305170986801386E-3  -2.525581791996956E-2  -2.481827279552817E-3  -7.088897228240967E-1   5.978450775146484E-1  
 6.720720720720720E8    -3.644667565822601E-1   7.651136517524719E-1  -2.677396126091480E-2  -1.052119187079370E-3  -2.675951831042767E-2  -1.196361961774528E-3  -6.961334943771362E-1   6.083537340164185E-1  
 6.744744744744744E8    -3.417103588581085E-1   7.661900520324707E-1  -2.825131639838219E-2   4.603288543876261E-4  -2.824348583817482E-2   4.610886680893600E-4  -6.811593174934387E-1   6.194590926170349E-1  
 6.768768768768768E8    -3.184513151645660E-1   7.663062810897827E-1  -2.966166473925114E-2   2.245019422844052E-3  -2.959746494889259E-2   2.097222488373518E-3  -6.658496856689453E-1   6.301165223121643E-1  
 6.792792792792792E8    -2.946164906024933E-1   7.649184465408325E-1  -3.090121969580650E-2   4.080682992935181E-3  -3.089187480509281E-2   3.976204898208380E-3  -6.500353813171387E-1   6.405898332595825E-1  
 6.816816816816816E8    -2.700985968112946E-1   7.621394395828247E-1  -3.216470032930374E-2   6.054373458027840E-3  -3.211189806461334E-2   5.983814597129822E-3  -6.335563659667969E-1   6.509218215942383E-1  
 6.840840840840840E8    -2.457852363586426E-1   7.579824328422546E-1  -3.335912525653839E-2   8.068498224020004E-3  -3.346216306090355E-2   8.008664473891258E-3  -6.162880063056946E-1   6.615397930145264E-1  
 6.864864864864864E8    -2.206367999315262E-1   7.523579001426697E-1  -3.457803651690483E-2   1.030561048537493E-2  -3.470090031623840E-2   1.021035201847553E-2  -5.974421501159668E-1   6.710174679756165E-1  
 6.888888888888888E8    -1.958436369895935E-1   7.458125948905945E-1  -3.594698011875153E-2   1.267764624208212E-2  -3.609583154320717E-2   1.248259562999010E-2  -5.776656270027161E-1   6.808650493621826E-1  
 6.912912912912912E8    -1.706528216600418E-1   7.364060878753662E-1  -3.747812286019325E-2   1.556846033781767E-2  -3.755929321050644E-2   1.519333664327860E-2  -5.569719672203064E-1   6.903498768806458E-1  
 6.936936936936936E8    -1.456416845321655E-1   7.246680855751038E-1  -3.867466002702713E-2   1.884271018207073E-2  -3.866795077919960E-2   1.840619556605816E-2  -5.348731875419617E-1   6.991910338401794E-1  
 6.960960960960960E8    -1.210488453507423E-1   7.107455134391785E-1  -3.961767628788948E-2   2.220908924937248E-2  -3.953578695654869E-2   2.192115969955921E-2  -5.116237401962280E-1   7.076214551925659E-1  
 6.984984984984984E8    -9.810037165880203E-2   6.946062445640564E-1  -4.045994579792023E-2   2.585376426577568E-2  -4.008053988218308E-2   2.604073472321034E-2  -4.833441972732544E-1   7.167353034019470E-1  
 7.009009009009008E8    -7.661609351634979E-2   6.759138107299805E-1  -4.079661145806313E-2   2.943062409758568E-2  -4.014742374420166E-2   3.006483800709248E-2  -4.551002979278565E-1   7.238041162490845E-1  
 7.033033033033032E8    -5.639430508017540E-2   6.558839082717896E-1  -4.078951478004456E-2   3.302560746669769E-2  -4.025138914585114E-2   3.381830453872681E-2  -4.269546568393707E-1   7.281602621078491E-1  
 7.057057057057056E8    -3.698327392339706E-2   6.325380802154541E-1  -4.087127372622490E-2   3.679652139544487E-2  -4.060769453644753E-2   3.740644082427025E-2  -4.006863236427307E-1   7.296659946441650E-1  
 7.081081081081080E8    -1.949949376285076E-2   6.043137907981873E-1  -4.066079109907150E-2   4.111905768513680E-2  -4.096218943595886E-2   4.107200726866722E-2  -3.724763393402100E-1   7.296759486198425E-1  
 7.105105105105104E8    -6.128673907369375E-3   5.753635764122009E-1  -4.028121754527092E-2   4.553287848830223E-2  -4.106155782938004E-2   4.457562044262886E-2  -3.414301574230194E-1   7.285557985305786E-1  
 7.129129129129129E8     1.442052889615297E-3   5.445773601531982E-1  -4.020666331052780E-2   4.965645819902420E-2  -4.128617048263550E-2   4.867553710937500E-2  -3.063253760337830E-1   7.247725725173950E-1  
 7.153153153153153E8     2.868786687031388E-3   5.147536993026733E-1  -4.056788980960846E-2   5.381388962268829E-2  -4.132325947284699E-2   5.303068831562996E-2  -2.681528031826019E-1   7.170153260231018E-1  
 7.177177177177178E8     6.132402340881527E-4   4.872358441352844E-1  -4.167709499597549E-2   5.800879746675491E-2  -4.211911931633949E-2   5.749022588133812E-2  -2.282018214464188E-1   7.046702504158020E-1  
 7.201201201201202E8    -2.462975913658738E-3   4.660255014896393E-1  -4.460586234927177E-2   6.310866773128510E-2  -4.479282721877098E-2   6.304984539747238E-2  -1.888019591569901E-1   6.860478520393372E-1  
 7.225225225225226E8    -7.086925674229860E-3   4.465086162090302E-1  -4.896282404661179E-2   7.138127088546753E-2  -4.885158687829971E-2   7.178010046482086E-2  -1.507941186428070E-1   6.611507534980774E-1  
 7.249249249249250E8    -9.967490099370480E-3   4.290654361248016E-1  -5.248354747891426E-2   8.505547046661377E-2  -5.324266105890274E-2   8.499284088611603E-2  -1.199073418974876E-1   6.296542882919312E-1  
 7.273273273273274E8    -1.096035074442625E-2   4.110789299011231E-1  -5.246384069323540E-2   1.041106432676315E-1  -5.421692505478859E-2   1.035099029541016E-1  -9.599433839321137E-2   5.961585044860840E-1  
 7.297297297297298E8    -1.167276222258806E-2   3.897048830986023E-1  -4.620335996150971E-2   1.267833709716797E-1  -4.808713495731354E-2   1.261055618524551E-1  -7.717497646808624E-2   5.634285211563110E-1  
 7.321321321321322E8    -1.549914386123419E-2   3.646283745765686E-1  -3.223418444395065E-2   1.493605375289917E-1  -3.253307566046715E-2   1.492388248443604E-1  -6.098506599664688E-2   5.313901901245117E-1  
 7.345345345345346E8    -2.379576116800308E-2   3.392610549926758E-1  -9.567892178893089E-3   1.682642549276352E-1  -9.545776061713696E-3   1.679050475358963E-1  -4.755593836307526E-2   5.039436817169190E-1  
 7.369369369369370E8    -3.565493226051331E-2   3.148180842399597E-1   1.797060854732990E-2   1.810602545738220E-1   1.853556185960770E-2   1.805629283189774E-1  -3.165228292346001E-2   4.759281873703003E-1  
 7.393393393393394E8    -5.206573382019997E-2   2.909261882305145E-1   4.926551505923271E-2   1.878933757543564E-1   4.954666271805763E-2   1.873719692230225E-1  -1.467594970017672E-2   4.449798464775085E-1  
 7.417417417417418E8    -7.161352038383484E-2   2.721493244171143E-1   8.301652222871780E-2   1.869568675756455E-1   8.274393528699875E-2   1.867816448211670E-1   1.640438218601048E-3   4.092036783695221E-1  
 7.441441441441442E8    -8.950452506542206E-2   2.577864527702332E-1   1.149906590580940E-1   1.787169277667999E-1   1.144319549202919E-1   1.789232194423676E-1   1.559945195913315E-2   3.698883652687073E-1  
 7.465465465465466E8    -1.109006628394127E-1   2.456115633249283E-1   1.439280509948731E-1   1.647451221942902E-1   1.440923511981964E-1   1.649182736873627E-1   2.822823636233807E-2   3.288279175758362E-1  
 7.489489489489490E8    -1.337786167860031E-1   2.343089580535889E-1   1.703109890222549E-1   1.459268331527710E-1   1.702866703271866E-1   1.467472761869431E-1   3.591699153184891E-2   2.832403182983398E-1  
 7.513513513513514E8    -1.563473790884018E-1   2.253866642713547E-1   1.930258870124817E-1   1.219092383980751E-1   1.930399239063263E-1   1.231895312666893E-1   3.933642804622650E-2   2.332144528627396E-1  
 7.537537537537538E8    -1.783479452133179E-1   2.183810472488403E-1   2.115282118320465E-1   9.431790560483933E-2   2.113474905490875E-1   9.657399356365204E-2   3.837297484278679E-2   1.807759255170822E-1  
 7.561561561561562E8    -1.998462975025177E-1   2.128206044435501E-1   2.252790927886963E-1   6.460867822170258E-2   2.248916625976563E-1   6.651363521814346E-2   3.109402395784855E-2   1.246241778135300E-1  
 7.585585585585586E8    -2.225749045610428E-1   2.111073732376099E-1   2.336709201335907E-1   3.303612023591995E-2   2.328276485204697E-1   3.465468063950539E-2   1.493135746568441E-2   6.764514744281769E-2  
 7.609609609609610E8    -2.453965544700623E-1   2.103728353977203E-1   2.367349714040756E-1  -1.770834642229602E-4   2.355390936136246E-1   1.476959325373173E-3  -1.502616237848997E-2   9.583004750311375E-3  
 7.633633633633634E8    -2.682154178619385E-1   2.103196680545807E-1   2.339848577976227E-1  -3.283404186367989E-2   2.327831685543060E-1  -3.139448910951614E-2  -5.539124831557274E-2  -4.266393929719925E-2  
 7.657657657657658E8    -2.947669923305512E-1   2.128159999847412E-1   2.243717312812805E-1  -6.433295458555222E-2   2.237918972969055E-1  -6.297382712364197E-2  -1.034149602055550E-1  -8.844289928674698E-2  
 7.681681681681682E8    -3.200049698352814E-1   2.193373292684555E-1   2.096092551946640E-1  -9.119114279747009E-2   2.093641608953476E-1  -9.140049666166306E-2  -1.585350483655930E-1  -1.280466318130493E-1  
 7.705705705705706E8    -3.463486135005951E-1   2.335135787725449E-1   1.910359561443329E-1  -1.140464246273041E-1   1.907273083925247E-1  -1.139604076743126E-1  -2.171926796436310E-1  -1.571642309427261E-1  
 7.729729729729730E8    -3.669969141483307E-1   2.508037984371185E-1   1.694895178079605E-1  -1.324248164892197E-1   1.705405563116074E-1  -1.321899145841599E-1  -2.796522676944733E-1  -1.765410304069519E-1  
 7.753753753753754E8    -3.840208351612091E-1   2.677989006042481E-1   1.472626179456711E-1  -1.465598195791245E-1   1.491105705499649E-1  -1.461753100156784E-1  -3.418944478034973E-1  -1.845183968544006E-1  
 7.777777777777778E8    -3.988033533096314E-1   2.845411300659180E-1   1.245864704251289E-1  -1.570269167423248E-1   1.264019310474396E-1  -1.563755273818970E-1  -4.010061323642731E-1  -1.820526421070099E-1  
 7.801801801801802E8    -4.110172390937805E-1   3.008278906345367E-1   1.022211909294128E-1  -1.634311079978943E-1   1.039162352681160E-1  -1.620926707983017E-1  -4.544198811054230E-1  -1.725960224866867E-1  
 7.825825825825826E8    -4.205683767795563E-1   3.193612694740295E-1   8.054494857788086E-2  -1.660240888595581E-1   8.185117691755295E-2  -1.654957681894302E-1  -5.068151950836182E-1  -1.567690670490265E-1  
 7.849849849849850E8    -4.275083243846893E-1   3.364124894142151E-1   6.099731475114822E-2  -1.655248701572418E-1   6.160106882452965E-2  -1.647710353136063E-1  -5.543240308761597E-1  -1.361081600189209E-1  
 7.873873873873874E8    -4.352862834930420E-1   3.541097044944763E-1   4.321317374706268E-2  -1.627529114484787E-1   4.400459676980972E-2  -1.618502140045166E-1  -5.965886116027832E-1  -1.113148555159569E-1  
 7.897897897897898E8    -4.438554048538208E-1   3.711789548397064E-1   2.763440646231175E-2  -1.589881628751755E-1   2.837797626852989E-2  -1.581849306821823E-1  -6.338666081428528E-1  -8.368816971778870E-2  
 7.921921921921922E8    -4.519057571887970E-1   3.921921849250794E-1   1.306734886020422E-2  -1.544197052717209E-1   1.398034859448671E-2  -1.543742120265961E-1  -6.675080657005310E-1  -5.492844060063362E-2  
 7.945945945945946E8    -4.586645066738129E-1   4.159926176071167E-1  -7.207072339951992E-4  -1.486259847879410E-1   7.396239670924842E-4  -1.484601497650147E-1  -6.936811208724976E-1  -2.450870908796787E-2  
 7.969969969969970E8    -4.609548747539520E-1   4.396018683910370E-1  -1.285349577665329E-2  -1.413892209529877E-1  -1.158173289150000E-2  -1.412681341171265E-1  -7.166486978530884E-1   6.333075463771820E-3  
 7.993993993993994E8    -4.595235586166382E-1   4.613464474678040E-1  -2.308719605207443E-2  -1.330404877662659E-1  -2.223430201411247E-2  -1.330082267522812E-1  -7.362284660339356E-1   3.781451657414436E-2  
 8.018018018018018E8    -4.557016789913178E-1   4.795897305011749E-1  -3.097589313983917E-2  -1.245045140385628E-1  -3.093352355062962E-2  -1.241940930485725E-1  -7.520954608917236E-1   6.858448684215546E-2  
 8.042042042042042E8    -4.518335759639740E-1   4.981532096862793E-1  -3.758124634623528E-2  -1.163890436291695E-1  -3.735634684562683E-2  -1.162612587213516E-1  -7.648884654045105E-1   9.626428782939911E-2  
 8.066066066066066E8    -4.457870423793793E-1   5.174334049224854E-1  -4.347034916281700E-2  -1.086048856377602E-1  -4.330283403396606E-2  -1.085852161049843E-1  -7.753220200538635E-1   1.264253705739975E-1  
 8.090090090090090E8    -4.383554756641388E-1   5.356308221817017E-1  -4.860649630427361E-2  -1.007804274559021E-1  -4.846074432134628E-2  -1.009152680635452E-1  -7.831365466117859E-1   1.544163227081299E-1  
 8.114114114114114E8    -4.299434423446655E-1   5.520750284194946E-1  -5.287609994411469E-2  -9.299756586551666E-2  -5.274420976638794E-2  -9.329728782176971E-2  -7.889631390571594E-1   1.818677186965942E-1  
 8.138138138138138E8    -4.213498532772064E-1   5.660248994827271E-1  -5.622277408838272E-2  -8.511722087860107E-2  -5.604294687509537E-2  -8.571700751781464E-2  -7.927339076995850E-1   2.069851756095886E-1  
 8.162162162162162E8    -4.137471616268158E-1   5.781494379043579E-1  -5.832945927977562E-2  -7.773265242576599E-2  -5.825120210647583E-2  -7.829955965280533E-2  -7.960876822471619E-1   2.312379777431488E-1  
 8.186186186186186E8    -4.071027636528015E-1   5.905295014381409E-1  -5.969491228461266E-2  -7.094796001911163E-2  -5.965672060847282E-2  -7.154476642608643E-2  -7.986789345741272E-1   2.556932866573334E-1  
 8.210210210210210E8    -3.989082872867584E-1   6.016240119934082E-1  -6.099655106663704E-2  -6.455472856760025E-2  -6.095444411039352E-2  -6.484042108058929E-2  -7.993854880332947E-1   2.804038822650909E-1  
 8.234234234234234E8    -3.911941349506378E-1   6.110425591468811E-1  -6.160469353199005E-2  -5.820238590240479E-2  -6.146480888128281E-2  -5.816206708550453E-2  -7.986313700675964E-1   3.031954765319824E-1  
