#  HZ   S   RI   R     50.00 
! Rohde & Schwarz ZVB8 2Ports - Version 2.81 - 1145.1010k08 SN: 100113
! Date: 2016-05-17 22:37:43
! Measurements: S11 S21 S12 S22 
! 
 6.000000000000000E8    -7.838082909584045E-1   5.083233118057251E-1  -1.336584216915071E-3  -2.232674974948168E-3  -1.294558518566191E-3  -2.325342968106270E-3  -9.360823631286621E-1   2.586459517478943E-1  
 6.024024024024024E8    -7.744215726852417E-1   5.193486213684082E-1  -1.327680074609816E-3  -2.339988946914673E-3  -1.311011845245957E-3  -2.254208782687783E-3  -9.324651360511780E-1   2.694427669048309E-1  
 6.048048048048048E8    -7.646067142486572E-1   5.307765007019043E-1  -1.329223043285310E-3  -2.400862053036690E-3  -1.298967632465065E-3  -2.342834603041410E-3  -9.284109473228455E-1   2.808721065521240E-1  
 6.072072072072072E8    -7.540233731269836E-1   5.425302982330322E-1  -1.298381714150310E-3  -2.524501876905561E-3  -1.351537182927132E-3  -2.477938076481223E-3  -9.246862530708313E-1   2.915703058242798E-1  
 6.096096096096096E8    -7.424037456512451E-1   5.551943778991699E-1  -1.300216303206980E-3  -2.567120362073183E-3  -1.263445592485368E-3  -2.649612724781036E-3  -9.202800393104553E-1   3.029242753982544E-1  
 6.120120120120120E8    -7.329248785972595E-1   5.644603967666626E-1  -1.242960570380092E-3  -2.657243981957436E-3  -1.251658890396357E-3  -2.636319724842906E-3  -9.167163968086243E-1   3.114465773105621E-1  
 6.144144144144144E8    -7.227514386177063E-1   5.750025510787964E-1  -1.205525943078101E-3  -2.901985542848706E-3  -1.155417296104133E-3  -2.901764120906591E-3  -9.133173227310181E-1   3.214428126811981E-1  
 6.168168168168168E8    -7.113156914710999E-1   5.857118964195252E-1  -1.062071067281067E-3  -3.129601711407304E-3  -1.115533639676869E-3  -3.093436826020479E-3  -9.091562628746033E-1   3.321242928504944E-1  
 6.192192192192192E8    -6.994609236717224E-1   5.957213044166565E-1  -1.008572289720178E-3  -3.521891776472330E-3  -9.629836422391236E-4  -3.445088397711515E-3  -9.044125080108643E-1   3.428071737289429E-1  
 6.216216216216216E8    -6.875985860824585E-1   6.050600409507752E-1  -9.733877377584577E-4  -3.899594536051154E-3  -9.787570452317596E-4  -3.919995389878750E-3  -8.997438549995422E-1   3.533442020416260E-1  
 6.240240240240240E8    -6.753060817718506E-1   6.137841343879700E-1  -9.267529239878058E-4  -4.528721328824759E-3  -9.118330781348050E-4  -4.577218554913998E-3  -8.947332501411438E-1   3.636050522327423E-1  
 6.264264264264264E8    -6.641763448715210E-1   6.222665309906006E-1  -1.125028007663786E-3  -5.262726917862892E-3  -1.101029920391738E-3  -5.274191033095121E-3  -8.896515369415283E-1   3.756050467491150E-1  
 6.288288288288288E8    -6.531224846839905E-1   6.306846141815186E-1  -1.459088292904198E-3  -6.056155078113079E-3  -1.369960256852210E-3  -6.140344776213169E-3  -8.845337033271790E-1   3.864154815673828E-1  
 6.312312312312312E8    -6.428932547569275E-1   6.387588977813721E-1  -2.158476971089840E-3  -7.007366511970758E-3  -2.086454536765814E-3  -6.938051432371140E-3  -8.791975975036621E-1   3.960960209369659E-1  
 6.336336336336336E8    -6.331353187561035E-1   6.474860310554504E-1  -3.013789886608720E-3  -7.715332787483931E-3  -3.038896480575204E-3  -7.723414339125156E-3  -8.741627931594849E-1   4.050852656364441E-1  
 6.360360360360360E8    -6.226793527603149E-1   6.570783853530884E-1  -4.105436149984598E-3  -8.262676186859608E-3  -4.065397661179304E-3  -8.280138485133648E-3  -8.693277835845947E-1   4.134158492088318E-1  
 6.384384384384384E8    -6.111666560173035E-1   6.668480634689331E-1  -5.370578262954950E-3  -8.602487854659557E-3  -5.339360795915127E-3  -8.598256856203079E-3  -8.644043207168579E-1   4.233916997909546E-1  
 6.408408408408408E8    -5.989319086074829E-1   6.769010424613953E-1  -6.670818198472261E-3  -8.641174994409084E-3  -6.581863854080439E-3  -8.714896626770496E-3  -8.592087626457214E-1   4.330833852291107E-1  
 6.432432432432432E8    -5.860295295715332E-1   6.866529583930969E-1  -7.817291654646397E-3  -8.471474982798100E-3  -7.786053232848644E-3  -8.458065800368786E-3  -8.535013794898987E-1   4.424234628677368E-1  
 6.456456456456456E8    -5.718846321105957E-1   6.960365176200867E-1  -8.982701227068901E-3  -8.184722624719143E-3  -8.941461332142353E-3  -8.226760663092136E-3  -8.475234508514404E-1   4.516699016094208E-1  
 6.480480480480480E8    -5.568723678588867E-1   7.052161097526550E-1  -9.964174591004849E-3  -7.724832277745009E-3  -9.915890172123909E-3  -7.752858567982912E-3  -8.415445089340210E-1   4.608211815357208E-1  
 6.504504504504504E8    -5.399695634841919E-1   7.150277495384216E-1  -1.085573900490999E-2  -7.285996805876494E-3  -1.084456965327263E-2  -7.278164383023977E-3  -8.314695358276367E-1   4.711368381977081E-1  
 6.528528528528528E8    -5.226497650146484E-1   7.238070964813232E-1  -1.162667386233807E-2  -6.860705558210611E-3  -1.159560494124889E-2  -6.875757593661547E-3  -8.223202228546143E-1   4.829586446285248E-1  
 6.552552552552552E8    -5.052354335784912E-1   7.315728664398193E-1  -1.241875626146793E-2  -6.503822281956673E-3  -1.234770659357309E-2  -6.551185157150030E-3  -8.159295916557312E-1   4.952644407749176E-1  
 6.576576576576576E8    -4.871286153793335E-1   7.383413314819336E-1  -1.332389749586582E-2  -6.167009938508272E-3  -1.324714254587889E-2  -6.226825062185526E-3  -8.119752407073975E-1   5.050742030143738E-1  
 6.600600600600600E8    -4.669615626335144E-1   7.443830370903015E-1  -1.422792952507734E-2  -5.719344597309828E-3  -1.423533447086811E-2  -5.771439988166094E-3  -8.071363568305969E-1   5.116320252418518E-1  
 6.624624624624624E8    -4.480990171432495E-1   7.506027221679688E-1  -1.515105925500393E-2  -5.088808946311474E-3  -1.507510989904404E-2  -5.182477645576000E-3  -7.993151545524597E-1   5.218040943145752E-1  
 6.648648648648648E8    -4.283984899520874E-1   7.558087110519409E-1  -1.599197648465633E-2  -4.511309321969748E-3  -1.596844941377640E-2  -4.668922629207373E-3  -7.915536761283875E-1   5.317690968513489E-1  
 6.672672672672672E8    -4.083509445190430E-1   7.599673867225647E-1  -1.689242012798786E-2  -3.999955020844936E-3  -1.683210581541061E-2  -4.058565478771925E-3  -7.834940552711487E-1   5.414198040962219E-1  
 6.696696696696696E8    -3.873500227928162E-1   7.634804844856262E-1  -1.783223450183868E-2  -3.360251896083355E-3  -1.778001710772514E-2  -3.429675474762917E-3  -7.756298780441284E-1   5.507734417915344E-1  
 6.720720720720720E8    -3.646580576896668E-1   7.659421563148499E-1  -1.879120245575905E-2  -2.581254579126835E-3  -1.878031343221664E-2  -2.633258467540145E-3  -7.674582004547119E-1   5.602291822433472E-1  
 6.744744744744744E8    -3.420179486274719E-1   7.676963806152344E-1  -1.969979703426361E-2  -1.742189982905984E-3  -1.970067806541920E-2  -1.847938983701170E-3  -7.581354379653931E-1   5.706163048744202E-1  
 6.768768768768768E8    -3.193785250186920E-1   7.680348753929138E-1  -2.061156183481216E-2  -8.983924635685980E-4  -2.064450085163117E-2  -8.648308576084673E-4  -7.488569617271423E-1   5.804499387741089E-1  
 6.792792792792792E8    -2.956336736679077E-1   7.670982480049133E-1  -2.147349715232849E-2   1.041371506289579E-4  -2.153326384723187E-2   8.301400521304458E-5  -7.390328645706177E-1   5.900239944458008E-1  
 6.816816816816816E8    -2.709537446498871E-1   7.647560834884644E-1  -2.240283414721489E-2   1.005674130283296E-3  -2.241263724863529E-2   9.404657175764442E-4  -7.294268608093262E-1   5.998749136924744E-1  
 6.840840840840840E8    -2.452904134988785E-1   7.600598335266113E-1  -2.337934449315071E-2   1.995833357796073E-3  -2.341468632221222E-2   1.902658375911415E-3  -7.193861007690430E-1   6.097184419631958E-1  
 6.864864864864864E8    -2.197778522968292E-1   7.541611194610596E-1  -2.446828037500382E-2   3.256513737142086E-3  -2.445017173886299E-2   3.150176256895065E-3  -7.081217765808106E-1   6.192278861999512E-1  
 6.888888888888888E8    -1.939278393983841E-1   7.467340230941773E-1  -2.550993300974369E-2   4.616199992597103E-3  -2.546418830752373E-2   4.346964880824089E-3  -6.965400576591492E-1   6.295738220214844E-1  
 6.912912912912912E8    -1.688655912876129E-1   7.375171184539795E-1  -2.660788595676422E-2   6.155773531645536E-3  -2.656424604356289E-2   5.846362560987473E-3  -6.846721768379211E-1   6.396011114120483E-1  
 6.936936936936936E8    -1.435009539127350E-1   7.257540822029114E-1  -2.764213085174561E-2   8.015051484107971E-3  -2.754263579845429E-2   7.744358386844397E-3  -6.727575063705444E-1   6.494005322456360E-1  
 6.960960960960960E8    -1.192828118801117E-1   7.126004695892334E-1  -2.837789803743362E-2   9.747529402375221E-3  -2.826453000307083E-2   9.687709622085095E-3  -6.606766581535339E-1   6.594088673591614E-1  
 6.984984984984984E8    -9.690903127193451E-2   6.968632340431213E-1  -2.908590249717236E-2   1.155395992100239E-2  -2.891965582966805E-2   1.180897187441587E-2  -6.449738740921021E-1   6.717386245727539E-1  
 7.009009009009008E8    -7.517325878143311E-2   6.786447167396545E-1  -2.944774366915226E-2   1.333819516003132E-2  -2.929802425205708E-2   1.394494809210300E-2  -6.295928955078125E-1   6.826884150505066E-1  
 7.033033033033032E8    -5.456114187836647E-2   6.572291254997253E-1  -2.969429641962051E-2   1.524230744689703E-2  -2.952388115227222E-2   1.580839790403843E-2  -6.152698993682861E-1   6.910725235939026E-1  
 7.057057057057056E8    -3.509879857301712E-2   6.323557496070862E-1  -3.002002090215683E-2   1.693505793809891E-2  -2.995054982602596E-2   1.705583184957504E-2  -6.038033366203308E-1   6.971815228462219E-1  
 7.081081081081080E8    -1.787035539746285E-2   6.048889756202698E-1  -3.043962083756924E-2   1.872955076396465E-2  -3.053647838532925E-2   1.838621497154236E-2  -5.914319157600403E-1   7.035142183303833E-1  
 7.105105105105104E8    -4.424808081239462E-3   5.766234993934631E-1  -3.092938475310803E-2   2.043615095317364E-2  -3.119578026235104E-2   1.972774229943752E-2  -5.776001811027527E-1   7.106958627700806E-1  
 7.129129129129129E8     4.134883172810078E-3   5.468651652336121E-1  -3.164480626583099E-2   2.184149622917175E-2  -3.203658014535904E-2   2.117708325386047E-2  -5.614750385284424E-1   7.184129357337952E-1  
 7.153153153153153E8     6.982850376516581E-3   5.180817246437073E-1  -3.294305875897408E-2   2.314149402081966E-2  -3.325570374727249E-2   2.264005877077580E-2  -5.429998636245728E-1   7.265112996101379E-1  
 7.177177177177178E8     5.934933666139841E-3   4.910798370838165E-1  -3.494514524936676E-2   2.444968372583389E-2  -3.506708517670631E-2   2.427025698125362E-2  -5.227125287055969E-1   7.342215776443481E-1  
 7.201201201201202E8     3.750900970771909E-3   4.690552651882172E-1  -3.788398951292038E-2   2.613106742501259E-2  -3.793207183480263E-2   2.619453147053719E-2  -5.021930336952210E-1   7.405468821525574E-1  
 7.225225225225226E8     2.222437760792673E-4   4.482515454292297E-1  -4.214190691709518E-2   2.888716943562031E-2  -4.215419664978981E-2   2.901549823582172E-2  -4.799379408359528E-1   7.459667325019836E-1  
 7.249249249249250E8    -1.873814733698964E-3   4.295383989810944E-1  -4.755733162164688E-2   3.413620218634605E-2  -4.795249924063683E-2   3.367502242326737E-2  -4.601628780364990E-1   7.474085688591003E-1  
 7.273273273273274E8    -1.591376028954983E-3   4.107174873352051E-1  -5.268050357699394E-2   4.301592335104942E-2  -5.360769852995873E-2   4.185812175273895E-2  -4.411270618438721E-1   7.478158473968506E-1  
 7.297297297297298E8     6.604640657315031E-5   3.882932066917419E-1  -5.600712075829506E-2   5.479281395673752E-2  -5.705146118998528E-2   5.383473634719849E-2  -4.227707684040070E-1   7.475137114524841E-1  
 7.321321321321322E8    -5.837524076923728E-4   3.602317571640015E-1  -5.610689520835877E-2   6.855627149343491E-2  -5.635734274983406E-2   6.821381300687790E-2  -4.051174223423004E-1   7.472720742225647E-1  
 7.345345345345346E8    -6.854407489299774E-3   3.306480348110199E-1  -5.187910795211792E-2   8.266954123973846E-2  -5.160341784358025E-2   8.276050537824631E-2  -3.888497948646545E-1   7.479317188262940E-1  
 7.369369369369370E8    -1.877966150641441E-2   3.014764189720154E-1  -4.419092833995819E-2   9.535654634237289E-2  -4.337707161903381E-2   9.573380649089813E-2  -3.720797300338745E-1   7.500000000000000E-1  
 7.393393393393394E8    -3.549186885356903E-2   2.733337879180908E-1  -3.415507450699806E-2   1.068316251039505E-1  -3.316074609756470E-2   1.070347577333450E-1  -3.545848727226257E-1   7.524456381797791E-1  
 7.417417417417418E8    -5.757198855280876E-2   2.487595826387405E-1  -2.133369445800781E-2   1.163746044039726E-1  -2.058777771890163E-2   1.163394153118134E-1  -3.366090953350067E-1   7.542361021041870E-1  
 7.441441441441442E8    -8.377115428447723E-2   2.266590744256973E-1  -6.838686764240265E-3   1.231842115521431E-1  -7.318838965147734E-3   1.230665370821953E-1  -3.176587224006653E-1   7.559407353401184E-1  
 7.465465465465466E8    -1.141044571995735E-1   2.104293256998062E-1   7.798828650265932E-3   1.273624747991562E-1   6.868155207484961E-3   1.274136751890183E-1  -2.956106066703796E-1   7.584460973739624E-1  
 7.489489489489490E8    -1.449798643589020E-1   1.993596553802490E-1   2.230313420295715E-2   1.292521059513092E-1   2.119676582515240E-2   1.296301037073135E-1  -2.738291919231415E-1   7.598758935928345E-1  
 7.513513513513514E8    -1.766214966773987E-1   1.916163563728333E-1   3.631091862916946E-2   1.291973739862442E-1   3.503714501857758E-2   1.300160884857178E-1  -2.508507966995239E-1   7.603552341461182E-1  
 7.537537537537538E8    -2.079258412122726E-1   1.884330958127976E-1   5.027015507221222E-2   1.284100413322449E-1   4.903191700577736E-2   1.295571327209473E-1  -2.246220707893372E-1   7.592589259147644E-1  
 7.561561561561562E8    -2.367646098136902E-1   1.898145526647568E-1   6.416720896959305E-2   1.268509775400162E-1   6.362494081258774E-2   1.274683624505997E-1  -1.964856386184692E-1   7.555317282676697E-1  
 7.585585585585586E8    -2.634778618812561E-1   1.965141594409943E-1   7.814989984035492E-2   1.234918981790543E-1   7.807322591543198E-2   1.233991310000420E-1  -1.659969538450241E-1   7.521530389785767E-1  
 7.609609609609610E8    -2.886096537113190E-1   2.052412927150726E-1   9.203679114580154E-2   1.186044961214066E-1   9.158263355493546E-2   1.178203150629997E-1  -1.352996826171875E-1   7.462736964225769E-1  
 7.633633633633634E8    -3.133845329284668E-1   2.148995548486710E-1   1.057631447911263E-1   1.122087240219116E-1   1.048735231161118E-1   1.112595126032829E-1  -1.049183234572411E-1   7.374742031097412E-1  
 7.657657657657658E8    -3.390168249607086E-1   2.280171811580658E-1   1.189901158213615E-1   1.037947237491608E-1   1.178062260150909E-1   1.036533266305924E-1  -7.478964328765869E-2   7.259310483932495E-1  
 7.681681681681682E8    -3.624562621116638E-1   2.452095448970795E-1   1.309890598058701E-1   9.391806274652481E-2   1.302472501993179E-1   9.500794112682343E-2  -4.365301877260208E-2   7.108162641525269E-1  
 7.705705705705706E8    -3.822660446166992E-1   2.666938304901123E-1   1.416539698839188E-1   8.294013142585754E-2   1.410785764455795E-1   8.463368564844132E-2  -1.165224891155958E-2   6.927241086959839E-1  
 7.729729729729730E8    -3.956402838230133E-1   2.898193895816803E-1   1.513809114694595E-1   7.084216177463532E-2   1.516998112201691E-1   7.309171557426453E-2   2.250047959387302E-2   6.719827651977539E-1  
 7.753753753753754E8    -4.042893648147583E-1   3.112606406211853E-1   1.603907197713852E-1   5.798141658306122E-2   1.613222807645798E-1   6.012762337923050E-2   5.787760391831398E-2   6.456786394119263E-1  
 7.777777777777778E8    -4.095287621021271E-1   3.302379250526428E-1   1.691692471504211E-1   4.352823644876480E-2   1.696591973304749E-1   4.545845091342926E-2   9.262402355670929E-2   6.127291321754456E-1  
 7.801801801801802E8    -4.128749668598175E-1   3.471744656562805E-1   1.764945834875107E-1   2.775603346526623E-2   1.761818826198578E-1   2.921163104474545E-2   1.250778436660767E-1   5.730441808700562E-1  
 7.825825825825826E8    -4.133831858634949E-1   3.641157448291779E-1   1.812400072813034E-1   1.058679260313511E-2   1.812526285648346E-1   1.123847439885140E-2   1.552178412675858E-1   5.305544734001160E-1  
 7.849849849849850E8    -4.134878516197205E-1   3.790222108364105E-1   1.840091049671173E-1  -6.844121031463146E-3   1.839392185211182E-1  -6.238933652639389E-3   1.795752346515656E-1   4.831734895706177E-1  
 7.873873873873874E8    -4.145736694335938E-1   3.918522596359253E-1   1.858361214399338E-1  -2.400665171444416E-2   1.849972903728485E-1  -2.310257591307163E-2   1.987839937210083E-1   4.333718717098236E-1  
 7.897897897897898E8    -4.172109365463257E-1   4.053809344768524E-1   1.868401914834976E-1  -4.231924191117287E-2   1.858067810535431E-1  -4.169686511158943E-2   2.138157188892365E-1   3.794947266578674E-1  
 7.921921921921922E8    -4.185729622840881E-1   4.214314818382263E-1   1.851468533277512E-1  -6.307537853717804E-2   1.850454956293106E-1  -6.239098682999611E-2   2.232143878936768E-1   3.217365741729736E-1  
 7.945945945945946E8    -4.202550351619721E-1   4.375279247760773E-1   1.795898824930191E-1  -8.432855457067490E-2   1.801142543554306E-1  -8.249344676733017E-2   2.251009643077850E-1   2.605714499950409E-1  
 7.969969969969970E8    -4.197116196155548E-1   4.529930651187897E-1   1.700643301010132E-1  -1.048446372151375E-1   1.713620871305466E-1  -1.027765795588493E-1   2.191744148731232E-1   1.966807693243027E-1  
 7.993993993993994E8    -4.180116653442383E-1   4.658336937427521E-1   1.570238023996353E-1  -1.230460032820702E-1   1.584298759698868E-1  -1.215772330760956E-1   2.036595493555069E-1   1.312207132577896E-1  
 8.018018018018018E8    -4.163432419300079E-1   4.771984517574310E-1   1.417119652032852E-1  -1.380961239337921E-1   1.427216231822968E-1  -1.373017281293869E-1   1.778722554445267E-1   6.646989285945892E-2  
 8.042042042042042E8    -4.153179228305817E-1   4.890232980251312E-1   1.261544823646545E-1  -1.506951898336411E-1   1.268018633127213E-1  -1.500219106674194E-1   1.421690583229065E-1   5.677562672644854E-3  
 8.066066066066066E8    -4.129937291145325E-1   5.016445517539978E-1   1.090122535824776E-1  -1.618312746286392E-1   1.092769354581833E-1  -1.614124327898026E-1   9.801778197288513E-2  -4.848957061767578E-2  
 8.090090090090090E8    -4.115725457668304E-1   5.141517519950867E-1   9.056251496076584E-2  -1.702153682708740E-1   9.029410034418106E-2  -1.701610982418060E-1   4.683901742100716E-2  -9.486883878707886E-2  
 8.114114114114114E8    -4.091250598430634E-1   5.276511907577515E-1   7.075087726116180E-2  -1.760664880275726E-1   7.048720866441727E-2  -1.763401031494141E-1  -1.059474702924490E-2  -1.330563873052597E-1  
 8.138138138138138E8    -4.067488312721252E-1   5.404568314552307E-1   5.044881254434586E-2  -1.784688383340836E-1   5.024693161249161E-2  -1.788906902074814E-1  -7.021574676036835E-2  -1.614778488874435E-1  
 8.162162162162162E8    -4.047884345054627E-1   5.531754493713379E-1   3.078702278435230E-2  -1.775905638933182E-1   3.066357783973217E-2  -1.778540760278702E-1  -1.298168301582336E-1  -1.818601936101914E-1  
 8.186186186186186E8    -4.027967154979706E-1   5.670968294143677E-1   1.293379627168179E-2  -1.741897910833359E-1   1.269511319696903E-2  -1.743074059486389E-1  -1.916164010763168E-1  -1.947928667068481E-1  
 8.210210210210210E8    -3.981649279594421E-1   5.792277455329895E-1  -4.402391612529755E-3  -1.685105711221695E-1  -3.930371254682541E-3  -1.687492728233337E-1  -2.472023516893387E-1  -1.982019245624542E-1  
 8.234234234234234E8    -3.939720094203949E-1   5.905229449272156E-1  -1.953913643956184E-2  -1.601128429174423E-1  -1.905512623488903E-2  -1.600992828607559E-1  -3.054874539375305E-1  -1.951869726181030E-1  
