#  HZ   S   RI   R     50.00 
! Rohde & Schwarz ZVB8 2Ports - Version 2.81 - 1145.1010k08 SN: 100113
! Date: 2016-05-17 22:37:03
! Measurements: S11 S21 S12 S22 
! 
 6.000000000000000E8    -8.094120025634766E-1   4.864907562732697E-1  -6.727023865096271E-4  -1.485468004830182E-3  -7.117498316802084E-4  -1.486850203946233E-3  -9.458351731300354E-1   2.361657172441483E-1  
 6.024024024024024E8    -8.016334176063538E-1   4.968679845333099E-1  -7.572474423795939E-4  -1.529625733383000E-3  -6.323219859041274E-4  -1.443164306692779E-3  -9.426673054695129E-1   2.468166798353195E-1  
 6.048048048048048E8    -7.933446764945984E-1   5.079820156097412E-1  -6.877182750031352E-4  -1.540260505862534E-3  -6.019616266712546E-4  -1.476723817177117E-3  -9.394203424453735E-1   2.573515176773071E-1  
 6.072072072072072E8    -7.845277190208435E-1   5.196102857589722E-1  -5.883103003725410E-4  -1.520906225778163E-3  -5.386571865528822E-4  -1.579194678924978E-3  -9.360125660896301E-1   2.672881782054901E-1  
 6.096096096096096E8    -7.749320268630981E-1   5.316904187202454E-1  -5.755994352512062E-4  -1.557120587676764E-3  -5.966654280200601E-4  -1.612908323295414E-3  -9.328213334083557E-1   2.775797247886658E-1  
 6.120120120120120E8    -7.676612138748169E-1   5.410956740379334E-1  -5.666873767040670E-4  -1.713949488475919E-3  -5.101571441628039E-4  -1.687500858679414E-3  -9.298546910285950E-1   2.855269312858582E-1  
 6.144144144144144E8    -7.595034837722778E-1   5.511889457702637E-1  -4.625661240424961E-4  -1.739586470648646E-3  -5.050239269621670E-4  -1.761312247253954E-3  -9.270566701889038E-1   2.946751117706299E-1  
 6.168168168168168E8    -7.506611943244934E-1   5.619736909866333E-1  -3.391642239876092E-4  -1.902138814330101E-3  -3.930308157578111E-4  -1.892820000648499E-3  -9.239101409912109E-1   3.045356273651123E-1  
 6.192192192192192E8    -7.413692474365234E-1   5.718644261360169E-1  -2.592906821519136E-4  -2.022205386310816E-3  -2.865394926629961E-4  -2.051312010735273E-3  -9.204651117324829E-1   3.139796555042267E-1  
 6.216216216216216E8    -7.316168546676636E-1   5.819511413574219E-1  -1.147657967521809E-4  -2.343074418604374E-3  -1.686460600467399E-4  -2.317558741196990E-3  -9.168010354042053E-1   3.234739899635315E-1  
 6.240240240240240E8    -7.215660810470581E-1   5.917770266532898E-1   1.986597635550425E-5  -2.654132200405002E-3  -8.766375685809180E-5  -2.669632900506258E-3  -9.130091667175293E-1   3.329470455646515E-1  
 6.264264264264264E8    -7.124036550521851E-1   6.011455655097961E-1  -8.848965808283538E-5  -3.163213841617107E-3  -6.378081889124587E-5  -3.145418828353286E-3  -9.084554910659790E-1   3.444984257221222E-1  
 6.288288288288288E8    -7.032057046890259E-1   6.101239323616028E-1  -3.004964673891664E-4  -3.710971912369132E-3  -2.444047713652253E-4  -3.727621631696820E-3  -9.048266410827637E-1   3.544326126575470E-1  
 6.312312312312312E8    -6.949107646942139E-1   6.187048554420471E-1  -5.517857498489320E-4  -4.224956035614014E-3  -5.222565960139036E-4  -4.217276815325022E-3  -9.005351662635803E-1   3.636580407619476E-1  
 6.336336336336336E8    -6.867191791534424E-1   6.276749372482300E-1  -1.038379035890102E-3  -4.660939332097769E-3  -1.052236766554415E-3  -4.621251486241818E-3  -8.967223167419434E-1   3.720612227916718E-1  
 6.360360360360360E8    -6.782906651496887E-1   6.370301246643066E-1  -1.618837472051382E-3  -4.939650185406208E-3  -1.597663271240890E-3  -4.929061047732830E-3  -8.927803635597229E-1   3.794830143451691E-1  
 6.384384384384384E8    -6.691777110099793E-1   6.461791992187500E-1  -2.190378960222006E-3  -5.170277319848537E-3  -2.147938823327422E-3  -5.211458075791597E-3  -8.894909024238586E-1   3.885439932346344E-1  
 6.408408408408408E8    -6.596277356147766E-1   6.559303402900696E-1  -2.845712704584003E-3  -5.297522060573101E-3  -2.831058343872428E-3  -5.265323910862207E-3  -8.855807185173035E-1   3.973145484924316E-1  
 6.432432432432432E8    -6.496858596801758E-1   6.652479767799377E-1  -3.418879583477974E-3  -5.318226292729378E-3  -3.439973574131727E-3  -5.303759127855301E-3  -8.810924887657166E-1   4.058561921119690E-1  
 6.456456456456456E8    -6.390786170959473E-1   6.742944717407227E-1  -3.945094533264637E-3  -5.195604171603918E-3  -3.918351139873266E-3  -5.183126311749220E-3  -8.766818046569824E-1   4.145703613758087E-1  
 6.480480480480480E8    -6.280092000961304E-1   6.830355525016785E-1  -4.452886525541544E-3  -5.035980138927698E-3  -4.419338423758745E-3  -5.068772472441196E-3  -8.719872236251831E-1   4.228779971599579E-1  
 6.504504504504504E8    -6.160245537757874E-1   6.931880116462708E-1  -4.809430334717035E-3  -4.915060009807348E-3  -4.854207858443260E-3  -4.916964564472437E-3  -8.635417819023132E-1   4.319631457328796E-1  
 6.528528528528528E8    -6.040839552879334E-1   7.027495503425598E-1  -5.298267584294081E-3  -4.777020774781704E-3  -5.250085610896349E-3  -4.775352310389280E-3  -8.557013273239136E-1   4.432989954948425E-1  
 6.552552552552552E8    -5.920452475547791E-1   7.113751769065857E-1  -5.608648061752319E-3  -4.577754531055689E-3  -5.614198278635740E-3  -4.584090318530798E-3  -8.514652848243713E-1   4.545897841453552E-1  
 6.576576576576576E8    -5.790730118751526E-1   7.193380594253540E-1  -5.982647184282541E-3  -4.434392787516117E-3  -5.956168752163649E-3  -4.492365289479494E-3  -8.492930531501770E-1   4.630779325962067E-1  
 6.600600600600600E8    -5.647778511047363E-1   7.275719642639160E-1  -6.385562941431999E-3  -4.325001034885645E-3  -6.365288514643908E-3  -4.341693129390478E-3  -8.462221026420593E-1   4.687093198299408E-1  
 6.624624624624624E8    -5.517907738685608E-1   7.358805537223816E-1  -6.760417949408293E-3  -4.190516192466021E-3  -6.723653059452772E-3  -4.195093177258968E-3  -8.407169580459595E-1   4.777878820896149E-1  
 6.648648648648648E8    -5.384163856506348E-1   7.437544465065002E-1  -7.073532789945602E-3  -3.955639433115721E-3  -7.041490171104670E-3  -4.015904385596514E-3  -8.351046442985535E-1   4.867716431617737E-1  
 6.672672672672672E8    -5.249527096748352E-1   7.511280179023743E-1  -7.480435539036989E-3  -3.798140678554773E-3  -7.470022886991501E-3  -3.818604629486799E-3  -8.294500112533569E-1   4.951141774654388E-1  
 6.696696696696696E8    -5.110651254653931E-1   7.584329843521118E-1  -7.820396684110165E-3  -3.626380348578095E-3  -7.800594437867403E-3  -3.655603621155024E-3  -8.240516185760498E-1   5.034342408180237E-1  
 6.720720720720720E8    -4.961543083190918E-1   7.654390931129456E-1  -8.206570520997047E-3  -3.481191350147128E-3  -8.165738545358181E-3  -3.490456379950047E-3  -8.187139034271240E-1   5.116917490959168E-1  
 6.744744744744744E8    -4.808695614337921E-1   7.721388936042786E-1  -8.491368032991886E-3  -3.239064011722803E-3  -8.524826727807522E-3  -3.255916759371758E-3  -8.121384978294373E-1   5.209667682647705E-1  
 6.768768768768768E8    -4.652068912982941E-1   7.785235643386841E-1  -8.914585225284100E-3  -3.031056374311447E-3  -8.843722753226757E-3  -3.034122986719012E-3  -8.056247830390930E-1   5.296952724456787E-1  
 6.792792792792792E8    -4.489881098270416E-1   7.841418385505676E-1  -9.244282729923725E-3  -2.822851529344916E-3  -9.230880066752434E-3  -2.862105611711741E-3  -7.991243600845337E-1   5.381020307540894E-1  
 6.816816816816816E8    -4.325539469718933E-1   7.892185449600220E-1  -9.576136246323586E-3  -2.577206352725625E-3  -9.590134955942631E-3  -2.604363486170769E-3  -7.924413084983826E-1   5.469169616699219E-1  
 6.840840840840840E8    -4.156908988952637E-1   7.937061190605164E-1  -9.867830201983452E-3  -2.374122152104974E-3  -9.893788024783135E-3  -2.439013915136457E-3  -7.858617305755615E-1   5.556600093841553E-1  
 6.864864864864864E8    -3.980970382690430E-1   7.985039353370667E-1  -1.026047766208649E-2  -2.131016459316015E-3  -1.027508452534676E-2  -2.121257595717907E-3  -7.786509990692139E-1   5.640267729759216E-1  
 6.888888888888888E8    -3.809641003608704E-1   8.030762076377869E-1  -1.068365480750799E-2  -1.923540490679443E-3  -1.060092821717262E-2  -2.020379528403282E-3  -7.708437442779541E-1   5.731400847434998E-1  
 6.912912912912912E8    -3.635903298854828E-1   8.068884611129761E-1  -1.104818563908339E-2  -1.687472220510244E-3  -1.105951797217131E-2  -1.736049074679613E-3  -7.634866833686829E-1   5.822604894638062E-1  
 6.936936936936936E8    -3.464761674404144E-1   8.105124831199646E-1  -1.146347355097532E-2  -1.299944357015193E-3  -1.148914732038975E-2  -1.364606898277998E-3  -7.559882998466492E-1   5.911214351654053E-1  
 6.960960960960960E8    -3.285209238529205E-1   8.133795261383057E-1  -1.174957584589720E-2  -9.853857336565852E-4  -1.173073519021273E-2  -9.296057978644967E-4  -7.486601471900940E-1   6.002553105354309E-1  
 6.984984984984984E8    -3.112822771072388E-1   8.154273033142090E-1  -1.201315689831972E-2  -6.501302705146372E-4  -1.200432889163494E-2  -5.316111491993070E-4  -7.386961579322815E-1   6.116923689842224E-1  
 7.009009009009008E8    -2.933819591999054E-1   8.166437745094299E-1  -1.226112805306912E-2  -4.552744503598660E-4  -1.228780020028353E-2  -1.832235866459087E-4  -7.290106415748596E-1   6.224468946456909E-1  
 7.033033033033032E8    -2.750272750854492E-1   8.170193433761597E-1  -1.242715399712324E-2  -2.470858744345605E-4  -1.245304290205240E-2  -3.586218008422293E-5  -7.209401726722717E-1   6.303133964538574E-1  
 7.057057057057056E8    -2.558482289314270E-1   8.160760402679443E-1  -1.265170425176621E-2  -2.670979883987457E-4  -1.258877199143171E-2  -1.107683201553300E-4  -7.152864336967468E-1   6.349246501922607E-1  
 7.081081081081080E8    -2.350847572088242E-1   8.144521117210388E-1  -1.298336498439312E-2  -2.131322253262624E-4  -1.296240091323853E-2  -2.549189666751772E-4  -7.091057300567627E-1   6.407676935195923E-1  
 7.105105105105104E8    -2.147622406482697E-1   8.122961521148682E-1  -1.343119051307440E-2  -2.255349099868909E-4  -1.340142078697681E-2  -3.451718657743186E-4  -7.021098136901856E-1   6.476195454597473E-1  
 7.129129129129129E8    -1.960390955209732E-1   8.087372779846191E-1  -1.374883763492107E-2  -2.418084914097562E-4  -1.376842707395554E-2  -4.983279504813254E-4  -6.937466263771057E-1   6.551439762115479E-1  
 7.153153153153153E8    -1.789791584014893E-1   8.035559654235840E-1  -1.425347663462162E-2  -6.681525846943259E-4  -1.423699874430895E-2  -8.010428282432258E-4  -6.840494275093079E-1   6.641318798065186E-1  
 7.177177177177178E8    -1.625482141971588E-1   7.977688908576965E-1  -1.493889931589365E-2  -1.271009212359786E-3  -1.494501344859600E-2  -1.347407232969999E-3  -6.728329062461853E-1   6.733112931251526E-1  
 7.201201201201202E8    -1.460191905498505E-1   7.921624779701233E-1  -1.606365852057934E-2  -2.097532385960221E-3  -1.603522524237633E-2  -2.165510784834623E-3  -6.619750857353210E-1   6.820158958435059E-1  
 7.225225225225226E8    -1.319411098957062E-1   7.868849039077759E-1  -1.786799728870392E-2  -3.059976734220982E-3  -1.785886473953724E-2  -3.058398142457008E-3  -6.500478386878967E-1   6.911398768424988E-1  
 7.249249249249250E8    -1.171199753880501E-1   7.829248905181885E-1  -2.051920071244240E-2  -3.624093951657414E-3  -2.052935399115086E-2  -3.837464842945337E-3  -6.402486562728882E-1   6.969820857048035E-1  
 7.273273273273274E8    -1.015136763453484E-1   7.803956866264343E-1  -2.396407723426819E-2  -3.403149778023362E-3  -2.384485490620136E-2  -3.841160098090768E-3  -6.305369734764099E-1   7.024919390678406E-1  
 7.297297297297298E8    -8.510584384202957E-2   7.777749300003052E-1  -2.761174365878105E-2  -2.283353824168444E-3  -2.754903584718704E-2  -2.701644087210298E-3  -6.205890774726868E-1   7.083395719528198E-1  
 7.321321321321322E8    -6.770324707031250E-2   7.737188339233398E-1  -3.118481859564781E-2  -2.971757785417140E-4  -3.115358389914036E-2  -3.152626159135252E-4  -6.106001138687134E-1   7.148215770721436E-1  
 7.345345345345346E8    -4.839304462075234E-2   7.683260440826416E-1  -3.437477722764015E-2   2.621418097987771E-3  -3.419151902198792E-2   2.797164488583803E-3  -6.009998321533203E-1   7.218332290649414E-1  
 7.369369369369370E8    -2.829344384372234E-2   7.608437538146973E-1  -3.683549165725708E-2   6.169817410409451E-3  -3.671449795365334E-2   6.446386221796274E-3  -5.908379554748535E-1   7.291184663772583E-1  
 7.393393393393394E8    -7.493289187550545E-3   7.509716749191284E-1  -3.879518061876297E-2   1.013718172907829E-2  -3.871157765388489E-2   1.045095361769199E-2  -5.807487368583679E-1   7.364097833633423E-1  
 7.417417417417418E8     1.341687515377998E-2   7.385455369949341E-1  -4.010518640279770E-2   1.445756573230028E-2  -4.006928950548172E-2   1.462071947753429E-2  -5.709473490715027E-1   7.427297234535217E-1  
 7.441441441441442E8     3.388024866580963E-2   7.232863903045654E-1  -4.082445427775383E-2   1.875559985637665E-2  -4.087678343057632E-2   1.864192821085453E-2  -5.614667534828186E-1   7.483208775520325E-1  
 7.465465465465466E8     5.013690516352654E-2   7.072160243988037E-1  -4.120853170752525E-2   2.294277213513851E-2  -4.137556254863739E-2   2.272428199648857E-2  -5.495249629020691E-1   7.557626366615295E-1  
 7.489489489489490E8     6.503535807132721E-2   6.899570226669312E-1  -4.132212325930595E-2   2.711578831076622E-2  -4.153231531381607E-2   2.689315937459469E-2  -5.391308069229126E-1   7.623211741447449E-1  
 7.513513513513514E8     7.986689358949661E-2   6.704920530319214E-1  -4.131299629807472E-2   3.143976628780365E-2  -4.161428287625313E-2   3.116144239902496E-2  -5.286272764205933E-1   7.683010101318359E-1  
 7.537537537537538E8     9.484665095806122E-2   6.487852931022644E-1  -4.085588082671166E-2   3.613349422812462E-2  -4.135031625628471E-2   3.594017401337624E-2  -5.166432261466980E-1   7.744203209877014E-1  
 7.561561561561562E8     1.070782542228699E-1   6.257205009460449E-1  -4.009670391678810E-2   4.110056906938553E-2  -4.024146124720573E-2   4.094482585787773E-2  -5.043504834175110E-1   7.789363265037537E-1  
 7.585585585585586E8     1.163662597537041E-1   6.037738919258118E-1  -3.853327780961990E-2   4.598784074187279E-2  -3.849285095930100E-2   4.577481374144554E-2  -4.897655844688416E-1   7.859647870063782E-1  
 7.609609609609610E8     1.238276064395905E-1   5.819625854492188E-1  -3.642946481704712E-2   5.058835819363594E-2  -3.629602864384651E-2   5.035303533077240E-2  -4.764515757560730E-1   7.923510074615479E-1  
 7.633633633633634E8     1.306185275316238E-1   5.600208640098572E-1  -3.405166789889336E-2   5.500677973031998E-2  -3.403989598155022E-2   5.465918034315109E-2  -4.638806879520416E-1   7.976120114326477E-1  
 7.657657657657658E8     1.370436251163483E-1   5.351250767707825E-1  -3.165460377931595E-2   5.945199728012085E-2  -3.187918663024902E-2   5.908265709877014E-2  -4.528013467788696E-1   8.021683692932129E-1  
 7.681681681681682E8     1.404232680797577E-1   5.075966715812683E-1  -2.893705293536186E-2   6.423360854387283E-2  -2.934893220663071E-2   6.419027596712112E-2  -4.429801702499390E-1   8.059691786766052E-1  
 7.705705705705706E8     1.362950801849365E-1   4.811405539512634E-1  -2.530926279723644E-2   6.920517235994339E-2  -2.601581439375877E-2   6.917144358158112E-2  -4.320433735847473E-1   8.094227910041809E-1  
 7.729729729729730E8     1.292638182640076E-1   4.562203288078308E-1  -2.059052698314190E-2   7.372040301561356E-2  -2.150084078311920E-2   7.405188679695129E-2  -4.208177030086517E-1   8.149591088294983E-1  
 7.753753753753754E8     1.197840422391892E-1   4.331629872322083E-1  -1.538161840289831E-2   7.777884602546692E-2  -1.619713008403778E-2   7.830394804477692E-2  -4.062716066837311E-1   8.211154937744141E-1  
 7.777777777777778E8     1.086296290159226E-1   4.125925898551941E-1  -9.603112936019898E-3   8.137713372707367E-2  -1.025971118360758E-2   8.168043196201325E-2  -3.889497518539429E-1   8.253312706947327E-1  
 7.801801801801802E8     9.603618085384369E-2   3.947336375713348E-1  -3.658710746094585E-3   8.429934084415436E-2  -4.100344609469175E-3   8.405604213476181E-2  -3.701485693454742E-1   8.263360857963562E-1  
 7.825825825825826E8     8.372983336448669E-2   3.802268505096436E-1   2.666946733370423E-3   8.629672229290009E-2   2.477617468684912E-3   8.625508844852448E-2  -3.515246212482452E-1   8.302220702171326E-1  
 7.849849849849850E8     7.232844084501267E-2   3.683533072471619E-1   8.811283856630325E-3   8.780691027641296E-2   8.254683576524258E-3   8.764658123254776E-2  -3.375060558319092E-1   8.312960863113403E-1  
 7.873873873873874E8     6.208169460296631E-2   3.561479151248932E-1   1.427109073847532E-2   8.939985930919647E-2   1.378982421010733E-2   8.900222182273865E-2  -3.242078125476837E-1   8.328540921211243E-1  
 7.897897897897898E8     5.102174356579781E-2   3.419019877910614E-1   2.019148692488670E-2   9.156315028667450E-2   1.979034021496773E-2   9.124510735273361E-2  -3.105478882789612E-1   8.366154432296753E-1  
 7.921921921921922E8     3.675988316535950E-2   3.281338810920715E-1   2.753280662000179E-2   9.355448931455612E-2   2.708394266664982E-2   9.377853572368622E-2  -2.968359589576721E-1   8.419463634490967E-1  
 7.945945945945946E8     1.810448803007603E-2   3.190575540065765E-1   3.578828647732735E-2   9.443803876638413E-2   3.491346165537834E-2   9.482004493474960E-2  -2.811267077922821E-1   8.435152173042297E-1  
 7.969969969969970E8    -2.027512528002262E-3   3.130551278591156E-1   4.453150182962418E-2   9.425249695777893E-2   4.352546110749245E-2   9.485308825969696E-2  -2.646523118019104E-1   8.457143902778626E-1  
 7.993993993993994E8    -2.185633406043053E-2   3.121850788593292E-1   5.313581973314285E-2   9.269531816244125E-2   5.248818174004555E-2   9.330175071954727E-2  -2.470894008874893E-1   8.479370474815369E-1  
 8.018018018018018E8    -3.772675246000290E-2   3.146133124828339E-1   6.105788797140122E-2   8.994425833225250E-2   6.088132783770561E-2   9.033662825822830E-2  -2.286307811737061E-1   8.493331074714661E-1  
 8.042042042042042E8    -5.016614869236946E-2   3.182331621646881E-1   6.844434887170792E-2   8.702258020639420E-2   6.839603185653687E-2   8.717636764049530E-2  -2.115964442491531E-1   8.497745990753174E-1  
 8.066066066066066E8    -6.038257852196693E-2   3.229571878910065E-1   7.604433596134186E-2   8.313224464654923E-2   7.610923051834106E-2   8.344936370849609E-2  -1.921570897102356E-1   8.507323861122131E-1  
 8.090090090090090E8    -6.943660229444504E-2   3.267623782157898E-1   8.298944681882858E-2   7.854230701923370E-2   8.309611678123474E-2   7.872715592384338E-2  -1.731088012456894E-1   8.505775928497315E-1  
 8.114114114114114E8    -7.719352841377258E-2   3.307555317878723E-1   8.953791856765747E-2   7.340357452630997E-2   8.959642797708511E-2   7.359723746776581E-2  -1.539127677679062E-1   8.495920300483704E-1  
 8.138138138138138E8    -8.267007023096085E-2   3.333856165409088E-1   9.547130763530731E-2   6.778176873922348E-2   9.555476903915405E-2   6.802500039339066E-2  -1.351049840450287E-1   8.484452366828919E-1  
 8.162162162162162E8    -8.853624761104584E-2   3.329683542251587E-1   1.003408730030060E-1   6.195387616753578E-2   1.004043966531754E-1   6.228946149349213E-2  -1.151304692029953E-1   8.469273447990418E-1  
 8.186186186186186E8    -9.847514331340790E-2   3.332681953907013E-1   1.048944294452667E-1   5.663058906793594E-2   1.049216613173485E-1   5.696240067481995E-2  -9.368731081485748E-2   8.449519872665405E-1  
 8.210210210210210E8    -1.076977029442787E-1   3.364418148994446E-1   1.096704825758934E-1   5.083550140261650E-2   1.096211969852448E-1   5.114674568176270E-2  -7.184742391109467E-2   8.420320749282837E-1  
 8.234234234234234E8    -1.143783405423164E-1   3.382042944431305E-1   1.138460263609886E-1   4.491395503282547E-2   1.138067469000816E-1   4.517263546586037E-2  -4.920718073844910E-2   8.373731970787048E-1  
