#  HZ   S   RI   R     50.00 
! Rohde & Schwarz ZVB8 2Ports - Version 2.81 - 1145.1010k08 SN: 100113
! Date: 2016-05-17 22:37:54
! Measurements: S11 S21 S12 S22 
! 
 6.000000000000000E8    -7.835610508918762E-1   5.087147355079651E-1  -1.526155392639339E-3  -2.483638469129801E-3  -1.499379286542535E-3  -2.476406050845981E-3  -9.304670095443726E-1   2.704916298389435E-1  
 6.024024024024024E8    -7.742211818695068E-1   5.195926427841187E-1  -1.521035912446678E-3  -2.489335136488080E-3  -1.520809717476368E-3  -2.588235540315509E-3  -9.263302087783814E-1   2.821181118488312E-1  
 6.048048048048048E8    -7.644417881965637E-1   5.311082005500794E-1  -1.551309018395841E-3  -2.648344961926341E-3  -1.558574032969773E-3  -2.606639172881842E-3  -9.218865633010864E-1   2.936136126518250E-1  
 6.072072072072072E8    -7.534769177436829E-1   5.432381033897400E-1  -1.572218840010464E-3  -2.666647313162684E-3  -1.554616610519588E-3  -2.614629454910755E-3  -9.177245497703552E-1   3.048804104328156E-1  
 6.096096096096096E8    -7.423099875450134E-1   5.550315380096436E-1  -1.560352160595357E-3  -2.736654598265886E-3  -1.489362097345293E-3  -2.832807367667556E-3  -9.130628705024719E-1   3.161922693252564E-1  
 6.120120120120120E8    -7.330148220062256E-1   5.644835829734802E-1  -1.416853861883283E-3  -2.824857132509351E-3  -1.441610860638320E-3  -2.943952800706029E-3  -9.089556336402893E-1   3.252471089363098E-1  
 6.144144144144144E8    -7.226452827453613E-1   5.746353864669800E-1  -1.338936039246619E-3  -3.131286008283496E-3  -1.338300528004766E-3  -3.156683873385191E-3  -9.048363566398621E-1   3.356573879718781E-1  
 6.168168168168168E8    -7.114105224609375E-1   5.851696729660034E-1  -1.229286193847656E-3  -3.395390231162310E-3  -1.291381660848856E-3  -3.440763568505645E-3  -9.000571966171265E-1   3.466249108314514E-1  
 6.192192192192192E8    -6.999216079711914E-1   5.952740311622620E-1  -1.233410206623375E-3  -3.959565889090300E-3  -1.110535231418908E-3  -3.812609706073999E-3  -8.951391577720642E-1   3.576864004135132E-1  
 6.216216216216216E8    -6.880696415901184E-1   6.046656370162964E-1  -1.087718643248081E-3  -4.409444518387318E-3  -1.073385938070715E-3  -4.407886415719986E-3  -8.897519111633301E-1   3.682967722415924E-1  
 6.240240240240240E8    -6.755957603454590E-1   6.138669848442078E-1  -1.150197698734701E-3  -5.094378255307674E-3  -1.089022145606577E-3  -5.074289161711931E-3  -8.839049339294434E-1   3.791209459304810E-1  
 6.264264264264264E8    -6.642356514930725E-1   6.224974989891052E-1  -1.386412885040045E-3  -6.009402219206095E-3  -1.293021487072110E-3  -6.031873635947704E-3  -8.781356811523438E-1   3.916780352592468E-1  
 6.288288288288288E8    -6.532808542251587E-1   6.306096315383911E-1  -1.876767957583070E-3  -6.985114421695471E-3  -1.811713096685708E-3  -6.972377188503742E-3  -8.719635009765625E-1   4.029625654220581E-1  
 6.312312312312312E8    -6.431969404220581E-1   6.388664245605469E-1  -2.656699158251286E-3  -7.932535372674465E-3  -2.651485847309232E-3  -7.954584434628487E-3  -8.657826781272888E-1   4.133461117744446E-1  
 6.336336336336336E8    -6.329684257507324E-1   6.476941704750061E-1  -3.690968733280897E-3  -8.762382902204990E-3  -3.708242671564221E-3  -8.691246621310711E-3  -8.599193692207336E-1   4.228990674018860E-1  
 6.360360360360360E8    -6.227255463600159E-1   6.571588516235352E-1  -4.957981873303652E-3  -9.295188821852207E-3  -4.989814944565296E-3  -9.399503469467163E-3  -8.542994856834412E-1   4.315403103828430E-1  
 6.384384384384384E8    -6.113263964653015E-1   6.668137311935425E-1  -6.478600669652224E-3  -9.677079506218433E-3  -6.397286430001259E-3  -9.691054001450539E-3  -8.486262559890747E-1   4.421360194683075E-1  
 6.408408408408408E8    -5.990595817565918E-1   6.766906380653381E-1  -7.926247082650662E-3  -9.659852832555771E-3  -7.805622182786465E-3  -9.699011221528053E-3  -8.422789573669434E-1   4.522434473037720E-1  
 6.432432432432432E8    -5.859519839286804E-1   6.865830421447754E-1  -9.291376918554306E-3  -9.587631560862064E-3  -9.181890636682510E-3  -9.625211358070374E-3  -8.357105255126953E-1   4.622029960155487E-1  
 6.456456456456456E8    -5.720753073692322E-1   6.960744857788086E-1  -1.060871686786413E-2  -9.222743101418018E-3  -1.057607214897871E-2  -9.192029945552349E-3  -8.285159468650818E-1   4.719337821006775E-1  
 6.480480480480480E8    -5.568979978561401E-1   7.051363587379456E-1  -1.170702651143074E-2  -8.740698918700218E-3  -1.177163608372212E-2  -8.763218298554421E-3  -8.211702704429627E-1   4.819588363170624E-1  
 6.504504504504504E8    -5.402413606643677E-1   7.148525714874268E-1  -1.286986842751503E-2  -8.260412141680718E-3  -1.286519225686789E-2  -8.265347220003605E-3  -8.100035786628723E-1   4.925963580608368E-1  
 6.528528528528528E8    -5.232985615730286E-1   7.237998843193054E-1  -1.389158610254526E-2  -7.787899114191532E-3  -1.391521561890841E-2  -7.805114611983299E-3  -7.994771003723145E-1   5.055132508277893E-1  
 6.552552552552552E8    -5.056311488151550E-1   7.317260503768921E-1  -1.498543750494719E-2  -7.351643405854702E-3  -1.495648548007011E-2  -7.361560128629208E-3  -7.914170026779175E-1   5.185209512710571E-1  
 6.576576576576576E8    -4.872053563594818E-1   7.386009097099304E-1  -1.607107371091843E-2  -6.857776548713446E-3  -1.604649983346462E-2  -6.888309027999640E-3  -7.859069108963013E-1   5.287777185440064E-1  
 6.600600600600600E8    -4.667276740074158E-1   7.450333833694458E-1  -1.732520945370197E-2  -6.222001276910305E-3  -1.733322441577911E-2  -6.265215575695038E-3  -7.796032428741455E-1   5.360162854194641E-1  
 6.624624624624624E8    -4.476631581783295E-1   7.510474920272827E-1  -1.843775808811188E-2  -5.525525659322739E-3  -1.835217513144016E-2  -5.664285272359848E-3  -7.700188159942627E-1   5.469062924385071E-1  
 6.648648648648648E8    -4.278946220874786E-1   7.562808990478516E-1  -1.968804560601711E-2  -4.781899042427540E-3  -1.950242370367050E-2  -4.879863932728767E-3  -7.601006627082825E-1   5.575872659683228E-1  
 6.672672672672672E8    -4.075492322444916E-1   7.602365016937256E-1  -2.085303142666817E-2  -3.980394452810288E-3  -2.074263989925385E-2  -4.059083759784699E-3  -7.500781416893005E-1   5.680729150772095E-1  
 6.696696696696696E8    -3.862985670566559E-1   7.634115219116211E-1  -2.206389419734478E-2  -3.023518715053797E-3  -2.204673551023006E-2  -3.101336536929011E-3  -7.398253083229065E-1   5.781680345535278E-1  
 6.720720720720720E8    -3.640867769718170E-1   7.658232450485230E-1  -2.333701029419899E-2  -2.014674711972475E-3  -2.330982312560082E-2  -2.079890342429280E-3  -7.294811606407166E-1   5.883088111877441E-1  
 6.744744744744744E8    -3.415725529193878E-1   7.672823667526245E-1  -2.456276305019856E-2  -7.804167107678950E-4  -2.457690052688122E-2  -7.604044512845576E-4  -7.175136208534241E-1   5.992045998573303E-1  
 6.768768768768768E8    -3.186784386634827E-1   7.675313353538513E-1  -2.575738541781902E-2   6.097684963606298E-4  -2.576861344277859E-2   6.163603975437582E-4  -7.049980163574219E-1   6.094954609870911E-1  
 6.792792792792792E8    -2.953327596187592E-1   7.663079500198364E-1  -2.679212763905525E-2   2.135857706889510E-3  -2.687907218933106E-2   2.090113703161478E-3  -6.923750042915344E-1   6.197670102119446E-1  
 6.816816816816816E8    -2.714431285858154E-1   7.641452550888062E-1  -2.778919227421284E-2   3.617421491071582E-3  -2.784033305943012E-2   3.564538434147835E-3  -6.792296171188355E-1   6.302285194396973E-1  
 6.840840840840840E8    -2.458147406578064E-1   7.602742314338684E-1  -2.883077226579189E-2   5.033434368669987E-3  -2.893988974392414E-2   5.056275520473719E-3  -6.655970215797424E-1   6.406865715980530E-1  
 6.864864864864864E8    -2.194952815771103E-1   7.545347809791565E-1  -3.011952526867390E-2   6.747152190655470E-3  -3.006473183631897E-2   6.557441782206297E-3  -6.512367725372315E-1   6.505818963050842E-1  
 6.888888888888888E8    -1.932553350925446E-1   7.470273971557617E-1  -3.137429431080818E-2   8.629099465906620E-3  -3.134956955909729E-2   8.261977694928646E-3  -6.355109214782715E-1   6.608592867851257E-1  
 6.912912912912912E8    -1.675852090120316E-1   7.370849251747131E-1  -3.276572376489639E-2   1.086081191897392E-2  -3.269155696034432E-2   1.040106918662787E-2  -6.192420721054077E-1   6.711370944976807E-1  
 6.936936936936936E8    -1.424004733562470E-1   7.244077920913696E-1  -3.384893015027046E-2   1.335213612765074E-2  -3.386024758219719E-2   1.302464772015810E-2  -6.022937893867493E-1   6.810851097106934E-1  
 6.960960960960960E8    -1.187874451279640E-1   7.109547853469849E-1  -3.469442948698998E-2   1.595395803451538E-2  -3.470838442444801E-2   1.580590754747391E-2  -5.846666097640991E-1   6.909461021423340E-1  
 6.984984984984984E8    -9.660325199365616E-2   6.948443651199341E-1  -3.555912524461746E-2   1.852423883974552E-2  -3.524433821439743E-2   1.885365694761276E-2  -5.633445978164673E-1   7.022554874420166E-1  
 7.009009009009008E8    -7.622098177671433E-2   6.766293644905090E-1  -3.602210432291031E-2   2.131830528378487E-2  -3.562181815505028E-2   2.209847420454025E-2  -5.416852831840515E-1   7.122113704681397E-1  
 7.033033033033032E8    -5.584228411316872E-2   6.554340720176697E-1  -3.601643443107605E-2   2.398466691374779E-2  -3.561311960220337E-2   2.467785030603409E-2  -5.210738778114319E-1   7.197045087814331E-1  
 7.057057057057056E8    -3.642326965928078E-2   6.312092542648315E-1  -3.636266663670540E-2   2.640215493738651E-2  -3.612712770700455E-2   2.665643021464348E-2  -5.024248957633972E-1   7.246840596199036E-1  
 7.081081081081080E8    -1.855343207716942E-2   6.036765575408936E-1  -3.679331019520760E-2   2.928992360830307E-2  -3.696979209780693E-2   2.907458320260048E-2  -4.819398820400238E-1   7.299095988273621E-1  
 7.105105105105104E8    -5.396479275077581E-3   5.749333500862122E-1  -3.711717575788498E-2   3.239000216126442E-2  -3.773092851042748E-2   3.172897547483444E-2  -4.590301811695099E-1   7.346791028976440E-1  
 7.129129129129129E8     2.244022907689214E-3   5.453009009361267E-1  -3.749684989452362E-2   3.521663695573807E-2  -3.836993128061295E-2   3.447559475898743E-2  -4.333187043666840E-1   7.388902306556702E-1  
 7.153153153153153E8     4.694212228059769E-3   5.173438191413879E-1  -3.862445801496506E-2   3.756783902645111E-2  -3.912192583084106E-2   3.705381602048874E-2  -4.049381911754608E-1   7.418451905250549E-1  
 7.177177177177178E8     4.130255896598101E-3   4.905549883842468E-1  -4.075267910957336E-2   3.994685038924217E-2  -4.107622057199478E-2   3.993373364210129E-2  -3.741481900215149E-1   7.430058121681213E-1  
 7.201201201201202E8     1.530363108031452E-3   4.672012329101563E-1  -4.446496441960335E-2   4.329836741089821E-2  -4.453183338046074E-2   4.334509372711182E-2  -3.435382544994354E-1   7.407841086387634E-1  
 7.225225225225226E8    -3.064775839447975E-3   4.468354582786560E-1  -4.971667379140854E-2   4.900513961911202E-2  -4.965186864137650E-2   4.910627007484436E-2  -3.122098445892334E-1   7.353066205978394E-1  
 7.249249249249250E8    -6.004271097481251E-3   4.293702840805054E-1  -5.525442957878113E-2   5.881789699196816E-2  -5.579686164855957E-2   5.820662155747414E-2  -2.837574481964111E-1   7.246195673942566E-1  
 7.273273273273274E8    -5.205008666962385E-3   4.120166599750519E-1  -5.920588970184326E-2   7.328166067600250E-2  -6.057097390294075E-2   7.203415036201477E-2  -2.575354576110840E-1   7.116911411285400E-1  
 7.297297297297298E8    -3.535497002303600E-3   3.887621462345123E-1  -5.952760577201843E-2   9.168604016304016E-2  -6.113317608833313E-2   9.029544144868851E-2  -2.336176633834839E-1   6.979086995124817E-1  
 7.321321321321322E8    -5.885905586183071E-3   3.603572547435761E-1  -5.405951663851738E-2   1.117018386721611E-1  -5.437992140650749E-2   1.114206090569496E-1  -2.114389687776566E-1   6.844541430473328E-1  
 7.345345345345346E8    -1.442184671759605E-2   3.310330212116242E-1  -4.113405197858810E-2   1.304562240839005E-1  -4.083071649074554E-2   1.305184811353684E-1  -1.904973238706589E-1   6.727266907691956E-1  
 7.369369369369370E8    -2.824654430150986E-2   3.031980395317078E-1  -2.397497184574604E-2   1.453472375869751E-1  -2.302015013992786E-2   1.454620361328125E-1  -1.681172251701355E-1   6.622875332832336E-1  
 7.393393393393394E8    -4.751331731677055E-2   2.764866054058075E-1  -3.637295449152589E-3   1.570856720209122E-1  -2.603584202006459E-3   1.571525335311890E-1  -1.440804749727249E-1   6.511487364768982E-1  
 7.417417417417418E8    -6.993809342384338E-2   2.566141784191132E-1   1.924049481749535E-2   1.643879562616348E-1   2.010560221970081E-2   1.643792390823364E-1  -1.185768023133278E-1   6.376767754554749E-1  
 7.441441441441442E8    -9.102358669042587E-2   2.411123961210251E-1   4.265218600630760E-2   1.675671637058258E-1   4.307129979133606E-2   1.676794141530991E-1  -9.181216359138489E-2   6.211812496185303E-1  
 7.465465465465466E8    -1.176200136542320E-1   2.271667718887329E-1   6.627832353115082E-2   1.669973284006119E-1   6.646504998207092E-2   1.674597710371018E-1  -6.305202841758728E-2   6.029537320137024E-1  
 7.489489489489490E8    -1.450369209051132E-1   2.167605161666870E-1   9.017498046159744E-2   1.629822254180908E-1   9.024133533239365E-2   1.636446267366409E-1  -3.592887520790100E-2   5.816134810447693E-1  
 7.513513513513514E8    -1.723464876413345E-1   2.097112387418747E-1   1.129722371697426E-1   1.546693891286850E-1   1.126490384340286E-1   1.556094735860825E-1  -8.303469978272915E-3   5.574997067451477E-1  
 7.537537537537538E8    -1.999902576208115E-1   2.064991891384125E-1   1.347567290067673E-1   1.439735889434815E-1   1.339508891105652E-1   1.456930041313171E-1   2.137444354593754E-2   5.277846455574036E-1  
 7.561561561561562E8    -2.260720431804657E-1   2.079039067029953E-1   1.559152454137802E-1   1.306245625019074E-1   1.552521586418152E-1   1.318572312593460E-1   5.150033906102181E-2   4.911532402038574E-1  
 7.585585585585586E8    -2.498433142900467E-1   2.145042121410370E-1   1.749445497989655E-1   1.134573668241501E-1   1.742830723524094E-1   1.139489188790321E-1   8.055513352155685E-2   4.497627019882202E-1  
 7.609609609609610E8    -2.709395587444305E-1   2.209431231021881E-1   1.920703351497650E-1   9.324233978986740E-2   1.904018521308899E-1   9.409703314304352E-2   1.043913736939430E-1   4.032187759876251E-1  
 7.633633633633634E8    -2.913431525230408E-1   2.269883751869202E-1   2.071306109428406E-1   7.041241973638535E-2   2.050602883100510E-1   7.163099199533463E-2   1.217248365283012E-1   3.477008938789368E-1  
 7.657657657657658E8    -3.121350109577179E-1   2.344148457050324E-1   2.184136956930161E-1   4.461049661040306E-2   2.169170677661896E-1   4.615880548954010E-2   1.316022723913193E-1   2.876198887825012E-1  
 7.681681681681682E8    -3.308171331882477E-1   2.443721443414688E-1   2.252168208360672E-1   1.757952757179737E-2   2.248620986938477E-1   1.812588423490524E-2   1.330698877573013E-1   2.213327884674072E-1  
 7.705705705705706E8    -3.506483435630798E-1   2.591893374919891E-1   2.267400771379471E-1  -9.957545436918736E-3   2.271603345870972E-1  -9.475233964622021E-3   1.247212514281273E-1   1.543948203325272E-1  
 7.729729729729730E8    -3.652974963188171E-1   2.755203545093536E-1   2.239863276481628E-1  -3.816015645861626E-2   2.256051301956177E-1  -3.793301805853844E-2   1.058502942323685E-1   8.606376498937607E-2  
 7.753753753753754E8    -3.770063817501068E-1   2.898391783237457E-1   2.171586602926254E-1  -6.613193452358246E-2   2.191250324249268E-1  -6.569828838109970E-2   7.503452897071838E-2   2.095575071871281E-2  
 7.777777777777778E8    -3.878055214881897E-1   3.036482930183411E-1   2.058424204587936E-1  -9.288238734006882E-2   2.073632329702377E-1  -9.195325523614883E-2   3.513227775692940E-2  -3.689275309443474E-2  
 7.801801801801802E8    -3.967849910259247E-1   3.158980011940002E-1   1.905753463506699E-1  -1.168475970625877E-1   1.912219822406769E-1  -1.148938089609146E-1  -1.325839105993509E-2  -8.790171146392822E-2  
 7.825825825825826E8    -4.054205715656281E-1   3.305191397666931E-1   1.711002737283707E-1  -1.373236477375031E-1   1.724263876676559E-1  -1.358108818531036E-1  -6.923485547304153E-2  -1.311656981706619E-1  
 7.849849849849850E8    -4.127008318901062E-1   3.439652621746063E-1   1.499774307012558E-1  -1.530930995941162E-1   1.511892080307007E-1  -1.514652073383331E-1  -1.304463595151901E-1  -1.642955094575882E-1  
 7.873873873873874E8    -4.204634726047516E-1   3.572281301021576E-1   1.284118294715881E-1  -1.646465361118317E-1   1.286486387252808E-1  -1.629606038331986E-1  -1.970555335283279E-1  -1.876590400934219E-1  
 7.897897897897898E8    -4.303067028522492E-1   3.725841045379639E-1   1.067865863442421E-1  -1.727721393108368E-1   1.067790091037750E-1  -1.713829487562180E-1  -2.643683850765228E-1  -1.996853202581406E-1  
 7.921921921921922E8    -4.389222264289856E-1   3.918406367301941E-1   8.455430716276169E-2  -1.780827641487122E-1   8.468345552682877E-2  -1.774603128433228E-1  -3.294332921504974E-1  -2.017886638641357E-1  
 7.945945945945946E8    -4.467900097370148E-1   4.130645692348480E-1   6.250314414501190E-2  -1.796748489141464E-1   6.322935968637466E-2  -1.787340193986893E-1  -3.885788023471832E-1  -1.956668198108673E-1  
 7.969969969969970E8    -4.507041275501251E-1   4.355792105197907E-1   4.176398366689682E-2  -1.776239722967148E-1   4.295056685805321E-2  -1.770979017019272E-1  -4.450174272060394E-1  -1.830063164234161E-1  
 7.993993993993994E8    -4.501957297325134E-1   4.566112756729126E-1   2.349537424743176E-2  -1.729811578989029E-1   2.378134988248348E-2  -1.724690645933151E-1  -4.983289539813995E-1  -1.631284505128861E-1  
 8.018018018018018E8    -4.476307630538940E-1   4.756211340427399E-1   7.244269829243422E-3  -1.660987585783005E-1   7.385062519460917E-3  -1.660457700490952E-1  -5.440896749496460E-1  -1.389515250921249E-1  
 8.042042042042042E8    -4.443112909793854E-1   4.943854808807373E-1  -6.485473830252886E-3  -1.587541997432709E-1  -6.221480667591095E-3  -1.587954908609390E-1  -5.847216844558716E-1  -1.126362904906273E-1  
 8.066066066066066E8    -4.393430352210999E-1   5.126460194587708E-1  -1.903082989156246E-2  -1.507939249277115E-1  -1.840005069971085E-2  -1.511546969413757E-1  -6.191613674163818E-1  -8.326365053653717E-2  
 8.090090090090090E8    -4.335356354713440E-1   5.289669632911682E-1  -2.971196919679642E-2  -1.425423622131348E-1  -2.933831699192524E-2  -1.429951190948486E-1  -6.486606001853943E-1  -5.263276025652885E-2  
 8.114114114114114E8    -4.263480007648468E-1   5.447559356689453E-1  -3.918825834989548E-2  -1.338351666927338E-1  -3.891606256365776E-2  -1.343186944723129E-1  -6.751768589019775E-1  -2.058364637196064E-2  
 8.138138138138138E8    -4.192224144935608E-1   5.582872629165649E-1  -4.728609696030617E-2  -1.248701661825180E-1  -4.713064059615135E-2  -1.251449733972549E-1  -6.968821287155151E-1   1.094190403819084E-2  
 8.162162162162162E8    -4.130416214466095E-1   5.707145333290100E-1  -5.400215834379196E-2  -1.158689111471176E-1  -5.389608815312386E-2  -1.157991960644722E-1  -7.153852581977844E-1   4.056896269321442E-2  
 8.186186186186186E8    -4.073458313941956E-1   5.843209624290466E-1  -5.927069857716560E-2  -1.069652363657951E-1  -5.922947451472282E-2  -1.068427488207817E-1  -7.319684028625488E-1   7.121358066797257E-2  
 8.210210210210210E8    -3.990528285503388E-1   5.977931618690491E-1  -6.402161717414856E-2  -9.751533716917038E-2  -6.387347728013992E-2  -9.795027971267700E-2  -7.444658279418945E-1   1.004403755068779E-1  
 8.234234234234234E8    -3.909385204315186E-1   6.071828007698059E-1  -6.732017546892166E-2  -8.790501207113266E-2  -6.717614829540253E-2  -8.847086876630783E-2  -7.547668814659119E-1   1.292384564876556E-1  
