#  HZ   S   RI   R     50.00 
! Rohde & Schwarz ZVB8 2Ports - Version 2.81 - 1145.1010k08 SN: 100113
! Date: 2016-05-17 22:38:27
! Measurements: S11 S21 S12 S22 
! 
 6.000000000000000E8    -7.843254208564758E-1   5.077338814735413E-1  -2.476457273587585E-3  -3.433555830270052E-3  -2.378734527155757E-3  -3.441321197897196E-3  -9.039449095726013E-1   3.156278431415558E-1  
 6.024024024024024E8    -7.745691537857056E-1   5.187399387359619E-1  -2.606502734124661E-3  -3.553211456164718E-3  -2.524218289181590E-3  -3.513916861265898E-3  -8.972647190093994E-1   3.294466137886047E-1  
 6.048048048048048E8    -7.644153833389282E-1   5.307198762893677E-1  -2.642837585881352E-3  -3.555446630343795E-3  -2.578180050477386E-3  -3.588586114346981E-3  -8.905310034751892E-1   3.427967131137848E-1  
 6.072072072072072E8    -7.537230253219605E-1   5.424442291259766E-1  -2.667779801413417E-3  -3.679273650050163E-3  -2.584689529612660E-3  -3.674995386973023E-3  -8.836244344711304E-1   3.558939695358276E-1  
 6.096096096096096E8    -7.423117160797119E-1   5.545715093612671E-1  -2.707967069000006E-3  -3.831228706985712E-3  -2.579807303845882E-3  -3.872556379064918E-3  -8.762884140014648E-1   3.693011999130249E-1  
 6.120120120120120E8    -7.333320379257202E-1   5.637735724449158E-1  -2.602201886475086E-3  -4.088770598173142E-3  -2.608566312119365E-3  -4.059511702507734E-3  -8.689718246459961E-1   3.806256055831909E-1  
 6.144144144144144E8    -7.224873900413513E-1   5.744698643684387E-1  -2.586188958957791E-3  -4.474879708141089E-3  -2.611975884065032E-3  -4.490347113460302E-3  -8.617832660675049E-1   3.935847282409668E-1  
 6.168168168168168E8    -7.113123536109924E-1   5.847918987274170E-1  -2.581221982836723E-3  -5.006949882954359E-3  -2.506039571017027E-3  -5.067240446805954E-3  -8.535273671150208E-1   4.065907001495361E-1  
 6.192192192192192E8    -6.997913122177124E-1   5.945259332656860E-1  -2.632948337122798E-3  -5.617853719741106E-3  -2.595423022285104E-3  -5.713633727282286E-3  -8.441528081893921E-1   4.201667010784149E-1  
 6.216216216216216E8    -6.879107356071472E-1   6.040445566177368E-1  -2.666751854121685E-3  -6.376642733812332E-3  -2.692565321922302E-3  -6.410898640751839E-3  -8.338851928710938E-1   4.339529871940613E-1  
 6.240240240240240E8    -6.758893728256226E-1   6.130638122558594E-1  -2.868128707632422E-3  -7.488811388611794E-3  -2.921888139098883E-3  -7.426086347550154E-3  -8.236604332923889E-1   4.464797079563141E-1  
 6.264264264264264E8    -6.646817922592163E-1   6.220147609710693E-1  -3.414355451241136E-3  -8.828500285744667E-3  -3.306774888187647E-3  -8.871830068528652E-3  -8.123359084129334E-1   4.610636234283447E-1  
 6.288288288288288E8    -6.536184549331665E-1   6.302515864372253E-1  -4.505873657763004E-3  -1.027232594788075E-2  -4.411133471876383E-3  -1.032069418579340E-2  -8.006977438926697E-1   4.742532074451447E-1  
 6.312312312312312E8    -6.435000300407410E-1   6.383981108665466E-1  -6.036386825144291E-3  -1.162530016154051E-2  -5.981328897178173E-3  -1.166677568107843E-2  -7.884003520011902E-1   4.867738187313080E-1  
 6.336336336336336E8    -6.338052749633789E-1   6.475586295127869E-1  -8.051006123423576E-3  -1.275161281228066E-2  -7.954808883368969E-3  -1.277035381644964E-2  -7.763281464576721E-1   4.981466829776764E-1  
 6.360360360360360E8    -6.232830286026001E-1   6.570651531219482E-1  -1.040927786380053E-2  -1.343658193945885E-2  -1.032773591578007E-2  -1.353777106851339E-2  -7.640270590782166E-1   5.089622735977173E-1  
 6.384384384384384E8    -6.117042303085327E-1   6.670765280723572E-1  -1.300702430307865E-2  -1.370224542915821E-2  -1.291069854050875E-2  -1.375713385641575E-2  -7.509950995445252E-1   5.215237736701965E-1  
 6.408408408408408E8    -5.991015434265137E-1   6.769585609436035E-1  -1.550490409135819E-2  -1.345491409301758E-2  -1.545664668083191E-2  -1.352360472083092E-2  -7.370941042900085E-1   5.337107777595520E-1  
 6.432432432432432E8    -5.855380296707153E-1   6.869673728942871E-1  -1.805971935391426E-2  -1.293543074280024E-2  -1.796737499535084E-2  -1.295790728181601E-2  -7.224891781806946E-1   5.455431938171387E-1  
 6.456456456456456E8    -5.713594555854797E-1   6.964149475097656E-1  -2.062296867370606E-2  -1.207679323852062E-2  -2.051829546689987E-2  -1.213757507503033E-2  -7.063619494438171E-1   5.574157238006592E-1  
 6.480480480480480E8    -5.562988519668579E-1   7.048927545547485E-1  -2.288936451077461E-2  -1.084495056420565E-2  -2.279629185795784E-2  -1.103241927921772E-2  -6.887112259864807E-1   5.696756243705750E-1  
 6.504504504504504E8    -5.393112301826477E-1   7.148135900497437E-1  -2.507651410996914E-2  -9.612317197024822E-3  -2.495844662189484E-2  -9.753919206559658E-3  -6.660447716712952E-1   5.822416543960571E-1  
 6.528528528528528E8    -5.222177505493164E-1   7.232158780097961E-1  -2.723857946693897E-2  -8.323518559336662E-3  -2.723666653037071E-2  -8.377756923437119E-3  -6.427342295646668E-1   5.966855287551880E-1  
 6.552552552552552E8    -5.047599673271179E-1   7.310650944709778E-1  -2.951668761670589E-2  -6.911895703524351E-3  -2.956286817789078E-2  -6.946141365915537E-3  -6.208667755126953E-1   6.112863421440125E-1  
 6.576576576576576E8    -4.862121641635895E-1   7.375611066818237E-1  -3.199592977762222E-2  -5.276403389871121E-3  -3.191494569182396E-2  -5.375423002988100E-3  -6.000801920890808E-1   6.225696206092835E-1  
 6.600600600600600E8    -4.658592343330383E-1   7.437401413917542E-1  -3.467716649174690E-2  -3.140845568850637E-3  -3.456342965364456E-2  -3.259075107052922E-3  -5.763723850250244E-1   6.295738220214844E-1  
 6.624624624624624E8    -4.466597735881805E-1   7.496045231819153E-1  -3.725744783878326E-2  -6.295648636296392E-4  -3.721380233764648E-2  -8.365120738744736E-4  -5.473420023918152E-1   6.391518115997315E-1  
 6.648648648648648E8    -4.273016750812531E-1   7.544245719909668E-1  -3.974128514528275E-2   2.206172561272979E-3  -3.966801613569260E-2   1.896318281069398E-3  -5.172384977340698E-1   6.471884250640869E-1  
 6.672672672672672E8    -4.072851240634918E-1   7.584304213523865E-1  -4.245600104331970E-2   5.523357540369034E-3  -4.236074909567833E-2   5.173430778086186E-3  -4.838263988494873E-1   6.532019972801209E-1  
 6.696696696696696E8    -3.860460519790649E-1   7.615227699279785E-1  -4.497196152806282E-2   9.306286461651325E-3  -4.498960077762604E-2   9.059858508408070E-3  -4.479536712169647E-1   6.572319865226746E-1  
 6.720720720720720E8    -3.638250529766083E-1   7.637609839439392E-1  -4.738358408212662E-2   1.343316957354546E-2  -4.754881560802460E-2   1.349676121026278E-2  -4.090854823589325E-1   6.585482954978943E-1  
 6.744744744744744E8    -3.415324687957764E-1   7.648213505744934E-1  -4.957619309425354E-2   1.863311417400837E-2  -4.978962615132332E-2   1.876389421522617E-2  -3.677905499935150E-1   6.564932465553284E-1  
 6.768768768768768E8    -3.188363015651703E-1   7.646052241325378E-1  -5.111860111355782E-2   2.458377741277218E-2  -5.136288702487946E-2   2.476242929697037E-2  -3.234566450119019E-1   6.496394276618958E-1  
 6.792792792792792E8    -2.957178950309753E-1   7.628769278526306E-1  -5.204851925373077E-2   3.100420534610748E-2  -5.229603499174118E-2   3.112305141985416E-2  -2.776485681533814E-1   6.381640434265137E-1  
 6.816816816816816E8    -2.714476287364960E-1   7.600572705268860E-1  -5.263305827975273E-2   3.791799396276474E-2  -5.270520597696304E-2   3.789725899696350E-2  -2.298792749643326E-1   6.212058067321777E-1  
 6.840840840840840E8    -2.464796900749207E-1   7.551411390304565E-1  -5.254300311207771E-2   4.559972137212753E-2  -5.264572426676750E-2   4.518143460154533E-2  -1.822007000446320E-1   5.984150767326355E-1  
 6.864864864864864E8    -2.215425372123718E-1   7.491397857666016E-1  -5.151914060115814E-2   5.440237745642662E-2  -5.179519578814507E-2   5.363350361585617E-2  -1.306468397378922E-1   5.642937421798706E-1  
 6.888888888888888E8    -1.967295557260513E-1   7.413740158081055E-1  -4.895858094096184E-2   6.404782831668854E-2  -4.945140331983566E-2   6.309094280004501E-2  -8.068364113569260E-2   5.199909210205078E-1  
 6.912912912912912E8    -1.725508719682694E-1   7.313932180404663E-1  -4.453015327453613E-2   7.425629347562790E-2  -4.517103731632233E-2   7.350333780050278E-2  -3.537563979625702E-2   4.642273783683777E-1  
 6.936936936936936E8    -1.499970853328705E-1   7.202857136726379E-1  -3.746840730309486E-2   8.398298174142838E-2  -3.775836527347565E-2   8.393439650535584E-2   1.707389252260327E-3   3.976137340068817E-1  
 6.960960960960960E8    -1.274729073047638E-1   7.075201869010925E-1  -2.819574065506458E-2   9.232375025749207E-2  -2.767624519765377E-2   9.294954687356949E-2   2.818991988897324E-2   3.219915032386780E-1  
 6.984984984984984E8    -1.067671105265617E-1   6.924638152122498E-1  -1.717941649258137E-2   9.915566444396973E-2  -1.493229251354933E-2   1.000342890620232E-1   4.174319282174110E-2   2.379603087902069E-1  
 7.009009009009008E8    -8.666795492172241E-2   6.752910614013672E-1  -3.813483985140920E-3   1.036630794405937E-1  -1.421382650732994E-3   1.038454100489616E-1   3.881174698472023E-2   1.567833721637726E-1  
 7.033033033033032E8    -6.687016040086746E-2   6.568207740783691E-1   1.008168049156666E-2   1.046335622668266E-1   1.117620151489973E-2   1.041540801525116E-1   2.064588107168675E-2   7.682413607835770E-2  
 7.057057057057056E8    -4.739675298333168E-2   6.345894336700440E-1   2.307795174419880E-2   1.029774695634842E-1   2.299784868955612E-2   1.028335317969322E-1  -1.814129017293453E-2  -7.786987349390984E-3  
 7.081081081081080E8    -2.919701673090458E-2   6.088346242904663E-1   3.509780764579773E-2   9.984699636697769E-2   3.404044732451439E-2   1.000764667987824E-1  -7.356024533510208E-2  -8.163649588823319E-2  
 7.105105105105104E8    -1.542321406304836E-2   5.834870338439941E-1   4.525502771139145E-2   9.483972936868668E-2   4.395925626158714E-2   9.543503075838089E-2  -1.417446583509445E-1  -1.400570720434189E-1  
 7.129129129129129E8    -6.325340364128351E-3   5.560760498046875E-1   5.300069972872734E-2   8.924887329339981E-2   5.234362557530403E-2   8.963438123464584E-2  -2.171876430511475E-1  -1.807645857334137E-1  
 7.153153153153153E8    -2.612654585391283E-3   5.272966623306274E-1   5.905278027057648E-2   8.352221548557282E-2   5.882705748081207E-2   8.344390988349915E-2  -2.950674593448639E-1  -2.034408301115036E-1  
 7.177177177177178E8    -3.568489337339997E-3   5.003055334091187E-1   6.335955858230591E-2   7.860885560512543E-2   6.378494203090668E-2   7.799939066171646E-2  -3.716850280761719E-1  -2.092339545488358E-1  
 7.201201201201202E8    -7.338050287216902E-3   4.763408601284027E-1   6.691273301839829E-2   7.523812353610992E-2   6.701295822858810E-2   7.514564692974091E-2  -4.375424683094025E-1  -2.005049288272858E-1  
 7.225225225225226E8    -1.334741897881031E-2   4.577244222164154E-1   7.131300866603851E-2   7.502873241901398E-2   7.113416492938995E-2   7.483968138694763E-2  -4.970376789569855E-1  -1.811402142047882E-1  
 7.249249249249250E8    -1.793709583580494E-2   4.432692527770996E-1   7.955081015825272E-2   7.574405521154404E-2   7.827764004468918E-2   7.693587243556976E-2  -5.444875359535217E-1  -1.568729579448700E-1  
 7.273273273273274E8    -1.818064972758293E-2   4.310567378997803E-1   9.206608682870865E-2   7.486975938081741E-2   9.015306830406189E-2   7.730685174465179E-2  -5.824107527732849E-1  -1.302748173475266E-1  
 7.297297297297298E8    -1.459330134093761E-2   4.176720678806305E-1   1.070755869150162E-1   7.062544673681259E-2   1.058756560087204E-1   7.283894717693329E-2  -6.135303974151611E-1  -1.031956896185875E-1  
 7.321321321321322E8    -8.489253930747509E-3   4.012792706489563E-1   1.220860928297043E-1   6.196862831711769E-2   1.223293691873550E-1   6.213489547371864E-2  -6.376807689666748E-1  -7.815258949995041E-2  
 7.345345345345346E8    -3.577113617211580E-3   3.783754110336304E-1   1.355213075876236E-1   4.690859839320183E-2   1.359978020191193E-1   4.644175618886948E-2  -6.582396626472473E-1  -5.632728338241577E-2  
 7.369369369369370E8    -1.894630142487586E-3   3.500523269176483E-1   1.451042741537094E-1   2.827839553356171E-2   1.451745927333832E-1   2.714522555470467E-2  -6.779105067253113E-1  -3.726216778159142E-2  
 7.393393393393394E8    -5.487482994794846E-3   3.174127340316773E-1   1.501305103302002E-1   7.400073111057282E-3   1.497437953948975E-1   6.308990996330977E-3  -6.977161169052124E-1  -1.966092362999916E-2  
 7.417417417417418E8    -1.591712795197964E-2   2.839677333831787E-1   1.500099301338196E-1  -1.408598385751247E-2   1.491577327251434E-1  -1.458900049328804E-2  -7.174071669578552E-1  -1.953018829226494E-3  
 7.441441441441442E8    -3.279418498277664E-2   2.507635354995728E-1   1.451063305139542E-1  -3.436532616615295E-2   1.447742134332657E-1  -3.341433405876160E-2  -7.349762320518494E-1   1.424975693225861E-2  
 7.465465465465466E8    -5.800434574484825E-2   2.214719057083130E-1   1.368421763181686E-1  -5.189935863018036E-2   1.370377838611603E-1  -5.078996345400810E-2  -7.510228157043457E-1   3.422346338629723E-2  
 7.489489489489490E8    -8.737748116254807E-2   1.971590816974640E-1   1.264542192220688E-1  -6.639950722455978E-2   1.274404823780060E-1  -6.557328253984451E-2  -7.657350897789002E-1   5.282353982329369E-2  
 7.513513513513514E8    -1.182811409235001E-1   1.790352165699005E-1   1.146697252988815E-1  -7.806628942489624E-2   1.154905185103416E-1  -7.765836268663406E-2  -7.808802723884583E-1   7.326620072126389E-2  
 7.537537537537538E8    -1.539869010448456E-1   1.653540581464768E-1   1.018559262156487E-1  -8.800740540027618E-2   1.030425801873207E-1  -8.756979554891586E-2  -7.949787378311157E-1   9.501706063747406E-2  
 7.561561561561562E8    -1.901928037405014E-1   1.576527506113052E-1   8.873745799064636E-2  -9.547224640846252E-2   8.937893062829971E-2  -9.501215815544128E-2  -8.064374327659607E-1   1.163842082023621E-1  
 7.585585585585586E8    -2.255232334136963E-1   1.574464738368988E-1   7.575964927673340E-2  -1.001994088292122E-1   7.567076385021210E-2  -9.939401596784592E-2  -8.150131106376648E-1   1.405563205480576E-1  
 7.609609609609610E8    -2.607381939888001E-1   1.604245156049728E-1   6.351161003112793E-2  -1.030253618955612E-1   6.316620111465454E-2  -1.018901616334915E-1  -8.226199746131897E-1   1.647403985261917E-1  
 7.633633633633634E8    -2.957906424999237E-1   1.669302433729172E-1   5.177105218172073E-2  -1.045992970466614E-1   5.167309194803238E-2  -1.033609583973885E-1  -8.289460539817810E-1   1.871628314256668E-1  
 7.657657657657658E8    -3.274405300617218E-1   1.773469895124435E-1   4.081896692514420E-2  -1.049432083964348E-1   4.091060534119606E-2  -1.042626053094864E-1  -8.346108794212341E-1   2.064006626605988E-1  
 7.681681681681682E8    -3.592522144317627E-1   1.945059895515442E-1   3.002615086734295E-2  -1.038993671536446E-1   3.041381947696209E-2  -1.037981733679771E-1  -8.400666713714600E-1   2.233557254076004E-1  
 7.705705705705706E8    -3.870301842689514E-1   2.186299264431000E-1   1.998304761946201E-2  -1.012981906533241E-1   2.092217467725277E-2  -1.013900935649872E-1  -8.430390954017639E-1   2.415373772382736E-1  
 7.729729729729730E8    -4.064935445785523E-1   2.451607733964920E-1   1.108357962220907E-2  -9.754115343093872E-2   1.254543289542198E-2  -9.824760258197784E-2  -8.464889526367188E-1   2.618791162967682E-1  
 7.753753753753754E8    -4.202416837215424E-1   2.700712382793427E-1   3.793761832639575E-3  -9.387584775686264E-2   5.173843819648027E-3  -9.463852643966675E-2  -8.475448489189148E-1   2.830594480037689E-1  
 7.777777777777778E8    -4.301359355449677E-1   2.925363779067993E-1  -2.742169657722116E-3  -9.010944515466690E-2  -1.612739986740053E-3  -9.065403044223785E-2  -8.448565006256104E-1   3.050782978534699E-1  
 7.801801801801802E8    -4.370660185813904E-1   3.131517171859741E-1  -8.516862988471985E-3  -8.645585179328919E-2  -7.663800381124020E-3  -8.612717688083649E-2  -8.390403985977173E-1   3.243743479251862E-1  
 7.825825825825826E8    -4.417243003845215E-1   3.338102102279663E-1  -1.364312041550875E-2  -8.199553936719894E-2  -1.319078076630831E-2  -8.169660717248917E-2  -8.353157043457031E-1   3.440144062042236E-1  
 7.849849849849850E8    -4.457090795040131E-1   3.528703451156616E-1  -1.801824197173119E-2  -7.735038548707962E-2  -1.734567061066628E-2  -7.712104916572571E-2  -8.316614031791687E-1   3.590738475322723E-1  
 7.873873873873874E8    -4.497256278991699E-1   3.688040375709534E-1  -2.128983475267887E-2  -7.341139018535614E-2  -2.072998508810997E-2  -7.283894717693329E-2  -8.284508585929871E-1   3.727637529373169E-1  
 7.897897897897898E8    -4.562643766403198E-1   3.865491449832916E-1  -2.421582676470280E-2  -6.985023617744446E-2  -2.374052442610264E-2  -6.928171962499619E-2  -8.269178867340088E-1   3.867059946060181E-1  
 7.921921921921922E8    -4.610117375850678E-1   4.091510772705078E-1  -2.741960622370243E-2  -6.602644175291061E-2  -2.707294374704361E-2  -6.633033603429794E-2  -8.267863988876343E-1   4.016138315200806E-1  
 7.945945945945946E8    -4.644898772239685E-1   4.321640729904175E-1  -3.035439737141132E-2  -6.198817491531372E-2  -2.966811321675777E-2  -6.247172132134438E-2  -8.221364617347717E-1   4.158712029457092E-1  
 7.969969969969970E8    -4.645666182041168E-1   4.550389945507050E-1  -3.258274868130684E-2  -5.788476392626762E-2  -3.198859095573425E-2  -5.858175829052925E-2  -8.175309896469116E-1   4.306170940399170E-1  
 7.993993993993994E8    -4.611099958419800E-1   4.762308299541473E-1  -3.429687768220902E-2  -5.394749715924263E-2  -3.385388478636742E-2  -5.452602356672287E-2  -8.122738003730774E-1   4.456907212734222E-1  
 8.018018018018018E8    -4.556123316287994E-1   4.939264655113220E-1  -3.546010330319405E-2  -5.035082995891571E-2  -3.534321486949921E-2  -5.066278576850891E-2  -8.064812421798706E-1   4.601254761219025E-1  
 8.042042042042042E8    -4.496513009071350E-1   5.118454098701477E-1  -3.655496239662170E-2  -4.719956591725349E-2  -3.651317209005356E-2  -4.739943519234657E-2  -8.014597892761231E-1   4.724645316600800E-1  
 8.066066066066066E8    -4.421474635601044E-1   5.289123058319092E-1  -3.789345175027847E-2  -4.410242661833763E-2  -3.776074573397636E-2  -4.397402331233025E-2  -7.952340245246887E-1   4.867294132709503E-1  
 8.090090090090090E8    -4.342952966690064E-1   5.454329848289490E-1  -3.891754150390625E-2  -4.073076322674751E-2  -3.880034014582634E-2  -4.063618555665016E-2  -7.892174124717712E-1   4.994700253009796E-1  
 8.114114114114114E8    -4.255352318286896E-1   5.607392191886902E-1  -3.968936204910278E-2  -3.748099133372307E-2  -3.965561091899872E-2  -3.759341314435005E-2  -7.828114628791809E-1   5.107638835906982E-1  
 8.138138138138138E8    -4.161618351936340E-1   5.735957622528076E-1  -4.030304402112961E-2  -3.409035131335259E-2  -4.047109186649323E-2  -3.443468362092972E-2  -7.770282626152039E-1   5.213887095451355E-1  
 8.162162162162162E8    -4.086553752422333E-1   5.843557119369507E-1  -4.054134711623192E-2  -3.077325597405434E-2  -4.057779535651207E-2  -3.105818293988705E-2  -7.715551257133484E-1   5.321937799453735E-1  
 8.186186186186186E8    -4.021713733673096E-1   5.961061120033264E-1  -4.037254303693771E-2  -2.776260487735272E-2  -4.044604673981667E-2  -2.809311635792255E-2  -7.659627199172974E-1   5.439136624336243E-1  
 8.210210210210210E8    -3.938754796981812E-1   6.057026386260986E-1  -4.031015932559967E-2  -2.497786469757557E-2  -4.020865634083748E-2  -2.507339045405388E-2  -7.593157887458801E-1   5.554922819137573E-1  
 8.234234234234234E8    -3.861126303672791E-1   6.151003241539002E-1  -3.974597156047821E-2  -2.215422689914703E-2  -3.965578228235245E-2  -2.223064750432968E-2  -7.526416778564453E-1   5.666890144348145E-1  
