#  HZ   S   RI   R     50.00 
! Rohde & Schwarz ZVB8 2Ports - Version 2.81 - 1145.1010k08 SN: 100113
! Date: 2016-05-17 22:37:36
! Measurements: S11 S21 S12 S22 
! 
 6.000000000000000E8    -7.837409973144531E-1   5.086718797683716E-1  -1.208978239446878E-3  -2.171032829210162E-3  -1.176620251499116E-3  -2.244395203888416E-3  -9.382830858230591E-1   2.538828849792481E-1  
 6.024024024024024E8    -7.743895649909973E-1   5.196477174758911E-1  -1.235037343576551E-3  -2.248278586193919E-3  -1.252553542144597E-3  -2.230265643447638E-3  -9.342954754829407E-1   2.650779485702515E-1  
 6.048048048048048E8    -7.647380232810974E-1   5.311192274093628E-1  -1.195146585814655E-3  -2.336260396987200E-3  -1.174665288999677E-3  -2.221046714112163E-3  -9.309780597686768E-1   2.763379216194153E-1  
 6.072072072072072E8    -7.538485527038574E-1   5.431276559829712E-1  -1.235988922417164E-3  -2.350095426663756E-3  -1.254728995263577E-3  -2.351785544306040E-3  -9.271400570869446E-1   2.866725921630859E-1  
 6.096096096096096E8    -7.422894835472107E-1   5.554011464118958E-1  -1.209066831506789E-3  -2.339045982807875E-3  -1.210809918120503E-3  -2.376031829044223E-3  -9.232645630836487E-1   2.977506220340729E-1  
 6.120120120120120E8    -7.329084873199463E-1   5.647023320198059E-1  -1.162437838502228E-3  -2.587999450042844E-3  -1.114363549277186E-3  -2.517783083021641E-3  -9.198861122131348E-1   3.058366477489471E-1  
 6.144144144144144E8    -7.226034998893738E-1   5.752470493316650E-1  -1.064340001903474E-3  -2.819861052557826E-3  -1.005254569463432E-3  -2.805289346724749E-3  -9.162986874580383E-1   3.159781694412231E-1  
 6.168168168168168E8    -7.112662792205811E-1   5.855995416641235E-1  -1.010064734145999E-3  -2.968522720038891E-3  -9.910298977047205E-4  -2.944596111774445E-3  -9.121450781822205E-1   3.262633085250855E-1  
 6.192192192192192E8    -6.994525790214539E-1   5.955342650413513E-1  -9.787407470867038E-4  -3.367489902302623E-3  -8.671650430187583E-4  -3.276044735684991E-3  -9.084692597389221E-1   3.362948000431061E-1  
 6.216216216216216E8    -6.877990961074829E-1   6.046451926231384E-1  -8.511077030561864E-4  -3.749757539480925E-3  -8.444203995168209E-4  -3.712888574227691E-3  -9.038403630256653E-1   3.467687666416168E-1  
 6.240240240240240E8    -6.752179861068726E-1   6.139252185821533E-1  -8.402122766710818E-4  -4.256853368133307E-3  -7.947483682073653E-4  -4.322085063904524E-3  -8.989310264587402E-1   3.568800091743469E-1  
 6.264264264264264E8    -6.640303730964661E-1   6.223354339599609E-1  -1.004064572043717E-3  -5.002510268241167E-3  -9.696878842078149E-4  -5.053271073848009E-3  -8.941090703010559E-1   3.689021766185761E-1  
 6.288288288288288E8    -6.528517603874207E-1   6.308714747428894E-1  -1.316814566962421E-3  -5.800522863864899E-3  -1.348631572909653E-3  -5.865370389074087E-3  -8.892873525619507E-1   3.793697357177734E-1  
 6.312312312312312E8    -6.429048776626587E-1   6.389192342758179E-1  -1.999225700274110E-3  -6.671100389212370E-3  -1.954887993633747E-3  -6.635351106524468E-3  -8.841265439987183E-1   3.892767131328583E-1  
 6.336336336336336E8    -6.332042217254639E-1   6.476606130599976E-1  -2.860808046534658E-3  -7.277650758624077E-3  -2.812390681356192E-3  -7.328092586249113E-3  -8.792306184768677E-1   3.980563282966614E-1  
 6.360360360360360E8    -6.230664253234863E-1   6.571254730224609E-1  -3.832036163657904E-3  -7.862968370318413E-3  -3.892268287017942E-3  -7.770034484565258E-3  -8.748615384101868E-1   4.062049090862274E-1  
 6.384384384384384E8    -6.116315722465515E-1   6.667706966400147E-1  -4.974292125552893E-3  -8.076094090938568E-3  -4.907503258436918E-3  -8.092556148767471E-3  -8.703976273536682E-1   4.158205091953278E-1  
 6.408408408408408E8    -5.994405150413513E-1   6.770141720771790E-1  -6.100209429860115E-3  -8.139221929013729E-3  -6.110829766839743E-3  -8.233120664954186E-3  -8.653522729873657E-1   4.254194498062134E-1  
 6.432432432432432E8    -5.859346985816956E-1   6.868728399276733E-1  -7.277068682014942E-3  -8.041650988161564E-3  -7.282686885446310E-3  -8.091081865131855E-3  -8.599238395690918E-1   4.346495270729065E-1  
 6.456456456456456E8    -5.713458657264710E-1   6.964957714080811E-1  -8.384031243622303E-3  -7.789316121488810E-3  -8.317328989505768E-3  -7.807150017470121E-3  -8.543297648429871E-1   4.436418414115906E-1  
 6.480480480480480E8    -5.563305616378784E-1   7.053621411323547E-1  -9.261031635105610E-3  -7.377372588962317E-3  -9.309302084147930E-3  -7.363583892583847E-3  -8.486834168434143E-1   4.526357948780060E-1  
 6.504504504504504E8    -5.399628877639771E-1   7.148609757423401E-1  -1.007202174514532E-2  -6.957035511732101E-3  -1.002475991845131E-2  -6.957569625228643E-3  -8.388943672180176E-1   4.624891281127930E-1  
 6.528528528528528E8    -5.230255722999573E-1   7.237771153450012E-1  -1.073918119072914E-2  -6.531082559376955E-3  -1.080559194087982E-2  -6.591047160327435E-3  -8.305640220642090E-1   4.742943048477173E-1  
 6.552552552552552E8    -5.054717659950256E-1   7.314380407333374E-1  -1.150052528828383E-2  -6.171029526740313E-3  -1.148803904652596E-2  -6.230388768017292E-3  -8.245037198066711E-1   4.864076972007752E-1  
 6.576576576576576E8    -4.875381886959076E-1   7.383291125297546E-1  -1.227045059204102E-2  -5.941537208855152E-3  -1.222103554755449E-2  -5.922769196331501E-3  -8.210895061492920E-1   4.958080351352692E-1  
 6.600600600600600E8    -4.669328033924103E-1   7.444713711738586E-1  -1.318686641752720E-2  -5.472521297633648E-3  -1.307701878249645E-2  -5.566040519624949E-3  -8.166002035140991E-1   5.021730065345764E-1  
 6.624624624624624E8    -4.476834535598755E-1   7.504273653030396E-1  -1.404581032693386E-2  -5.004460923373699E-3  -1.390210352838039E-2  -5.080397706478834E-3  -8.093635439872742E-1   5.121697187423706E-1  
 6.648648648648648E8    -4.287497401237488E-1   7.558177709579468E-1  -1.473424397408962E-2  -4.494593944400549E-3  -1.478328183293343E-2  -4.573557991534472E-3  -8.020833134651184E-1   5.219631195068359E-1  
 6.672672672672672E8    -4.084876477718353E-1   7.599571943283081E-1  -1.562506891787052E-2  -3.977543208748102E-3  -1.557149738073349E-2  -4.030155483633280E-3  -7.948034405708313E-1   5.311687588691711E-1  
 6.696696696696696E8    -3.874132633209229E-1   7.634859085083008E-1  -1.648402772843838E-2  -3.431073389947414E-3  -1.646233350038528E-2  -3.424033755436540E-3  -7.873980402946472E-1   5.404664874076843E-1  
 6.720720720720720E8    -3.652436435222626E-1   7.660825848579407E-1  -1.732577756047249E-2  -2.721405820921063E-3  -1.731807552278042E-2  -2.796244109049439E-3  -7.801605463027954E-1   5.495786070823669E-1  
 6.744744744744744E8    -3.423753380775452E-1   7.676439881324768E-1  -1.820364035665989E-2  -2.034587319940329E-3  -1.811351627111435E-2  -2.079090569168329E-3  -7.717158198356628E-1   5.594850182533264E-1  
 6.768768768768768E8    -3.190066516399384E-1   7.682279944419861E-1  -1.902054436504841E-2  -1.196548342704773E-3  -1.899736002087593E-2  -1.277942210435867E-3  -7.630907297134399E-1   5.691296458244324E-1  
 6.792792792792792E8    -2.950870394706726E-1   7.673993706703186E-1  -1.980910077691078E-2  -3.457408165559173E-4  -1.981768570840359E-2  -4.173962806817144E-4  -7.540758252143860E-1   5.785920023918152E-1  
 6.816816816816816E8    -2.697777748107910E-1   7.647963762283325E-1  -2.068826369941235E-2   5.098353722132742E-4  -2.065754681825638E-2   3.766971640288830E-4  -7.451584935188294E-1   5.881119966506958E-1  
 6.840840840840840E8    -2.450464963912964E-1   7.606204748153687E-1  -2.162464149296284E-2   1.365271629765630E-3  -2.159481309354305E-2   1.324295881204307E-3  -7.362028360366821E-1   5.978167653083801E-1  
 6.864864864864864E8    -2.198068499565125E-1   7.546598315238953E-1  -2.249112911522389E-2   2.477374859154224E-3  -2.250691317021847E-2   2.368661807850003E-3  -7.263481020927429E-1   6.071812510490418E-1  
 6.888888888888888E8    -1.938589066267014E-1   7.471824288368225E-1  -2.342262864112854E-2   3.688275814056397E-3  -2.347185276448727E-2   3.545237472280860E-3  -7.156410217285156E-1   6.170936822891235E-1  
 6.912912912912912E8    -1.692861765623093E-1   7.375639677047730E-1  -2.445391193032265E-2   5.091764032840729E-3  -2.445458061993122E-2   4.768844693899155E-3  -7.049273848533630E-1   6.270395517349243E-1  
 6.936936936936936E8    -1.442359536886215E-1   7.259808778762817E-1  -2.524610050022602E-2   6.667352747172117E-3  -2.520477026700974E-2   6.494055967777968E-3  -6.946157813072205E-1   6.365936398506165E-1  
 6.960960960960960E8    -1.193049922585487E-1   7.124041318893433E-1  -2.589153125882149E-2   8.195035159587860E-3  -2.592286840081215E-2   8.109838701784611E-3  -6.836110949516296E-1   6.463083028793335E-1  
 6.984984984984984E8    -9.620356559753418E-2   6.962568163871765E-1  -2.654363587498665E-2   9.769273921847343E-3  -2.639294601976872E-2   9.985673241317272E-3  -6.697785854339600E-1   6.585965156555176E-1  
 7.009009009009008E8    -7.516527175903320E-2   6.782203912734985E-1  -2.689723111689091E-2   1.123422756791115E-2  -2.670005522668362E-2   1.181472558528185E-2  -6.560207605361939E-1   6.696983575820923E-1  
 7.033033033033032E8    -5.514961108565331E-2   6.578276753425598E-1  -2.714536152780056E-2   1.267520617693663E-2  -2.688583917915821E-2   1.324901264160872E-2  -6.438608765602112E-1   6.782004833221436E-1  
 7.057057057057056E8    -3.598164767026901E-2   6.338745355606079E-1  -2.754400670528412E-2   1.407147850841284E-2  -2.739670127630234E-2   1.436335407197475E-2  -6.343761682510376E-1   6.834415793418884E-1  
 7.081081081081080E8    -1.801590994000435E-2   6.069760322570801E-1  -2.801576443016529E-2   1.553580816835165E-2  -2.814496681094170E-2   1.538866572082043E-2  -6.237568855285645E-1   6.900476217269898E-1  
 7.105105105105104E8    -3.935465123504400E-3   5.785657763481140E-1  -2.854186482727528E-2   1.713838241994381E-2  -2.874088846147060E-2   1.665883883833885E-2  -6.116590499877930E-1   6.976273655891419E-1  
 7.129129129129129E8     4.927505739033222E-3   5.490440726280212E-1  -2.917041815817356E-2   1.847921684384346E-2  -2.943482622504234E-2   1.784576848149300E-2  -5.979957580566406E-1   7.056079506874085E-1  
 7.153153153153153E8     7.486495655030012E-3   5.188003182411194E-1  -3.009638935327530E-2   1.947099529206753E-2  -3.040991164743900E-2   1.899058744311333E-2  -5.824969410896301E-1   7.140998840332031E-1  
 7.177177177177178E8     6.049777846783400E-3   4.913247227668762E-1  -3.176404908299446E-2   2.036810480058193E-2  -3.191745653748512E-2   2.000922523438931E-2  -5.649237036705017E-1   7.226913571357727E-1  
 7.201201201201202E8     3.101510228589177E-3   4.678671956062317E-1  -3.436261415481567E-2   2.141661755740643E-2  -3.448686003684998E-2   2.134784124791622E-2  -5.473456978797913E-1   7.302522063255310E-1  
 7.225225225225226E8     1.201024861074984E-4   4.499592781066895E-1  -3.838182613253593E-2   2.321760542690754E-2  -3.843457996845245E-2   2.324946597218514E-2  -5.282394886016846E-1   7.372227907180786E-1  
 7.249249249249250E8     1.990255805139896E-5   4.334477186203003E-1  -4.367841780185700E-2   2.732878737151623E-2  -4.389741644263268E-2   2.697343006730080E-2  -5.115091204643250E-1   7.408290505409241E-1  
 7.273273273273274E8     2.719559241086245E-3   4.148642718791962E-1  -4.887533560395241E-2   3.467029705643654E-2  -4.942376166582108E-2   3.392253816127777E-2  -4.955743253231049E-1   7.430380582809448E-1  
 7.297297297297298E8     5.729079246520996E-3   3.908139169216156E-1  -5.261508002877235E-2   4.469377174973488E-2  -5.328329652547836E-2   4.397597163915634E-2  -4.797391295433044E-1   7.452370524406433E-1  
 7.321321321321322E8     5.229612812399864E-3   3.609518706798554E-1  -5.377452075481415E-2   5.673826485872269E-2  -5.380336195230484E-2   5.649810284376144E-2  -4.645048975944519E-1   7.474346160888672E-1  
 7.345345345345346E8    -1.588825252838433E-3   3.294197916984558E-1  -5.079169198870659E-2   6.943997740745544E-2  -5.054794624447823E-2   6.948316842317581E-2  -4.498172700405121E-1   7.502414584159851E-1  
 7.369369369369370E8    -1.489185076206923E-2   2.978462874889374E-1  -4.458016157150269E-2   8.100699633359909E-2  -4.404081776738167E-2   8.115532249212265E-2  -4.351695477962494E-1   7.545576095581055E-1  
 7.393393393393394E8    -3.453632816672325E-2   2.681797444820404E-1  -3.612843155860901E-2   9.113062918186188E-2  -3.561839088797569E-2   9.130427986383438E-2  -4.200426340103149E-1   7.592997550964356E-1  
 7.417417417417418E8    -5.925723910331726E-2   2.432688176631928E-1  -2.556369081139565E-2   9.943179041147232E-2  -2.550159581005573E-2   9.949549287557602E-2  -4.047066271305084E-1   7.635291218757629E-1  
 7.441441441441442E8    -8.411251008510590E-2   2.232391238212585E-1  -1.418729033321142E-2   1.054997146129608E-1  -1.480181142687798E-2   1.056558340787888E-1  -3.888717293739319E-1   7.675997614860535E-1  
 7.465465465465466E8    -1.122200191020966E-1   2.076420933008194E-1  -2.931346883997321E-3   1.097478941082954E-1  -3.364727832376957E-3   1.099497824907303E-1  -3.702751994132996E-1   7.728309035301209E-1  
 7.489489489489490E8    -1.405838131904602E-1   1.957682967185974E-1   8.332612924277782E-3   1.124092936515808E-1   8.132264949381352E-3   1.126338765025139E-1  -3.525993227958679E-1   7.771751880645752E-1  
 7.513513513513514E8    -1.727025806903839E-1   1.863622218370438E-1   1.974790729582310E-2   1.136351600289345E-1   1.925723068416119E-2   1.138782799243927E-1  -3.343419730663300E-1   7.809154391288757E-1  
 7.537537537537538E8    -2.050356268882752E-1   1.821896284818649E-1   3.121836110949516E-2   1.142013669013977E-1   3.027879074215889E-2   1.146676763892174E-1  -3.132589757442474E-1   7.839894294738770E-1  
 7.561561561561562E8    -2.367479950189591E-1   1.831254959106445E-1   4.279462993144989E-2   1.139111742377281E-1   4.217769950628281E-2   1.140556111931801E-1  -2.907164692878723E-1   7.853161096572876E-1  
 7.585585585585586E8    -2.661571502685547E-1   1.904694288969040E-1   5.446410551667213E-2   1.120620071887970E-1   5.375594273209572E-2   1.118883639574051E-1  -2.645858228206635E-1   7.877482175827026E-1  
 7.609609609609610E8    -2.937527000904083E-1   1.995906233787537E-1   6.584201008081436E-2   1.091852337121964E-1   6.491409987211227E-2   1.089435592293739E-1  -2.383931577205658E-1   7.885894775390625E-1  
 7.633633633633634E8    -3.211937546730042E-1   2.102522999048233E-1   7.730869948863983E-2   1.051946878433228E-1   7.612886279821396E-2   1.051039919257164E-1  -2.129795998334885E-1   7.873597741127014E-1  
 7.657657657657658E8    -3.461174070835114E-1   2.238928526639938E-1   8.811654150485992E-2   9.997995942831039E-2   8.720356971025467E-2   1.001638844609261E-1  -1.879003196954727E-1   7.846727967262268E-1  
 7.681681681681682E8    -3.690622746944428E-1   2.413696944713593E-1   9.786086529493332E-2   9.375898540019989E-2   9.771412611007690E-2   9.421504288911820E-2  -1.627041250467300E-1   7.803320884704590E-1  
 7.705705705705706E8    -3.882186114788055E-1   2.628332674503326E-1   1.067984774708748E-1   8.685109764337540E-2   1.068932116031647E-1   8.738557994365692E-2  -1.362575441598892E-1   7.747149467468262E-1  
 7.729729729729730E8    -4.020760655403137E-1   2.864861488342285E-1   1.151220574975014E-1   7.903997600078583E-2   1.156785339117050E-1   7.992919534444809E-2  -1.070183515548706E-1   7.690099477767944E-1  
 7.753753753753754E8    -4.118005931377411E-1   3.089981973171234E-1   1.233001425862312E-1   7.101301848888397E-2   1.241182312369347E-1   7.192408293485642E-2  -7.493463158607483E-2   7.602694630622864E-1  
 7.777777777777778E8    -4.177795946598053E-1   3.300667107105255E-1   1.317113488912582E-1   6.198758631944656E-2   1.318720579147339E-1   6.262454390525818E-2  -4.088163003325462E-2   7.466574311256409E-1  
 7.801801801801802E8    -4.211665391921997E-1   3.493086695671082E-1   1.397717297077179E-1   5.195954814553261E-2   1.386551111936569E-1   5.224429443478584E-2  -6.845211144536734E-3   7.276476621627808E-1  
 7.825825825825826E8    -4.210791289806366E-1   3.688282072544098E-1   1.462817192077637E-1   4.017249867320061E-2   1.454773843288422E-1   4.077720269560814E-2   2.764632552862167E-2   7.072297334671021E-1  
 7.849849849849850E8    -4.205084145069122E-1   3.855814635753632E-1   1.515046060085297E-1   2.813701331615448E-2   1.506874412298203E-1   2.951060980558395E-2   5.879305303096771E-2   6.832738518714905E-1  
 7.873873873873874E8    -4.212558865547180E-1   3.996594250202179E-1   1.562949270009995E-1   1.649747416377068E-2   1.554381996393204E-1   1.815356127917767E-2   8.874667435884476E-2   6.566922664642334E-1  
 7.897897897897898E8    -4.237541854381561E-1   4.144770503044128E-1   1.609691828489304E-1   4.084529820829630E-3   1.604281216859818E-1   5.183359142392874E-3   1.188906654715538E-1   6.274049878120422E-1  
 7.921921921921922E8    -4.241851568222046E-1   4.321584403514862E-1   1.645093411207199E-1  -1.078818179666996E-2   1.649734973907471E-1  -9.968445636332035E-3   1.487357318401337E-1   5.949321389198303E-1  
 7.945945945945946E8    -4.234849512577057E-1   4.485184252262116E-1   1.660241782665253E-1  -2.631695941090584E-2   1.664303839206696E-1  -2.526467666029930E-2   1.762459427118301E-1   5.564728975296021E-1  
 7.969969969969970E8    -4.205446541309357E-1   4.632993638515472E-1   1.653386354446411E-1  -4.207683354616165E-2   1.659424304962158E-1  -4.146931692957878E-2   2.017702311277390E-1   5.131351947784424E-1  
 7.993993993993994E8    -4.170596897602081E-1   4.760580658912659E-1   1.626336127519608E-1  -5.792508646845818E-2   1.629179120063782E-1  -5.771480128169060E-2   2.239371538162231E-1   4.647938013076782E-1  
 8.018018018018018E8    -4.134895205497742E-1   4.865924417972565E-1   1.582356393337250E-1  -7.271812856197357E-2   1.578442603349686E-1  -7.275094091892242E-2   2.408418208360672E-1   4.147487878799439E-1  
 8.042042042042042E8    -4.111512899398804E-1   4.995155930519104E-1   1.529453098773956E-1  -8.748310059309006E-2   1.528768092393875E-1  -8.677240461111069E-2   2.516230046749115E-1   3.592259585857391E-1  
 8.066066066066066E8    -4.066342413425446E-1   5.126727223396301E-1   1.457106918096542E-1  -1.030695587396622E-1   1.465460360050201E-1  -1.022515520453453E-1   2.562007009983063E-1   2.991240620613098E-1  
 8.090090090090090E8    -4.028726518154144E-1   5.246364474296570E-1   1.361410170793533E-1  -1.180713549256325E-1   1.369802206754684E-1  -1.173705160617828E-1   2.526247501373291E-1   2.379074841737747E-1  
 8.114114114114114E8    -3.986320793628693E-1   5.361822843551636E-1   1.241643205285072E-1  -1.319112628698349E-1   1.251241117715836E-1  -1.317247450351715E-1   2.407824993133545E-1   1.762191206216812E-1  
 8.138138138138138E8    -3.948776125907898E-1   5.448409914970398E-1   1.100060269236565E-1  -1.440638899803162E-1   1.105600669980049E-1  -1.440002322196960E-1   2.205333113670349E-1   1.154776439070702E-1  
 8.162162162162162E8    -3.926604688167572E-1   5.539628863334656E-1   9.443721920251846E-2  -1.532037258148193E-1   9.442368894815445E-2  -1.535139977931976E-1   1.934830695390701E-1   5.734512582421303E-2  
 8.186186186186186E8    -3.912005722522736E-1   5.651771426200867E-1   7.892178744077683E-2  -1.600109934806824E-1   7.801733911037445E-2  -1.602980941534042E-1   1.588604301214218E-1   2.112836111336947E-3  
 8.210210210210210E8    -3.881561160087585E-1   5.765812397003174E-1   6.096907332539558E-2  -1.649507582187653E-1   6.156597658991814E-2  -1.651636958122253E-1   1.183999478816986E-1  -4.549207538366318E-2  
 8.234234234234234E8    -3.853543102741242E-1   5.876285433769226E-1   4.296415299177170E-2  -1.662748157978058E-1   4.383605718612671E-2  -1.665106713771820E-1   7.145179808139801E-2  -8.756323903799057E-2  
