#  HZ   S   RI   R     50.00 
! Rohde & Schwarz ZVB8 2Ports - Version 2.81 - 1145.1010k08 SN: 100113
! Date: 2016-05-17 22:37:25
! Measurements: S11 S21 S12 S22 
! 
 6.000000000000000E8    -7.922576665878296E-1   5.016347169876099E-1  -1.007675775326788E-3  -1.952461549080908E-3  -1.024232478812337E-3  -1.987190218642354E-3  -9.411378502845764E-1   2.467619180679321E-1  
 6.024024024024024E8    -7.834864258766174E-1   5.123915076255798E-1  -1.096097170375288E-3  -1.992487115785480E-3  -1.003886223770678E-3  -1.999631989747286E-3  -9.381316900253296E-1   2.576260566711426E-1  
 6.048048048048048E8    -7.742047905921936E-1   5.237292051315308E-1  -9.636622271500528E-4  -2.035840880125761E-3  -9.812746429815888E-4  -1.932808081619442E-3  -9.345211386680603E-1   2.683334946632385E-1  
 6.072072072072072E8    -7.643511891365051E-1   5.356628894805908E-1  -1.010156818665564E-3  -2.055896911770105E-3  -1.040670787915587E-3  -2.045701490715146E-3  -9.310491085052490E-1   2.787189781665802E-1  
 6.096096096096096E8    -7.536363005638123E-1   5.477613806724548E-1  -9.762044646777213E-4  -2.117838477715850E-3  -9.353689965792000E-4  -2.140887547284365E-3  -9.270549416542053E-1   2.894615828990936E-1  
 6.120120120120120E8    -7.449374794960022E-1   5.569278597831726E-1  -8.984415326267481E-4  -2.165966900065541E-3  -9.535854333080351E-4  -2.203117823228240E-3  -9.239460825920105E-1   2.975975275039673E-1  
 6.144144144144144E8    -7.352169752120972E-1   5.675530433654785E-1  -8.083249558694661E-4  -2.354342024773359E-3  -8.489998872391880E-4  -2.315937308594585E-3  -9.210741519927979E-1   3.073220252990723E-1  
 6.168168168168168E8    -7.250224947929382E-1   5.779656767845154E-1  -7.813975680619478E-4  -2.506379736587405E-3  -7.319278665818274E-4  -2.496231812983751E-3  -9.175327420234680E-1   3.173050582408905E-1  
 6.192192192192192E8    -7.143022418022156E-1   5.879052281379700E-1  -6.599178304895759E-4  -2.857040613889694E-3  -6.294795894064009E-4  -2.802574541419745E-3  -9.135816693305969E-1   3.272916078567505E-1  
 6.216216216216216E8    -7.032424807548523E-1   5.976831912994385E-1  -5.348550039343536E-4  -3.163142828270793E-3  -5.181982414796948E-4  -3.128416370600462E-3  -9.093402624130249E-1   3.371899425983429E-1  
 6.240240240240240E8    -6.919453740119934E-1   6.070485115051270E-1  -5.768280243501067E-4  -3.693524282425642E-3  -5.118312546983361E-4  -3.636469366028905E-3  -9.049136042594910E-1   3.469682633876801E-1  
 6.264264264264264E8    -6.810976266860962E-1   6.159034371376038E-1  -6.042395834811032E-4  -4.268493968993425E-3  -6.224478711374104E-4  -4.284031223505735E-3  -9.003387093544006E-1   3.588872253894806E-1  
 6.288288288288288E8    -6.709106564521790E-1   6.244658827781677E-1  -9.262462845072150E-4  -4.935426637530327E-3  -8.661264437250793E-4  -4.917066544294357E-3  -8.958600163459778E-1   3.691322207450867E-1  
 6.312312312312312E8    -6.614590287208557E-1   6.329625844955444E-1  -1.331334118731320E-3  -5.608955863863230E-3  -1.403138972818852E-3  -5.607964005321264E-3  -8.911930918693543E-1   3.786810934543610E-1  
 6.336336336336336E8    -6.522446870803833E-1   6.420597434043884E-1  -2.064422704279423E-3  -6.150381639599800E-3  -2.047101967036724E-3  -6.161281373351812E-3  -8.868416547775269E-1   3.871125876903534E-1  
 6.360360360360360E8    -6.425427198410034E-1   6.513983607292175E-1  -2.823750721290708E-3  -6.606796756386757E-3  -2.835560124367476E-3  -6.661441642791033E-3  -8.827015757560730E-1   3.950744569301605E-1  
 6.384384384384384E8    -6.319186687469482E-1   6.611608862876892E-1  -3.743398003280163E-3  -6.947678979486227E-3  -3.657883265987039E-3  -7.017052266746759E-3  -8.791382908821106E-1   4.043217301368713E-1  
 6.408408408408408E8    -6.209219694137573E-1   6.710051894187927E-1  -4.693931434303522E-3  -7.037317845970392E-3  -4.646588116884232E-3  -7.045467849820852E-3  -8.742732405662537E-1   4.137423634529114E-1  
 6.432432432432432E8    -6.090093851089478E-1   6.807633638381958E-1  -5.574320442974567E-3  -7.000709418207407E-3  -5.522574763745070E-3  -6.968980189412832E-3  -8.694196343421936E-1   4.226088821887970E-1  
 6.456456456456456E8    -5.960555076599121E-1   6.901072263717651E-1  -6.408648565411568E-3  -6.771054584532976E-3  -6.355654913932085E-3  -6.800359115004540E-3  -8.641744852066040E-1   4.312008619308472E-1  
 6.480480480480480E8    -5.826204419136047E-1   6.990855336189270E-1  -7.091092877089977E-3  -6.569089367985725E-3  -7.095377426594496E-3  -6.492904853075743E-3  -8.588505387306213E-1   4.400201737880707E-1  
 6.504504504504504E8    -5.677855014801025E-1   7.091055512428284E-1  -7.786559406667948E-3  -6.298410706222057E-3  -7.733668200671673E-3  -6.286192219704390E-3  -8.499227762222290E-1   4.496937990188599E-1  
 6.528528528528528E8    -5.527630448341370E-1   7.185176014900208E-1  -8.375419303774834E-3  -6.009798031300306E-3  -8.403710089623928E-3  -6.009905133396387E-3  -8.418432474136353E-1   4.611845612525940E-1  
 6.552552552552552E8    -5.373622775077820E-1   7.267867922782898E-1  -8.953624404966831E-3  -5.693897604942322E-3  -8.913878351449966E-3  -5.712637212127447E-3  -8.364271521568298E-1   4.729559123516083E-1  
 6.576576576576576E8    -5.215124487876892E-1   7.342357039451599E-1  -9.550903923809528E-3  -5.468423478305340E-3  -9.510369971394539E-3  -5.482244770973921E-3  -8.335562944412231E-1   4.818977415561676E-1  
 6.600600600600600E8    -5.036270022392273E-1   7.414765954017639E-1  -1.016967557370663E-2  -5.206352099776268E-3  -1.015467569231987E-2  -5.222406703978777E-3  -8.299664258956909E-1   4.879615008831024E-1  
 6.624624624624624E8    -4.867559075355530E-1   7.486724853515625E-1  -1.083044894039631E-2  -4.899486899375916E-3  -1.076442562043667E-2  -4.877968225628138E-3  -8.234200477600098E-1   4.975843727588654E-1  
 6.648648648648648E8    -4.695751070976257E-1   7.554365396499634E-1  -1.137977000325918E-2  -4.530331119894981E-3  -1.139221619814634E-2  -4.651495255529881E-3  -8.169491887092590E-1   5.068896412849426E-1  
 6.672672672672672E8    -4.521550238132477E-1   7.613060474395752E-1  -1.202159188687801E-2  -4.161110147833824E-3  -1.201673969626427E-2  -4.237415734678507E-3  -8.105053901672363E-1   5.159391760826111E-1  
 6.696696696696696E8    -4.342426359653473E-1   7.666807770729065E-1  -1.265808939933777E-2  -3.795709228143096E-3  -1.262530591338873E-2  -3.913674503564835E-3  -8.042215704917908E-1   5.246344804763794E-1  
 6.720720720720720E8    -4.149848222732544E-1   7.714444994926453E-1  -1.330319233238697E-2  -3.404102288186550E-3  -1.328698173165321E-2  -3.464042209088802E-3  -7.979066371917725E-1   5.333602428436279E-1  
 6.744744744744744E8    -3.950585424900055E-1   7.755417823791504E-1  -1.391847897320986E-2  -2.990718930959702E-3  -1.393521483987570E-2  -2.978401724249125E-3  -7.903090715408325E-1   5.426576733589172E-1  
 6.768768768768768E8    -3.745898604393005E-1   7.791543602943420E-1  -1.457322668284178E-2  -2.370585920289159E-3  -1.450084429234266E-2  -2.457448048517108E-3  -7.828823924064636E-1   5.521585941314697E-1  
 6.792792792792792E8    -3.535568118095398E-1   7.813946008682251E-1  -1.511332672089338E-2  -1.915150787681341E-3  -1.513254269957542E-2  -1.924526528455317E-3  -7.750516533851624E-1   5.611159801483154E-1  
 6.816816816816816E8    -3.316733241081238E-1   7.830243706703186E-1  -1.572672463953495E-2  -1.376935397274792E-3  -1.574574224650860E-2  -1.451822696253657E-3  -7.673906683921814E-1   5.703237652778626E-1  
 6.840840840840840E8    -3.094753324985504E-1   7.830298542976379E-1  -1.636430434882641E-2  -8.372041629627347E-4  -1.632310077548027E-2  -8.835227927193046E-4  -7.595015764236450E-1   5.796284675598145E-1  
 6.864864864864864E8    -2.863539159297943E-1   7.825666069984436E-1  -1.705748029053211E-2  -2.586144837550819E-4  -1.701142080128193E-2  -3.616336616687477E-4  -7.506889700889587E-1   5.887761712074280E-1  
 6.888888888888888E8    -2.636085152626038E-1   7.812120318412781E-1  -1.767670549452305E-2   3.810337802860886E-4  -1.768788322806358E-2   1.593829802004620E-4  -7.415822744369507E-1   5.982062220573425E-1  
 6.912912912912912E8    -2.408124804496765E-1   7.787517309188843E-1  -1.846919581294060E-2   1.013912144117057E-3  -1.842908561229706E-2   8.237120928242803E-4  -7.324320673942566E-1   6.077784299850464E-1  
 6.936936936936936E8    -2.178747355937958E-1   7.749488353729248E-1  -1.922693103551865E-2   1.922475639730692E-3  -1.927929185330868E-2   1.846876344643533E-3  -7.236737012863159E-1   6.173608899116516E-1  
 6.960960960960960E8    -1.941669881343842E-1   7.697521448135376E-1  -1.985990628600121E-2   2.772535663098097E-3  -1.989095285534859E-2   2.721748547628522E-3  -7.146880626678467E-1   6.268124580383301E-1  
 6.984984984984984E8    -1.715807467699051E-1   7.621659040451050E-1  -2.042923122644424E-2   3.599163144826889E-3  -2.036802284419537E-2   3.836803836748004E-3  -7.026109695434570E-1   6.386159658432007E-1  
 7.009009009009008E8    -1.490301638841629E-1   7.525500655174255E-1  -2.089308388531208E-2   4.456792958080769E-3  -2.084476500749588E-2   4.937994759529829E-3  -6.908585429191589E-1   6.494023203849793E-1  
 7.033033033033032E8    -1.265533119440079E-1   7.413310408592224E-1  -2.127192355692387E-2   5.215959157794714E-3  -2.110392227768898E-2   5.638966802507639E-3  -6.806882023811340E-1   6.575320959091187E-1  
 7.057057057057056E8    -1.041617542505264E-1   7.277365326881409E-1  -2.176919020712376E-2   5.964156240224838E-3  -2.169639803469181E-2   6.009253207594156E-3  -6.731653809547424E-1   6.631575822830200E-1  
 7.081081081081080E8    -8.114024996757507E-2   7.115692496299744E-1  -2.242479659616947E-2   6.634567398577929E-3  -2.242165803909302E-2   6.377729121595621E-3  -6.649320125579834E-1   6.691610217094421E-1  
 7.105105105105104E8    -6.061396375298500E-2   6.941401362419128E-1  -2.306059002876282E-2   7.382387295365334E-3  -2.315113879740238E-2   6.908590439707041E-3  -6.555773615837097E-1   6.766752004623413E-1  
 7.129129129129129E8    -4.313570261001587E-2   6.746632456779480E-1  -2.380672283470631E-2   7.778760977089405E-3  -2.401495911180973E-2   7.313089910894632E-3  -6.447893381118774E-1   6.848537921905518E-1  
 7.153153153153153E8    -2.987354807555676E-2   6.538882851600647E-1  -2.492249943315983E-2   7.943980395793915E-3  -2.502113953232765E-2   7.733451668173075E-3  -6.320049166679382E-1   6.934773325920105E-1  
 7.177177177177178E8    -1.968874596059322E-2   6.329200267791748E-1  -2.640919387340546E-2   7.964065298438072E-3  -2.657271921634674E-2   7.911922410130501E-3  -6.179186105728149E-1   7.027441263198853E-1  
 7.201201201201202E8    -1.049618609249592E-2   6.134021282196045E-1  -2.870206907391548E-2   7.873136550188065E-3  -2.881925366818905E-2   8.005984127521515E-3  -6.037437915802002E-1   7.112110853195190E-1  
 7.225225225225226E8    -3.240073798224330E-3   5.956034660339356E-1  -3.227176144719124E-2   8.176646195352078E-3  -3.226006403565407E-2   8.216441608965397E-3  -5.886176824569702E-1   7.194826006889343E-1  
 7.249249249249250E8     4.227043129503727E-3   5.796433687210083E-1  -3.708264976739883E-2   9.952710010111332E-3  -3.708623722195625E-2   9.320633485913277E-3  -5.754531621932983E-1   7.246829867362976E-1  
 7.273273273273274E8     1.411484926939011E-2   5.656177997589111E-1  -4.241963848471642E-2   1.359746512025595E-2  -4.267338290810585E-2   1.265003718435764E-2  -5.625919699668884E-1   7.293638586997986E-1  
 7.297297297297298E8     2.637028135359287E-2   5.488445758819580E-1  -4.761412739753723E-2   1.940245926380158E-2  -4.780482128262520E-2   1.857199333608151E-2  -5.493381023406982E-1   7.339056730270386E-1  
 7.321321321321322E8     3.876872360706329E-2   5.284521579742432E-1  -5.156792700290680E-2   2.684064581990242E-2  -5.152878165245056E-2   2.685975469648838E-2  -5.364890694618225E-1   7.386388778686523E-1  
 7.345345345345346E8     5.042368546128273E-2   5.046786665916443E-1  -5.320879444479942E-2   3.579959645867348E-2  -5.312151089310646E-2   3.611540794372559E-2  -5.240055322647095E-1   7.439393401145935E-1  
 7.369369369369370E8     5.881750956177712E-2   4.772193729877472E-1  -5.299673229455948E-2   4.482851549983025E-2  -5.250888690352440E-2   4.545096307992935E-2  -5.112915039062500E-1   7.499632835388184E-1  
 7.393393393393394E8     6.364356726408005E-2   4.454906284809113E-1  -5.118092894554138E-2   5.428206548094750E-2  -5.062776431441307E-2   5.476962402462959E-2  -4.984836280345917E-1   7.556298971176148E-1  
 7.417417417417418E8     6.331221014261246E-2   4.119143187999725E-1  -4.719327017664909E-2   6.349997967481613E-2  -4.687309637665749E-2   6.372623890638351E-2  -4.857040643692017E-1   7.608184814453125E-1  
 7.441441441441442E8     5.824055895209312E-2   3.780025541782379E-1  -4.160019382834435E-2   7.179029285907745E-2  -4.196676611900330E-2   7.161138206720352E-2  -4.733630716800690E-1   7.656040787696838E-1  
 7.465465465465466E8     4.621754586696625E-2   3.463915586471558E-1  -3.541744500398636E-2   7.882904261350632E-2  -3.598750755190849E-2   7.875642925500870E-2  -4.586236774921417E-1   7.719364762306213E-1  
 7.489489489489490E8     2.980743348598480E-2   3.158759772777557E-1  -2.836029790341854E-2   8.506207913160324E-2  -2.910870127379894E-2   8.489939570426941E-2  -4.455443620681763E-1   7.773057222366333E-1  
 7.513513513513514E8     9.231243282556534E-3   2.879805564880371E-1  -2.075836807489395E-2   9.014299511909485E-2  -2.164025045931339E-2   9.017444401979446E-2  -4.323668777942658E-1   7.825244069099426E-1  
 7.537537537537538E8    -1.430285908281803E-2   2.633700966835022E-1  -1.261030603200197E-2   9.469350427389145E-2  -1.366743259131908E-2   9.486780315637589E-2  -4.170449972152710E-1   7.880575656890869E-1  
 7.561561561561562E8    -4.097445309162140E-2   2.434211671352387E-1  -3.954917192459106E-3   9.860692173242569E-2  -4.651629831641913E-3   9.858094900846481E-2  -4.006165862083435E-1   7.920413017272949E-1  
 7.585585585585586E8    -6.795714050531387E-2   2.313988953828812E-1   5.005066283047199E-3   1.011626124382019E-1   4.648117814213038E-3   1.008133143186569E-1  -3.815982043743134E-1   7.983399033546448E-1  
 7.609609609609610E8    -9.326342493295670E-2   2.217087596654892E-1   1.369177829474211E-2   1.029792875051498E-1   1.355736609548330E-2   1.024563387036324E-1  -3.627065420150757E-1   8.034914731979370E-1  
 7.633633633633634E8    -1.194048076868057E-1   2.125720381736755E-1   2.278240583837032E-2   1.045962944626808E-1   2.271833457052708E-2   1.039628684520721E-1  -3.446234166622162E-1   8.077833652496338E-1  
 7.657657657657658E8    -1.507346332073212E-1   2.054023146629334E-1   3.292859718203545E-2   1.049037948250771E-1   3.239772468805313E-2   1.047450974583626E-1  -3.275836110115051E-1   8.107395768165588E-1  
 7.681681681681682E8    -1.832811087369919E-1   2.046734690666199E-1   4.272442683577538E-2   1.037865951657295E-1   4.257069900631905E-2   1.041026785969734E-1  -3.110843300819397E-1   8.130775094032288E-1  
 7.705705705705706E8    -2.152302563190460E-1   2.123901247978210E-1   5.222798511385918E-2   1.013871729373932E-1   5.160393938422203E-2   1.021610870957375E-1  -2.938100993633270E-1   8.149628639221191E-1  
 7.729729729729730E8    -2.418750673532486E-1   2.247667908668518E-1   6.104163080453873E-2   9.804829955101013E-2   6.039615720510483E-2   9.934175759553909E-2  -2.746993601322174E-1   8.185527920722961E-1  
 7.753753753753754E8    -2.641466557979584E-1   2.381467223167419E-1   6.932137161493301E-2   9.437072277069092E-2   6.895337253808975E-2   9.596903622150421E-2  -2.517364621162415E-1   8.213181495666504E-1  
 7.777777777777778E8    -2.828254997730255E-1   2.525374591350555E-1   7.761485874652863E-2   9.060230106115341E-2   7.714316993951798E-2   9.173876792192459E-2  -2.262719869613648E-1   8.211968541145325E-1  
 7.801801801801802E8    -2.974127829074860E-1   2.676914632320404E-1   8.587080240249634E-2   8.627481758594513E-2   8.496858179569244E-2   8.676545321941376E-2  -1.990945637226105E-1   8.172076344490051E-1  
 7.825825825825826E8    -3.072699308395386E-1   2.833254635334015E-1   9.349332749843597E-2   8.089327067136765E-2   9.292654693126679E-2   8.115521818399429E-2  -1.716765910387039E-1   8.147221207618713E-1  
 7.849849849849850E8    -3.167558312416077E-1   2.973462939262390E-1   1.006028875708580E-1   7.532351464033127E-2   9.973502904176712E-2   7.570214569568634E-2  -1.476552188396454E-1   8.095299005508423E-1  
 7.873873873873874E8    -3.255091309547424E-1   3.099553287029266E-1   1.073963344097138E-1   6.990082561969757E-2   1.064600795507431E-1   7.025535404682159E-2  -1.245601922273636E-1   8.041865825653076E-1  
 7.897897897897898E8    -3.359339833259583E-1   3.227052092552185E-1   1.149402558803558E-1   6.418961286544800E-2   1.140979751944542E-1   6.433710455894470E-2  -9.991963952779770E-2   7.995562553405762E-1  
 7.921921921921922E8    -3.446540534496307E-1   3.390313982963562E-1   1.226230636239052E-1   5.691661313176155E-2   1.226501688361168E-1   5.721725896000862E-2  -7.407154887914658E-2   7.950043082237244E-1  
 7.945945945945946E8    -3.526460230350494E-1   3.566372692584992E-1   1.298225969076157E-1   4.787253588438034E-2   1.294167637825012E-1   4.855169728398323E-2  -4.707903414964676E-2   7.862949967384338E-1  
 7.969969969969970E8    -3.580756783485413E-1   3.741866350173950E-1   1.355675756931305E-1   3.814762458205223E-2   1.353210806846619E-1   3.897669166326523E-2  -1.876047998666763E-2   7.760739326477051E-1  
 7.993993993993994E8    -3.606053888797760E-1   3.907853066921234E-1   1.400312483310700E-1   2.797570265829563E-2   1.400320231914520E-1   2.881791070103645E-2   1.088194828480482E-2   7.639535069465637E-1  
 8.018018018018018E8    -3.620686829090118E-1   4.058512449264526E-1   1.438196897506714E-1   1.812461204826832E-2   1.439183503389359E-1   1.862727664411068E-2   4.102801531553268E-2   7.480744719505310E-1  
 8.042042042042042E8    -3.626789152622223E-1   4.209800660610199E-1   1.477900594472885E-1   8.086540736258030E-3   1.476398259401321E-1   8.546936325728893E-3   6.989686936140060E-2   7.290603518486023E-1  
 8.066066066066066E8    -3.606800138950348E-1   4.365874826908112E-1   1.511755138635635E-1  -3.716129576787353E-3   1.513486206531525E-1  -3.034932538866997E-3   9.957780689001083E-2   7.073890566825867E-1  
 8.090090090090090E8    -3.581299185752869E-1   4.509737789630890E-1   1.532163470983505E-1  -1.621701940894127E-2   1.535647511482239E-1  -1.573819108307362E-2   1.277474462985992E-1   6.831088066101074E-1  
 8.114114114114114E8    -3.536946475505829E-1   4.631745219230652E-1   1.538944244384766E-1  -2.934452891349793E-2   1.543362289667130E-1  -2.911086939275265E-2   1.553473174571991E-1   6.555326581001282E-1  
 8.138138138138138E8    -3.495244383811951E-1   4.717754125595093E-1   1.529000103473663E-1  -4.263821244239807E-2   1.532576680183411E-1  -4.279601201415062E-2   1.811827868223190E-1   6.252038478851318E-1  
 8.162162162162162E8    -3.480539023876190E-1   4.794018864631653E-1   1.502356827259064E-1  -5.531983822584152E-2   1.504154950380325E-1  -5.563994124531746E-2   2.056448459625244E-1   5.926626324653626E-1  
 8.186186186186186E8    -3.481369912624359E-1   4.893731772899628E-1   1.467493474483490E-1  -6.730019301176071E-2   1.468891203403473E-1  -6.751758605241776E-2   2.297556847333908E-1   5.570486783981323E-1  
 8.210210210210210E8    -3.462336659431458E-1   4.991653263568878E-1   1.418270021677017E-1  -8.032803982496262E-2   1.423815786838532E-1  -7.977205514907837E-2   2.509390413761139E-1   5.182316303253174E-1  
 8.234234234234234E8    -3.459075391292572E-1   5.073666572570801E-1   1.351121068000794E-1  -9.203431755304337E-2   1.356625109910965E-1  -9.145560115575790E-2   2.696436941623688E-1   4.741568267345429E-1  
