#  HZ   S   RI   R     50.00 
! Rohde & Schwarz ZVB8 2Ports - Version 2.81 - 1145.1010k08 SN: 100113
! Date: 2016-05-17 22:36:48
! Measurements: S11 S21 S12 S22 
! 
 6.000000000000000E8    -8.173560500144959E-1   4.781731069087982E-1  -5.468518356792629E-4  -1.285731443203986E-3  -5.364652024582028E-4  -1.298531075008214E-3  -9.480172395706177E-1   2.306019812822342E-1  
 6.024024024024024E8    -8.100233674049377E-1   4.887483716011047E-1  -5.373736494220793E-4  -1.305595156736672E-3  -5.222518811933696E-4  -1.270847045816481E-3  -9.447383880615234E-1   2.412787973880768E-1  
 6.048048048048048E8    -8.021918535232544E-1   4.996182024478912E-1  -4.776582063641399E-4  -1.299255760386586E-3  -5.102473078295589E-4  -1.313744694925845E-3  -9.417890906333923E-1   2.514075934886932E-1  
 6.072072072072072E8    -7.939684391021729E-1   5.115520358085632E-1  -5.318594048731029E-4  -1.332475105300546E-3  -4.953968455083668E-4  -1.368374563753605E-3  -9.390875697135925E-1   2.614197432994843E-1  
 6.096096096096096E8    -7.850565314292908E-1   5.232690572738648E-1  -4.822754999622703E-4  -1.392488251440227E-3  -4.590867611113936E-4  -1.358466106466949E-3  -9.357331991195679E-1   2.713801562786102E-1  
 6.120120120120120E8    -7.780219316482544E-1   5.323300361633301E-1  -4.246182215865701E-4  -1.401214860379696E-3  -3.817713877651840E-4  -1.393412239849567E-3  -9.327951073646545E-1   2.790091335773468E-1  
 6.144144144144144E8    -7.702479362487793E-1   5.427878499031067E-1  -2.964797313325107E-4  -1.472099218517542E-3  -2.826337004080415E-4  -1.487078494392335E-3  -9.302536249160767E-1   2.885301113128662E-1  
 6.168168168168168E8    -7.620961070060730E-1   5.532714128494263E-1  -2.385131956543773E-4  -1.542815123684704E-3  -2.600425796117634E-4  -1.676443614996970E-3  -9.271092414855957E-1   2.979970276355743E-1  
 6.192192192192192E8    -7.536569237709045E-1   5.632858276367188E-1  -9.419409616384655E-5  -1.742777181789279E-3  -9.591515845386311E-5  -1.806732849217951E-3  -9.240643382072449E-1   3.069869279861450E-1  
 6.216216216216216E8    -7.444160580635071E-1   5.736797451972961E-1   8.373845616915787E-8  -1.972835743799806E-3  -9.257724741473794E-5  -2.007279079407454E-3  -9.203339219093323E-1   3.165105879306793E-1  
 6.240240240240240E8    -7.348803877830505E-1   5.832977294921875E-1   3.489615119178779E-5  -2.271253149956465E-3   5.477839295053855E-5  -2.254707738757134E-3  -9.166468977928162E-1   3.261130750179291E-1  
 6.264264264264264E8    -7.261922359466553E-1   5.929189920425415E-1   2.590635813248809E-5  -2.686079125851393E-3   9.111768304137513E-5  -2.673228969797492E-3  -9.127860665321350E-1   3.373891711235046E-1  
 6.288288288288288E8    -7.175860404968262E-1   6.017697453498840E-1  -4.885477392235771E-5  -3.174982732161880E-3  -8.174410322681069E-5  -3.142006229609251E-3  -9.088343381881714E-1   3.473153412342072E-1  
 6.312312312312312E8    -7.096253037452698E-1   6.106248497962952E-1  -2.922335115727037E-4  -3.612599335610867E-3  -3.042435273528099E-4  -3.541461424902082E-3  -9.048788547515869E-1   3.562611341476440E-1  
 6.336336336336336E8    -7.017917633056641E-1   6.195203661918640E-1  -6.995928124524653E-4  -4.019048996269703E-3  -6.353913340717554E-4  -3.985387738794088E-3  -9.011721611022949E-1   3.642318844795227E-1  
 6.360360360360360E8    -6.939386725425720E-1   6.285388469696045E-1  -1.146426540799439E-3  -4.257760010659695E-3  -1.116062863729894E-3  -4.326076712459326E-3  -8.976089954376221E-1   3.719292581081390E-1  
 6.384384384384384E8    -6.856489777565002E-1   6.378782391548157E-1  -1.676643500104547E-3  -4.472272470593453E-3  -1.581776188686490E-3  -4.486086778342724E-3  -8.943718075752258E-1   3.804851174354553E-1  
 6.408408408408408E8    -6.764917373657227E-1   6.471630930900574E-1  -2.222009468823671E-3  -4.536099266260862E-3  -2.178458496928215E-3  -4.524261225014925E-3  -8.905686736106873E-1   3.894613683223724E-1  
 6.432432432432432E8    -6.672523021697998E-1   6.564769744873047E-1  -2.658002544194460E-3  -4.502099473029375E-3  -2.716147108003497E-3  -4.495411179959774E-3  -8.864856958389282E-1   3.978633284568787E-1  
 6.456456456456456E8    -6.574932932853699E-1   6.651243567466736E-1  -3.128302516415715E-3  -4.427246283739805E-3  -3.134659957140684E-3  -4.458637908101082E-3  -8.823168873786926E-1   4.061596095561981E-1  
 6.480480480480480E8    -6.477860808372498E-1   6.738578677177429E-1  -3.497166093438864E-3  -4.232798237353563E-3  -3.460676409304142E-3  -4.292722325772047E-3  -8.778530359268189E-1   4.141287803649902E-1  
 6.504504504504504E8    -6.367606520652771E-1   6.836508512496948E-1  -3.827067324891686E-3  -4.189490340650082E-3  -3.817885415628552E-3  -4.123416729271412E-3  -8.696389198303223E-1   4.232911169528961E-1  
 6.528528528528528E8    -6.256551742553711E-1   6.934369206428528E-1  -4.139137919992209E-3  -4.027555696666241E-3  -4.045767709612846E-3  -4.079855978488922E-3  -8.625450134277344E-1   4.342925250530243E-1  
 6.552552552552552E8    -6.148889660835266E-1   7.020872831344605E-1  -4.368813708424568E-3  -3.950804471969605E-3  -4.335664678364992E-3  -3.922040108591318E-3  -8.581564426422119E-1   4.452786743640900E-1  
 6.576576576576576E8    -6.033856868743897E-1   7.100834250450134E-1  -4.633958451449871E-3  -3.870577551424503E-3  -4.603565670549870E-3  -3.848062362521887E-3  -8.562419414520264E-1   4.538251757621765E-1  
 6.600600600600600E8    -5.903633236885071E-1   7.184895873069763E-1  -4.930620547384024E-3  -3.780704690143466E-3  -4.918723832815886E-3  -3.806293010711670E-3  -8.536463975906372E-1   4.591356515884399E-1  
 6.624624624624624E8    -5.784130692481995E-1   7.271444201469421E-1  -5.174540448933840E-3  -3.616683417931199E-3  -5.163012072443962E-3  -3.658395726233721E-3  -8.484732508659363E-1   4.680641293525696E-1  
 6.648648648648648E8    -5.669376254081726E-1   7.352136969566345E-1  -5.486026871949434E-3  -3.546223044395447E-3  -5.493368022143841E-3  -3.567289095371962E-3  -8.432134985923767E-1   4.767770469188690E-1  
 6.672672672672672E8    -5.548588037490845E-1   7.428630590438843E-1  -5.715735722333193E-3  -3.379533300176263E-3  -5.725448485463858E-3  -3.419485874474049E-3  -8.379749059677124E-1   4.850199222564697E-1  
 6.696696696696696E8    -5.423774719238281E-1   7.502139806747437E-1  -6.005261093378067E-3  -3.324320539832115E-3  -6.006293464452028E-3  -3.252054797485471E-3  -8.329505324363709E-1   4.930541813373566E-1  
 6.720720720720720E8    -5.290556550025940E-1   7.576606869697571E-1  -6.308660842478275E-3  -3.144736634567380E-3  -6.245692726224661E-3  -3.126352559775114E-3  -8.279758095741272E-1   5.007596015930176E-1  
 6.744744744744744E8    -5.154253840446472E-1   7.646709084510803E-1  -6.544479168951511E-3  -3.023372730240226E-3  -6.559857167303562E-3  -3.013406880199909E-3  -8.218219280242920E-1   5.099083781242371E-1  
 6.768768768768768E8    -5.013881921768189E-1   7.715010046958923E-1  -6.811974104493856E-3  -2.791689475998282E-3  -6.808361038565636E-3  -2.798940986394882E-3  -8.157428503036499E-1   5.185359120368958E-1  
 6.792792792792792E8    -4.873965680599213E-1   7.777335643768311E-1  -6.987002678215504E-3  -2.653408795595169E-3  -7.029055152088404E-3  -2.647154033184052E-3  -8.098160028457642E-1   5.268331170082092E-1  
 6.816816816816816E8    -4.731558561325073E-1   7.837190032005310E-1  -7.210942916572094E-3  -2.531870966777206E-3  -7.260633632540703E-3  -2.596052829176188E-3  -8.035435080528259E-1   5.353500843048096E-1  
 6.840840840840840E8    -4.579863548278809E-1   7.894688248634338E-1  -7.503452710807324E-3  -2.410970162600279E-3  -7.428226992487907E-3  -2.440581563860178E-3  -7.976436614990234E-1   5.440233349800110E-1  
 6.864864864864864E8    -4.426071345806122E-1   7.955544590950012E-1  -7.710547652095556E-3  -2.323118504136801E-3  -7.701355963945389E-3  -2.374311443418264E-3  -7.909004688262940E-1   5.522475838661194E-1  
 6.888888888888888E8    -4.273786246776581E-1   8.012323379516602E-1  -7.997195236384869E-3  -2.086834050714970E-3  -7.945070043206215E-3  -2.145006787031889E-3  -7.836560606956482E-1   5.610541701316834E-1  
 6.912912912912912E8    -4.123972058296204E-1   8.067317605018616E-1  -8.306966163218021E-3  -1.994281075894833E-3  -8.246003650128841E-3  -2.133603673428297E-3  -7.767498493194580E-1   5.698886513710022E-1  
 6.936936936936936E8    -3.972298502922058E-1   8.120241761207581E-1  -8.564380928874016E-3  -1.842350349761546E-3  -8.582895621657372E-3  -1.861321972683072E-3  -7.700608968734741E-1   5.785846114158630E-1  
 6.960960960960960E8    -3.817054927349091E-1   8.173404932022095E-1  -8.782640099525452E-3  -1.632332219742239E-3  -8.761987090110779E-3  -1.621688832528889E-3  -7.633330225944519E-1   5.873903036117554E-1  
 6.984984984984984E8    -3.662728667259216E-1   8.215048313140869E-1  -9.023348800837994E-3  -1.523275161162019E-3  -9.030616842210293E-3  -1.410868018865585E-3  -7.541284561157227E-1   5.990490913391113E-1  
 7.009009009009008E8    -3.506378233432770E-1   8.246427774429321E-1  -9.173338301479816E-3  -1.412296085618436E-3  -9.261265397071838E-3  -1.200433005578816E-3  -7.448118329048157E-1   6.090608239173889E-1  
 7.033033033033032E8    -3.341122269630432E-1   8.270897865295410E-1  -9.363926947116852E-3  -1.314171473495662E-3  -9.438753128051758E-3  -1.098022446967661E-3  -7.376946806907654E-1   6.170789003372192E-1  
 7.057057057057056E8    -3.177751600742340E-1   8.284444212913513E-1  -9.474729187786579E-3  -1.208301633596420E-3  -9.486440569162369E-3  -1.125472015701234E-3  -7.325258255004883E-1   6.215842366218567E-1  
 7.081081081081080E8    -2.993217110633850E-1   8.302431106567383E-1  -9.649624116718769E-3  -1.224023988470435E-3  -9.696141816675663E-3  -1.299994066357613E-3  -7.270885109901428E-1   6.270015239715576E-1  
 7.105105105105104E8    -2.810371518135071E-1   8.318168520927429E-1  -9.865188971161842E-3  -1.256682560779154E-3  -9.854725562036037E-3  -1.426967559382320E-3  -7.211157679557800E-1   6.335067749023438E-1  
 7.129129129129129E8    -2.644123733043671E-1   8.321773409843445E-1  -1.013363059610128E-2  -1.460371073335409E-3  -1.007937360554934E-2  -1.698307460173965E-3  -7.135850787162781E-1   6.409852504730225E-1  
 7.153153153153153E8    -2.492157518863678E-1   8.311542868614197E-1  -1.042644120752811E-2  -1.842203899286687E-3  -1.040913071483374E-2  -1.947986194863915E-3  -7.045859694480896E-1   6.495916843414307E-1  
 7.177177177177178E8    -2.339026778936386E-1   8.299953341484070E-1  -1.081707514822483E-2  -2.358990954235196E-3  -1.075351610779762E-2  -2.418158343061805E-3  -6.949087381362915E-1   6.586744785308838E-1  
 7.201201201201202E8    -2.177981585264206E-1   8.288411498069763E-1  -1.141326036304236E-2  -3.098473185673356E-3  -1.139673031866550E-2  -3.110795514658094E-3  -6.851100325584412E-1   6.672346591949463E-1  
 7.225225225225226E8    -2.038563638925552E-1   8.277565836906433E-1  -1.250813528895378E-2  -4.042539745569229E-3  -1.251971907913685E-2  -4.051793366670609E-3  -6.743106245994568E-1   6.763333678245544E-1  
 7.249249249249250E8    -1.894072145223618E-1   8.273918032646179E-1  -1.434176228940487E-2  -4.866973962634802E-3  -1.424546353518963E-2  -4.914982710033655E-3  -6.655243635177612E-1   6.825113892555237E-1  
 7.273273273273274E8    -1.745200008153915E-1   8.281620144844055E-1  -1.666695065796375E-2  -5.034672562032938E-3  -1.657039113342762E-2  -5.352613981813192E-3  -6.567972898483276E-1   6.881997585296631E-1  
 7.297297297297298E8    -1.595792025327683E-1   8.290035128593445E-1  -1.927558891475201E-2  -4.785850178450346E-3  -1.924151927232742E-2  -5.044995807111263E-3  -6.483172178268433E-1   6.944558620452881E-1  
 7.321321321321322E8    -1.444176882505417E-1   8.289725184440613E-1  -2.193064056336880E-2  -3.889263840392232E-3  -2.187959477305412E-2  -3.895536297932267E-3  -6.395370960235596E-1   7.010965943336487E-1  
 7.345345345345346E8    -1.277998238801956E-1   8.282730579376221E-1  -2.430488541722298E-2  -2.320977393537760E-3  -2.430635504424572E-2  -2.191938692703843E-3  -6.307302117347717E-1   7.080446481704712E-1  
 7.369369369369370E8    -1.098549589514732E-1   8.266643881797791E-1  -2.622970007359982E-2  -3.718860389199108E-4  -2.620505727827549E-2  -6.394554657163099E-5  -6.216168999671936E-1   7.157215476036072E-1  
 7.393393393393394E8    -9.101501107215881E-2   8.240557312965393E-1  -2.793995849788189E-2   1.843094825744629E-3  -2.780460566282272E-2   2.113304799422622E-3  -6.125735044479370E-1   7.228172421455383E-1  
 7.417417417417418E8    -7.161976397037506E-2   8.200681209564209E-1  -2.926934882998467E-2   4.258506000041962E-3  -2.925072424113751E-2   4.372231662273407E-3  -6.039664745330811E-1   7.293044924736023E-1  
 7.441441441441442E8    -5.126494541764259E-2   8.142868876457214E-1  -3.029122389853001E-2   6.720206700265408E-3  -3.034208156168461E-2   6.635352503508329E-3  -5.958570241928101E-1   7.352656126022339E-1  
 7.465465465465466E8    -3.429642319679260E-2   8.080834150314331E-1  -3.133179247379303E-2   9.088479913771153E-3  -3.133381903171539E-2   8.949390612542629E-3  -5.853363871574402E-1   7.428005337715149E-1  
 7.489489489489490E8    -1.758246123790741E-2   8.003624081611633E-1  -3.210339322686195E-2   1.155242789536715E-2  -3.222791105508804E-2   1.136486697942019E-2  -5.765003561973572E-1   7.492627501487732E-1  
 7.513513513513514E8     8.339693158632144E-5   7.911606431007385E-1  -3.278151154518127E-2   1.415490917861462E-2  -3.294896334409714E-2   1.396917551755905E-2  -5.675508379936218E-1   7.555452585220337E-1  
 7.537537537537538E8     1.913324557244778E-2   7.807720899581909E-1  -3.325198218226433E-2   1.690998300909996E-2  -3.356416895985603E-2   1.670261472463608E-2  -5.572301149368286E-1   7.621819376945496E-1  
 7.561561561561562E8     3.792054578661919E-2   7.686349749565125E-1  -3.377102315425873E-2   1.975229568779469E-2  -3.385388478636742E-2   1.967271417379379E-2  -5.462955236434937E-1   7.673645019531250E-1  
 7.585585585585586E8     5.475309118628502E-2   7.562158107757568E-1  -3.399312868714333E-2   2.269870974123478E-2  -3.389588370919228E-2   2.266552112996578E-2  -5.334066748619080E-1   7.747626304626465E-1  
 7.609609609609610E8     7.051872462034226E-2   7.430714368820190E-1  -3.394056856632233E-2   2.578186430037022E-2  -3.380199149250984E-2   2.565307170152664E-2  -5.211246609687805E-1   7.817161083221436E-1  
 7.633633633633634E8     8.575370162725449E-2   7.291121482849121E-1  -3.373406827449799E-2   2.894208393990994E-2  -3.359986096620560E-2   2.857258357107639E-2  -5.103572607040405E-1   7.876347303390503E-1  
 7.657657657657658E8     1.008737236261368E-1   7.138020396232605E-1  -3.344169259071350E-2   3.219262510538101E-2  -3.346715867519379E-2   3.179293125867844E-2  -5.007158517837524E-1   7.925618886947632E-1  
 7.681681681681682E8     1.146326363086700E-1   6.973997354507446E-1  -3.300066664814949E-2   3.546743467450142E-2  -3.322912752628326E-2   3.529078885912895E-2  -4.927765130996704E-1   7.967873215675354E-1  
 7.705705705705706E8     1.249607279896736E-1   6.808024644851685E-1  -3.234766051173210E-2   3.892497345805168E-2  -3.264638781547546E-2   3.881806135177612E-2  -4.836508631706238E-1   8.003800511360169E-1  
 7.729729729729730E8     1.347442716360092E-1   6.624465584754944E-1  -3.096456825733185E-2   4.276008903980255E-2  -3.161226958036423E-2   4.269110783934593E-2  -4.740627110004425E-1   8.066407442092896E-1  
 7.753753753753754E8     1.432710438966751E-1   6.429331302642822E-1  -2.935216575860977E-2   4.642076790332794E-2  -2.999174781143665E-2   4.652052372694016E-2  -4.615495204925537E-1   8.134630918502808E-1  
 7.777777777777778E8     1.495909988880158E-1   6.221700906753540E-1  -2.744982764124870E-2   5.019001662731171E-2  -2.791033312678337E-2   5.025222897529602E-2  -4.461381137371063E-1   8.185046911239624E-1  
 7.801801801801802E8     1.524051129817963E-1   6.018022298812866E-1  -2.510182186961174E-2   5.402414873242378E-2  -2.527544274926186E-2   5.376217514276505E-2  -4.292668998241425E-1   8.204873800277710E-1  
 7.825825825825826E8     1.540027856826782E-1   5.825801491737366E-1  -2.199461311101914E-2   5.753633007407188E-2  -2.214239165186882E-2   5.738320574164391E-2  -4.125638902187347E-1   8.253483772277832E-1  
 7.849849849849850E8     1.537549942731857E-1   5.671372413635254E-1  -1.858507283031941E-2   6.054661422967911E-2  -1.887107454240322E-2   6.029359623789787E-2  -4.005195498466492E-1   8.265969753265381E-1  
 7.873873873873874E8     1.546884328126907E-1   5.547117590904236E-1  -1.544887945055962E-2   6.307870149612427E-2  -1.567596197128296E-2   6.261824071407318E-2  -3.902575373649597E-1   8.287272453308106E-1  
 7.897897897897898E8     1.595830917358398E-1   5.410193204879761E-1  -1.262907683849335E-2   6.578171998262405E-2  -1.284938957542181E-2   6.538744270801544E-2  -3.796733021736145E-1   8.335117697715759E-1  
 7.921921921921922E8     1.643329858779907E-1   5.239804387092590E-1  -9.277511388063431E-3   6.901401281356812E-2  -9.568845853209496E-3   6.912031024694443E-2  -3.689984679222107E-1   8.399881124496460E-1  
 7.945945945945946E8     1.649136096239090E-1   5.079091191291809E-1  -5.112866871058941E-3   7.231785356998444E-2  -5.702264141291380E-3   7.223376631736755E-2  -3.559084534645081E-1   8.430281281471252E-1  
 7.969969969969970E8     1.635694354772568E-1   4.905523657798767E-1  -5.386337288655341E-4   7.513665407896042E-2  -1.180931692942977E-3   7.520562410354614E-2  -3.423320949077606E-1   8.462933897972107E-1  
 7.993993993993994E8     1.591557264328003E-1   4.729279577732086E-1   4.611267242580652E-3   7.766251266002655E-2   4.100098274648190E-3   7.785538583993912E-2  -3.278619349002838E-1   8.500956892967224E-1  
 8.018018018018018E8     1.519955545663834E-1   4.570136070251465E-1   1.009961124509573E-2   7.945755124092102E-2   1.001987420022488E-2   7.966475188732147E-2  -3.130675554275513E-1   8.529124855995178E-1  
 8.042042042042042E8     1.446838378906250E-1   4.437196254730225E-1   1.567856408655644E-2   8.097446709871292E-2   1.559187471866608E-2   8.110357075929642E-2  -3.000811636447907E-1   8.549162149429321E-1  
 8.066066066066066E8     1.366321444511414E-1   4.322459995746613E-1   2.174530923366547E-2   8.185739070177078E-2   2.160923555493355E-2   8.219033479690552E-2  -2.845360040664673E-1   8.579194545745850E-1  
 8.090090090090090E8     1.278218775987625E-1   4.228531122207642E-1   2.808341197669506E-2   8.238830417394638E-2   2.800710871815682E-2   8.258970081806183E-2  -2.697081565856934E-1   8.600642085075378E-1  
 8.114114114114114E8     1.192128136754036E-1   4.163023829460144E-1   3.458284959197044E-2   8.200885355472565E-2   3.457742184400559E-2   8.224377781152725E-2  -2.552189230918884E-1   8.613070845603943E-1  
 8.138138138138138E8     1.133535206317902E-1   4.111879467964172E-1   4.107190296053886E-2   8.079433441162109E-2   4.095224663615227E-2   8.100375533103943E-2  -2.411359846591950E-1   8.631216883659363E-1  
 8.162162162162162E8     1.098207011818886E-1   4.050637483596802E-1   4.682477191090584E-2   7.887566834688187E-2   4.665952175855637E-2   7.917427271604538E-2  -2.269915193319321E-1   8.651185631752014E-1  
 8.186186186186186E8     1.040273681282997E-1   3.977444171905518E-1   5.211960151791573E-2   7.711290568113327E-2   5.190991610288620E-2   7.727991044521332E-2  -2.110842764377594E-1   8.673599362373352E-1  
 8.210210210210210E8     9.829989820718765E-2   3.921165168285370E-1   5.745123326778412E-2   7.485833764076233E-2   5.743924528360367E-2   7.509204000234604E-2  -1.945692598819733E-1   8.691203594207764E-1  
 8.234234234234234E8     9.466574341058731E-2   3.854317665100098E-1   6.228701025247574E-2   7.219018787145615E-2   6.220936402678490E-2   7.242628931999207E-2  -1.774595230817795E-1   8.704602122306824E-1  
