#  HZ   S   RI   R     50.00 
! Rohde & Schwarz ZVB8 2Ports - Version 2.81 - 1145.1010k08 SN: 100113
! Date: 2016-05-17 22:38:19
! Measurements: S11 S21 S12 S22 
! 
 6.000000000000000E8    -7.840040326118469E-1   5.079303383827210E-1  -2.218240406364203E-3  -3.110909368842840E-3  -2.170301275327802E-3  -3.204288892447949E-3  -9.112774133682251E-1   3.044386506080627E-1  
 6.024024024024024E8    -7.748765945434570E-1   5.188505053520203E-1  -2.263690810650587E-3  -3.246186533942819E-3  -2.133046276867390E-3  -3.264663275331259E-3  -9.055943489074707E-1   3.171500861644745E-1  
 6.048048048048048E8    -7.648325562477112E-1   5.306678414344788E-1  -2.290716161951423E-3  -3.392792074009776E-3  -2.280060434713960E-3  -3.332599299028516E-3  -8.995597958564758E-1   3.302961885929108E-1  
 6.072072072072072E8    -7.539831995964050E-1   5.425583720207214E-1  -2.324823057278991E-3  -3.410902107134461E-3  -2.324532251805067E-3  -3.486212575808168E-3  -8.932668566703796E-1   3.427095711231232E-1  
 6.096096096096096E8    -7.422267198562622E-1   5.547630786895752E-1  -2.292013261467218E-3  -3.636845620349050E-3  -2.313288860023022E-3  -3.555399598553777E-3  -8.868122100830078E-1   3.556553721427918E-1  
 6.120120120120120E8    -7.329814434051514E-1   5.641790032386780E-1  -2.241302048787475E-3  -3.812188981100917E-3  -2.306176116690040E-3  -3.808501642197371E-3  -8.808372020721436E-1   3.661095201969147E-1  
 6.144144144144144E8    -7.227703332901001E-1   5.744222402572632E-1  -2.276842249557376E-3  -4.140364937484264E-3  -2.093266462907195E-3  -4.131235182285309E-3  -8.743632435798645E-1   3.785080015659332E-1  
 6.168168168168168E8    -7.113205790519714E-1   5.850412249565125E-1  -2.153393346816301E-3  -4.546168725937605E-3  -2.143454737961292E-3  -4.474258050322533E-3  -8.674252033233643E-1   3.912541866302490E-1  
 6.192192192192192E8    -6.996685266494751E-1   5.948712825775147E-1  -2.137970412150025E-3  -5.132702179253101E-3  -2.059078076854348E-3  -5.075034219771624E-3  -8.592228293418884E-1   4.038865268230438E-1  
 6.216216216216216E8    -6.878138780593872E-1   6.044256091117859E-1  -2.144495956599712E-3  -5.897445604205132E-3  -2.066235756501555E-3  -5.865876097232103E-3  -8.508300185203552E-1   4.168806076049805E-1  
 6.240240240240240E8    -6.756841540336609E-1   6.132729053497315E-1  -2.266042632982135E-3  -6.984955165535212E-3  -2.268829848617315E-3  -6.967180408537388E-3  -8.418979644775391E-1   4.295090734958649E-1  
 6.264264264264264E8    -6.647251248359680E-1   6.221332550048828E-1  -2.699475968256593E-3  -8.196465671062470E-3  -2.761910436674953E-3  -8.235299028456211E-3  -8.322159647941589E-1   4.435158073902130E-1  
 6.288288288288288E8    -6.535110473632813E-1   6.305646300315857E-1  -3.642895491793752E-3  -9.506449103355408E-3  -3.569232998415828E-3  -9.513882920145989E-3  -8.224380612373352E-1   4.562937617301941E-1  
 6.312312312312312E8    -6.435011029243469E-1   6.385725140571594E-1  -4.980159923434258E-3  -1.073236856609583E-2  -4.931071307510138E-3  -1.078217476606369E-2  -8.126366138458252E-1   4.680323302745819E-1  
 6.336336336336336E8    -6.336327791213989E-1   6.476107239723206E-1  -6.782554555684328E-3  -1.174627337604761E-2  -6.722076330333948E-3  -1.180507149547339E-2  -8.025136590003967E-1   4.787485301494598E-1  
 6.360360360360360E8    -6.228352189064026E-1   6.574320793151856E-1  -8.754003793001175E-3  -1.243955641984940E-2  -8.641925640404224E-3  -1.245345175266266E-2  -7.929832935333252E-1   4.890889227390289E-1  
 6.384384384384384E8    -6.111807227134705E-1   6.671386361122131E-1  -1.090857945382595E-2  -1.276260614395142E-2  -1.084177009761334E-2  -1.275696326047182E-2  -7.824220061302185E-1   5.014035105705261E-1  
 6.408408408408408E8    -5.987117886543274E-1   6.771685481071472E-1  -1.311363466084003E-2  -1.273035164922476E-2  -1.304737851023674E-2  -1.278043258935213E-2  -7.711423635482788E-1   5.130805373191834E-1  
 6.432432432432432E8    -5.855420231819153E-1   6.868434548377991E-1  -1.530509907752276E-2  -1.237874012440443E-2  -1.529200654476881E-2  -1.240590587258339E-2  -7.590341567993164E-1   5.249067544937134E-1  
 6.456456456456456E8    -5.713259577751160E-1   6.961738467216492E-1  -1.755334064364433E-2  -1.163057517260313E-2  -1.751380600035191E-2  -1.173471473157406E-2  -7.461285591125488E-1   5.366491675376892E-1  
 6.480480480480480E8    -5.561215877532959E-1   7.049245238304138E-1  -1.952550373971462E-2  -1.073813810944557E-2  -1.944802142679691E-2  -1.087163388729096E-2  -7.324502468109131E-1   5.486311912536621E-1  
 6.504504504504504E8    -5.392311215400696E-1   7.147753834724426E-1  -2.130580507218838E-2  -9.806531481444836E-3  -2.126592211425304E-2  -9.873097762465477E-3  -7.141029238700867E-1   5.608333349227905E-1  
 6.528528528528528E8    -5.223781466484070E-1   7.234359383583069E-1  -2.305434271693230E-2  -8.845834061503410E-3  -2.307555824518204E-2  -8.854149840772152E-3  -6.957229971885681E-1   5.754786729812622E-1  
 6.552552552552552E8    -5.050750374794006E-1   7.312173247337341E-1  -2.509435825049877E-2  -7.889143191277981E-3  -2.506685629487038E-2  -7.948019541800022E-3  -6.795569062232971E-1   5.902919173240662E-1  
 6.576576576576576E8    -4.866434037685394E-1   7.378451824188232E-1  -2.713895775377750E-2  -6.682011764496565E-3  -2.714255824685097E-2  -6.809082813560963E-3  -6.647553443908691E-1   6.023520231246948E-1  
 6.600600600600600E8    -4.663616716861725E-1   7.437879443168640E-1  -2.943379804491997E-2  -5.146940704435110E-3  -2.939105220139027E-2  -5.287710111588240E-3  -6.476925611495972E-1   6.105393171310425E-1  
 6.624624624624624E8    -4.470265805721283E-1   7.495760917663574E-1  -3.163541480898857E-2  -3.290976397693157E-3  -3.154140710830689E-2  -3.492716467007995E-3  -6.267467141151428E-1   6.222724318504334E-1  
 6.648648648648648E8    -4.270620942115784E-1   7.545706629753113E-1  -3.381501883268356E-2  -1.269404659979045E-3  -3.368608281016350E-2  -1.534525770694017E-3  -6.036351323127747E-1   6.335608959197998E-1  
 6.672672672672672E8    -4.070858359336853E-1   7.583479881286621E-1  -3.602983430027962E-2   9.882530430331826E-4  -3.589947894215584E-2   7.663242868147790E-4  -5.795242786407471E-1   6.438006162643433E-1  
 6.696696696696696E8    -3.860909640789032E-1   7.614234685897827E-1  -3.812450543045998E-2   3.555973526090384E-3  -3.810949623584747E-2   3.360917558893561E-3  -5.537411570549011E-1   6.531943082809448E-1  
 6.720720720720720E8    -3.640759587287903E-1   7.640444040298462E-1  -4.034777358174324E-2   6.244447547942400E-3  -4.052489250898361E-2   6.230954080820084E-3  -5.263831615447998E-1   6.617032289505005E-1  
 6.744744744744744E8    -3.420156240463257E-1   7.651842832565308E-1  -4.259564355015755E-2   9.623039513826370E-3  -4.273534193634987E-2   9.705426171422005E-3  -4.953435659408569E-1   6.691252589225769E-1  
 6.768768768768768E8    -3.189562857151032E-1   7.647850513458252E-1  -4.465248435735703E-2   1.374838221818209E-2  -4.477408900856972E-2   1.371331885457039E-2  -4.633610248565674E-1   6.741314530372620E-1  
 6.792792792792792E8    -2.956061661243439E-1   7.633327245712280E-1  -4.629373922944069E-2   1.809422671794891E-2  -4.644265770912170E-2   1.806432008743286E-2  -4.287226498126984E-1   6.774478554725647E-1  
 6.816816816816816E8    -2.713408470153809E-1   7.602482438087463E-1  -4.779842868447304E-2   2.286992780864239E-2  -4.782913997769356E-2   2.261449955403805E-2  -3.923075497150421E-1   6.785461306571960E-1  
 6.840840840840840E8    -2.461433410644531E-1   7.555286884307861E-1  -4.916908964514732E-2   2.819555252790451E-2  -4.921848326921463E-2   2.787922509014607E-2  -3.535236716270447E-1   6.769773364067078E-1  
 6.864864864864864E8    -2.212241441011429E-1   7.496359944343567E-1  -5.014096200466156E-2   3.410502523183823E-2  -5.024969577789307E-2   3.355040773749352E-2  -3.107037842273712E-1   6.712493896484375E-1  
 6.888888888888888E8    -1.969070285558701E-1   7.430881857872009E-1  -5.083199217915535E-2   4.064764454960823E-2  -5.108778551220894E-2   4.006817191839218E-2  -2.650853395462036E-1   6.610849499702454E-1  
 6.912912912912912E8    -1.731774210929871E-1   7.340599298477173E-1  -5.094663426280022E-2   4.834087193012238E-2  -5.142975226044655E-2   4.802843183279038E-2  -2.171936035156250E-1   6.445471048355103E-1  
 6.936936936936936E8    -1.491118073463440E-1   7.224301099777222E-1  -4.933954030275345E-2   5.716317892074585E-2  -4.970514029264450E-2   5.716026574373245E-2  -1.683656126260757E-1   6.207979917526245E-1  
 6.960960960960960E8    -1.253719627857208E-1   7.089119553565979E-1  -4.612030088901520E-2   6.564085930585861E-2  -4.597315192222595E-2   6.590382754802704E-2  -1.197194010019302E-1   5.895621776580811E-1  
 6.984984984984984E8    -1.035117134451866E-1   6.930804252624512E-1  -4.169751703739166E-2   7.411428540945053E-2  -4.070576280355454E-2   7.455544173717499E-2  -7.137265801429749E-2   5.509017109870911E-1  
 7.009009009009008E8    -8.263198286294937E-2   6.752261519432068E-1  -3.549766913056374E-2   8.216167986392975E-2  -3.383243829011917E-2   8.264094591140747E-2  -2.708861604332924E-2   5.028201937675476E-1  
 7.033033033033032E8    -6.240543723106384E-2   6.554741263389587E-1  -2.760410867631435E-2   8.916497230529785E-2  -2.637068927288055E-2   8.926875144243240E-2   1.009194925427437E-2   4.462477564811707E-1  
 7.057057057057056E8    -4.373520612716675E-2   6.335587501525879E-1  -1.889142952859402E-2   9.505147486925125E-2  -1.828864403069019E-2   9.495700150728226E-2   3.946638479828835E-2   3.760489821434021E-1  
 7.081081081081080E8    -2.608799375593662E-2   6.075629591941834E-1  -8.973463438451290E-3   1.001508086919785E-1  -9.576693177223206E-3   1.001865118741989E-1   5.713327974081039E-2   2.970685362815857E-1  
 7.105105105105104E8    -1.254763826727867E-2   5.809941291809082E-1   1.757492776960135E-3   1.034762039780617E-1   2.395311312284321E-4   1.037341281771660E-1   5.967767909169197E-2   2.131352126598358E-1  
 7.129129129129129E8    -3.823636332526803E-3   5.514949560165405E-1   1.214001327753067E-2   1.053218021988869E-1   1.066100131720305E-2   1.058056280016899E-1   4.478281363844872E-2   1.266354173421860E-1  
 7.153153153153153E8    -1.317040296271443E-3   5.214731097221375E-1   2.162344194948673E-2   1.058017164468765E-1   2.114921249449253E-2   1.062864884734154E-1   1.062386762350798E-2   4.390037059783936E-2  
 7.177177177177178E8    -3.659385256469250E-3   4.940340220928192E-1   2.974461950361729E-2   1.055923178792000E-1   3.020806610584259E-2   1.055566519498825E-1  -4.153524339199066E-2  -2.851187996566296E-2  
 7.201201201201202E8    -8.069341070950031E-3   4.700541794300079E-1   3.703784570097923E-2   1.061289012432098E-1   3.702270239591599E-2   1.059715226292610E-1  -1.055782884359360E-1  -8.303426206111908E-2  
 7.225225225225226E8    -1.503537688404322E-2   4.505321979522705E-1   4.446008428931236E-2   1.095311865210533E-1   4.422958195209503E-2   1.093437373638153E-1  -1.747081428766251E-1  -1.177175417542458E-1  
 7.249249249249250E8    -2.053448185324669E-2   4.359618127346039E-1   5.609586089849472E-2   1.154021248221397E-1   5.433554202318192E-2   1.160134449601173E-1  -2.425090968608856E-1  -1.353887021541596E-1  
 7.273273273273274E8    -2.265080064535141E-2   4.242881536483765E-1   7.383985072374344E-2   1.203152462840080E-1   7.089140266180039E-2   1.219926923513413E-1  -3.023600578308106E-1  -1.392900347709656E-1  
 7.297297297297298E8    -2.150060981512070E-2   4.115111529827118E-1   9.624820947647095E-2   1.207352429628372E-1   9.406681358814240E-2   1.224403455853462E-1  -3.566461205482483E-1  -1.359668821096420E-1  
 7.321321321321322E8    -1.765084825456142E-2   3.964565396308899E-1   1.197956874966621E-1   1.142425909638405E-1   1.200074553489685E-1   1.143228560686112E-1  -4.028387069702148E-1  -1.273572146892548E-1  
 7.345345345345346E8    -1.504717767238617E-2   3.759974837303162E-1   1.426932960748673E-1   1.005017235875130E-1   1.435229033231735E-1   9.903938323259354E-2  -4.396591484546661E-1  -1.180737242102623E-1  
 7.369369369369370E8    -1.385329943150282E-2   3.511084616184235E-1   1.618192344903946E-1   8.019357174634934E-2   1.624872833490372E-1   7.787155359983444E-2  -4.725896120071411E-1  -1.116605699062347E-1  
 7.393393393393394E8    -1.748188398778439E-2   3.215704262256622E-1   1.762852817773819E-1   5.507763847708702E-2   1.760008633136749E-1   5.297208204865456E-2  -5.074071884155273E-1  -1.059112772345543E-1  
 7.417417417417418E8    -2.662787213921547E-2   2.908085286617279E-1   1.839538812637329E-1   2.628209255635738E-2   1.835005432367325E-1   2.592374570667744E-2  -5.391780138015747E-1  -9.942914545536041E-2  
 7.441441441441442E8    -4.064605012536049E-2   2.603886723518372E-1   1.843189746141434E-1  -2.311109565198422E-3   1.842179447412491E-1  -1.298509771004319E-3  -5.719059705734253E-1  -9.099386632442474E-2  
 7.465465465465466E8    -6.193726509809494E-2   2.335185557603836E-1   1.788267344236374E-1  -2.787588909268379E-2   1.792755424976349E-1  -2.667784504592419E-2  -6.015786528587341E-1  -7.881271094083786E-2  
 7.489489489489490E8    -8.883223682641983E-2   2.096559405326843E-1   1.692492961883545E-1  -5.011095106601715E-2   1.700491458177567E-1  -4.899751767516136E-2  -6.331421732902527E-1  -6.411525607109070E-2  
 7.513513513513514E8    -1.197471767663956E-1   1.904851645231247E-1   1.565786898136139E-1  -6.924849748611450E-2   1.575765907764435E-1  -6.834675371646881E-2  -6.633659005165100E-1  -4.744095727801323E-2  
 7.537537537537538E8    -1.507683843374252E-1   1.771001517772675E-1   1.429721713066101E-1  -8.479968458414078E-2   1.436509042978287E-1  -8.419221639633179E-2  -6.923407912254334E-1  -2.853331342339516E-2  
 7.561561561561562E8    -1.842681616544724E-1   1.680066734552383E-1   1.285324394702911E-1  -9.770315140485764E-2   1.282124221324921E-1  -9.735102206468582E-2  -7.176758050918579E-1  -8.230423554778099E-3  
 7.585585585585586E8    -2.182476520538330E-1   1.657112389802933E-1   1.126460134983063E-1  -1.076057478785515E-1   1.118370294570923E-1  -1.070188209414482E-1  -7.393983006477356E-1   1.730390638113022E-2  
 7.609609609609610E8    -2.523415386676788E-1   1.670665591955185E-1   9.684543311595917E-2  -1.149591282010078E-1   9.636390954256058E-2  -1.137184873223305E-1  -7.581529021263123E-1   4.327229410409927E-2  
 7.633633633633634E8    -2.864714562892914E-1   1.714665740728378E-1   8.105026185512543E-2  -1.202622875571251E-1   8.113132417201996E-2  -1.188140586018562E-1  -7.747339010238648E-1   6.781837344169617E-2  
 7.657657657657658E8    -3.196496963500977E-1   1.804979741573334E-1   6.525630503892899E-2  -1.228333190083504E-1   6.594967842102051E-2  -1.218930035829544E-1  -7.893913984298706E-1   9.058187156915665E-2  
 7.681681681681682E8    -3.496355414390564E-1   1.947419345378876E-1   5.071068555116653E-2  -1.225418671965599E-1   5.137195065617561E-2  -1.224967837333679E-1  -8.029803633689880E-1   1.114520803093910E-1  
 7.705705705705706E8    -3.773913979530335E-1   2.157699465751648E-1   3.757869452238083E-2  -1.203588098287582E-1   3.831021860241890E-2  -1.204139739274979E-1  -8.134670257568359E-1   1.341571211814880E-1  
 7.729729729729730E8    -3.991487622261047E-1   2.404906600713730E-1   2.555933035910130E-2  -1.168822124600411E-1   2.707093022763729E-2  -1.173113584518433E-1  -8.232290744781494E-1   1.582304239273071E-1  
 7.753753753753754E8    -4.147781133651733E-1   2.642583549022675E-1   1.559880282729864E-2  -1.129048541188240E-1   1.706490851938725E-2  -1.136439740657806E-1  -8.301398754119873E-1   1.843141764402390E-1  
 7.777777777777778E8    -4.267571270465851E-1   2.869523763656616E-1   6.737448275089264E-3  -1.089469268918037E-1   8.033091202378273E-3  -1.093655452132225E-1  -8.327992558479309E-1   2.104230970144272E-1  
 7.801801801801802E8    -4.354959726333618E-1   3.076870739459992E-1  -1.232285052537918E-3  -1.046434417366982E-1  -1.652975479373708E-4  -1.044889912009239E-1  -8.316081762313843E-1   2.345343679189682E-1  
 7.825825825825826E8    -4.415783286094666E-1   3.291217684745789E-1  -8.339978754520416E-3  -9.977666288614273E-2  -7.822286337614059E-3  -9.955861419439316E-2  -8.320221900939941E-1   2.585223019123077E-1  
 7.849849849849850E8    -4.471738636493683E-1   3.499681651592255E-1  -1.459658704698086E-2  -9.436511993408203E-2  -1.381631288677454E-2  -9.407510608434677E-2  -8.313320279121399E-1   2.779744863510132E-1  
 7.873873873873874E8    -4.512903392314911E-1   3.667592406272888E-1  -1.918729767203331E-2  -8.940748870372772E-2  -1.856648363173008E-2  -8.905110508203507E-2  -8.306935429573059E-1   2.946963310241699E-1  
 7.897897897897898E8    -4.578512609004974E-1   3.853437602519989E-1  -2.331734262406826E-2  -8.500644564628601E-2  -2.291966229677200E-2  -8.452399075031281E-2  -8.309479951858521E-1   3.127809762954712E-1  
 7.921921921921922E8    -4.622173011302948E-1   4.085249900817871E-1  -2.758196182549000E-2  -8.048667758703232E-2  -2.721826918423176E-2  -8.051235228776932E-2  -8.325377702713013E-1   3.307740092277527E-1  
 7.945945945945946E8    -4.647881686687470E-1   4.321938753128052E-1  -3.148709982633591E-2  -7.552524656057358E-2  -3.080370463430882E-2  -7.585906982421875E-2  -8.296073079109192E-1   3.482948839664459E-1  
 7.969969969969970E8    -4.639630913734436E-1   4.550996720790863E-1  -3.459393233060837E-2  -7.048247754573822E-2  -3.388762474060059E-2  -7.101389020681381E-2  -8.262775540351868E-1   3.659862875938416E-1  
 7.993993993993994E8    -4.603353738784790E-1   4.760406315326691E-1  -3.682149574160576E-2  -6.555787473917007E-2  -3.637616708874703E-2  -6.614153087139130E-2  -8.227973580360413E-1   3.840523958206177E-1  
 8.018018018018018E8    -4.543089270591736E-1   4.947744905948639E-1  -3.862502053380013E-2  -6.111688911914825E-2  -3.846817836165428E-2  -6.143386662006378E-2  -8.180594444274902E-1   4.014580845832825E-1  
 8.042042042042042E8    -4.478772282600403E-1   5.122200846672058E-1  -4.025163128972054E-2  -5.718027427792549E-2  -4.008801653981209E-2  -5.722206458449364E-2  -8.141863346099854E-1   4.160115420818329E-1  
 8.066066066066066E8    -4.397041201591492E-1   5.283623337745667E-1  -4.183968156576157E-2  -5.317776650190353E-2  -4.160371050238609E-2  -5.314667150378227E-2  -8.088350892066956E-1   4.326629638671875E-1  
 8.090090090090090E8    -4.318294525146484E-1   5.436425209045410E-1  -4.304613173007965E-2  -4.916445910930634E-2  -4.292174801230431E-2  -4.917996376752853E-2  -8.032907247543335E-1   4.478275775909424E-1  
 8.114114114114114E8    -4.232406914234161E-1   5.573108792304993E-1  -4.409793019294739E-2  -4.528228566050530E-2  -4.397184401750565E-2  -4.523846134543419E-2  -7.976381778717041E-1   4.613910913467407E-1  
 8.138138138138138E8    -4.148074984550476E-1   5.692518949508667E-1  -4.496636986732483E-2  -4.115834832191467E-2  -4.487821832299233E-2  -4.125799611210823E-2  -7.922098636627197E-1   4.744400084018707E-1  
 8.162162162162162E8    -4.082612395286560E-1   5.796811580657959E-1  -4.520906507968903E-2  -3.728827089071274E-2  -4.501305893063545E-2  -3.736556321382523E-2  -7.872155904769898E-1   4.866646826267242E-1  
 8.186186186186186E8    -4.031049311161041E-1   5.914522409439087E-1  -4.492998123168945E-2  -3.365487605333328E-2  -4.487135261297226E-2  -3.389254212379456E-2  -7.820196151733398E-1   5.000348091125488E-1  
 8.210210210210210E8    -3.960564434528351E-1   6.019178628921509E-1  -4.478845745325089E-2  -3.031015209853649E-2  -4.470979794859886E-2  -3.050681203603745E-2  -7.758380174636841E-1   5.128797292709351E-1  
 8.234234234234234E8    -3.892510235309601E-1   6.115722060203552E-1  -4.414135962724686E-2  -2.710904739797115E-2  -4.403570666909218E-2  -2.725419402122498E-2  -7.695295810699463E-1   5.255235433578491E-1  
