#  HZ   S   RI   R     50.00 
! Rohde & Schwarz ZVB8 2Ports - Version 2.81 - 1145.1010k08 SN: 100113
! Date: 2016-05-17 22:38:23
! Measurements: S11 S21 S12 S22 
! 
 6.000000000000000E8    -7.838605046272278E-1   5.084160566329956E-1  -2.209509955719113E-3  -3.179605584591627E-3  -2.229932928457856E-3  -3.216988639906049E-3  -9.096943140029907E-1   3.072882890701294E-1  
 6.024024024024024E8    -7.744215726852417E-1   5.194796323776245E-1  -2.329428680241108E-3  -3.283729078248143E-3  -2.365448512136936E-3  -3.283552359789610E-3  -9.035785794258118E-1   3.204469084739685E-1  
 6.048048048048048E8    -7.645713686943054E-1   5.310408473014832E-1  -2.417400013655424E-3  -3.348074154928327E-3  -2.367480890825391E-3  -3.344975179061294E-3  -8.974652886390686E-1   3.332358002662659E-1  
 6.072072072072072E8    -7.534826993942261E-1   5.428839325904846E-1  -2.457672730088234E-3  -3.508751979097724E-3  -2.351175062358379E-3  -3.459495259448886E-3  -8.910155892372131E-1   3.460814058780670E-1  
 6.096096096096096E8    -7.421995401382446E-1   5.547437071800232E-1  -2.372176153585315E-3  -3.636302892118692E-3  -2.415013965219259E-3  -3.633348038420081E-3  -8.842591643333435E-1   3.589296638965607E-1  
 6.120120120120120E8    -7.330123782157898E-1   5.640691518783569E-1  -2.427683677524328E-3  -3.867470892146230E-3  -2.315332880243659E-3  -3.889816347509623E-3  -8.782525658607483E-1   3.699159622192383E-1  
 6.144144144144144E8    -7.225081324577332E-1   5.748087763786316E-1  -2.394574927166104E-3  -4.162183497101069E-3  -2.349706832319498E-3  -4.227040335536003E-3  -8.715849518775940E-1   3.823111057281494E-1  
 6.168168168168168E8    -7.111822366714478E-1   5.852720141410828E-1  -2.251148922368884E-3  -4.589043091982603E-3  -2.231059595942497E-3  -4.633332137018442E-3  -8.639523983001709E-1   3.950327038764954E-1  
 6.192192192192192E8    -6.996375322341919E-1   5.950115323066711E-1  -2.198677742853761E-3  -5.241553299129009E-3  -2.197417896240950E-3  -5.199223291128874E-3  -8.557382225990295E-1   4.080632328987122E-1  
 6.216216216216216E8    -6.875144839286804E-1   6.046010851860046E-1  -2.238517394289374E-3  -5.917287431657314E-3  -2.165734535083175E-3  -6.014122162014246E-3  -8.470551371574402E-1   4.207159280776978E-1  
 6.240240240240240E8    -6.756554841995239E-1   6.135708689689636E-1  -2.329625189304352E-3  -7.024259306490421E-3  -2.300768392160535E-3  -7.030378561466932E-3  -8.376427888870239E-1   4.332976341247559E-1  
 6.264264264264264E8    -6.645646691322327E-1   6.223974823951721E-1  -2.807815326377749E-3  -8.298649452626705E-3  -2.834044164046645E-3  -8.273822255432606E-3  -8.277919292449951E-1   4.474894106388092E-1  
 6.288288288288288E8    -6.534898281097412E-1   6.305506229400635E-1  -3.724890993908048E-3  -9.689444676041603E-3  -3.628490492701531E-3  -9.783941321074963E-3  -8.176963925361633E-1   4.605198800563812E-1  
 6.312312312312312E8    -6.432569026947022E-1   6.389254331588745E-1  -5.102764349430800E-3  -1.095216348767281E-2  -5.074887070804834E-3  -1.097127515822649E-2  -8.073009848594666E-1   4.722075462341309E-1  
 6.336336336336336E8    -6.333052515983582E-1   6.476878523826599E-1  -7.000111509114504E-3  -1.203721947968006E-2  -6.902383174747229E-3  -1.200360525399447E-2  -7.970268726348877E-1   4.830510914325714E-1  
 6.360360360360360E8    -6.227084398269653E-1   6.573641300201416E-1  -9.015285409986973E-3  -1.271613687276840E-2  -8.906920440495014E-3  -1.278218813240528E-2  -7.866771221160889E-1   4.937900006771088E-1  
 6.384384384384384E8    -6.111080646514893E-1   6.672094464302063E-1  -1.133353915065527E-2  -1.309139747172594E-2  -1.129166129976511E-2  -1.314725540578365E-2  -7.757253050804138E-1   5.058940052986145E-1  
 6.408408408408408E8    -5.987609624862671E-1   6.771975755691528E-1  -1.366941630840302E-2  -1.298479642719030E-2  -1.352279447019100E-2  -1.305723749101162E-2  -7.638612985610962E-1   5.180366635322571E-1  
 6.432432432432432E8    -5.851695537567139E-1   6.869395971298218E-1  -1.596592552959919E-2  -1.260046288371086E-2  -1.594869419932365E-2  -1.266586314886808E-2  -7.509442567825317E-1   5.299910306930542E-1  
 6.456456456456456E8    -5.712526440620422E-1   6.961443424224854E-1  -1.825925894081593E-2  -1.191858202219009E-2  -1.825213059782982E-2  -1.196934655308723E-2  -7.374007701873779E-1   5.417667627334595E-1  
 6.480480480480480E8    -5.559503436088562E-1   7.050375342369080E-1  -2.031346224248409E-2  -1.092210318893194E-2  -2.024528943002224E-2  -1.096179056912661E-2  -7.233902812004089E-1   5.536897778511047E-1  
 6.504504504504504E8    -5.393521785736084E-1   7.148028612136841E-1  -2.226026728749275E-2  -9.820443578064442E-3  -2.217980474233627E-2  -9.925966151058674E-3  -7.041615843772888E-1   5.660166144371033E-1  
 6.528528528528528E8    -5.219919681549072E-1   7.234358191490173E-1  -2.419408783316612E-2  -8.820662274956703E-3  -2.406522072851658E-2  -8.814177475869656E-3  -6.847947239875794E-1   5.806895494461060E-1  
 6.552552552552552E8    -5.048872828483582E-1   7.311409711837769E-1  -2.626648731529713E-2  -7.704651448875666E-3  -2.612795308232307E-2  -7.801873143762350E-3  -6.673319339752197E-1   5.955018401145935E-1  
 6.576576576576576E8    -4.864652156829834E-1   7.377511858940125E-1  -2.841212600469589E-2  -6.452626548707485E-3  -2.831937186419964E-2  -6.537727545946837E-3  -6.507842540740967E-1   6.076624393463135E-1  
 6.600600600600600E8    -4.664082229137421E-1   7.437190413475037E-1  -3.068980015814304E-2  -4.765994846820831E-3  -3.070187941193581E-2  -4.874917678534985E-3  -6.320030093193054E-1   6.159231662750244E-1  
 6.624624624624624E8    -4.467636346817017E-1   7.498058676719666E-1  -3.302462026476860E-2  -2.741457661613822E-3  -3.304606676101685E-2  -2.848313190042973E-3  -6.087836623191834E-1   6.274656057357788E-1  
 6.648648648648648E8    -4.269084632396698E-1   7.546524405479431E-1  -3.527079895138741E-2  -5.558715201914311E-4  -3.513797372579575E-2  -7.505797548219562E-4  -5.851206779479981E-1   6.377859115600586E-1  
 6.672672672672672E8    -4.069316089153290E-1   7.583346366882324E-1  -3.755864500999451E-2   1.963778398931027E-3  -3.745695948600769E-2   1.771270646713674E-3  -5.592553615570068E-1   6.475414633750916E-1  
 6.696696696696696E8    -3.863316476345062E-1   7.614427208900452E-1  -3.969770297408104E-2   4.842158872634172E-3  -3.962847217917442E-2   4.588149487972260E-3  -5.325575470924377E-1   6.558681130409241E-1  
 6.720720720720720E8    -3.641724586486816E-1   7.641406059265137E-1  -4.199831187725067E-2   7.813937030732632E-3  -4.198256507515907E-2   7.654057815670967E-3  -5.028315782546997E-1   6.636154651641846E-1  
 6.744744744744744E8    -3.420389294624329E-1   7.652007937431335E-1  -4.426248371601105E-2   1.156014017760754E-2  -4.435579106211662E-2   1.145636010915041E-2  -4.687135815620422E-1   6.696023941040039E-1  
 6.768768768768768E8    -3.189818263053894E-1   7.648330330848694E-1  -4.630377143621445E-2   1.593282632529736E-2  -4.642274603247643E-2   1.588715426623821E-2  -4.329835772514343E-1   6.728388071060181E-1  
 6.792792792792792E8    -2.957517504692078E-1   7.634448409080505E-1  -4.796337708830833E-2   2.070616930723190E-2  -4.806161299347878E-2   2.066336013376713E-2  -3.955279886722565E-1   6.735833287239075E-1  
 6.816816816816816E8    -2.715064287185669E-1   7.606047391891480E-1  -4.935900494456291E-2   2.584427222609520E-2  -4.938691854476929E-2   2.591998130083084E-2  -3.548801541328430E-1   6.713601946830750E-1  
 6.840840840840840E8    -2.463851869106293E-1   7.558540701866150E-1  -5.046382546424866E-2   3.168678283691406E-2  -5.049070715904236E-2   3.155050799250603E-2  -3.127384185791016E-1   6.656750440597534E-1  
 6.864864864864864E8    -2.211570590734482E-1   7.500671744346619E-1  -5.118541792035103E-2   3.825727477669716E-2  -5.128498375415802E-2   3.779765591025353E-2  -2.690461575984955E-1   6.555147171020508E-1  
 6.888888888888888E8    -1.958482712507248E-1   7.426641583442688E-1  -5.134889855980873E-2   4.562699794769287E-2  -5.157723650336266E-2   4.484765604138374E-2  -2.213488221168518E-1   6.395414471626282E-1  
 6.912912912912912E8    -1.714124083518982E-1   7.326647639274597E-1  -5.078398436307907E-2   5.434896796941757E-2  -5.114584416151047E-2   5.334037169814110E-2  -1.732472032308579E-1   6.168506145477295E-1  
 6.936936936936936E8    -1.486988663673401E-1   7.213959693908691E-1  -4.814800620079041E-2   6.374965608119965E-2  -4.857511445879936E-2   6.312483549118042E-2  -1.239949986338615E-1   5.848108530044556E-1  
 6.960960960960960E8    -1.262011975049973E-1   7.082278728485107E-1  -4.365158081054688E-2   7.270070165395737E-2  -4.370557144284248E-2   7.267306745052338E-2  -7.623098045587540E-2   5.442363619804382E-1  
 6.984984984984984E8    -1.047564223408699E-1   6.926741600036621E-1  -3.759352490305901E-2   8.139321953058243E-2  -3.678762167692184E-2   8.151748776435852E-2  -3.012687899172306E-2   4.937955439090729E-1  
 7.009009009009008E8    -8.411770313978195E-2   6.753453016281128E-1  -2.968352288007736E-2   8.898072689771652E-2  -2.813351899385452E-2   8.916460722684860E-2   9.001784957945347E-3   4.333208799362183E-1  
 7.033033033033032E8    -6.382711976766586E-2   6.556313037872315E-1  -2.025850117206574E-2   9.517218917608261E-2  -1.881195046007633E-2   9.518173336982727E-2   3.844065591692925E-2   3.623353838920593E-1  
 7.057057057057056E8    -4.434058070182800E-2   6.323031187057495E-1  -1.036777533590794E-2   9.989666193723679E-2  -8.980833925306797E-3   1.001162230968475E-1   5.484256893396378E-2   2.809887826442719E-1  
 7.081081081081080E8    -2.749505266547203E-2   6.079741120338440E-1   1.111504272557795E-3   1.035541743040085E-1   1.191027811728418E-3   1.037798374891281E-1   5.570060014724731E-2   1.974704116582871E-1  
 7.105105105105104E8    -1.376612298190594E-2   5.817538499832153E-1   1.322816405445337E-2   1.048804521560669E-1   1.177921798080206E-2   1.052743941545487E-1   4.037638753652573E-2   1.150624305009842E-1  
 7.129129129129129E8    -4.797718953341246E-3   5.526015162467957E-1   2.420437335968018E-2   1.044007614254952E-1   2.207395806908608E-2   1.050171479582787E-1   7.886890321969986E-3   3.523253276944161E-2  
 7.153153153153153E8    -2.115248003974557E-3   5.228418111801148E-1   3.390318155288696E-2   1.025179922580719E-1   3.215161338448525E-2   1.031816974282265E-1  -4.258839413523674E-2  -3.794401511549950E-2  
 7.177177177177178E8    -3.842351259663701E-3   4.947429001331329E-1   4.177770391106606E-2   1.000112295150757E-1   4.055949673056603E-2   1.006331965327263E-1  -1.078937575221062E-1  -9.689035266637802E-2  
 7.201201201201202E8    -8.347399532794952E-3   4.711925685405731E-1   4.817717149853706E-2   9.873459488153458E-2   4.716655611991882E-2   9.920400381088257E-2  -1.820998489856720E-1  -1.373272836208344E-1  
 7.225225225225226E8    -1.449272967875004E-2   4.542444944381714E-1   5.381308495998383E-2   1.008326336741447E-1   5.369202792644501E-2   1.008820980787277E-1  -2.568804323673248E-1  -1.573913097381592E-1  
 7.249249249249250E8    -1.885167695581913E-2   4.402799010276794E-1   6.403695046901703E-2   1.055960357189179E-1   6.316842138767242E-2   1.056969240307808E-1  -3.261250555515289E-1  -1.617076545953751E-1  
 7.273273273273274E8    -2.023838274180889E-2   4.285354018211365E-1   7.999138534069061E-2   1.092294752597809E-1   7.855480164289475E-2   1.095443591475487E-1  -3.847568631172180E-1  -1.548502147197723E-1  
 7.297297297297298E8    -1.794590987265110E-2   4.153206050395966E-1   1.006812378764153E-1   1.082467585802078E-1   9.941294789314270E-2   1.089936271309853E-1  -4.306693971157074E-1  -1.422159075737000E-1  
 7.321321321321322E8    -1.431433390825987E-2   3.970329761505127E-1   1.226132810115814E-1   1.005341410636902E-1   1.223129630088806E-1   1.009238511323929E-1  -4.677153229713440E-1  -1.274832934141159E-1  
 7.345345345345346E8    -1.131937466561794E-2   3.750196993350983E-1   1.431099772453308E-1   8.531646430492401E-2   1.431003659963608E-1   8.543729037046433E-2  -5.014517307281494E-1  -1.137214452028275E-1  
 7.369369369369370E8    -1.045137923210859E-2   3.487733006477356E-1   1.595395505428314E-1   6.467523425817490E-2   1.597070842981339E-1   6.411817669868469E-2  -5.319406986236572E-1  -1.025992929935455E-1  
 7.393393393393394E8    -1.436836924403906E-2   3.182598054409027E-1   1.707227677106857E-1   4.004618152976036E-2   1.710072010755539E-1   3.963243961334229E-2  -5.630118250846863E-1  -9.212654083967209E-2  
 7.417417417417418E8    -2.308386750519276E-2   2.883972823619843E-1   1.758934408426285E-1   1.391833741217852E-2   1.758519560098648E-1   1.360502280294895E-2  -5.939623713493347E-1  -8.081157505512238E-2  
 7.441441441441442E8    -3.791701793670654E-2   2.579149007797241E-1   1.747746169567108E-1  -1.219158153980970E-2   1.744190901517868E-1  -1.194426324218512E-2  -6.235716938972473E-1  -6.820459663867950E-2  
 7.465465465465466E8    -6.044261157512665E-2   2.312807738780975E-1   1.683663725852966E-1  -3.534262254834175E-2   1.676997989416122E-1  -3.558501973748207E-2  -6.516976952552795E-1  -5.122627317905426E-2  
 7.489489489489490E8    -8.835667371749878E-2   2.076449841260910E-1   1.581767052412033E-1  -5.545421317219734E-2   1.580332964658737E-1  -5.541012063622475E-2  -6.775526404380798E-1  -3.460029140114784E-2  
 7.513513513513514E8    -1.192198619246483E-1   1.887585818767548E-1   1.457500010728836E-1  -7.231266051530838E-2   1.458479911088944E-1  -7.191160321235657E-2  -7.027089595794678E-1  -1.623203046619892E-2  
 7.537537537537538E8    -1.515440940856934E-1   1.743629723787308E-1   1.321992427110672E-1  -8.648141473531723E-2   1.334237158298492E-1  -8.563013374805450E-2  -7.249373793601990E-1   2.444196958094835E-3  
 7.561561561561562E8    -1.853736937046051E-1   1.647680252790451E-1   1.177872493863106E-1  -9.824814647436142E-2   1.188138201832771E-1  -9.729200601577759E-2  -7.458648085594177E-1   2.305460348725319E-2  
 7.585585585585586E8    -2.213837653398514E-1   1.624694764614105E-1   1.021864712238312E-1  -1.068636998534203E-1   1.028613150119782E-1  -1.060624718666077E-1  -7.637839317321777E-1   4.860386997461319E-2  
 7.609609609609610E8    -2.553282976150513E-1   1.639686077833176E-1   8.721268922090530E-2  -1.127967834472656E-1   8.764417469501495E-2  -1.118295267224312E-1  -7.795850038528442E-1   7.468500733375549E-2  
 7.633633633633634E8    -2.883253097534180E-1   1.688097715377808E-1   7.301633059978485E-2  -1.172675788402557E-1   7.288672775030136E-2  -1.160901486873627E-1  -7.931948304176331E-1   1.000959351658821E-1  
 7.657657657657658E8    -3.214534521102905E-1   1.785734891891480E-1   5.846385657787323E-2  -1.192374303936958E-1   5.808115378022194E-2  -1.182114481925964E-1  -8.054673075675964E-1   1.232487261295319E-1  
 7.681681681681682E8    -3.525804877281189E-1   1.943567544221878E-1   4.470438882708550E-2  -1.184799149632454E-1   4.437696561217308E-2  -1.179000958800316E-1  -8.172635436058044E-1   1.444668173789978E-1  
 7.705705705705706E8    -3.803425431251526E-1   2.163163423538208E-1   3.215472027659416E-2  -1.159353777766228E-1   3.262092173099518E-2  -1.157681867480278E-1  -8.243198394775391E-1   1.640367656946182E-1  
 7.729729729729730E8    -4.019983708858490E-1   2.416626513004303E-1   2.094382606446743E-2  -1.120934933423996E-1   2.264708094298840E-2  -1.127685904502869E-1  -8.318599462509155E-1   1.861418187618256E-1  
 7.753753753753754E8    -4.175732135772705E-1   2.659773230552673E-1   1.166698988527060E-2  -1.080266013741493E-1   1.333746500313282E-2  -1.088482663035393E-1  -8.369427323341370E-1   2.112029045820236E-1  
 7.777777777777778E8    -4.288510978221893E-1   2.891335785388947E-1   3.513951087370515E-3  -1.038790047168732E-1   4.966876935213804E-3  -1.046177968382835E-1  -8.380136489868164E-1   2.360046207904816E-1  
 7.801801801801802E8    -4.368460178375244E-1   3.099890649318695E-1  -3.789085196331143E-3  -9.964866191148758E-2  -2.699168398976326E-3  -9.963238239288330E-2  -8.353334665298462E-1   2.591234445571899E-1  
 7.825825825825826E8    -4.422574639320374E-1   3.318220674991608E-1  -1.039831060916185E-2  -9.479507058858872E-2  -9.722456336021423E-3  -9.478870034217835E-2  -8.343396186828613E-1   2.820136249065399E-1  
 7.849849849849850E8    -4.462911486625671E-1   3.512253761291504E-1  -1.588852331042290E-2  -8.983366936445236E-2  -1.524770073592663E-2  -8.956215530633926E-2  -8.325225114822388E-1   3.004276156425476E-1  
 7.873873873873874E8    -4.509252607822418E-1   3.685532808303833E-1  -2.024495042860508E-2  -8.521218597888947E-2  -1.967424340546131E-2  -8.456456661224365E-2  -8.311787247657776E-1   3.173097968101502E-1  
 7.897897897897898E8    -4.572563469409943E-1   3.868727684020996E-1  -2.413413114845753E-2  -8.086165785789490E-2  -2.354101650416851E-2  -8.027636259794235E-2  -8.310546875000000E-1   3.339454531669617E-1  
 7.921921921921922E8    -4.614548385143280E-1   4.092812538146973E-1  -2.796940505504608E-2  -7.652926445007324E-2  -2.765715308487415E-2  -7.638891041278839E-2  -8.318331241607666E-1   3.511619269847870E-1  
 7.945945945945946E8    -4.638144075870514E-1   4.321993589401245E-1  -3.150367736816406E-2  -7.190803438425064E-2  -3.095285221934319E-2  -7.182873785495758E-2  -8.283266425132752E-1   3.669811487197876E-1  
 7.969969969969970E8    -4.635342061519623E-1   4.550648629665375E-1  -3.437391296029091E-2  -6.699890643358231E-2  -3.368526324629784E-2  -6.744505465030670E-2  -8.248175382614136E-1   3.837651014328003E-1  
 7.993993993993994E8    -4.596140682697296E-1   4.762641191482544E-1  -3.649935498833656E-2  -6.225781887769699E-2  -3.596455231308937E-2  -6.292333453893662E-2  -8.206278681755066E-1   4.006743133068085E-1  
 8.018018018018018E8    -4.538252353668213E-1   4.950244426727295E-1  -3.801446035504341E-2  -5.798412859439850E-2  -3.784215450286865E-2  -5.839525908231735E-2  -8.156510591506958E-1   4.171589910984039E-1  
 8.042042042042042E8    -4.476198256015778E-1   5.127261877059937E-1  -3.938406333327293E-2  -5.399945378303528E-2  -3.930509090423584E-2  -5.448297783732414E-2  -8.111373186111450E-1   4.312471151351929E-1  
 8.066066066066066E8    -4.396249353885651E-1   5.294280648231506E-1  -4.090390354394913E-2  -5.025485530495644E-2  -4.069680348038673E-2  -5.046172440052033E-2  -8.056768774986267E-1   4.473733305931091E-1  
 8.090090090090090E8    -4.315104782581329E-1   5.440133810043335E-1  -4.205331951379776E-2  -4.668081551790237E-2  -4.189886152744293E-2  -4.662249237298966E-2  -8.000804781913757E-1   4.618749320507050E-1  
 8.114114114114114E8    -4.225314557552338E-1   5.577417612075806E-1  -4.294106364250183E-2  -4.299794137477875E-2  -4.286819696426392E-2  -4.299656301736832E-2  -7.939206361770630E-1   4.753960967063904E-1  
 8.138138138138138E8    -4.143412113189697E-1   5.693089365959168E-1  -4.370356723666191E-2  -3.915309160947800E-2  -4.359613731503487E-2  -3.912524878978729E-2  -7.883124351501465E-1   4.875551760196686E-1  
 8.162162162162162E8    -4.078654944896698E-1   5.795515775680542E-1  -4.383958503603935E-2  -3.535446524620056E-2  -4.375839605927467E-2  -3.535854071378708E-2  -7.830914855003357E-1   4.993880391120911E-1  
 8.186186186186186E8    -4.029528498649597E-1   5.909789800643921E-1  -4.365276917815208E-2  -3.197646141052246E-2  -4.352662339806557E-2  -3.210983052849770E-2  -7.777577638626099E-1   5.122143626213074E-1  
 8.210210210210210E8    -3.957905471324921E-1   6.031973361968994E-1  -4.330579936504364E-2  -2.872931025922298E-2  -4.341373592615128E-2  -2.903057821094990E-2  -7.716730833053589E-1   5.246262550354004E-1  
 8.234234234234234E8    -3.888049125671387E-1   6.125665903091431E-1  -4.279100894927979E-2  -2.564473263919354E-2  -4.279569536447525E-2  -2.588520012795925E-2  -7.653430104255676E-1   5.367762446403503E-1  
