#  HZ   S   RI   R     50.00 
! Rohde & Schwarz ZVB8 2Ports - Version 2.81 - 1145.1010k08 SN: 100113
! Date: 2016-05-17 22:37:18
! Measurements: S11 S21 S12 S22 
! 
 6.000000000000000E8    -7.978230714797974E-1   4.968523383140564E-1  -8.384221582673490E-4  -1.775841927155852E-3  -9.101148461923003E-4  -1.782710663974285E-3  -9.428211450576782E-1   2.436260282993317E-1  
 6.024024024024024E8    -7.893648743629456E-1   5.076333284378052E-1  -8.605845505371690E-4  -1.729287207126617E-3  -9.055965929292142E-4  -1.749188872054219E-3  -9.392519593238831E-1   2.544182240962982E-1  
 6.048048048048048E8    -7.806200981140137E-1   5.187169909477234E-1  -8.496869704686105E-4  -1.814164919778705E-3  -8.894875063560903E-4  -1.796665601432324E-3  -9.360150694847107E-1   2.651540935039520E-1  
 6.072072072072072E8    -7.706931233406067E-1   5.308539867401123E-1  -8.587884367443621E-4  -1.937368535436690E-3  -8.144856547005475E-4  -1.864186720922589E-3  -9.328026175498962E-1   2.753530442714691E-1  
 6.096096096096096E8    -7.602909207344055E-1   5.430591106414795E-1  -8.343748631887138E-4  -1.921286340802908E-3  -8.675645221956074E-4  -1.966368872672319E-3  -9.292069673538208E-1   2.855369448661804E-1  
 6.120120120120120E8    -7.521689534187317E-1   5.522133111953735E-1  -8.035622886382043E-4  -2.023431239649653E-3  -7.688504410907626E-4  -2.025096444413066E-3  -9.260131120681763E-1   2.940697669982910E-1  
 6.144144144144144E8    -7.429937124252319E-1   5.627719759941101E-1  -6.445629987865686E-4  -2.170834224671125E-3  -6.636977777816355E-4  -2.128504449501634E-3  -9.230093955993652E-1   3.035189211368561E-1  
 6.168168168168168E8    -7.329946160316467E-1   5.734289884567261E-1  -6.090161623433232E-4  -2.315580844879150E-3  -6.030329968780279E-4  -2.331459661945701E-3  -9.195035696029663E-1   3.135008215904236E-1  
 6.192192192192192E8    -7.228050231933594E-1   5.836634039878845E-1  -4.523313546087593E-4  -2.644168678671122E-3  -5.224153865128756E-4  -2.539838431403041E-3  -9.158191680908203E-1   3.231280446052551E-1  
 6.216216216216216E8    -7.121177911758423E-1   5.932557582855225E-1  -3.978716558776796E-4  -2.929260721430183E-3  -3.507546207401902E-4  -2.957439981400967E-3  -9.117187261581421E-1   3.330087661743164E-1  
 6.240240240240240E8    -7.012197375297546E-1   6.028618812561035E-1  -3.022632154170424E-4  -3.314919536933303E-3  -3.239023208152503E-4  -3.403514856472611E-3  -9.072970151901245E-1   3.428155183792114E-1  
 6.264264264264264E8    -6.910281181335449E-1   6.117832660675049E-1  -4.200123657938093E-4  -3.860168159008026E-3  -3.689013828989118E-4  -3.867219900712371E-3  -9.030849933624268E-1   3.545825779438019E-1  
 6.288288288288288E8    -6.811244487762451E-1   6.206408143043518E-1  -6.387151661328971E-4  -4.623207263648510E-3  -5.121852736920118E-4  -4.539373796433210E-3  -8.986313343048096E-1   3.648368120193481E-1  
 6.312312312312312E8    -6.720042824745178E-1   6.290345788002014E-1  -1.040339469909668E-3  -5.251895636320114E-3  -9.567909291945398E-4  -5.203520413488150E-3  -8.941003084182739E-1   3.741265833377838E-1  
 6.336336336336336E8    -6.631701588630676E-1   6.378566622734070E-1  -1.674620551057160E-3  -5.793530493974686E-3  -1.610598177649081E-3  -5.850472953170538E-3  -8.898471593856812E-1   3.824758827686310E-1  
 6.360360360360360E8    -6.539943218231201E-1   6.472809910774231E-1  -2.405510516837239E-3  -6.188292987644672E-3  -2.365213818848133E-3  -6.248437333852053E-3  -8.860952258110046E-1   3.901657760143280E-1  
 6.384384384384384E8    -6.437644362449646E-1   6.570221185684204E-1  -3.223669016733766E-3  -6.480602081865072E-3  -3.188624046742916E-3  -6.483159959316254E-3  -8.820342421531677E-1   3.995516002178192E-1  
 6.408408408408408E8    -6.331839561462402E-1   6.667916774749756E-1  -4.055884201079607E-3  -6.534331943839788E-3  -4.072734620422125E-3  -6.570588331669569E-3  -8.779016137123108E-1   4.089107811450958E-1  
 6.432432432432432E8    -6.218249797821045E-1   6.765506863594055E-1  -4.841820336878300E-3  -6.555849686264992E-3  -4.800378344953060E-3  -6.476430222392082E-3  -8.728414177894592E-1   4.175799190998077E-1  
 6.456456456456456E8    -6.096545457839966E-1   6.857045292854309E-1  -5.621413234621286E-3  -6.342018488794565E-3  -5.543785169720650E-3  -6.340590771287680E-3  -8.681983947753906E-1   4.263495206832886E-1  
 6.480480480480480E8    -5.971465110778809E-1   6.947048902511597E-1  -6.170288193970919E-3  -6.116674281656742E-3  -6.207138299942017E-3  -6.151234731078148E-3  -8.630354404449463E-1   4.348801076412201E-1  
 6.504504504504504E8    -5.832582116127014E-1   7.047734260559082E-1  -6.822493392974138E-3  -5.860130768269301E-3  -6.779593881219626E-3  -5.884508136659861E-3  -8.541166782379150E-1   4.443114995956421E-1  
 6.528528528528528E8    -5.694816708564758E-1   7.141667604446411E-1  -7.325839251279831E-3  -5.653879139572382E-3  -7.267880719155073E-3  -5.654401145875454E-3  -8.462942242622376E-1   4.555823802947998E-1  
 6.552552552552552E8    -5.552979707717896E-1   7.227404713630676E-1  -7.796883583068848E-3  -5.486134439706802E-3  -7.766321301460266E-3  -5.505321547389031E-3  -8.412632346153259E-1   4.673691689968109E-1  
 6.576576576576576E8    -5.404763221740723E-1   7.304476499557495E-1  -8.362038061022759E-3  -5.324734840542078E-3  -8.322673849761486E-3  -5.367301870137453E-3  -8.385702967643738E-1   4.762769639492035E-1  
 6.600600600600600E8    -5.237280726432800E-1   7.382708191871643E-1  -8.978763595223427E-3  -5.067999009042978E-3  -8.934819139540196E-3  -5.127433221787214E-3  -8.350181579589844E-1   4.821055829524994E-1  
 6.624624624624624E8    -5.078249573707581E-1   7.458996772766113E-1  -9.516425430774689E-3  -4.784977994859219E-3  -9.533081203699112E-3  -4.815412685275078E-3  -8.288647532463074E-1   4.914782345294952E-1  
 6.648648648648648E8    -4.920369982719421E-1   7.529552578926086E-1  -1.006335020065308E-2  -4.419828765094280E-3  -1.004819478839636E-2  -4.485764075070620E-3  -8.225494623184204E-1   5.007243752479553E-1  
 6.672672672672672E8    -4.759474992752075E-1   7.594784498214722E-1  -1.063077058643103E-2  -4.120312165468931E-3  -1.053004991263151E-2  -4.157632123678923E-3  -8.165091872215271E-1   5.095973610877991E-1  
 6.696696696696696E8    -4.591458737850189E-1   7.653498649597168E-1  -1.113197859376669E-2  -3.826516913250089E-3  -1.112225558608770E-2  -3.826800500974059E-3  -8.106064200401306E-1   5.180597901344299E-1  
 6.720720720720720E8    -4.413907527923584E-1   7.713251709938049E-1  -1.160608977079392E-2  -3.544999752193689E-3  -1.155090238898993E-2  -3.542706836014986E-3  -8.045063614845276E-1   5.265533328056335E-1  
 6.744744744744744E8    -4.232892990112305E-1   7.764508724212647E-1  -1.209696009755135E-2  -3.110168501734734E-3  -1.215711142867804E-2  -3.170766169205308E-3  -7.973425984382629E-1   5.362915992736816E-1  
 6.768768768768768E8    -4.044033885002136E-1   7.808314561843872E-1  -1.273481454700232E-2  -2.690502675250173E-3  -1.270395703613758E-2  -2.757343696430326E-3  -7.897460460662842E-1   5.452425479888916E-1  
 6.792792792792792E8    -3.853197097778320E-1   7.844216823577881E-1  -1.315410248935223E-2  -2.320866100490093E-3  -1.311276014894247E-2  -2.314243931323290E-3  -7.829789519309998E-1   5.542266368865967E-1  
 6.816816816816816E8    -3.656561374664307E-1   7.869553565979004E-1  -1.366499345749617E-2  -1.882069744169712E-3  -1.371840666979551E-2  -1.925833523273468E-3  -7.753194570541382E-1   5.632191896438599E-1  
 6.840840840840840E8    -3.449586331844330E-1   7.892134189605713E-1  -1.418081764131784E-2  -1.506668399088085E-3  -1.409561745822430E-2  -1.422898611053824E-3  -7.678083777427673E-1   5.725883245468140E-1  
 6.864864864864864E8    -3.242512047290802E-1   7.910477519035339E-1  -1.461628638207912E-2  -1.073903054930270E-3  -1.466315798461437E-2  -1.066144439391792E-3  -7.597862482070923E-1   5.814110040664673E-1  
 6.888888888888888E8    -3.031208813190460E-1   7.921687364578247E-1  -1.527998782694340E-2  -5.892379558645189E-4  -1.522616203874350E-2  -7.694342057220638E-4  -7.511005997657776E-1   5.905030369758606E-1  
 6.912912912912912E8    -2.821910381317139E-1   7.925555109977722E-1  -1.583581790328026E-2  -5.969172707409598E-5  -1.587359420955181E-2  -2.295153244631365E-4  -7.426240444183350E-1   5.998556613922119E-1  
 6.936936936936936E8    -2.611505091190338E-1   7.921075820922852E-1  -1.641735062003136E-2   5.271776462905109E-4  -1.651679724454880E-2   3.246110281907022E-4  -7.342597246170044E-1   6.091850399971008E-1  
 6.960960960960960E8    -2.392388880252838E-1   7.905055880546570E-1  -1.699532940983772E-2   1.172097981907427E-3  -1.697749085724354E-2   1.162136089988053E-3  -7.259690165519714E-1   6.188750267028809E-1  
 6.984984984984984E8    -2.177193015813828E-1   7.874160408973694E-1  -1.758035086095333E-2   1.595179433934391E-3  -1.753720082342625E-2   1.933497260324657E-3  -7.144729495048523E-1   6.306073069572449E-1  
 7.009009009009008E8    -1.961462944746018E-1   7.823802828788757E-1  -1.798399537801743E-2   2.256913343444467E-3  -1.788162067532539E-2   2.557760570198298E-3  -7.034555673599243E-1   6.412481069564819E-1  
 7.033033033033032E8    -1.738886684179306E-1   7.754657268524170E-1  -1.841728202998638E-2   2.810823265463114E-3  -1.824638806283474E-2   3.125147661194205E-3  -6.939561963081360E-1   6.491782665252686E-1  
 7.057057057057056E8    -1.517415940761566E-1   7.665591835975647E-1  -1.879806071519852E-2   3.242512932047248E-3  -1.875449903309345E-2   3.358467016369104E-3  -6.869790554046631E-1   6.546988487243652E-1  
 7.081081081081080E8    -1.286671161651611E-1   7.557476758956909E-1  -1.931472867727280E-2   3.614938119426370E-3  -1.933505758643150E-2   3.515641903504729E-3  -6.795084476470947E-1   6.607782244682312E-1  
 7.105105105105104E8    -1.072156056761742E-1   7.436349391937256E-1  -1.985658332705498E-2   4.149569664150477E-3  -2.006306499242783E-2   3.847465850412846E-3  -6.709970235824585E-1   6.680004000663757E-1  
 7.129129129129129E8    -8.861028403043747E-2   7.300328016281128E-1  -2.056528814136982E-2   4.248968791216612E-3  -2.065779455006123E-2   3.803174709901214E-3  -6.610441207885742E-1   6.757843494415283E-1  
 7.153153153153153E8    -7.306234538555145E-2   7.154807448387146E-1  -2.157301269471645E-2   4.105385858565569E-3  -2.162044495344162E-2   3.858654992654920E-3  -6.491019725799561E-1   6.848956346511841E-1  
 7.177177177177178E8    -5.928466841578484E-2   7.003080248832703E-1  -2.286214195191860E-2   3.800942096859217E-3  -2.297605946660042E-2   3.767502261325717E-3  -6.361501812934876E-1   6.940102577209473E-1  
 7.201201201201202E8    -4.579984769225121E-2   6.855396032333374E-1  -2.477457001805306E-2   3.409848781302571E-3  -2.487375773489475E-2   3.438062034547329E-3  -6.232213973999023E-1   7.023848295211792E-1  
 7.225225225225226E8    -3.511787205934525E-2   6.723402142524719E-1  -2.777454629540443E-2   3.098759800195694E-3  -2.777619659900665E-2   3.150452161207795E-3  -6.093107461929321E-1   7.112571597099304E-1  
 7.249249249249250E8    -2.355458773672581E-2   6.611065268516541E-1  -3.194837272167206E-2   3.887335537001491E-3  -3.191891312599182E-2   3.455596044659615E-3  -5.973024964332581E-1   7.168878316879273E-1  
 7.273273273273274E8    -9.437266737222672E-3   6.513992547988892E-1  -3.675528988242149E-2   6.089719478040934E-3  -3.680146485567093E-2   5.362239200621843E-3  -5.852141976356506E-1   7.219076156616211E-1  
 7.297297297297298E8     6.860865745693445E-3   6.398460268974304E-1  -4.169386997818947E-2   9.882439859211445E-3  -4.177103564143181E-2   9.171362966299057E-3  -5.734720230102539E-1   7.269710302352905E-1  
 7.321321321321322E8     2.380496077239513E-2   6.250568032264710E-1  -4.608212783932686E-2   1.503835897892714E-2  -4.601413011550903E-2   1.504878047853708E-2  -5.613598227500916E-1   7.325092554092407E-1  
 7.345345345345346E8     4.076594859361649E-2   6.070052385330200E-1  -4.894228279590607E-2   2.167615853250027E-2  -4.879487305879593E-2   2.194702997803688E-2  -5.495131611824036E-1   7.382302284240723E-1  
 7.369369369369370E8     5.666300654411316E-2   5.852959752082825E-1  -5.044387280941010E-2   2.878816053271294E-2  -5.012166872620583E-2   2.935984916985035E-2  -5.376352071762085E-1   7.446008324623108E-1  
 7.393393393393394E8     7.091204077005386E-2   5.600659847259522E-1  -5.078349262475967E-2   3.638514131307602E-2  -5.040792748332024E-2   3.696059808135033E-2  -5.257906913757324E-1   7.508882880210877E-1  
 7.417417417417418E8     8.207953721284866E-2   5.314482450485230E-1  -4.959062114357948E-2   4.440596699714661E-2  -4.942631348967552E-2   4.469379037618637E-2  -5.141754150390625E-1   7.567105293273926E-1  
 7.441441441441442E8     9.089776873588562E-2   5.010102391242981E-1  -4.699349030852318E-2   5.200364440679550E-2  -4.723105207085609E-2   5.182451382279396E-2  -5.028501152992249E-1   7.618024945259094E-1  
 7.465465465465466E8     9.380336850881577E-2   4.696688354015350E-1  -4.370194301009178E-2   5.877697840332985E-2  -4.412913694977760E-2   5.857298895716667E-2  -4.891206324100494E-1   7.684635519981384E-1  
 7.489489489489490E8     9.142919629812241E-2   4.362214207649231E-1  -3.982050344347954E-2   6.517142057418823E-2  -4.034826904535294E-2   6.498487293720245E-2  -4.773403704166412E-1   7.742667198181152E-1  
 7.513513513513514E8     8.441913872957230E-2   4.032957851886749E-1  -3.517955914139748E-2   7.115405797958374E-2  -3.583367168903351E-2   7.097040861845017E-2  -4.649190008640289E-1   7.799794077873230E-1  
 7.537537537537538E8     7.446621358394623E-2   3.740584552288055E-1  -3.005638718605042E-2   7.668033242225647E-2  -3.087156824767590E-2   7.664626836776733E-2  -4.508416950702667E-1   7.858183979988098E-1  
 7.561561561561562E8     6.294783204793930E-2   3.471808433532715E-1  -2.471060864627361E-2   8.200972527265549E-2  -2.496704831719399E-2   8.195286989212036E-2  -4.356465339660645E-1   7.900764346122742E-1  
 7.585585585585586E8     4.803064838051796E-2   3.227092325687408E-1  -1.859493739902973E-2   8.665302395820618E-2  -1.854506880044937E-2   8.640845865011215E-2  -4.179083108901978E-1   7.966874837875366E-1  
 7.609609609609610E8     3.149821981787682E-2   2.987560331821442E-1  -1.228404790163040E-2   9.110938757658005E-2  -1.228395383805037E-2   9.060154110193253E-2  -4.013874530792236E-1   8.023029565811157E-1  
 7.633633633633634E8     1.089081354439259E-2   2.737680971622467E-1  -5.356465931981802E-3   9.569924324750900E-2  -5.639659706503153E-3   9.511078149080277E-2  -3.851074874401093E-1   8.068528175354004E-1  
 7.657657657657658E8    -1.576497219502926E-2   2.510970830917358E-1   2.981329336762428E-3   9.988099336624146E-2   2.326013986021280E-3   9.954061359167099E-2  -3.701834082603455E-1   8.103680014610291E-1  
 7.681681681681682E8    -4.729897156357765E-2   2.342670261859894E-1   1.215222943574190E-2   1.028292179107666E-1   1.141373906284571E-2   1.030861660838127E-1  -3.565953671932221E-1   8.132311105728149E-1  
 7.705705705705706E8    -8.185053616762161E-2   2.267597913742065E-1   2.190869487822056E-2   1.044024080038071E-1   2.108112908899784E-2   1.050898209214211E-1  -3.417143523693085E-1   8.158457875251770E-1  
 7.729729729729730E8    -1.124649420380592E-1   2.268721163272858E-1   3.171177208423615E-2   1.044571474194527E-1   3.119875863194466E-2   1.055476963520050E-1  -3.257397413253784E-1   8.204825520515442E-1  
 7.753753753753754E8    -1.387523263692856E-1   2.297729998826981E-1   4.123132303357124E-2   1.037449091672897E-1   4.110534116625786E-2   1.048974841833115E-1  -3.066392838954926E-1   8.246639370918274E-1  
 7.777777777777778E8    -1.633181422948837E-1   2.350977957248688E-1   5.104467645287514E-2   1.020840480923653E-1   5.093822628259659E-2   1.026270687580109E-1  -2.843279540538788E-1   8.266441226005554E-1  
 7.801801801801802E8    -1.855950802564621E-1   2.425306439399719E-1   6.053478643298149E-2   9.922303259372711E-2   5.974389240145683E-2   9.922920167446137E-2  -2.611044645309448E-1   8.253083229064941E-1  
 7.825825825825826E8    -2.040306329727173E-1   2.524140477180481E-1   6.908757984638214E-2   9.520512074232101E-2   6.860899180173874E-2   9.509986639022827E-2  -2.376675158739090E-1   8.259178400039673E-1  
 7.849849849849850E8    -2.211417555809021E-1   2.636113464832306E-1   7.702001184225082E-2   9.108103066682816E-2   7.606523483991623E-2   9.120282530784607E-2  -2.173868864774704E-1   8.241865634918213E-1  
 7.873873873873874E8    -2.353416979312897E-1   2.749993801116943E-1   8.443129062652588E-2   8.717602491378784E-2   8.328346163034439E-2   8.749321103096008E-2  -1.982067376375198E-1   8.227193355560303E-1  
 7.897897897897898E8    -2.492425590753555E-1   2.852140665054321E-1   9.249172359704971E-2   8.313880115747452E-2   9.151255339384079E-2   8.347167074680328E-2  -1.775912344455719E-1   8.224688768386841E-1  
 7.921921921921922E8    -2.625539004802704E-1   2.978793680667877E-1   1.008818224072456E-1   7.761578261852264E-2   1.006731539964676E-1   7.829321920871735E-2  -1.559320837259293E-1   8.232585191726685E-1  
 7.945945945945946E8    -2.743134200572968E-1   3.129599392414093E-1   1.087190881371498E-1   7.061859220266342E-2   1.082528755068779E-1   7.176962494850159E-2  -1.328265964984894E-1   8.200510144233704E-1  
 7.969969969969970E8    -2.833255231380463E-1   3.272778391838074E-1   1.154116094112396E-1   6.325057148933411E-2   1.150623932480812E-1   6.437104195356369E-2  -1.081631705164909E-1   8.165014386177063E-1  
 7.993993993993994E8    -2.903735041618347E-1   3.416293561458588E-1   1.212415099143982E-1   5.548100918531418E-2   1.214128360152245E-1   5.634677782654762E-2  -8.174595981836319E-2   8.115164041519165E-1  
 8.018018018018018E8    -2.948338687419891E-1   3.549128174781799E-1   1.263603121042252E-1   4.777516424655914E-2   1.268300265073776E-1   4.773932695388794E-2  -5.471194535493851E-2   8.040724396705627E-1  
 8.042042042042042E8    -2.988795638084412E-1   3.684661090373993E-1   1.316923052072525E-1   3.992674872279167E-2   1.318513005971909E-1   3.986842185258865E-2  -2.947267331182957E-2   7.948017716407776E-1  
 8.066066066066066E8    -3.011893033981323E-1   3.823374807834625E-1   1.368671804666519E-1   3.094364143908024E-2   1.370940357446671E-1   3.094586357474327E-2  -1.669406075961888E-3   7.845628261566162E-1  
 8.090090090090090E8    -3.032153248786926E-1   3.956062197685242E-1   1.413950473070145E-1   2.109518460929394E-2   1.415013521909714E-1   2.150972560048103E-2   2.476522885262966E-2   7.721170783042908E-1  
 8.114114114114114E8    -3.036987781524658E-1   4.085650146007538E-1   1.453843861818314E-1   1.051252800971270E-2   1.454726904630661E-1   1.093347091227770E-2   5.143956094980240E-2   7.575529217720032E-1  
 8.138138138138138E8    -3.026389479637146E-1   4.191778004169464E-1   1.480491161346436E-1  -1.063339528627694E-3   1.482149064540863E-1  -4.310736840125173E-4   7.788072526454926E-2   7.408391833305359E-1  
 8.162162162162162E8    -3.024017512798309E-1   4.281491935253143E-1   1.492931395769119E-1  -1.279722433537245E-2   1.494746059179306E-1  -1.209735684096813E-2   1.047422662377358E-1   7.229120731353760E-1  
 8.186186186186186E8    -3.034019470214844E-1   4.380299746990204E-1   1.494561135768890E-1  -2.401527762413025E-2   1.495725810527802E-1  -2.331592887639999E-2   1.324550360441208E-1   7.026937603950501E-1  
 8.210210210210210E8    -3.014073669910431E-1   4.459883570671082E-1   1.486683785915375E-1  -3.519301861524582E-2   1.489005535840988E-1  -3.534495458006859E-2   1.610652059316635E-1   6.779008507728577E-1  
 8.234234234234234E8    -3.011578619480133E-1   4.523375332355499E-1   1.461543738842011E-1  -4.636729508638382E-2   1.466063261032105E-1  -4.648137837648392E-2   1.881844401359558E-1   6.503878831863403E-1  
