#  HZ   S   RI   R     50.00 
! Rohde & Schwarz ZVB8 2Ports - Version 2.81 - 1145.1010k08 SN: 100113
! Date: 2016-05-17 22:36:45
! Measurements: S11 S21 S12 S22 
! 
 6.000000000000000E8    -8.186242580413818E-1   4.771535098552704E-1  -4.094745090696961E-4  -1.230131252668798E-3  -4.618651000782847E-4  -1.240254612639546E-3  -9.486748576164246E-1   2.287969589233398E-1  
 6.024024024024024E8    -8.113514780998230E-1   4.874405562877655E-1  -4.908560076728463E-4  -1.182336476631463E-3  -4.905623500235379E-4  -1.168876769952476E-3  -9.456418752670288E-1   2.391517460346222E-1  
 6.048048048048048E8    -8.036739826202393E-1   4.987981319427490E-1  -4.082833183929324E-4  -1.233118586242199E-3  -4.999114316888154E-4  -1.318803639151156E-3  -9.427081942558289E-1   2.495539933443070E-1  
 6.072072072072072E8    -7.953532338142395E-1   5.104231238365173E-1  -4.443308280315250E-4  -1.293161301873624E-3  -4.175880749244243E-4  -1.353076309897006E-3  -9.396683573722839E-1   2.593926489353180E-1  
 6.096096096096096E8    -7.864432930946350E-1   5.221416354179382E-1  -4.167501174379140E-4  -1.312057138420641E-3  -4.792309773620218E-4  -1.406025141477585E-3  -9.362670779228210E-1   2.695039212703705E-1  
 6.120120120120120E8    -7.795063257217407E-1   5.313155055046082E-1  -3.469263901934028E-4  -1.361369271762669E-3  -3.671351005323231E-4  -1.308048726059496E-3  -9.337389469146729E-1   2.771369516849518E-1  
 6.144144144144144E8    -7.720306515693665E-1   5.414924621582031E-1  -2.817498752847314E-4  -1.453120843507350E-3  -2.729188709054142E-4  -1.541229779832065E-3  -9.311455488204956E-1   2.865086495876312E-1  
 6.168168168168168E8    -7.635198831558228E-1   5.522934198379517E-1  -1.583966077305377E-4  -1.486284425482154E-3  -1.444319495931268E-4  -1.515882438980043E-3  -9.283257722854614E-1   2.958841621875763E-1  
 6.192192192192192E8    -7.549395561218262E-1   5.623856782913208E-1  -1.021263160509989E-4  -1.732915290631354E-3  -6.211517029441893E-5  -1.710430136881769E-3  -9.250304102897644E-1   3.050919771194458E-1  
 6.216216216216216E8    -7.460690736770630E-1   5.723627209663391E-1  -1.249808974534972E-5  -1.933109015226364E-3   6.554293213412166E-5  -1.910925493575633E-3  -9.214590191841126E-1   3.145008385181427E-1  
 6.240240240240240E8    -7.367175221443176E-1   5.823364257812500E-1   5.698750828742050E-5  -2.263515954837203E-3   1.447347312932834E-4  -2.201984636485577E-3  -9.176172614097595E-1   3.236306011676788E-1  
 6.264264264264264E8    -7.280928492546082E-1   5.919700860977173E-1   1.737710408633575E-4  -2.581474604085088E-3   1.029714621836320E-4  -2.572943922132254E-3  -9.138539433479309E-1   3.352597653865814E-1  
 6.288288288288288E8    -7.194213867187500E-1   6.005821824073792E-1   3.849123822874390E-5  -3.094855463132262E-3   3.152023782604374E-5  -3.057473571971059E-3  -9.101540446281433E-1   3.450259566307068E-1  
 6.312312312312312E8    -7.114664316177368E-1   6.095321178436279E-1  -2.546646865084767E-4  -3.478936152532697E-3  -2.052378113148734E-4  -3.565015736967325E-3  -9.062367081642151E-1   3.540382683277130E-1  
 6.336336336336336E8    -7.040867209434509E-1   6.183176040649414E-1  -6.213847664184868E-4  -3.898930735886097E-3  -6.420952850021422E-4  -3.890033345669508E-3  -9.025084376335144E-1   3.619838058948517E-1  
 6.360360360360360E8    -6.962110996246338E-1   6.274239420890808E-1  -1.037633977830410E-3  -4.172821529209614E-3  -1.056591747328639E-3  -4.227771889418364E-3  -8.990908265113831E-1   3.692784905433655E-1  
 6.384384384384384E8    -6.877832412719727E-1   6.362879276275635E-1  -1.557018491439521E-3  -4.357857629656792E-3  -1.613535219803453E-3  -4.409435205161572E-3  -8.959933519363403E-1   3.781078755855560E-1  
 6.408408408408408E8    -6.788098812103272E-1   6.456080079078674E-1  -2.043313812464476E-3  -4.472447093576193E-3  -2.060329774394631E-3  -4.407281987369061E-3  -8.922694325447083E-1   3.869681954383850E-1  
 6.432432432432432E8    -6.695721745491028E-1   6.551177501678467E-1  -2.532023703679442E-3  -4.401390906423330E-3  -2.510410267859697E-3  -4.430725704878569E-3  -8.880947828292847E-1   3.953936994075775E-1  
 6.456456456456456E8    -6.602316498756409E-1   6.639544963836670E-1  -2.997833536937833E-3  -4.339426290243864E-3  -2.985229715704918E-3  -4.346984904259443E-3  -8.840274810791016E-1   4.034738838672638E-1  
 6.480480480480480E8    -6.504710912704468E-1   6.724290847778320E-1  -3.382424823939800E-3  -4.210728220641613E-3  -3.379844129085541E-3  -4.139904864132404E-3  -8.797445297241211E-1   4.114776253700256E-1  
 6.504504504504504E8    -6.397545337677002E-1   6.824676990509033E-1  -3.735203295946121E-3  -4.066782072186470E-3  -3.703255904838443E-3  -4.078523721545935E-3  -8.714972138404846E-1   4.204314053058624E-1  
 6.528528528528528E8    -6.291170716285706E-1   6.917771100997925E-1  -3.964743576943874E-3  -3.920599818229675E-3  -3.919428680092096E-3  -3.888498991727829E-3  -8.645805120468140E-1   4.315087497234345E-1  
 6.552552552552552E8    -6.182004213333130E-1   7.006920576095581E-1  -4.187543876469135E-3  -3.839207580313087E-3  -4.167944658547640E-3  -3.844560589641333E-3  -8.604750037193298E-1   4.426425695419312E-1  
 6.576576576576576E8    -6.069478988647461E-1   7.087882161140442E-1  -4.448336083441973E-3  -3.732304787263274E-3  -4.477201495319605E-3  -3.773373086005449E-3  -8.584046363830566E-1   4.506142139434815E-1  
 6.600600600600600E8    -5.940559506416321E-1   7.172055244445801E-1  -4.735000431537628E-3  -3.634851658716798E-3  -4.687926266342402E-3  -3.683621762320399E-3  -8.559357523918152E-1   4.561033546924591E-1  
 6.624624624624624E8    -5.821532011032105E-1   7.256482839584351E-1  -5.044683348387480E-3  -3.541734535247088E-3  -5.015145987272263E-3  -3.494437551125884E-3  -8.507208824157715E-1   4.651532471179962E-1  
 6.648648648648648E8    -5.706794261932373E-1   7.337303757667542E-1  -5.275492556393147E-3  -3.355195280164480E-3  -5.207003094255924E-3  -3.405046649277210E-3  -8.455905318260193E-1   4.737444519996643E-1  
 6.672672672672672E8    -5.587197542190552E-1   7.413723468780518E-1  -5.557108670473099E-3  -3.311778418719769E-3  -5.498759448528290E-3  -3.290507942438126E-3  -8.404817581176758E-1   4.817634820938110E-1  
 6.696696696696696E8    -5.465123653411865E-1   7.487274408340454E-1  -5.829118657857180E-3  -3.159660845994949E-3  -5.738537292927504E-3  -3.231186186894774E-3  -8.354209065437317E-1   4.898380041122437E-1  
 6.720720720720720E8    -5.333911776542664E-1   7.561317086219788E-1  -6.069849710911512E-3  -3.002487821504474E-3  -6.035029888153076E-3  -3.015676280483604E-3  -8.307648897171021E-1   4.976998567581177E-1  
 6.744744744744744E8    -5.200164318084717E-1   7.634077072143555E-1  -6.282319314777851E-3  -2.874599536880851E-3  -6.284938193857670E-3  -2.863227389752865E-3  -8.247542381286621E-1   5.065105557441711E-1  
 6.768768768768768E8    -5.062627196311951E-1   7.702134847640991E-1  -6.513728294521570E-3  -2.710999920964241E-3  -6.508521735668182E-3  -2.731173997744918E-3  -8.187639117240906E-1   5.150038003921509E-1  
 6.792792792792792E8    -4.927096962928772E-1   7.767064571380615E-1  -6.764214485883713E-3  -2.551829908043146E-3  -6.725277751684189E-3  -2.573341131210327E-3  -8.128693103790283E-1   5.235378146171570E-1  
 6.816816816816816E8    -4.783884882926941E-1   7.825143337249756E-1  -6.946918554604054E-3  -2.404867904260755E-3  -6.895822007209063E-3  -2.409198321402073E-3  -8.068569898605347E-1   5.317609310150147E-1  
 6.840840840840840E8    -4.636051952838898E-1   7.883573174476624E-1  -7.170131430029869E-3  -2.318479586392641E-3  -7.105839904397726E-3  -2.337244804948568E-3  -8.009886741638184E-1   5.402286052703857E-1  
 6.864864864864864E8    -4.488255381584168E-1   7.944384813308716E-1  -7.350386586040258E-3  -2.168521052226424E-3  -7.322031538933516E-3  -2.161166863515973E-3  -7.941212654113770E-1   5.484410524368286E-1  
 6.888888888888888E8    -4.338287413120270E-1   8.004083037376404E-1  -7.628493942320347E-3  -2.016844693571329E-3  -7.598079275339842E-3  -2.023391658440232E-3  -7.872819900512695E-1   5.574353337287903E-1  
 6.912912912912912E8    -4.194026887416840E-1   8.058611154556274E-1  -7.881680503487587E-3  -1.802423736080527E-3  -7.803328800946474E-3  -1.911925617605448E-3  -7.807410955429077E-1   5.659748315811157E-1  
 6.936936936936936E8    -4.047609269618988E-1   8.113692402839661E-1  -8.167305961251259E-3  -1.650868798606098E-3  -8.090544492006302E-3  -1.701954402960837E-3  -7.741184234619141E-1   5.747236013412476E-1  
 6.960960960960960E8    -3.895313143730164E-1   8.164284825325012E-1  -8.283972740173340E-3  -1.559475786052644E-3  -8.254885673522949E-3  -1.540978555567563E-3  -7.675883173942566E-1   5.834577679634094E-1  
 6.984984984984984E8    -3.744990229606628E-1   8.208315372467041E-1  -8.403160609304905E-3  -1.392412930727005E-3  -8.465871214866638E-3  -1.266885898075998E-3  -7.585237622261047E-1   5.947196483612061E-1  
 7.009009009009008E8    -3.593552112579346E-1   8.244246244430542E-1  -8.621025830507278E-3  -1.200360595248640E-3  -8.633111603558064E-3  -1.061181654222310E-3  -7.496110200881958E-1   6.050787568092346E-1  
 7.033033033033032E8    -3.431741893291473E-1   8.275936245918274E-1  -8.593640290200710E-3  -1.147394883446395E-3  -8.681339211761951E-3  -9.673287859186530E-4  -7.423954606056213E-1   6.127092838287354E-1  
 7.057057057057056E8    -3.270606398582459E-1   8.296377658843994E-1  -8.700117468833923E-3  -1.132885925471783E-3  -8.751873858273029E-3  -9.751527104526758E-4  -7.376189231872559E-1   6.174094676971436E-1  
 7.081081081081080E8    -3.088771700859070E-1   8.317481875419617E-1  -8.854391053318977E-3  -1.137161278165877E-3  -8.878002874553204E-3  -1.181420171633363E-3  -7.324948310852051E-1   6.224913001060486E-1  
 7.105105105105104E8    -2.913293540477753E-1   8.336842060089111E-1  -8.967198431491852E-3  -1.327786245383322E-3  -8.901943452656269E-3  -1.301558222621679E-3  -7.266781926155090E-1   6.289974451065064E-1  
 7.129129129129129E8    -2.751788794994354E-1   8.345401883125305E-1  -9.216753765940666E-3  -1.523386919870973E-3  -9.093611501157284E-3  -1.594333909451962E-3  -7.195185422897339E-1   6.363803744316101E-1  
 7.153153153153153E8    -2.601802349090576E-1   8.344171047210693E-1  -9.394664317369461E-3  -1.870299922302365E-3  -9.363926947116852E-3  -2.026729518547654E-3  -7.106634974479675E-1   6.447781920433044E-1  
 7.177177177177178E8    -2.449268251657486E-1   8.337681889533997E-1  -9.720319882035255E-3  -2.479922957718372E-3  -9.741172194480896E-3  -2.551302313804627E-3  -7.010809183120728E-1   6.541473269462585E-1  
 7.201201201201202E8    -2.288115918636322E-1   8.333522081375122E-1  -1.035899668931961E-2  -3.195758676156402E-3  -1.037551928311586E-2  -3.237795084714890E-3  -6.919648647308350E-1   6.624748110771179E-1  
 7.225225225225226E8    -2.147991955280304E-1   8.328396677970886E-1  -1.144555490463972E-2  -4.200914409011602E-3  -1.142464764416218E-2  -4.133785609155893E-3  -6.815714836120606E-1   6.717814207077026E-1  
 7.249249249249250E8    -1.998515129089356E-1   8.329955339431763E-1  -1.309645455330610E-2  -4.823988303542137E-3  -1.298782229423523E-2  -4.986430518329144E-3  -6.730107069015503E-1   6.780148148536682E-1  
 7.273273273273274E8    -1.850546747446060E-1   8.338994383811951E-1  -1.525648590177298E-2  -5.125111900269985E-3  -1.517783850431442E-2  -5.414366256445646E-3  -6.647031903266907E-1   6.838314533233643E-1  
 7.297297297297298E8    -1.704732626676559E-1   8.350098729133606E-1  -1.769054494798183E-2  -4.866669885814190E-3  -1.756386645138264E-2  -5.066244862973690E-3  -6.561039686203003E-1   6.899037957191467E-1  
 7.321321321321322E8    -1.558021157979965E-1   8.354053497314453E-1  -2.001892402768135E-2  -4.068054724484682E-3  -2.001827396452427E-2  -4.051011987030506E-3  -6.474550366401672E-1   6.964875459671021E-1  
 7.345345345345346E8    -1.392897814512253E-1   8.356879353523254E-1  -2.210978977382183E-2  -2.664752537384629E-3  -2.212786674499512E-2  -2.552767051383853E-3  -6.392601132392883E-1   7.036458253860474E-1  
 7.369369369369370E8    -1.215420812368393E-1   8.346575498580933E-1  -2.389130741357803E-2  -9.560688049532473E-4  -2.385483495891094E-2  -6.948687951080501E-4  -6.303070783615112E-1   7.110247015953064E-1  
 7.393393393393394E8    -1.029906570911408E-1   8.323526978492737E-1  -2.540553919970989E-2   8.760357159189880E-4  -2.539110742509365E-2   1.115096849389374E-3  -6.218599677085877E-1   7.184001207351685E-1  
 7.417417417417418E8    -8.386784791946411E-2   8.288268446922302E-1  -2.668278850615025E-2   2.892807591706514E-3  -2.661229297518730E-2   2.999559510499239E-3  -6.137308478355408E-1   7.248162031173706E-1  
 7.441441441441442E8    -6.441020220518112E-2   8.240616917610169E-1  -2.771037817001343E-2   5.003043450415134E-3  -2.776203863322735E-2   4.976589232683182E-3  -6.057218909263611E-1   7.308703660964966E-1  
 7.465465465465466E8    -4.798397049307823E-2   8.189774751663208E-1  -2.865888737142086E-2   7.080232258886099E-3  -2.868003211915493E-2   6.905635353177786E-3  -5.957447290420532E-1   7.384176850318909E-1  
 7.489489489489490E8    -3.197027370333672E-2   8.125901818275452E-1  -2.944454737007618E-2   9.182116948068142E-3  -2.954995818436146E-2   9.062561206519604E-3  -5.868151187896729E-1   7.450823187828064E-1  
 7.513513513513514E8    -1.437414530664682E-2   8.054122328758240E-1  -3.003348410129547E-2   1.138349343091250E-2  -3.020723536610603E-2   1.120952516794205E-2  -5.784803032875061E-1   7.512341141700745E-1  
 7.537537537537538E8     5.195942707359791E-3   7.968772053718567E-1  -3.068466670811176E-2   1.353400852531195E-2  -3.089928440749645E-2   1.334826834499836E-2  -5.686198472976685E-1   7.578273415565491E-1  
 7.561561561561562E8     2.516151964664459E-2   7.865298390388489E-1  -3.131506219506264E-2   1.590908505022526E-2  -3.147318959236145E-2   1.576035469770432E-2  -5.583067536354065E-1   7.629392147064209E-1  
 7.585585585585586E8     4.337025806307793E-2   7.752606272697449E-1  -3.186866641044617E-2   1.834410242736340E-2  -3.178117424249649E-2   1.825772598385811E-2  -5.455691814422607E-1   7.707032561302185E-1  
 7.609609609609610E8     5.969439074397087E-2   7.628759145736694E-1  -3.230603039264679E-2   2.098194696009159E-2  -3.211399912834168E-2   2.082118205726147E-2  -5.339317321777344E-1   7.777206301689148E-1  
 7.633633633633634E8     7.542836666107178E-2   7.502638697624207E-1  -3.263928741216660E-2   2.381644956767559E-2  -3.248783946037293E-2   2.361782826483250E-2  -5.236324667930603E-1   7.839360833168030E-1  
 7.657657657657658E8     9.164857864379883E-2   7.364660501480103E-1  -3.273859620094299E-2   2.688156068325043E-2  -3.276265785098076E-2   2.659068256616592E-2  -5.142495632171631E-1   7.888134717941284E-1  
 7.681681681681682E8     1.067373827099800E-1   7.214173674583435E-1  -3.277265280485153E-2   2.989968843758106E-2  -3.295933827757835E-2   2.983161807060242E-2  -5.066470503807068E-1   7.932875156402588E-1  
 7.705705705705706E8     1.185911521315575E-1   7.058921456336975E-1  -3.249746933579445E-2   3.328499943017960E-2  -3.277334198355675E-2   3.312726318836212E-2  -4.979763627052307E-1   7.970960140228272E-1  
 7.729729729729730E8     1.299353539943695E-1   6.881089210510254E-1  -3.168125078082085E-2   3.686596080660820E-2  -3.224173560738564E-2   3.691365569829941E-2  -4.889850318431854E-1   8.032945990562439E-1  
 7.753753753753754E8     1.401185393333435E-1   6.695235371589661E-1  -3.061002120375633E-2   4.048256948590279E-2  -3.120645880699158E-2   4.058737680315971E-2  -4.769289195537567E-1   8.102182745933533E-1  
 7.777777777777778E8     1.482097804546356E-1   6.491479277610779E-1  -2.916565909981728E-2   4.422277584671974E-2  -2.970419265329838E-2   4.430085420608521E-2  -4.620397090911865E-1   8.154268860816956E-1  
 7.801801801801802E8     1.527801007032394E-1   6.286014914512634E-1  -2.738287486135960E-2   4.807521775364876E-2  -2.758542820811272E-2   4.780976101756096E-2  -4.454094767570496E-1   8.174765706062317E-1  
 7.825825825825826E8     1.556735932826996E-1   6.092176437377930E-1  -2.489725127816200E-2   5.156499147415161E-2  -2.508207224309444E-2   5.149595811963081E-2  -4.295208752155304E-1   8.224345445632935E-1  
 7.849849849849850E8     1.568795740604401E-1   5.934708714485169E-1  -2.214523591101170E-2   5.487506464123726E-2  -2.240203134715557E-2   5.465964972972870E-2  -4.182522296905518E-1   8.242677450180054E-1  
 7.873873873873874E8     1.588235050439835E-1   5.807950496673584E-1  -1.947280392050743E-2   5.797088518738747E-2  -1.967598125338554E-2   5.741931498050690E-2  -4.078551232814789E-1   8.262767791748047E-1  
 7.897897897897898E8     1.642623692750931E-1   5.669859647750855E-1  -1.692485436797142E-2   6.124319881200790E-2  -1.704776473343372E-2   6.080272048711777E-2  -3.983748257160187E-1   8.309412598609924E-1  
 7.921921921921922E8     1.698531657457352E-1   5.504000782966614E-1  -1.327995490282774E-2   6.475665420293808E-2  -1.360951922833920E-2   6.476207822561264E-2  -3.885269165039063E-1   8.375440239906311E-1  
 7.945945945945946E8     1.709629595279694E-1   5.348102450370789E-1  -9.012113325297833E-3   6.788630783557892E-2  -9.607019834220409E-3   6.770066916942596E-2  -3.766439855098724E-1   8.406239151954651E-1  
 7.969969969969970E8     1.699120253324509E-1   5.180881023406982E-1  -4.416743293404579E-3   7.037606090307236E-2  -5.123819224536419E-3   7.043129205703735E-2  -3.641004860401154E-1   8.444237709045410E-1  
 7.993993993993994E8     1.663485318422318E-1   5.021465420722961E-1   5.078445537947118E-4   7.243929803371429E-2   1.851556407928001E-5   7.258740067481995E-2  -3.504027724266052E-1   8.488138914108276E-1  
 8.018018018018018E8     1.614675521850586E-1   4.876876175403595E-1   5.165506619960070E-3   7.363548874855042E-2   5.004206672310829E-3   7.384686172008514E-2  -3.364746570587158E-1   8.520483374595642E-1  
 8.042042042042042E8     1.570952087640762E-1   4.746716916561127E-1   9.693157859146595E-3   7.504367828369141E-2   9.534440003335476E-3   7.516403496265411E-2  -3.238378167152405E-1   8.545982241630554E-1  
 8.066066066066066E8     1.518404185771942E-1   4.630630612373352E-1   1.489025726914406E-2   7.633630186319351E-2   1.463665440678597E-2   7.664807885885239E-2  -3.092187047004700E-1   8.582940101623535E-1  
 8.090090090090090E8     1.456139534711838E-1   4.529767036437988E-1   2.049239724874497E-2   7.720966637134552E-2   2.037479728460312E-2   7.746160030364990E-2  -2.956461012363434E-1   8.607260584831238E-1  
 8.114114114114114E8     1.389558613300324E-1   4.453819990158081E-1   2.630898915231228E-2   7.724820077419281E-2   2.625449188053608E-2   7.742913067340851E-2  -2.820897996425629E-1   8.626289963722229E-1  
 8.138138138138138E8     1.352999210357666E-1   4.395570755004883E-1   3.188125789165497E-2   7.640857994556427E-2   3.177035972476006E-2   7.659213989973068E-2  -2.686765193939209E-1   8.648301959037781E-1  
 8.162162162162162E8     1.335168480873108E-1   4.316391944885254E-1   3.694717586040497E-2   7.533223181962967E-2   3.687245771288872E-2   7.548993080854416E-2  -2.554975152015686E-1   8.670499920845032E-1  
 8.186186186186186E8     1.284718662500382E-1   4.229784011840820E-1   4.180336371064186E-2   7.431590557098389E-2   4.174200445413590E-2   7.445827871561050E-2  -2.409324496984482E-1   8.701080083847046E-1  
 8.210210210210210E8     1.232284978032112E-1   4.170240759849548E-1   4.695720225572586E-2   7.259939610958099E-2   4.678662493824959E-2   7.281423360109329E-2  -2.258287817239761E-1   8.723316192626953E-1  
 8.234234234234234E8     1.215260252356529E-1   4.106439948081970E-1   5.141909047961235E-2   7.048131525516510E-2   5.125781893730164E-2   7.066681981086731E-2  -2.104353606700897E-1   8.746473789215088E-1  
