#  HZ   S   RI   R     50.00 
! Rohde & Schwarz ZVB8 2Ports - Version 2.81 - 1145.1010k08 SN: 100113
! Date: 2016-05-17 22:36:59
! Measurements: S11 S21 S12 S22 
! 
 6.000000000000000E8    -8.115655779838562E-1   4.843351542949677E-1  -6.371577619574964E-4  -1.401954912580550E-3  -6.394222727976739E-4  -1.359011512249708E-3  -9.463854432106018E-1   2.349394708871841E-1  
 6.024024024024024E8    -8.040119409561157E-1   4.944108426570892E-1  -6.279650260694325E-4  -1.404668786562979E-3  -5.710491677746177E-4  -1.439567655324936E-3  -9.432432651519775E-1   2.450676262378693E-1  
 6.048048048048048E8    -7.955936193466187E-1   5.057439804077148E-1  -5.838803481310606E-4  -1.440995372831821E-3  -6.314674974419177E-4  -1.435824786312878E-3  -9.401628971099854E-1   2.557124495506287E-1  
 6.072072072072072E8    -7.868055105209351E-1   5.178144574165344E-1  -6.050120573490858E-4  -1.456288504414260E-3  -6.375614902935922E-4  -1.475577824749053E-3  -9.368177652359009E-1   2.660528719425201E-1  
 6.096096096096096E8    -7.775694727897644E-1   5.296693444252014E-1  -5.317862378433347E-4  -1.564926467835903E-3  -5.346794496290386E-4  -1.510571688413620E-3  -9.335159063339233E-1   2.759877145290375E-1  
 6.120120120120120E8    -7.701582908630371E-1   5.386922955513001E-1  -4.903199151158333E-4  -1.598047558218241E-3  -4.719691642094404E-4  -1.586192287504673E-3  -9.306856989860535E-1   2.838789522647858E-1  
 6.144144144144144E8    -7.622001767158508E-1   5.489864945411682E-1  -4.452542634680867E-4  -1.710949116386473E-3  -4.414855502545834E-4  -1.673808554187417E-3  -9.279712438583374E-1   2.932419776916504E-1  
 6.168168168168168E8    -7.533735036849976E-1   5.597536563873291E-1  -2.880974789150059E-4  -1.794401789084077E-3  -3.038462891709060E-4  -1.780124148353934E-3  -9.245817661285400E-1   3.030210137367249E-1  
 6.192192192192192E8    -7.442976832389832E-1   5.698645710945129E-1  -2.136796829290688E-4  -2.021665219217539E-3  -2.181221352657303E-4  -1.901749521493912E-3  -9.211302399635315E-1   3.128046989440918E-1  
 6.216216216216216E8    -7.347179651260376E-1   5.799089670181274E-1  -1.061129078152590E-4  -2.290761796757579E-3  -1.167379668913782E-4  -2.198814181610942E-3  -9.173292517662048E-1   3.224509060382843E-1  
 6.240240240240240E8    -7.250474095344544E-1   5.893697142601013E-1  -2.141593904525507E-5  -2.573716221377254E-3   8.978491678135470E-6  -2.592316828668118E-3  -9.134046435356140E-1   3.319735229015350E-1  
 6.264264264264264E8    -7.158440947532654E-1   5.992404818534851E-1  -3.688265132950619E-5  -3.028541570529342E-3   3.787489504247787E-6  -3.038617083802819E-3  -9.093384742736816E-1   3.432131707668304E-1  
 6.288288288288288E8    -7.068495750427246E-1   6.078991889953613E-1  -2.050787297775969E-4  -3.538025310263038E-3  -1.687802141532302E-4  -3.542240476235747E-3  -9.055689573287964E-1   3.532148003578186E-1  
 6.312312312312312E8    -6.985020637512207E-1   6.165409684181213E-1  -4.600531538017094E-4  -4.026800394058228E-3  -4.483624361455441E-4  -4.030932206660509E-3  -9.014590382575989E-1   3.623279035091400E-1  
 6.336336336336336E8    -6.907565593719482E-1   6.257480382919312E-1  -8.625380578450859E-4  -4.479381721466780E-3  -8.530889754183590E-4  -4.465519916266203E-3  -8.976045846939087E-1   3.704432845115662E-1  
 6.360360360360360E8    -6.822694540023804E-1   6.349285840988159E-1  -1.380609348416328E-3  -4.792231135070324E-3  -1.379070687107742E-3  -4.799284506589174E-3  -8.942176103591919E-1   3.779117763042450E-1  
 6.384384384384384E8    -6.735081076622009E-1   6.440946459770203E-1  -2.023099223151803E-3  -5.096655804663897E-3  -2.009345684200525E-3  -5.126412957906723E-3  -8.905995488166809E-1   3.867737650871277E-1  
 6.408408408408408E8    -6.637371182441711E-1   6.536224484443665E-1  -2.606968628242612E-3  -5.166149232536554E-3  -2.608235925436020E-3  -5.219868849962950E-3  -8.865710496902466E-1   3.958677947521210E-1  
 6.432432432432432E8    -6.540213823318481E-1   6.631151437759399E-1  -3.245133673772216E-3  -5.200175568461418E-3  -3.269837470725179E-3  -5.153879523277283E-3  -8.822720646858215E-1   4.044616818428040E-1  
 6.456456456456456E8    -6.436071395874023E-1   6.719775199890137E-1  -3.761866595596075E-3  -5.121867172420025E-3  -3.784211818128824E-3  -5.096587818115950E-3  -8.776173591613770E-1   4.127364158630371E-1  
 6.480480480480480E8    -6.331334710121155E-1   6.809020042419434E-1  -4.242504015564919E-3  -4.951652605086565E-3  -4.238533787429333E-3  -4.915118683129549E-3  -8.729870915412903E-1   4.210342168807983E-1  
 6.504504504504504E8    -6.213485002517700E-1   6.907168626785278E-1  -4.614324308931828E-3  -4.764126148074865E-3  -4.605411086231470E-3  -4.723468329757452E-3  -8.649936318397522E-1   4.302466511726379E-1  
 6.528528528528528E8    -6.097941994667053E-1   7.005708813667297E-1  -4.985108040273190E-3  -4.607182927429676E-3  -4.953987430781126E-3  -4.570067394524813E-3  -8.574414849281311E-1   4.412739574909210E-1  
 6.552552552552552E8    -5.978983044624329E-1   7.092780470848084E-1  -5.334099754691124E-3  -4.429464694112539E-3  -5.297810770571232E-3  -4.464213736355305E-3  -8.529608249664307E-1   4.527526199817658E-1  
 6.576576576576576E8    -5.854488611221314E-1   7.171720862388611E-1  -5.708412267267704E-3  -4.346535075455904E-3  -5.633011460304260E-3  -4.321756772696972E-3  -8.507080674171448E-1   4.611504375934601E-1  
 6.600600600600600E8    -5.714440345764160E-1   7.254746556282044E-1  -6.058207247406244E-3  -4.182444419711828E-3  -6.013026926666498E-3  -4.197843838483095E-3  -8.479551076889038E-1   4.665477275848389E-1  
 6.624624624624624E8    -5.585732460021973E-1   7.340294122695923E-1  -6.365952081978321E-3  -4.049910232424736E-3  -6.320433691143990E-3  -4.043364431709051E-3  -8.425323367118835E-1   4.758158326148987E-1  
 6.648648648648648E8    -5.459004640579224E-1   7.418814301490784E-1  -6.738081108778715E-3  -3.938011359423399E-3  -6.635944359004498E-3  -3.931290004402399E-3  -8.368378877639771E-1   4.846268296241760E-1  
 6.672672672672672E8    -5.327851176261902E-1   7.495713233947754E-1  -7.005698978900909E-3  -3.735927399247885E-3  -6.953626871109009E-3  -3.804347943514586E-3  -8.312661051750183E-1   4.930149912834168E-1  
 6.696696696696696E8    -5.191181302070618E-1   7.568297982215881E-1  -7.377711124718189E-3  -3.613786771893501E-3  -7.353174965828657E-3  -3.683089744299650E-3  -8.258929848670960E-1   5.012593865394592E-1  
 6.720720720720720E8    -5.045586228370667E-1   7.637445330619812E-1  -7.762850262224674E-3  -3.521760692819953E-3  -7.698928005993366E-3  -3.499636426568031E-3  -8.208374381065369E-1   5.093760490417481E-1  
 6.744744744744744E8    -4.895845651626587E-1   7.704923152923584E-1  -8.112823590636253E-3  -3.245953004807234E-3  -8.089611306786537E-3  -3.268677741289139E-3  -8.143578171730042E-1   5.185242891311646E-1  
 6.768768768768768E8    -4.743151962757111E-1   7.768325209617615E-1  -8.414288051426411E-3  -2.995660295709968E-3  -8.425272069871426E-3  -3.029885003343225E-3  -8.077697753906250E-1   5.271922349929810E-1  
 6.792792792792792E8    -4.589284062385559E-1   7.826071977615356E-1  -8.783141151070595E-3  -2.811868442222476E-3  -8.790181018412113E-3  -2.795052016153932E-3  -8.015167713165283E-1   5.357089042663574E-1  
 6.816816816816816E8    -4.430374801158905E-1   7.879694700241089E-1  -9.040867909789085E-3  -2.555006882175803E-3  -9.041340090334415E-3  -2.644082764163613E-3  -7.949382662773132E-1   5.442306995391846E-1  
 6.840840840840840E8    -4.267036318778992E-1   7.929522991180420E-1  -9.392295964062214E-3  -2.388417022302747E-3  -9.350880980491638E-3  -2.340367995202541E-3  -7.885381579399109E-1   5.531148314476013E-1  
 6.864864864864864E8    -4.101070463657379E-1   7.980204820632935E-1  -9.680183604359627E-3  -2.189879305660725E-3  -9.715011343359947E-3  -2.162790158763528E-3  -7.812674641609192E-1   5.615989565849304E-1  
 6.888888888888888E8    -3.933961987495422E-1   8.029437661170960E-1  -9.905975311994553E-3  -1.950403791852295E-3  -9.934315457940102E-3  -1.978518441319466E-3  -7.739225029945374E-1   5.705690383911133E-1  
 6.912912912912912E8    -3.767292201519013E-1   8.074929118156433E-1  -1.036677043884993E-2  -1.727372640743852E-3  -1.035278849303722E-2  -1.832437585107982E-3  -7.664191722869873E-1   5.794791579246521E-1  
 6.936936936936936E8    -3.599420487880707E-1   8.116419315338135E-1  -1.069869194179773E-2  -1.529655186459422E-3  -1.071391720324755E-2  -1.526595093309879E-3  -7.592301368713379E-1   5.885733366012573E-1  
 6.960960960960960E8    -3.423515558242798E-1   8.154616951942444E-1  -1.103069540113211E-2  -1.218490186147392E-3  -1.105041150003672E-2  -1.251767389476299E-3  -7.520604133605957E-1   5.976489782333374E-1  
 6.984984984984984E8    -3.250942528247833E-1   8.180049061775208E-1  -1.135776005685329E-2  -1.012346940115094E-3  -1.131212152540684E-2  -9.279088699258864E-4  -7.420763373374939E-1   6.091494560241699E-1  
 7.009009009009008E8    -3.077469170093536E-1   8.194202184677124E-1  -1.161154173314571E-2  -8.004202973097563E-4  -1.164584979414940E-2  -5.769086419604719E-4  -7.325588464736939E-1   6.198279857635498E-1  
 7.033033033033032E8    -2.899459302425385E-1   8.203201293945313E-1  -1.187167316675186E-2  -6.297772051766515E-4  -1.177479512989521E-2  -3.264400002080947E-4  -7.244477868080139E-1   6.275077462196350E-1  
 7.057057057057056E8    -2.718841433525085E-1   8.201405405998230E-1  -1.209142711013556E-2  -5.058602546341717E-4  -1.202626712620258E-2  -3.272359317634255E-4  -7.191151976585388E-1   6.322644948959351E-1  
 7.081081081081080E8    -2.518773078918457E-1   8.195852637290955E-1  -1.223403401672840E-2  -3.899468283634633E-4  -1.229495927691460E-2  -4.462505457922816E-4  -7.131199240684509E-1   6.378038525581360E-1  
 7.105105105105104E8    -2.318781316280365E-1   8.185884952545166E-1  -1.260645780712366E-2  -2.685117069631815E-4  -1.257580332458019E-2  -4.952024319209158E-4  -7.063892483711243E-1   6.445468068122864E-1  
 7.129129129129129E8    -2.137482315301895E-1   8.158420324325562E-1  -1.295087859034538E-2  -3.955679130740464E-4  -1.289730239659548E-2  -6.302111432887614E-4  -6.983270645141602E-1   6.521723866462708E-1  
 7.153153153153153E8    -1.973025649785996E-1   8.117111921310425E-1  -1.326515804976225E-2  -7.357169524766505E-4  -1.322418730705977E-2  -8.780648931860924E-4  -6.887342333793640E-1   6.609874367713928E-1  
 7.177177177177178E8    -1.809688806533814E-1   8.072152733802795E-1  -1.373513136059046E-2  -1.445241970941424E-3  -1.373874116688967E-2  -1.512949704192579E-3  -6.777029633522034E-1   6.702305674552918E-1  
 7.201201201201202E8    -1.644083261489868E-1   8.028853535652161E-1  -1.470852643251419E-2  -2.426714636385441E-3  -1.465972047299147E-2  -2.448179759085178E-3  -6.671711206436157E-1   6.789209842681885E-1  
 7.225225225225226E8    -1.500597000122070E-1   7.986643314361572E-1  -1.636093854904175E-2  -3.422060748562217E-3  -1.634777523577213E-2  -3.365984186530113E-3  -6.555855274200440E-1   6.878221631050110E-1  
 7.249249249249250E8    -1.357918679714203E-1   7.954530715942383E-1  -1.881016604602337E-2  -4.023162182420492E-3  -1.876355335116386E-2  -4.216923378407955E-3  -6.460117697715759E-1   6.941206455230713E-1  
 7.273273273273274E8    -1.205842345952988E-1   7.941393256187439E-1  -2.195465750992298E-2  -3.913165070116520E-3  -2.184120938181877E-2  -4.323845263570547E-3  -6.365002393722534E-1   6.995314359664917E-1  
 7.297297297297298E8    -1.049704700708389E-1   7.933368086814880E-1  -2.530509233474731E-2  -3.052390413358808E-3  -2.517563477158546E-2  -3.449550596997142E-3  -6.268737316131592E-1   7.055039405822754E-1  
 7.321321321321322E8    -8.793877810239792E-2   7.910667657852173E-1  -2.858790755271912E-2  -1.483796397224069E-3  -2.847768925130367E-2  -1.488811336457729E-3  -6.170923709869385E-1   7.121029496192932E-1  
 7.345345345345346E8    -6.931380927562714E-2   7.876720428466797E-1  -3.145437315106392E-2   8.901677210815251E-4  -3.150743618607521E-2   1.100244582630694E-3  -6.076456308364868E-1   7.192777395248413E-1  
 7.369369369369370E8    -4.859993234276772E-2   7.819899320602417E-1  -3.403865545988083E-2   3.895294386893511E-3  -3.393547981977463E-2   4.210883285850287E-3  -5.976310372352600E-1   7.264484763145447E-1  
 7.393393393393394E8    -2.737475559115410E-2   7.739774584770203E-1  -3.609637916088104E-2   7.357402238994837E-3  -3.599520772695541E-2   7.619398180395365E-3  -5.877066254615784E-1   7.336651682853699E-1  
 7.417417417417418E8    -6.532924715429544E-3   7.633907198905945E-1  -3.755699098110199E-2   1.116963196545839E-2  -3.750660270452499E-2   1.129026710987091E-2  -5.781249403953552E-1   7.401480674743652E-1  
 7.441441441441442E8     1.407047174870968E-2   7.508139014244080E-1  -3.851004317402840E-2   1.510562654584646E-2  -3.848953545093536E-2   1.496145874261856E-2  -5.688560009002686E-1   7.459250688552856E-1  
 7.465465465465466E8     3.062953427433968E-2   7.379912137985230E-1  -3.910864144563675E-2   1.885776780545712E-2  -3.920514881610870E-2   1.864197663962841E-2  -5.572878718376160E-1   7.533195018768311E-1  
 7.489489489489490E8     4.666598513722420E-2   7.235308289527893E-1  -3.949931263923645E-2   2.254937216639519E-2  -3.971114754676819E-2   2.226828783750534E-2  -5.475218892097473E-1   7.595970034599304E-1  
 7.513513513513514E8     6.312901526689529E-2   7.072508931159973E-1  -3.975461423397064E-2   2.643767371773720E-2  -4.009441286325455E-2   2.619375661015511E-2  -5.373689532279968E-1   7.655264139175415E-1  
 7.537537537537538E8     7.994738966226578E-2   6.884946823120117E-1  -3.966013714671135E-2   3.078459389507771E-2  -4.006279259920120E-2   3.063001483678818E-2  -5.262258052825928E-1   7.717521190643311E-1  
 7.561561561561562E8     9.462510049343109E-2   6.684541702270508E-1  -3.900215402245522E-2   3.526799008250237E-2  -3.924575448036194E-2   3.517755866050720E-2  -5.141637921333313E-1   7.764713168144226E-1  
 7.585585585585586E8     1.066021621227264E-1   6.495523452758789E-1  -3.787149861454964E-2   3.941659256815910E-2  -3.772463649511337E-2   3.933285549283028E-2  -4.997174143791199E-1   7.837694287300110E-1  
 7.609609609609610E8     1.174399480223656E-1   6.297438740730286E-1  -3.649423271417618E-2   4.341845959424973E-2  -3.627156093716621E-2   4.315028339624405E-2  -4.867998957633972E-1   7.901496291160584E-1  
 7.633633633633634E8     1.282775849103928E-1   6.094976067543030E-1  -3.503153845667839E-2   4.734620824456215E-2  -3.496300801634789E-2   4.687434062361717E-2  -4.746671617031097E-1   7.961384654045105E-1  
 7.657657657657658E8     1.389949768781662E-1   5.863117575645447E-1  -3.357844054698944E-2   5.157955363392830E-2  -3.370725736021996E-2   5.119562894105911E-2  -4.637335538864136E-1   8.009485602378845E-1  
 7.681681681681682E8     1.465437561273575E-1   5.607465505599976E-1  -3.175209835171700E-2   5.617002770304680E-2  -3.216480463743210E-2   5.602808296680450E-2  -4.543679654598236E-1   8.049778342247009E-1  
 7.705705705705706E8     1.481883376836777E-1   5.351833701133728E-1  -2.918269298970699E-2   6.098257377743721E-2  -2.978952787816525E-2   6.080961599946022E-2  -4.438871145248413E-1   8.082718849182129E-1  
 7.729729729729730E8     1.467673331499100E-1   5.093390941619873E-1  -2.562497369945049E-2   6.544035673141480E-2  -2.652579918503761E-2   6.567792594432831E-2  -4.327528476715088E-1   8.142006397247315E-1  
 7.753753753753754E8     1.422965973615646E-1   4.844624102115631E-1  -2.158709056675434E-2   6.978317350149155E-2  -2.247416041791439E-2   7.011286914348602E-2  -4.184370338916779E-1   8.205378055572510E-1  
 7.777777777777778E8     1.349362879991531E-1   4.608304202556610E-1  -1.707356609404087E-2   7.384696602821350E-2  -1.783298701047897E-2   7.397828251123428E-2  -4.013862609863281E-1   8.249529004096985E-1  
 7.801801801801802E8     1.253195106983185E-1   4.402439594268799E-1  -1.232724543660879E-2   7.749504595994949E-2  -1.276142895221710E-2   7.711885124444962E-2  -3.828169405460358E-1   8.263564705848694E-1  
 7.825825825825826E8     1.151075437664986E-1   4.223444759845734E-1  -7.054678164422512E-3   8.062398433685303E-2  -7.339066825807095E-3   8.051433414220810E-2  -3.651561141014099E-1   8.298566937446594E-1  
 7.849849849849850E8     1.043919399380684E-1   4.078432619571686E-1  -1.459046499803662E-3   8.340498805046082E-2  -1.920932205393910E-3   8.321041613817215E-2  -3.511710762977600E-1   8.310780525207520E-1  
 7.873873873873874E8     9.448578953742981E-2   3.962946236133575E-1   4.019508138298988E-3   8.608720451593399E-2   3.565595252439380E-3   8.565470576286316E-2  -3.386103510856628E-1   8.325398564338684E-1  
 7.897897897897898E8     8.641971647739410E-2   3.833419382572174E-1   1.001455448567867E-2   8.872063457965851E-2   9.682086296379566E-3   8.835358172655106E-2  -3.260328173637390E-1   8.359993696212769E-1  
 7.921921921921922E8     7.732278853654862E-2   3.698998093605042E-1   1.690377295017242E-2   9.094890952110291E-2   1.655627973377705E-2   9.116257727146149E-2  -3.133201301097870E-1   8.416045308113098E-1  
 7.945945945945946E8     6.530722230672836E-2   3.589376807212830E-1   2.459087967872620E-2   9.231337159872055E-2   2.381394430994988E-2   9.246349334716797E-2  -2.981199026107788E-1   8.436466455459595E-1  
 7.969969969969970E8     5.182418599724770E-2   3.482810854911804E-1   3.221849724650383E-2   9.269896894693375E-2   3.128763288259506E-2   9.305964410305023E-2  -2.826210558414459E-1   8.462166786193848E-1  
 7.993993993993994E8     3.626575693488121E-2   3.391456305980682E-1   3.974829986691475E-2   9.241864830255508E-2   3.916060179471970E-2   9.292116016149521E-2  -2.663127183914185E-1   8.490960001945496E-1  
 8.018018018018018E8     2.043495699763298E-2   3.329174220561981E-1   4.717012867331505E-2   9.137779474258423E-2   4.691747948527336E-2   9.167157113552094E-2  -2.486989498138428E-1   8.507904410362244E-1  
 8.042042042042042E8     5.337097216397524E-3   3.300915658473969E-1   5.473693832755089E-2   9.011102467775345E-2   5.456567183136940E-2   9.035566449165344E-2  -2.327707707881928E-1   8.518055677413940E-1  
 8.066066066066066E8    -7.810926996171475E-3   3.305882811546326E-1   6.262326985597611E-2   8.770535141229630E-2   6.258551776409149E-2   8.794783800840378E-2  -2.141734808683395E-1   8.535577058792114E-1  
 8.090090090090090E8    -1.961297169327736E-2   3.315222263336182E-1   7.000238448381424E-2   8.428815752267838E-2   7.002700120210648E-2   8.464931696653366E-2  -1.964001357555389E-1   8.538609147071838E-1  
 8.114114114114114E8    -3.024103865027428E-2   3.336237370967865E-1   7.701460272073746E-2   8.046222478151321E-2   7.697246968746185E-2   8.075582981109619E-2  -1.783415973186493E-1   8.535724282264710E-1  
 8.138138138138138E8    -3.849436715245247E-2   3.359029889106751E-1   8.353276550769806E-2   7.609495520591736E-2   8.355621993541718E-2   7.637263834476471E-2  -1.604700684547424E-1   8.532536029815674E-1  
 8.162162162162162E8    -4.592892155051231E-2   3.366211652755737E-1   8.948177099227905E-2   7.153659313917160E-2   8.947766572237015E-2   7.171189039945602E-2  -1.415907442569733E-1   8.526456356048584E-1  
 8.186186186186186E8    -5.580645799636841E-2   3.380069136619568E-1   9.521882981061935E-2   6.690877676010132E-2   9.516841173171997E-2   6.714579463005066E-2  -1.217946037650108E-1   8.520412445068359E-1  
 8.210210210210210E8    -6.378028541803360E-2   3.416828513145447E-1   1.008449941873550E-1   6.133489683270454E-2   1.008547320961952E-1   6.170854717493057E-2  -1.012770459055901E-1   8.499462008476257E-1  
 8.234234234234234E8    -6.851867586374283E-2   3.434502184391022E-1   1.058426648378372E-1   5.549445748329163E-2   1.058062836527824E-1   5.586193874478340E-2  -8.025225251913071E-2   8.473500609397888E-1  
