#  HZ   S   RI   R     50.00 
! Rohde & Schwarz ZVB8 2Ports - Version 2.81 - 1145.1010k08 SN: 100113
! Date: 2016-05-17 22:37:21
! Measurements: S11 S21 S12 S22 
! 
 6.000000000000000E8    -7.942989468574524E-1   5.001544356346130E-1  -9.615474846214056E-4  -1.883739023469389E-3  -9.004637831822038E-4  -1.811013091355562E-3  -9.425551891326904E-1   2.442016452550888E-1  
 6.024024024024024E8    -7.857933640480042E-1   5.106754899024963E-1  -8.559689740650356E-4  -1.847449224442244E-3  -8.987949113361538E-4  -1.843093428760767E-3  -9.393491148948669E-1   2.548328340053558E-1  
 6.048048048048048E8    -7.762455940246582E-1   5.225574970245361E-1  -9.318945230916143E-4  -1.908532343804836E-3  -8.167921914719045E-4  -1.922383438795805E-3  -9.357674121856690E-1   2.659170627593994E-1  
 6.072072072072072E8    -7.663292884826660E-1   5.344227552413940E-1  -9.045653278008103E-4  -1.975405029952526E-3  -9.346469887532294E-4  -1.958951121196151E-3  -9.324385523796082E-1   2.760601341724396E-1  
 6.096096096096096E8    -7.559278607368469E-1   5.462297201156616E-1  -9.115778375416994E-4  -1.951736165210605E-3  -8.726098458282650E-4  -2.031049458310008E-3  -9.287827610969544E-1   2.863076925277710E-1  
 6.120120120120120E8    -7.472230195999146E-1   5.557653307914734E-1  -8.431249298155308E-4  -2.100783865898848E-3  -8.396940538659692E-4  -2.115797949954867E-3  -9.254632592201233E-1   2.945604920387268E-1  
 6.144144144144144E8    -7.376073002815247E-1   5.662053227424622E-1  -7.299392600543797E-4  -2.285434165969491E-3  -7.362375035881996E-4  -2.239103196188808E-3  -9.224243164062500E-1   3.044268786907196E-1  
 6.168168168168168E8    -7.275027632713318E-1   5.767506361007690E-1  -6.299975211732090E-4  -2.389727858826518E-3  -6.908901850692928E-4  -2.430290449410677E-3  -9.190309047698975E-1   3.143019378185272E-1  
 6.192192192192192E8    -7.170543074607849E-1   5.865781903266907E-1  -5.652840482071042E-4  -2.757991664111614E-3  -5.148833151906729E-4  -2.709542168304324E-3  -9.152681231498718E-1   3.241304755210877E-1  
 6.216216216216216E8    -7.060384154319763E-1   5.962890982627869E-1  -5.386231350712478E-4  -3.023166442289949E-3  -4.623421700671315E-4  -3.090488025918603E-3  -9.111783504486084E-1   3.337805569171906E-1  
 6.240240240240240E8    -6.948393583297730E-1   6.059015989303589E-1  -4.720469878520817E-4  -3.476400626823306E-3  -4.159451054874808E-4  -3.468778217211366E-3  -9.069710373878479E-1   3.436553776264191E-1  
 6.264264264264264E8    -6.841711997985840E-1   6.148263216018677E-1  -4.592705518007278E-4  -4.166687373071909E-3  -4.711079818662256E-4  -4.083218518644571E-3  -9.024887681007385E-1   3.553708195686340E-1  
 6.288288288288288E8    -6.739505529403687E-1   6.234636902809143E-1  -7.634678622707725E-4  -4.781781695783138E-3  -7.396223372779787E-4  -4.783670417964459E-3  -8.978754878044128E-1   3.658037185668945E-1  
 6.312312312312312E8    -6.643703579902649E-1   6.320132613182068E-1  -1.276063499972224E-3  -5.479660816490650E-3  -1.206263317726553E-3  -5.423746071755886E-3  -8.937925696372986E-1   3.748842179775238E-1  
 6.336336336336336E8    -6.554383635520935E-1   6.408732533454895E-1  -1.782946987077594E-3  -6.062141619622707E-3  -1.851293491199613E-3  -6.022497080266476E-3  -8.894408345222473E-1   3.834615647792816E-1  
 6.360360360360360E8    -6.459923386573792E-1   6.502160429954529E-1  -2.679252764210105E-3  -6.475666072219610E-3  -2.650431357324123E-3  -6.422066129744053E-3  -8.853621482849121E-1   3.912153840065002E-1  
 6.384384384384384E8    -6.355732083320618E-1   6.598178744316101E-1  -3.538547782227397E-3  -6.727582775056362E-3  -3.569007152691484E-3  -6.705095991492271E-3  -8.815430402755737E-1   4.006080329418182E-1  
 6.408408408408408E8    -6.246525645256043E-1   6.699603199958801E-1  -4.478940274566412E-3  -6.704661995172501E-3  -4.353434313088656E-3  -6.824733223766089E-3  -8.771077990531921E-1   4.097667932510376E-1  
 6.432432432432432E8    -6.127589344978333E-1   6.796818971633911E-1  -5.299060605466366E-3  -6.736531853675842E-3  -5.201598163694143E-3  -6.698151584714651E-3  -8.722036480903626E-1   4.187155365943909E-1  
 6.456456456456456E8    -6.000959277153015E-1   6.888078451156616E-1  -6.025209557265043E-3  -6.588008254766464E-3  -5.959824658930302E-3  -6.588136777281761E-3  -8.671764135360718E-1   4.274372458457947E-1  
 6.480480480480480E8    -5.869717001914978E-1   6.977852582931519E-1  -6.658566184341908E-3  -6.276546046137810E-3  -6.664659827947617E-3  -6.290162913501263E-3  -8.621113896369934E-1   4.360153675079346E-1  
 6.504504504504504E8    -5.723955035209656E-1   7.077410221099854E-1  -7.313313893973827E-3  -6.027527619153261E-3  -7.283961400389671E-3  -6.062382832169533E-3  -8.531401157379150E-1   4.453728497028351E-1  
 6.528528528528528E8    -5.576846599578857E-1   7.170335054397583E-1  -7.837258279323578E-3  -5.838323850184679E-3  -7.825705222785473E-3  -5.791848525404930E-3  -8.454623222351074E-1   4.569394290447235E-1  
 6.552552552552552E8    -5.428958535194397E-1   7.255654931068420E-1  -8.354522287845612E-3  -5.604730919003487E-3  -8.407088927924633E-3  -5.676551256328821E-3  -8.401387333869934E-1   4.684703648090363E-1  
 6.576576576576576E8    -5.271772742271423E-1   7.331177592277527E-1  -8.939392864704132E-3  -5.447523668408394E-3  -8.957332931458950E-3  -5.484585184603930E-3  -8.375605344772339E-1   4.774819612503052E-1  
 6.600600600600600E8    -5.094978809356690E-1   7.405325770378113E-1  -9.637991897761822E-3  -5.204640328884125E-3  -9.603289887309074E-3  -5.254492629319429E-3  -8.339493274688721E-1   4.833536148071289E-1  
 6.624624624624624E8    -4.931056499481201E-1   7.480726838111877E-1  -1.025587413460016E-2  -4.841699264943600E-3  -1.019685342907906E-2  -4.903760273009539E-3  -8.277744054794312E-1   4.930153489112854E-1  
 6.648648648648648E8    -4.761913418769836E-1   7.546655535697937E-1  -1.087468862533569E-2  -4.517193417996168E-3  -1.078060083091259E-2  -4.552746657282114E-3  -8.212955594062805E-1   5.022562146186829E-1  
 6.672672672672672E8    -4.591642022132874E-1   7.609159350395203E-1  -1.145074237138033E-2  -4.131060559302568E-3  -1.140155829489231E-2  -4.163115750998259E-3  -8.152947425842285E-1   5.110213756561279E-1  
 6.696696696696696E8    -4.412607848644257E-1   7.663134336471558E-1  -1.201377250254154E-2  -3.772135358303785E-3  -1.192385423928499E-2  -3.828376997262240E-3  -8.091376423835754E-1   5.195012092590332E-1  
 6.720720720720720E8    -4.221959710121155E-1   7.716093063354492E-1  -1.254330761730671E-2  -3.372965147718787E-3  -1.253775879740715E-2  -3.388077719137073E-3  -8.032650351524353E-1   5.280283689498901E-1  
 6.744744744744744E8    -4.031308591365814E-1   7.759952545166016E-1  -1.313723903149366E-2  -2.994291018694639E-3  -1.312552113085985E-2  -2.970432396978140E-3  -7.956748008728027E-1   5.375340580940247E-1  
 6.768768768768768E8    -3.831138908863068E-1   7.793837189674377E-1  -1.368468068540096E-2  -2.478243550285697E-3  -1.369674596935511E-2  -2.482711570337415E-3  -7.884529829025269E-1   5.466362237930298E-1  
 6.792792792792792E8    -3.631192147731781E-1   7.822408676147461E-1  -1.415629498660564E-2  -1.983773196116090E-3  -1.421719789505005E-2  -2.059172140434384E-3  -7.811132073402405E-1   5.555043816566467E-1  
 6.816816816816816E8    -3.420098423957825E-1   7.840051054954529E-1  -1.472611539065838E-2  -1.503324601799250E-3  -1.471106056123972E-2  -1.483248895965517E-3  -7.736490964889526E-1   5.645269155502319E-1  
 6.840840840840840E8    -3.202348649501801E-1   7.848161458969116E-1  -1.525898557156324E-2  -1.040445989929140E-3  -1.528164371848106E-2  -1.090391771867871E-3  -7.659853696823120E-1   5.738495588302612E-1  
 6.864864864864864E8    -2.981163859367371E-1   7.852591872215271E-1  -1.591191068291664E-2  -5.170023650862277E-4  -1.579104550182819E-2  -5.493108183145523E-4  -7.577157020568848E-1   5.829045772552490E-1  
 6.888888888888888E8    -2.756202816963196E-1   7.850171923637390E-1  -1.640667580068111E-2   2.970858440676238E-5  -1.642080768942833E-2  -1.548710424685851E-4  -7.491306066513062E-1   5.922316908836365E-1  
 6.912912912912912E8    -2.532683014869690E-1   7.835922837257385E-1  -1.720047183334827E-2   6.314382189884782E-4  -1.717249490320683E-2   4.006935632787645E-4  -7.404688596725464E-1   6.014607548713684E-1  
 6.936936936936936E8    -2.301185727119446E-1   7.808193564414978E-1  -1.792784221470356E-2   1.317993039265275E-3  -1.784949563443661E-2   1.172669697552919E-3  -7.319033145904541E-1   6.109998226165772E-1  
 6.960960960960960E8    -2.070305347442627E-1   7.768275737762451E-1  -1.846928149461746E-2   2.008206909522414E-3  -1.847103983163834E-2   2.057625446468592E-3  -7.232735753059387E-1   6.202358603477478E-1  
 6.984984984984984E8    -1.844506561756134E-1   7.707490921020508E-1  -1.901206746697426E-2   2.676746342331171E-3  -1.896596513688564E-2   2.936747157946229E-3  -7.117247581481934E-1   6.323574185371399E-1  
 7.009009009009008E8    -1.622881889343262E-1   7.624717354774475E-1  -1.948196627199650E-2   3.450072603300214E-3  -1.938319951295853E-2   3.814154071733356E-3  -7.005732655525208E-1   6.428956389427185E-1  
 7.033033033033032E8    -1.398403793573380E-1   7.521531581878662E-1  -1.978513412177563E-2   4.182953387498856E-3  -1.975863054394722E-2   4.424793645739555E-3  -6.910337805747986E-1   6.511612534523010E-1  
 7.057057057057056E8    -1.177714690566063E-1   7.397047877311707E-1  -2.029854245483875E-2   4.720624070614576E-3  -2.025803551077843E-2   4.826762247830629E-3  -6.841034293174744E-1   6.565256118774414E-1  
 7.081081081081080E8    -9.476731717586517E-2   7.253455519676209E-1  -2.095915935933590E-2   5.204304121434689E-3  -2.085307985544205E-2   5.114323925226927E-3  -6.762750744819641E-1   6.624934077262878E-1  
 7.105105105105104E8    -7.362163811922073E-2   7.095667719841003E-1  -2.154312282800674E-2   5.815107375383377E-3  -2.166095748543739E-2   5.419496912509203E-3  -6.676421165466309E-1   6.694896221160889E-1  
 7.129129129129129E8    -5.565859377384186E-2   6.919283866882324E-1  -2.236052975058556E-2   6.172535475343466E-3  -2.253379300236702E-2   5.703085102140904E-3  -6.573531627655029E-1   6.776708364486694E-1  
 7.153153153153153E8    -4.158524796366692E-2   6.728733181953430E-1  -2.336850948631764E-2   6.346605718135834E-3  -2.351555414497852E-2   6.039469037204981E-3  -6.453574299812317E-1   6.865007281303406E-1  
 7.177177177177178E8    -3.002739883959293E-2   6.539368033409119E-1  -2.478396333754063E-2   6.341310217976570E-3  -2.492433786392212E-2   6.217804271727800E-3  -6.321914196014404E-1   6.957242488861084E-1  
 7.201201201201202E8    -1.944465935230255E-2   6.358280777931213E-1  -2.682521194219589E-2   6.204681936651468E-3  -2.690033242106438E-2   6.193409208208323E-3  -6.191426515579224E-1   7.043063640594482E-1  
 7.225225225225226E8    -1.156942732632160E-2   6.189681887626648E-1  -3.001623786985874E-2   6.245418451726437E-3  -2.995641715824604E-2   6.243176292628050E-3  -6.047758460044861E-1   7.129417657852173E-1  
 7.249249249249250E8    -2.890900243073702E-3   6.051135063171387E-1  -3.435672447085381E-2   7.506845053285360E-3  -3.433527424931526E-2   7.056836504489183E-3  -5.925028920173645E-1   7.185012698173523E-1  
 7.273273273273274E8     8.529479615390301E-3   5.928356647491455E-1  -3.932083770632744E-2   1.062118262052536E-2  -3.945830836892128E-2   9.767475537955761E-3  -5.802554488182068E-1   7.232196927070618E-1  
 7.297297297297298E8     2.306587249040604E-2   5.782105326652527E-1  -4.417365044355393E-2   1.545041147619486E-2  -4.435705766081810E-2   1.460667233914137E-2  -5.679363608360291E-1   7.280896902084351E-1  
 7.321321321321322E8     3.801935911178589E-2   5.592284202575684E-1  -4.807135835289955E-2   2.174179069697857E-2  -4.803102090954781E-2   2.160245738923550E-2  -5.556473731994629E-1   7.331787943840027E-1  
 7.345345345345346E8     5.161734297871590E-2   5.362991690635681E-1  -5.019860342144966E-2   2.948194555938244E-2  -5.003190785646439E-2   2.968214638531208E-2  -5.442809462547302E-1   7.389481067657471E-1  
 7.369369369369370E8     6.325225532054901E-2   5.105614662170410E-1  -5.046010389924049E-2   3.736016899347305E-2  -5.009879916906357E-2   3.789332136511803E-2  -5.323293805122376E-1   7.451170086860657E-1  
 7.393393393393394E8     7.261446118354797E-2   4.806151986122131E-1  -4.967665299773216E-2   4.532188177108765E-2  -4.919503629207611E-2   4.599193483591080E-2  -5.205873847007752E-1   7.514496445655823E-1  
 7.417417417417418E8     7.680138945579529E-2   4.467645585536957E-1  -4.714223369956017E-2   5.363187566399574E-2  -4.697615653276444E-2   5.403235927224159E-2  -5.089208483695984E-1   7.573986053466797E-1  
 7.441441441441442E8     7.656899839639664E-2   4.118525981903076E-1  -4.337888956069946E-2   6.146054714918137E-2  -4.361090809106827E-2   6.134459003806114E-2  -4.974096119403839E-1   7.624779939651489E-1  
 7.465465465465466E8     6.866457313299179E-2   3.774112761020660E-1  -3.878323361277580E-2   6.839706748723984E-2  -3.927579894661903E-2   6.815346330404282E-2  -4.836435317993164E-1   7.694593071937561E-1  
 7.489489489489490E8     5.485500767827034E-2   3.441073596477509E-1  -3.344732150435448E-2   7.475007325410843E-2  -3.418892249464989E-2   7.452785968780518E-2  -4.710852503776550E-1   7.753273248672485E-1  
 7.513513513513514E8     3.616227209568024E-2   3.133665621280670E-1  -2.748335897922516E-2   8.047483861446381E-2  -2.834560908377171E-2   8.031416684389114E-2  -4.585136473178864E-1   7.806865572929382E-1  
 7.537537537537538E8     1.422692462801933E-2   2.867181301116943E-1  -2.077666297554970E-2   8.601812273263931E-2  -2.174883149564266E-2   8.592747896909714E-2  -4.439191818237305E-1   7.864332199096680E-1  
 7.561561561561562E8    -8.322815410792828E-3   2.658078372478485E-1  -1.337762456387281E-2   9.077407419681549E-2  -1.389622781425715E-2   9.067999571561813E-2  -4.287208616733551E-1   7.905468940734863E-1  
 7.585585585585586E8    -3.112185373902321E-2   2.501854002475739E-1  -5.512181203812361E-3   9.441181272268295E-2  -5.489614792168140E-3   9.419837594032288E-2  -4.109310805797577E-1   7.969533205032349E-1  
 7.609609609609610E8    -5.512907356023789E-2   2.351497411727905E-1   2.572505269199610E-3   9.713582694530487E-2   2.790152095258236E-3   9.667422622442246E-2  -3.938537538051605E-1   8.025115132331848E-1  
 7.633633633633634E8    -8.280181139707565E-2   2.199505716562271E-1   1.106629613786936E-2   9.954302757978439E-2   1.097301114350557E-2   9.906539320945740E-2  -3.775617480278015E-1   8.073210716247559E-1  
 7.657657657657658E8    -1.149244681000710E-1   2.087379246950150E-1   2.025290764868259E-2   1.012574657797813E-1   1.976474747061729E-2   1.010005027055740E-1  -3.626523911952972E-1   8.111006617546082E-1  
 7.681681681681682E8    -1.495464742183685E-1   2.046758532524109E-1   2.980697154998779E-2   1.017183214426041E-1   2.908757701516151E-2   1.020343005657196E-1  -3.485165834426880E-1   8.143604993820190E-1  
 7.705705705705706E8    -1.839723289012909E-1   2.095488309860230E-1   3.935049474239349E-2   1.008861064910889E-1   3.846087306737900E-2   1.015023365616798E-1  -3.332892656326294E-1   8.171745538711548E-1  
 7.729729729729730E8    -2.127519696950913E-1   2.206628918647766E-1   4.866687208414078E-2   9.851203113794327E-2   4.793253913521767E-2   9.984064847230911E-2  -3.162652850151062E-1   8.219132423400879E-1  
 7.753753753753754E8    -2.351980507373810E-1   2.329923212528229E-1   5.718247964978218E-2   9.580457955598831E-2   5.676136538386345E-2   9.709721803665161E-2  -2.959364652633667E-1   8.261327743530273E-1  
 7.777777777777778E8    -2.544087767601013E-1   2.458291053771973E-1   6.572415679693222E-2   9.252569079399109E-2   6.535103172063828E-2   9.347297996282578E-2  -2.724659442901611E-1   8.278943300247192E-1  
 7.801801801801802E8    -2.690107822418213E-1   2.585905790328980E-1   7.396470010280609E-2   8.854015171527863E-2   7.336307317018509E-2   8.859584480524063E-2  -2.475986033678055E-1   8.261300921440125E-1  
 7.825825825825826E8    -2.813367545604706E-1   2.723543345928192E-1   8.126777410507202E-2   8.350627124309540E-2   8.093318343162537E-2   8.331036567687988E-2  -2.231665849685669E-1   8.263136148452759E-1  
 7.849849849849850E8    -2.935789525508881E-1   2.861755788326263E-1   8.779006451368332E-2   7.809448987245560E-2   8.697088807821274E-2   7.849772274494171E-2  -2.020921260118485E-1   8.239537477493286E-1  
 7.873873873873874E8    -3.045704662799835E-1   2.985276877880096E-1   9.393931925296783E-2   7.355641573667526E-2   9.300162643194199E-2   7.403442263603210E-2  -1.814177781343460E-1   8.216572999954224E-1  
 7.897897897897898E8    -3.163430392742157E-1   3.111296296119690E-1   1.007470563054085E-1   6.893061101436615E-2   1.000462546944618E-1   6.941467523574829E-2  -1.598409712314606E-1   8.206269145011902E-1  
 7.921921921921922E8    -3.269048333168030E-1   3.271600604057312E-1   1.080698519945145E-1   6.280969828367233E-2   1.079128906130791E-1   6.357122212648392E-2  -1.366222798824310E-1   8.203114867210388E-1  
 7.945945945945946E8    -3.361023664474487E-1   3.445516824722290E-1   1.146748065948486E-1   5.562449246644974E-2   1.142119914293289E-1   5.675188079476357E-2  -1.126636043190956E-1   8.159004449844360E-1  
 7.969969969969970E8    -3.427216410636902E-1   3.616054356098175E-1   1.204398721456528E-1   4.775265604257584E-2   1.202481910586357E-1   4.894369468092918E-2  -8.654255419969559E-2   8.106751441955566E-1  
 7.993993993993994E8    -3.457164466381073E-1   3.784950673580170E-1   1.255225390195847E-1   3.948805853724480E-2   1.254436373710632E-1   4.045508801937103E-2  -6.034551188349724E-2   8.038864135742188E-1  
 8.018018018018018E8    -3.467490077018738E-1   3.930207788944244E-1   1.296416223049164E-1   3.130380064249039E-2   1.296635866165161E-1   3.157665207982063E-2  -3.278973326086998E-2   7.951643466949463E-1  
 8.042042042042042E8    -3.469404876232147E-1   4.068293273448944E-1   1.339095234870911E-1   2.303920686244965E-2   1.336083412170410E-1   2.310330048203468E-2  -5.797813180834055E-3   7.839580178260803E-1  
 8.066066066066066E8    -3.466618657112122E-1   4.215639829635620E-1   1.378877758979797E-1   1.350984722375870E-2   1.376842260360718E-1   1.367474440485239E-2   2.271241322159767E-2   7.712829709053040E-1  
 8.090090090090090E8    -3.456287384033203E-1   4.356024265289307E-1   1.410092711448669E-1   3.151909215375781E-3   1.409481912851334E-1   3.357873298227787E-3   5.107670277357101E-2   7.558124661445618E-1  
 8.114114114114114E8    -3.429746925830841E-1   4.486404955387116E-1   1.429291516542435E-1  -7.742992136627436E-3   1.432759165763855E-1  -7.427152246236801E-3   7.873840630054474E-2   7.379240393638611E-1  
 8.138138138138138E8    -3.402457535266876E-1   4.592458307743073E-1   1.437392681837082E-1  -1.914615370333195E-2   1.442049741744995E-1  -1.875430904328823E-2   1.055366322398186E-1   7.182862162590027E-1  
 8.162162162162162E8    -3.385558426380158E-1   4.686314761638641E-1   1.432402431964874E-1  -3.028424456715584E-2   1.438440680503845E-1  -2.988912723958492E-2   1.326365023851395E-1   6.964989900588989E-1  
 8.186186186186186E8    -3.381793200969696E-1   4.790740609169006E-1   1.420615017414093E-1  -4.064801707863808E-2   1.426260322332382E-1  -4.052714630961418E-2   1.602294743061066E-1   6.721559166908264E-1  
 8.210210210210210E8    -3.347638547420502E-1   4.877016246318817E-1   1.405171453952789E-1  -5.173437669873238E-2   1.406940817832947E-1  -5.138460174202919E-2   1.860447525978088E-1   6.456304192543030E-1  
 8.234234234234234E8    -3.332583904266357E-1   4.950512349605560E-1   1.371037214994431E-1  -6.287739425897598E-2   1.373120993375778E-1  -6.241308152675629E-2   2.114112526178360E-1   6.148161292076111E-1  
