#  HZ   S   RI   R     50.00 
! Rohde & Schwarz ZVB8 2Ports - Version 2.81 - 1145.1010k08 SN: 100113
! Date: 2016-05-17 22:37:39
! Measurements: S11 S21 S12 S22 
! 
 6.000000000000000E8    -7.838823199272156E-1   5.081792473793030E-1  -1.213660696521401E-3  -2.203860087320209E-3  -1.200882950797677E-3  -2.217176137492061E-3  -9.377971887588501E-1   2.547827064990997E-1  
 6.024024024024024E8    -7.746675610542297E-1   5.193507671356201E-1  -1.333377091214061E-3  -2.212709514424205E-3  -1.189710805192590E-3  -2.179076895117760E-3  -9.341442584991455E-1   2.659718692302704E-1  
 6.048048048048048E8    -7.648488879203796E-1   5.306929945945740E-1  -1.185298780910671E-3  -2.319355262443423E-3  -1.337127294391394E-3  -2.296702936291695E-3  -9.304268956184387E-1   2.769275903701782E-1  
 6.072072072072072E8    -7.540196776390076E-1   5.428057909011841E-1  -1.226420281454921E-3  -2.314616227522492E-3  -1.270827371627092E-3  -2.375646727159619E-3  -9.266688227653503E-1   2.875275313854218E-1  
 6.096096096096096E8    -7.422391772270203E-1   5.550530552864075E-1  -1.260453835129738E-3  -2.458283677697182E-3  -1.197879202663899E-3  -2.508223056793213E-3  -9.228012561798096E-1   2.985581755638123E-1  
 6.120120120120120E8    -7.329491376876831E-1   5.646411776542664E-1  -1.281715347431600E-3  -2.587839262560010E-3  -1.158565864898264E-3  -2.532968530431390E-3  -9.189733266830444E-1   3.069718182086945E-1  
 6.144144144144144E8    -7.226899862289429E-1   5.749858021736145E-1  -1.117141451686621E-3  -2.744771540164948E-3  -1.077786320820451E-3  -2.728134160861373E-3  -9.157566428184509E-1   3.170224428176880E-1  
 6.168168168168168E8    -7.114733457565308E-1   5.853781104087830E-1  -9.576578740961850E-4  -3.009441541507840E-3  -9.502987377345562E-4  -3.064570017158985E-3  -9.117910861968994E-1   3.274160027503967E-1  
 6.192192192192192E8    -6.997984647750855E-1   5.955520868301392E-1  -9.740022360347211E-4  -3.359907306730747E-3  -9.246841073036194E-4  -3.294993424788117E-3  -9.074985980987549E-1   3.378600180149078E-1  
 6.216216216216216E8    -6.876968145370483E-1   6.048720479011536E-1  -7.919219206087291E-4  -3.750366158783436E-3  -8.552004001103342E-4  -3.739095060154796E-3  -9.029043316841126E-1   3.477956950664520E-1  
 6.240240240240240E8    -6.752732396125794E-1   6.136696934700012E-1  -8.420385420322418E-4  -4.465672653168440E-3  -8.380488725379109E-4  -4.304948262870312E-3  -8.980832695960999E-1   3.580345511436462E-1  
 6.264264264264264E8    -6.641070842742920E-1   6.224690079689026E-1  -1.027889200486243E-3  -5.122955888509750E-3  -1.038718619383872E-3  -5.042651668190956E-3  -8.931818604469299E-1   3.702193200588226E-1  
 6.288288288288288E8    -6.535139679908752E-1   6.306936144828796E-1  -1.413244637660682E-3  -5.884687416255474E-3  -1.387795084156096E-3  -5.931045394390822E-3  -8.884458541870117E-1   3.805878460407257E-1  
 6.312312312312312E8    -6.431521773338318E-1   6.388701200485230E-1  -2.052449621260166E-3  -6.680814083665609E-3  -2.034289995208383E-3  -6.711251568049192E-3  -8.832222819328308E-1   3.905032277107239E-1  
 6.336336336336336E8    -6.331385374069214E-1   6.475263237953186E-1  -2.966659143567085E-3  -7.404702249914408E-3  -2.943372353911400E-3  -7.445441093295813E-3  -8.783950209617615E-1   3.993934392929077E-1  
 6.360360360360360E8    -6.227476000785828E-1   6.570942997932434E-1  -3.974670078605413E-3  -7.904779165983200E-3  -3.907794132828713E-3  -7.908735424280167E-3  -8.738114833831787E-1   4.074221551418304E-1  
 6.384384384384384E8    -6.113754510879517E-1   6.669769287109375E-1  -5.079071968793869E-3  -8.203985169529915E-3  -5.073969252407551E-3  -8.150069974362850E-3  -8.692921400070190E-1   4.173471629619598E-1  
 6.408408408408408E8    -5.991240739822388E-1   6.769570112228394E-1  -6.270862650126219E-3  -8.225970901548863E-3  -6.244687363505364E-3  -8.258167654275894E-3  -8.641111254692078E-1   4.269001483917236E-1  
 6.432432432432432E8    -5.858762860298157E-1   6.868705153465271E-1  -7.377605885267258E-3  -8.113014511764050E-3  -7.282130420207977E-3  -8.145778439939022E-3  -8.589198589324951E-1   4.361297488212585E-1  
 6.456456456456456E8    -5.717689394950867E-1   6.963663697242737E-1  -8.507739752531052E-3  -7.816265337169170E-3  -8.424103260040283E-3  -7.893477566540241E-3  -8.529050350189209E-1   4.451737403869629E-1  
 6.480480480480480E8    -5.566171407699585E-1   7.052996754646301E-1  -9.407387115061283E-3  -7.500918582081795E-3  -9.318516589701176E-3  -7.492169737815857E-3  -8.472052216529846E-1   4.541714489459992E-1  
 6.504504504504504E8    -5.398513078689575E-1   7.149842381477356E-1  -1.022453326731920E-2  -6.951509509235621E-3  -1.018866244703531E-2  -7.062555290758610E-3  -8.375598192214966E-1   4.641998112201691E-1  
 6.528528528528528E8    -5.227292776107788E-1   7.235525846481323E-1  -1.102008670568466E-2  -6.628312170505524E-3  -1.091506239026785E-2  -6.640731357038021E-3  -8.288453817367554E-1   4.760913252830505E-1  
 6.552552552552552E8    -5.053471326828003E-1   7.314634919166565E-1  -1.169779151678085E-2  -6.282281130552292E-3  -1.161239854991436E-2  -6.293716840445995E-3  -8.228584527969360E-1   4.881694018840790E-1  
 6.576576576576576E8    -4.870694875717163E-1   7.380251288414002E-1  -1.251290366053581E-2  -5.967064294964075E-3  -1.244641281664372E-2  -6.015795283019543E-3  -8.193912506103516E-1   4.978870153427124E-1  
 6.600600600600600E8    -4.668643474578857E-1   7.442346215248108E-1  -1.337894611060619E-2  -5.516579840332270E-3  -1.328745391219854E-2  -5.538938567042351E-3  -8.147228360176086E-1   5.041733980178833E-1  
 6.624624624624624E8    -4.477633535861969E-1   7.504064440727234E-1  -1.421672385185957E-2  -4.978667944669724E-3  -1.412758417427540E-2  -5.091449711471796E-3  -8.071954250335693E-1   5.140928626060486E-1  
 6.648648648648648E8    -4.287121295928955E-1   7.555944323539734E-1  -1.499891281127930E-2  -4.535361193120480E-3  -1.496033463627100E-2  -4.599450621753931E-3  -8.000479936599731E-1   5.239410400390625E-1  
 6.672672672672672E8    -4.086428582668304E-1   7.601168751716614E-1  -1.588350720703602E-2  -3.979857079684734E-3  -1.585715077817440E-2  -4.089095164090395E-3  -7.925720810890198E-1   5.332272648811340E-1  
 6.696696696696696E8    -3.875559568405151E-1   7.633953094482422E-1  -1.675573550164700E-2  -3.382718656212091E-3  -1.676372811198235E-2  -3.443936118856072E-3  -7.851040363311768E-1   5.425172448158264E-1  
 6.720720720720720E8    -3.653788566589356E-1   7.660536170005798E-1  -1.761467941105366E-2  -2.699209842830896E-3  -1.756633631885052E-2  -2.791225211694837E-3  -7.778692841529846E-1   5.515681505203247E-1  
 6.744744744744744E8    -3.424634933471680E-1   7.676723003387451E-1  -1.849886216223240E-2  -1.972675789147615E-3  -1.845004223287106E-2  -1.988782081753016E-3  -7.690631151199341E-1   5.618374943733215E-1  
 6.768768768768768E8    -3.190291821956635E-1   7.681527137756348E-1  -1.937847957015038E-2  -1.122019370086491E-3  -1.935904286801815E-2  -1.084531540982425E-3  -7.602092027664185E-1   5.713027715682983E-1  
 6.792792792792792E8    -2.950212359428406E-1   7.670749425888062E-1  -2.017642743885517E-2  -2.138728741556406E-4  -2.016462385654450E-2  -3.314219356980175E-4  -7.513139843940735E-1   5.808945298194885E-1  
 6.816816816816816E8    -2.700244188308716E-1   7.644759416580200E-1  -2.102315984666348E-2   6.921525346115232E-4  -2.100978419184685E-2   6.185310776345432E-4  -7.422250509262085E-1   5.902788639068604E-1  
 6.840840840840840E8    -2.447708994150162E-1   7.599360346794128E-1  -2.194942906498909E-2   1.616384717635810E-3  -2.186559326946735E-2   1.544003258459270E-3  -7.329410910606384E-1   6.002162694931030E-1  
 6.864864864864864E8    -2.194932550191879E-1   7.541428208351135E-1  -2.278308011591435E-2   2.643177518621087E-3  -2.278524637222290E-2   2.620573155581951E-3  -7.227441668510437E-1   6.096042394638062E-1  
 6.888888888888888E8    -1.948288232088089E-1   7.470677495002747E-1  -2.366505004465580E-2   3.864567959681153E-3  -2.377540245652199E-2   3.624018514528871E-3  -7.121201157569885E-1   6.192879080772400E-1  
 6.912912912912912E8    -1.696956902742386E-1   7.374750971794128E-1  -2.479064092040062E-2   5.165908485651016E-3  -2.473247610032558E-2   4.963273182511330E-3  -7.012129426002502E-1   6.293321847915649E-1  
 6.936936936936936E8    -1.450945585966110E-1   7.262976765632629E-1  -2.567815408110619E-2   6.810501217842102E-3  -2.573378384113312E-2   6.681411061435938E-3  -6.904869079589844E-1   6.388953328132629E-1  
 6.960960960960960E8    -1.204120814800263E-1   7.130395174026489E-1  -2.639514580368996E-2   8.429111912846565E-3  -2.637829817831516E-2   8.427101187407970E-3  -6.794131398200989E-1   6.489173173904419E-1  
 6.984984984984984E8    -9.765642136335373E-2   6.972290277481079E-1  -2.694877982139587E-2   1.002352032810450E-2  -2.679698541760445E-2   1.028798148036003E-2  -6.652067899703980E-1   6.611136794090271E-1  
 7.009009009009008E8    -7.542236149311066E-2   6.784954667091370E-1  -2.729985117912293E-2   1.158778369426727E-2  -2.703491412103176E-2   1.210496854037046E-2  -6.510339975357056E-1   6.720817685127258E-1  
 7.033033033033032E8    -5.422685667872429E-2   6.571630835533142E-1  -2.753747068345547E-2   1.313897036015987E-2  -2.730892412364483E-2   1.347986329346895E-2  -6.385441422462463E-1   6.807705760002136E-1  
 7.057057057057056E8    -3.468833863735199E-2   6.328400969505310E-1  -2.800685353577137E-2   1.450252998620272E-2  -2.786569669842720E-2   1.466403249651194E-2  -6.284784674644470E-1   6.862602829933167E-1  
 7.081081081081080E8    -1.739445328712463E-2   6.074085831642151E-1  -2.855306491255760E-2   1.595319621264935E-2  -2.862763404846191E-2   1.592381857335568E-2  -6.178778409957886E-1   6.928791403770447E-1  
 7.105105105105104E8    -3.648669458925724E-3   5.798214673995972E-1  -2.907973155379295E-2   1.764114759862423E-2  -2.942340448498726E-2   1.718726940453053E-2  -6.055200695991516E-1   7.002535462379456E-1  
 7.129129129129129E8     5.100085400044918E-3   5.498183965682983E-1  -2.972495183348656E-2   1.892888918519020E-2  -3.007576242089272E-2   1.847101747989655E-2  -5.916003584861755E-1   7.082046270370483E-1  
 7.153153153153153E8     7.999290712177753E-3   5.195230245590210E-1  -3.076877258718014E-2   2.012494578957558E-2  -3.106546774506569E-2   1.979097165167332E-2  -5.751443505287170E-1   7.165804505348206E-1  
 7.177177177177178E8     6.640736479312182E-3   4.915677309036255E-1  -3.242956846952438E-2   2.113919705152512E-2  -3.260813280940056E-2   2.086834982037544E-2  -5.571402907371521E-1   7.251271009445190E-1  
 7.201201201201202E8     3.892893902957439E-3   4.676323831081390E-1  -3.499925136566162E-2   2.242539264261723E-2  -3.508718311786652E-2   2.214958332479000E-2  -5.390343666076660E-1   7.324566841125488E-1  
 7.225225225225226E8     2.440750977257267E-4   4.473514556884766E-1  -3.905133157968521E-2   2.446973137557507E-2  -3.902194276452065E-2   2.423338405787945E-2  -5.196239352226257E-1   7.392085790634155E-1  
 7.249249249249250E8    -4.115853225812316E-4   4.314973354339600E-1  -4.438869282603264E-2   2.862796932458878E-2  -4.475859180092812E-2   2.807882055640221E-2  -5.024775862693787E-1   7.422529458999634E-1  
 7.273273273273274E8     2.209315076470375E-3   4.137305617332459E-1  -4.973511025309563E-2   3.606094792485237E-2  -5.033743381500244E-2   3.520854189991951E-2  -4.859596490859985E-1   7.446456551551819E-1  
 7.297297297297298E8     4.697695374488831E-3   3.894485533237457E-1  -5.349300056695938E-2   4.650929197669029E-2  -5.421309173107147E-2   4.554743692278862E-2  -4.691886603832245E-1   7.462753653526306E-1  
 7.321321321321322E8     3.837113268673420E-3   3.598288297653198E-1  -5.446534231305122E-2   5.886319652199745E-2  -5.460919812321663E-2   5.867999419569969E-2  -4.529325366020203E-1   7.482264637947083E-1  
 7.345345345345346E8    -3.009998006746173E-3   3.282327651977539E-1  -5.108081921935082E-2   7.179501652717590E-2  -5.099045485258102E-2   7.206951081752777E-2  -4.379821121692658E-1   7.508676648139954E-1  
 7.369369369369370E8    -1.640515029430389E-2   2.967261970043182E-1  -4.469551146030426E-2   8.363679796457291E-2  -4.426218941807747E-2   8.387970924377441E-2  -4.230568110942841E-1   7.546398639678955E-1  
 7.393393393393394E8    -3.569331765174866E-2   2.673983275890350E-1  -3.608047962188721E-2   9.418710321187973E-2  -3.551201149821281E-2   9.439133107662201E-2  -4.077921211719513E-1   7.589473724365234E-1  
 7.417417417417418E8    -5.899851396679878E-2   2.437486201524735E-1  -2.533097937703133E-2   1.027578040957451E-1  -2.501851320266724E-2   1.027309074997902E-1  -3.921633958816528E-1   7.628495693206787E-1  
 7.441441441441442E8    -8.435899764299393E-2   2.235027849674225E-1  -1.328251417726278E-2   1.091045513749123E-1  -1.372659392654896E-2   1.089291870594025E-1  -3.758827447891235E-1   7.664564251899719E-1  
 7.465465465465466E8    -1.126281991600990E-1   2.083981186151505E-1  -1.497358432970941E-3   1.134195029735565E-1  -1.723671914078295E-3   1.133535057306290E-1  -3.565941154956818E-1   7.713168859481812E-1  
 7.489489489489490E8    -1.441256105899811E-1   1.963808536529541E-1   1.076777093112469E-2   1.160079613327980E-1   1.009979099035263E-2   1.160732209682465E-1  -3.378442227840424E-1   7.747906446456909E-1  
 7.513513513513514E8    -1.760129779577255E-1   1.884925663471222E-1   2.270254492759705E-2   1.169964373111725E-1   2.178126387298107E-2   1.173554807901382E-1  -3.183605968952179E-1   7.779390215873718E-1  
 7.537537537537538E8    -2.071703821420670E-1   1.851488351821899E-1   3.454800695180893E-2   1.171794831752777E-1   3.351595625281334E-2   1.181199178099632E-1  -2.961189448833466E-1   7.803807258605957E-1  
 7.561561561561562E8    -2.375271469354630E-1   1.857704073190689E-1   4.659795388579369E-2   1.166841760277748E-1   4.592030122876167E-2   1.171821877360344E-1  -2.724536955356598E-1   7.806270718574524E-1  
 7.585585585585586E8    -2.665334641933441E-1   1.926570087671280E-1   5.871338024735451E-2   1.144537106156349E-1   5.817579850554466E-2   1.146298944950104E-1  -2.460542172193527E-1   7.823088765144348E-1  
 7.609609609609610E8    -2.937897741794586E-1   2.013240754604340E-1   7.052145153284073E-2   1.111814156174660E-1   6.978531181812286E-2   1.109735667705536E-1  -2.195327132940292E-1   7.824841737747192E-1  
 7.633633633633634E8    -3.178946673870087E-1   2.108258605003357E-1   8.211408555507660E-2   1.072580218315125E-1   8.129427582025528E-2   1.067758575081825E-1  -1.933652609586716E-1   7.804706692695618E-1  
 7.657657657657658E8    -3.439928889274597E-1   2.239591777324677E-1   9.356202930212021E-2   1.017778441309929E-1   9.276895970106125E-2   1.014187335968018E-1  -1.672351509332657E-1   7.766169905662537E-1  
 7.681681681681682E8    -3.678067624568939E-1   2.422052025794983E-1   1.041783913969994E-1   9.488074481487274E-2   1.036894246935844E-1   9.490489959716797E-2  -1.407335251569748E-1   7.708536386489868E-1  
 7.705705705705706E8    -3.876032531261444E-1   2.655586004257202E-1   1.136897951364517E-1   8.694282174110413E-2   1.133072823286057E-1   8.744276314973831E-2  -1.129936128854752E-1   7.633463144302368E-1  
 7.729729729729730E8    -4.004114866256714E-1   2.899517416954041E-1   1.221994161605835E-1   7.814516872167587E-2   1.222539097070694E-1   7.961275428533554E-2  -8.239304274320602E-2   7.549048066139221E-1  
 7.753753753753754E8    -4.086835086345673E-1   3.115690052509308E-1   1.304874122142792E-1   6.925106048583984E-2   1.310338675975800E-1   7.106921076774597E-2  -4.906266927719116E-2   7.432432770729065E-1  
 7.777777777777778E8    -4.145888388156891E-1   3.314760327339172E-1   1.390336006879807E-1   5.923957005143166E-2   1.392767131328583E-1   6.078669056296349E-2  -1.362377032637596E-2   7.262240052223206E-1  
 7.801801801801802E8    -4.180650711059570E-1   3.493348658084869E-1   1.466894000768662E-1   4.818132519721985E-2   1.463412195444107E-1   4.934410005807877E-2   2.175035141408444E-2   7.035719156265259E-1  
 7.825825825825826E8    -4.188673496246338E-1   3.676556944847107E-1   1.528733074665070E-1   3.559231013059616E-2   1.528525054454804E-1   3.640992566943169E-2   5.681624636054039E-2   6.790617704391480E-1  
 7.849849849849850E8    -4.184453189373016E-1   3.828234374523163E-1   1.579826325178146E-1   2.313386648893356E-2   1.575980633497238E-1   2.384971827268601E-2   8.746638894081116E-2   6.515601873397827E-1  
 7.873873873873874E8    -4.191080033779144E-1   3.954622745513916E-1   1.628468930721283E-1   1.099716871976852E-2   1.617317944765091E-1   1.146451197564602E-2   1.165346950292587E-1   6.206874847412109E-1  
 7.897897897897898E8    -4.224675297737122E-1   4.104035496711731E-1   1.674307882785797E-1  -2.742604119703174E-3   1.662941873073578E-1  -2.122572623193264E-3   1.445440500974655E-1   5.876607894897461E-1  
 7.921921921921922E8    -4.232849478721619E-1   4.286538958549500E-1   1.705817133188248E-1  -1.893011666834354E-2   1.703708022832871E-1  -1.793633215129376E-2   1.719436049461365E-1   5.508238673210144E-1  
 7.945945945945946E8    -4.233641624450684E-1   4.462369680404663E-1   1.712508499622345E-1  -3.600283339619637E-2   1.714112907648087E-1  -3.407505527138710E-2   1.964736133813858E-1   5.075424313545227E-1  
 7.969969969969970E8    -4.210523962974548E-1   4.617039561271668E-1   1.694772839546204E-1  -5.327462404966354E-2   1.701467186212540E-1  -5.128948390483856E-2   2.182351052761078E-1   4.591497778892517E-1  
 7.993993993993994E8    -4.175528585910797E-1   4.751093983650208E-1   1.652421802282333E-1  -7.027968019247055E-2   1.660408824682236E-1  -6.888025254011154E-2   2.354721724987030E-1   4.060068726539612E-1  
 8.018018018018018E8    -4.139097630977631E-1   4.863589704036713E-1   1.589770019054413E-1  -8.620587736368179E-2   1.595285683870316E-1  -8.557239919900894E-2   2.466604113578796E-1   3.482046723365784E-1  
 8.042042042042042E8    -4.111595451831818E-1   4.987651109695435E-1   1.515321135520935E-1  -1.016719415783882E-1   1.519990712404251E-1  -1.010057702660561E-1   2.500031888484955E-1   2.869843244552612E-1  
 8.066066066066066E8    -4.068569242954254E-1   5.105789303779602E-1   1.420141160488129E-1  -1.167965009808540E-1   1.425515711307526E-1  -1.169226244091988E-1   2.455455511808395E-1   2.233175933361054E-1  
 8.090090090090090E8    -4.033590555191040E-1   5.216927528381348E-1   1.302154213190079E-1  -1.308119297027588E-1   1.303604245185852E-1  -1.313976347446442E-1   2.318316549062729E-1   1.607809215784073E-1  
 8.114114114114114E8    -4.001303017139435E-1   5.323002934455872E-1   1.161621585488319E-1  -1.435974836349487E-1   1.159886866807938E-1  -1.440954506397247E-1   2.096720486879349E-1   1.002073213458061E-1  
 8.138138138138138E8    -3.970518112182617E-1   5.421217083930969E-1   1.000593975186348E-1  -1.539608091115952E-1   9.963364154100418E-2  -1.545317918062210E-1   1.797861009836197E-1   4.277388751506805E-2  
 8.162162162162162E8    -3.955384492874146E-1   5.529510378837585E-1   8.308994024991989E-2  -1.615155488252640E-1   8.240736275911331E-2  -1.618968546390533E-1   1.430625915527344E-1  -1.128868293017149E-2  
 8.186186186186186E8    -3.940024077892304E-1   5.643488168716431E-1   6.606549024581909E-2  -1.666891425848007E-1   6.569027900695801E-2  -1.666366457939148E-1   1.016429066658020E-1  -5.845438688993454E-2  
 8.210210210210210E8    -3.907970786094666E-1   5.766795277595520E-1   4.734687507152557E-2  -1.695660352706909E-1   4.842240363359451E-2  -1.696744114160538E-1   5.337426811456680E-2  -9.960579872131348E-2  
 8.234234234234234E8    -3.876672983169556E-1   5.878528356552124E-1   2.915440872311592E-2  -1.687076389789581E-1   3.020763024687767E-2  -1.689304113388062E-1  -1.870469423010945E-3  -1.343841552734375E-1  
