#  HZ   S   RI   R     50.00 
! Rohde & Schwarz ZVB8 2Ports - Version 2.81 - 1145.1010k08 SN: 100113
! Date: 2016-03-31 04:25:29
! Measurements: S11 S21 S12 S22 
! 
 6.000000000000000E8     1.747353971004486E-1   8.564371466636658E-1  -1.599172502756119E-2   1.365606021136046E-2  -1.600001007318497E-2   1.370873767882586E-2  -1.058388426899910E-1   9.477576613426209E-1  
 6.024024024024024E8     1.976368874311447E-1   8.465750217437744E-1  -1.637024804949760E-2   1.513136085122824E-2  -1.641867123544216E-2   1.503653824329376E-2  -8.741740882396698E-2   9.489357471466065E-1  
 6.048048048048048E8     2.214311212301254E-1   8.351635336875916E-1  -1.680287159979343E-2   1.664311066269875E-2  -1.672861911356449E-2   1.662074960768223E-2  -6.892772018909454E-2   9.496269822120667E-1  
 6.072072072072072E8     2.460536658763886E-1   8.214612007141113E-1  -1.719989441335201E-2   1.838418096303940E-2  -1.720364019274712E-2   1.828215084969997E-2  -5.064702033996582E-2   9.502524137496948E-1  
 6.096096096096096E8     2.712398767471314E-1   8.058530688285828E-1  -1.751969754695892E-2   2.038043364882469E-2  -1.746173761785030E-2   2.031060121953487E-2  -3.218915313482285E-2   9.505486488342285E-1  
 6.120120120120120E8     2.928609848022461E-1   7.893276810646057E-1  -1.766734384000301E-2   2.259339950978756E-2  -1.770084910094738E-2   2.268777228891850E-2  -1.528575457632542E-2   9.503954648971558E-1  
 6.144144144144144E8     3.137640058994293E-1   7.709562778472900E-1  -1.762221008539200E-2   2.516630664467812E-2  -1.767599210143089E-2   2.509951032698154E-2   2.170644933357835E-3   9.503351449966431E-1  
 6.168168168168168E8     3.336050808429718E-1   7.506414651870728E-1  -1.717030629515648E-2   2.787693962454796E-2  -1.726689003407955E-2   2.780143544077873E-2   2.022105269134045E-2   9.499945640563965E-1  
 6.192192192192192E8     3.516385257244110E-1   7.290681004524231E-1  -1.633543334901333E-2   3.070168010890484E-2  -1.642359048128128E-2   3.062034584581852E-2   3.914876654744148E-2   9.489281773567200E-1  
 6.216216216216216E8     3.684697449207306E-1   7.063639760017395E-1  -1.517318654805422E-2   3.329304605722427E-2  -1.523590832948685E-2   3.334281593561173E-2   5.855069309473038E-2   9.470679163932800E-1  
 6.240240240240240E8     3.841768801212311E-1   6.826872229576111E-1  -1.376505661755800E-2   3.615714982151985E-2  -1.380866672843695E-2   3.608832880854607E-2   7.797928154468536E-2   9.449619054794312E-1  
 6.264264264264264E8     3.978499174118042E-1   6.589928269386292E-1  -1.204715482890606E-2   3.880597278475761E-2  -1.213027071207762E-2   3.880974650382996E-2   9.783168137073517E-2   9.425854682922363E-1  
 6.288288288288288E8     4.095702767372131E-1   6.342334151268005E-1  -1.005228701978922E-2   4.145399853587151E-2  -1.008854620158672E-2   4.140491783618927E-2   1.165828630328178E-1   9.396126270294190E-1  
 6.312312312312312E8     4.191708266735077E-1   6.090890765190125E-1  -7.863257080316544E-3   4.401278495788574E-2  -7.956036366522312E-3   4.395642504096031E-2   1.350172162055969E-1   9.362302422523499E-1  
 6.336336336336336E8     4.271662235260010E-1   5.842326283454895E-1  -5.337736103683710E-3   4.656726494431496E-2  -5.374017637223005E-3   4.649946838617325E-2   1.532240509986877E-1   9.326280951499939E-1  
 6.360360360360360E8     4.337268173694611E-1   5.587408542633057E-1  -2.505121286958456E-3   4.903817176818848E-2  -2.563567366451025E-3   4.888847470283508E-2   1.709272265434265E-1   9.285688996315002E-1  
 6.384384384384384E8     4.384724199771881E-1   5.336402654647827E-1   6.053120596334338E-4   5.119812488555908E-2   5.073798238299787E-4   5.122951790690422E-2   1.900258064270020E-1   9.246881008148193E-1  
 6.408408408408408E8     4.416929185390472E-1   5.077884197235107E-1   4.006623756140471E-3   5.334859713912010E-2   3.873273031786084E-3   5.331705138087273E-2   2.089516818523407E-1   9.200037717819214E-1  
 6.432432432432432E8     4.424528181552887E-1   4.811722934246063E-1   7.809769362211227E-3   5.538818612694740E-2   7.722795475274324E-3   5.532484874129295E-2   2.281547933816910E-1   9.147047996520996E-1  
 6.456456456456456E8     4.412546157836914E-1   4.544872641563416E-1   1.186979748308659E-2   5.699186399579048E-2   1.186272688210011E-2   5.696288123726845E-2   2.468173503875732E-1   9.086494445800781E-1  
 6.480480480480480E8     4.378621280193329E-1   4.273997247219086E-1   1.617639511823654E-2   5.845392867922783E-2   1.622932776808739E-2   5.841587856411934E-2   2.656607627868652E-1   9.021212458610535E-1  
 6.504504504504504E8     4.313483238220215E-1   4.031482338905335E-1   2.076086588203907E-2   5.954611673951149E-2   2.088242769241333E-2   5.944634601473808E-2   2.854441404342651E-1   8.961931467056274E-1  
 6.528528528528528E8     4.228069186210632E-1   3.789243400096893E-1   2.556920796632767E-2   6.031020730733872E-2   2.556154131889343E-2   6.025560572743416E-2   3.043230772018433E-1   8.899946808815002E-1  
 6.552552552552552E8     4.097312986850739E-1   3.548595607280731E-1   3.070110641419888E-2   6.108104065060616E-2   3.057016804814339E-2   6.098079308867455E-2   3.221307992935181E-1   8.829733133316040E-1  
 6.576576576576576E8     3.923386931419373E-1   3.339433073997498E-1   3.656284511089325E-2   6.132714077830315E-2   3.657092526555061E-2   6.123428791761398E-2   3.393381834030151E-1   8.747434616088867E-1  
 6.600600600600600E8     3.733360767364502E-1   3.174274861812592E-1   4.301146417856216E-2   6.041345372796059E-2   4.296191409230232E-2   6.029888242483139E-2   3.572133481502533E-1   8.657321929931641E-1  
 6.624624624624624E8     3.563804626464844E-1   3.089167177677155E-1   4.899180307984352E-2   5.801510810852051E-2   4.880781471729279E-2   5.799959227442741E-2   3.753484189510346E-1   8.578219413757324E-1  
 6.648648648648648E8     3.416389226913452E-1   3.001587688922882E-1   5.394721031188965E-2   5.534917116165161E-2   5.365635082125664E-2   5.540658161044121E-2   3.931723535060883E-1   8.498380184173584E-1  
 6.672672672672672E8     3.255794942378998E-1   2.920871675014496E-1   5.856668949127197E-2   5.268282815814018E-2   5.829643830657005E-2   5.269693210721016E-2   4.104378223419190E-1   8.412360548973084E-1  
 6.696696696696696E8     3.098950684070587E-1   2.855027914047241E-1   6.304085999727249E-2   4.987524077296257E-2   6.274211406707764E-2   4.992578178644180E-2   4.274011552333832E-1   8.321464657783508E-1  
 6.720720720720720E8     2.945350706577301E-1   2.804839611053467E-1   6.739401817321777E-2   4.698996990919113E-2   6.725233048200607E-2   4.696695134043694E-2   4.438299238681793E-1   8.225755095481873E-1  
 6.744744744744744E8     2.793687582015991E-1   2.797433137893677E-1   7.191458344459534E-2   4.357668012380600E-2   7.184761017560959E-2   4.351353272795677E-2   4.609369933605194E-1   8.129816055297852E-1  
 6.768768768768768E8     2.662844061851502E-1   2.811944484710693E-1   7.598572224378586E-2   3.948257490992546E-2   7.589618861675263E-2   3.948244079947472E-2   4.775103032588959E-1   8.030278682708740E-1  
 6.792792792792792E8     2.562493383884430E-1   2.838117182254791E-1   7.951497286558151E-2   3.515372425317764E-2   7.931701093912125E-2   3.526377677917481E-2   4.940181970596314E-1   7.930358052253723E-1  
 6.816816816816816E8     2.494878321886063E-1   2.849159836769104E-1   8.235423266887665E-2   3.092110157012940E-2   8.218443393707275E-2   3.092166967689991E-2   5.106390714645386E-1   7.820438146591187E-1  
 6.840840840840840E8     2.418867945671082E-1   2.828772068023682E-1   8.492187410593033E-2   2.707643806934357E-2   8.474718034267426E-2   2.706856094300747E-2   5.270552635192871E-1   7.701745629310608E-1  
 6.864864864864864E8     2.329971492290497E-1   2.829723358154297E-1   8.773879706859589E-2   2.332953177392483E-2   8.743394911289215E-2   2.355214767158032E-2   5.413815379142761E-1   7.587138414382935E-1  
 6.888888888888888E8     2.249301671981812E-1   2.820151150226593E-1   9.042584151029587E-2   1.944377273321152E-2   9.008780866861343E-2   1.994176954030991E-2   5.563039779663086E-1   7.466996312141419E-1  
 6.912912912912912E8     2.145656049251556E-1   2.821451425552368E-1   9.352764487266541E-2   1.562727801501751E-2   9.323988854885101E-2   1.625429652631283E-2   5.711528062820435E-1   7.343611717224121E-1  
 6.936936936936936E8     2.045600712299347E-1   2.824910283088684E-1   9.668131172657013E-2   1.163161545991898E-2   9.646125137805939E-2   1.208703126758337E-2   5.854898691177368E-1   7.216709256172180E-1  
 6.960960960960960E8     1.906352043151856E-1   2.839871942996979E-1   1.002636924386025E-1   7.552150636911392E-3   1.002104952931404E-1   7.561531383544207E-3   6.003528833389282E-1   7.082601189613342E-1  
 6.984984984984984E8     1.763247996568680E-1   2.931854426860809E-1   1.041696444153786E-1   2.670443616807461E-3   1.042044386267662E-1   1.376658095978200E-3   6.171783804893494E-1   6.925758123397827E-1  
 7.009009009009008E8     1.655633598566055E-1   3.060456514358521E-1   1.077528819441795E-1  -3.453648416325450E-3   1.075852215290070E-1  -5.669907201081514E-3   6.325308680534363E-1   6.769332885742188E-1  
 7.033033033033032E8     1.601372957229614E-1   3.216035366058350E-1   1.103859692811966E-1  -1.088190264999867E-2   1.099574938416481E-1  -1.297786179929972E-2   6.459031701087952E-1   6.625791788101196E-1  
 7.057057057057056E8     1.601367741823196E-1   3.350439369678497E-1   1.115821227431297E-1  -1.857602596282959E-2   1.112378388643265E-1  -1.969631388783455E-2   6.566642522811890E-1   6.504246592521668E-1  
 7.081081081081080E8     1.626819819211960E-1   3.464238643646240E-1   1.121964156627655E-1  -2.613635174930096E-2   1.121328920125961E-1  -2.584049291908741E-2   6.681332588195801E-1   6.365826725959778E-1  
 7.105105105105104E8     1.685677766799927E-1   3.572452068328857E-1   1.123211830854416E-1  -3.366375342011452E-2   1.127591952681541E-1  -3.186288103461266E-2   6.785811781883240E-1   6.237242221832275E-1  
 7.129129129129129E8     1.735968291759491E-1   3.642897903919220E-1   1.122224107384682E-1  -4.018929973244667E-2   1.128802448511124E-1  -3.813563659787178E-2   6.902362108230591E-1   6.089460849761963E-1  
 7.153153153153153E8     1.773316264152527E-1   3.718506693840027E-1   1.124599575996399E-1  -4.622269049286842E-2   1.130719557404518E-1  -4.482633993029594E-2   7.031674385070801E-1   5.919229984283447E-1  
 7.177177177177178E8     1.828841120004654E-1   3.786092400550842E-1   1.128856018185616E-1  -5.245698615908623E-2   1.131002977490425E-1  -5.191509798169136E-2   7.168417572975159E-1   5.728697776794434E-1  
 7.201201201201202E8     1.893281787633896E-1   3.835913240909576E-1   1.131382435560226E-1  -5.946404114365578E-2   1.131967231631279E-1  -5.926156416535378E-2   7.300890684127808E-1   5.534446239471436E-1  
 7.225225225225226E8     1.943894177675247E-1   3.888576626777649E-1   1.131390780210495E-1  -6.692591309547424E-2   1.130113005638123E-1  -6.701119989156723E-2   7.424861192703247E-1   5.344542860984802E-1  
 7.249249249249250E8     1.996038705110550E-1   3.946697413921356E-1   1.123837456107140E-1  -7.559358328580856E-2   1.130965650081635E-1  -7.425244152545929E-2   7.529180645942688E-1   5.166640281677246E-1  
 7.273273273273274E8     2.057239115238190E-1   4.012613892555237E-1   1.111911386251450E-1  -8.467307686805725E-2   1.126843094825745E-1  -8.235340565443039E-2   7.633050084114075E-1   4.980344176292419E-1  
 7.297297297297298E8     2.117258459329605E-1   4.087248742580414E-1   1.097507402300835E-1  -9.354583173990250E-2   1.112527623772621E-1  -9.164964407682419E-2   7.737430930137634E-1   4.780145585536957E-1  
 7.321321321321322E8     2.198255658149719E-1   4.175606966018677E-1   1.081963181495667E-1  -1.022809743881226E-1   1.082604378461838E-1  -1.020384654402733E-1   7.844363451004028E-1   4.564692378044128E-1  
 7.345345345345346E8     2.312032878398895E-1   4.254843592643738E-1   1.052704527974129E-1  -1.116608977317810E-1   1.047393456101418E-1  -1.120020151138306E-1   7.938637733459473E-1   4.362980425357819E-1  
 7.369369369369370E8     2.446418106555939E-1   4.300940930843353E-1   1.010014787316322E-1  -1.215661019086838E-1   9.994467347860336E-2  -1.223040595650673E-1   8.032604455947876E-1   4.143877327442169E-1  
 7.393393393393394E8     2.580159902572632E-1   4.315714836120606E-1   9.528457373380661E-2  -1.314526796340942E-1   9.398937225341797E-2  -1.320877224206924E-1   8.119152188301086E-1   3.918298184871674E-1  
 7.417417417417418E8     2.709473073482513E-1   4.306134581565857E-1   8.795888721942902E-2  -1.412233263254166E-1   8.725713193416596E-2  -1.414322406053543E-1   8.194968104362488E-1   3.687560260295868E-1  
 7.441441441441442E8     2.824190855026245E-1   4.272814989089966E-1   7.888523489236832E-2  -1.502927094697952E-1   7.928060740232468E-2  -1.500150561332703E-1   8.260762095451355E-1   3.458041250705719E-1  
 7.465465465465466E8     2.906131446361542E-1   4.263389408588409E-1   6.977493315935135E-2  -1.575462669134140E-1   7.041650265455246E-2  -1.573951244354248E-1   8.324049115180969E-1   3.243362903594971E-1  
 7.489489489489490E8     2.982166707515717E-1   4.253039360046387E-1   6.058037281036377E-2  -1.637332886457443E-1   6.129851937294006E-2  -1.636606454849243E-1   8.377617001533508E-1   3.023905754089356E-1  
 7.513513513513514E8     3.048218190670013E-1   4.230096936225891E-1   5.075498297810555E-2  -1.693130433559418E-1   5.156684294342995E-2  -1.693534851074219E-1   8.428329825401306E-1   2.787572145462036E-1  
 7.537537537537538E8     3.111629784107208E-1   4.212928712368012E-1   4.048890992999077E-2  -1.738577038049698E-1   4.150784015655518E-2  -1.740222126245499E-1   8.478580713272095E-1   2.520783245563507E-1  
 7.561561561561562E8     3.181242048740387E-1   4.211892485618591E-1   3.106042370200157E-2  -1.777700632810593E-1   3.128106892108917E-2  -1.775986403226852E-1   8.511162400245667E-1   2.248972058296204E-1  
 7.585585585585586E8     3.271493911743164E-1   4.239146709442139E-1   2.211335487663746E-2  -1.814850270748138E-1   2.196292765438557E-2  -1.806805133819580E-1   8.541813492774963E-1   1.995526999235153E-1  
 7.609609609609610E8     3.389748632907867E-1   4.240082204341888E-1   1.286222226917744E-2  -1.856197267770767E-1   1.275774370878935E-2  -1.843493580818176E-1   8.553099036216736E-1   1.733567714691162E-1  
 7.633633633633634E8     3.496192395687103E-1   4.209065735340118E-1   2.883497159928083E-3  -1.895425170660019E-1   3.137159394100308E-3  -1.881429255008698E-1   8.548017740249634E-1   1.466738581657410E-1  
 7.657657657657658E8     3.594138324260712E-1   4.169658124446869E-1  -7.570553105324507E-3  -1.932342946529388E-1  -6.852923892438412E-3  -1.923037171363831E-1   8.531789183616638E-1   1.193311810493469E-1  
 7.681681681681682E8     3.679051399230957E-1   4.130828082561493E-1  -1.837233826518059E-2  -1.965225189924240E-1  -1.778937131166458E-2  -1.963817775249481E-1   8.504573106765747E-1   9.303212165832520E-2  
 7.705705705705706E8     3.741882145404816E-1   4.125769436359406E-1  -2.890895865857601E-2  -1.992381662130356E-1  -2.848629653453827E-2  -1.995989531278610E-1   8.470600247383118E-1   7.009465992450714E-2  
 7.729729729729730E8     3.828842043876648E-1   4.098165035247803E-1  -4.062270373106003E-2  -2.016897052526474E-1  -4.018838703632355E-2  -2.030719071626663E-1   8.438425064086914E-1   4.429261758923531E-2  
 7.753753753753754E8     3.906741738319397E-1   4.054374396800995E-1  -5.348724871873856E-2  -2.038395404815674E-1  -5.295725166797638E-2  -2.055016458034515E-1   8.374840021133423E-1   1.498440839350224E-2  
 7.777777777777778E8     3.976627886295319E-1   4.005370736122131E-1  -6.711978465318680E-2  -2.056013345718384E-1  -6.665055453777313E-2  -2.066909819841385E-1   8.261722922325134E-1  -1.437141280621290E-2  
 7.801801801801802E8     4.024169743061066E-1   3.946950435638428E-1  -8.197408914566040E-2  -2.061061859130859E-1  -8.140673488378525E-2  -2.059536278247833E-1   8.108640313148499E-1  -4.159185290336609E-2  
 7.825825825825826E8     4.060319662094116E-1   3.893363773822784E-1  -9.652034938335419E-2  -2.040526419878006E-1  -9.617599099874497E-2  -2.038728594779968E-1   7.970516681671143E-1  -6.582247465848923E-2  
 7.849849849849850E8     4.099068045616150E-1   3.859096467494965E-1  -1.111575141549110E-1  -2.015914171934128E-1  -1.100939661264420E-1  -2.016223818063736E-1   7.825716137886047E-1  -8.841740339994431E-2  
 7.873873873873874E8     4.145677983760834E-1   3.840246796607971E-1  -1.255888491868973E-1  -1.986456215381622E-1  -1.241669356822968E-1  -1.983061432838440E-1   7.667869329452515E-1  -1.109200194478035E-1  
 7.897897897897898E8     4.208368360996246E-1   3.806609213352203E-1  -1.404662579298019E-1  -1.953952312469482E-1  -1.393920630216599E-1  -1.947653740644455E-1   7.491263747215271E-1  -1.348707526922226E-1  
 7.921921921921922E8     4.278739094734192E-1   3.756292462348938E-1  -1.564882546663284E-1  -1.902115941047669E-1  -1.558720171451569E-1  -1.903560459613800E-1   7.293272018432617E-1  -1.580994725227356E-1  
 7.945945945945946E8     4.328304827213287E-1   3.731609880924225E-1  -1.733082830905914E-1  -1.843091249465942E-1  -1.720939427614212E-1  -1.848643124103546E-1   7.062998414039612E-1  -1.774922311306000E-1  
 7.969969969969970E8     4.358043372631073E-1   3.705104589462280E-1  -1.905283480882645E-1  -1.753175556659699E-1  -1.893938332796097E-1  -1.764376312494278E-1   6.813679933547974E-1  -1.942425817251205E-1  
 7.993993993993994E8     4.385169744491577E-1   3.694495260715485E-1  -2.063095569610596E-1  -1.640587896108627E-1  -2.055621296167374E-1  -1.651595532894135E-1   6.556972861289978E-1  -2.095542550086975E-1  
 8.018018018018018E8     4.419362246990204E-1   3.680084347724915E-1  -2.213031351566315E-1  -1.517680734395981E-1  -2.212255597114563E-1  -1.521836370229721E-1   6.274626851081848E-1  -2.235202789306641E-1  
 8.042042042042042E8     4.460015296936035E-1   3.683631122112274E-1  -2.359663844108582E-1  -1.369418799877167E-1  -2.358781546354294E-1  -1.372240632772446E-1   5.990788340568543E-1  -2.324801236391068E-1  
 8.066066066066066E8     4.512558877468109E-1   3.706877529621124E-1  -2.485876530408859E-1  -1.202907115221024E-1  -2.484810501337051E-1  -1.206912994384766E-1   5.705836415290833E-1  -2.388710677623749E-1  
 8.090090090090090E8     4.587791264057159E-1   3.737983405590057E-1  -2.596209943294525E-1  -1.022861897945404E-1  -2.595449090003967E-1  -1.026251912117004E-1   5.413796305656433E-1  -2.416747361421585E-1  
 8.114114114114114E8     4.686204195022583E-1   3.768393695354462E-1  -2.686530649662018E-1  -8.306760340929031E-2  -2.686424851417542E-1  -8.339494466781616E-2   5.138378143310547E-1  -2.416114658117294E-1  
 8.138138138138138E8     4.809376001358032E-1   3.790215849876404E-1  -2.750982642173767E-1  -6.320300698280335E-2  -2.749730348587036E-1  -6.356572359800339E-2   4.874672293663025E-1  -2.399793416261673E-1  
 8.162162162162162E8     4.948799312114716E-1   3.793994784355164E-1  -2.801150679588318E-1  -4.422558471560478E-2  -2.798359096050263E-1  -4.458881169557571E-2   4.610179066658020E-1  -2.372438758611679E-1  
 8.186186186186186E8     5.084966421127319E-1   3.795555531978607E-1  -2.843750417232513E-1  -2.498344890773296E-2  -2.840441465377808E-1  -2.537067979574204E-2   4.346884787082672E-1  -2.303588986396790E-1  
 8.210210210210210E8     5.224826335906982E-1   3.777067959308624E-1  -2.875441014766693E-1  -4.606499802321196E-3  -2.871912717819214E-1  -5.119802430272102E-3   4.083580672740936E-1  -2.195499092340469E-1  
 8.234234234234234E8     5.372360348701477E-1   3.753691613674164E-1  -2.878368496894836E-1   1.759412884712219E-2  -2.877450585365295E-1   1.709210872650147E-2   3.866931200027466E-1  -2.044217437505722E-1  
