#  HZ   S   RI   R     50.00 
! Rohde & Schwarz ZVB8 2Ports - Version 2.81 - 1145.1010k08 SN: 100113
! Date: 2016-03-31 03:49:23
! Measurements: S11 S21 S12 S22 
! 
 6.000000000000000E8     8.894752711057663E-2   9.096180200576782E-1  -1.322628930211067E-2   1.222592778503895E-2  -1.319588441401720E-2   1.223280560225248E-2  -9.657437354326248E-2   9.476422071456909E-1  
 6.024024024024024E8     1.095461621880531E-1   9.054286479949951E-1  -1.333692111074925E-2   1.314256992191076E-2  -1.324649807065725E-2   1.311170496046543E-2  -7.764504849910736E-2   9.487847685813904E-1  
 6.048048048048048E8     1.306293755769730E-1   8.999210596084595E-1  -1.348962355405092E-2   1.416533906012774E-2  -1.359845977276564E-2   1.419660821557045E-2  -5.909616127610207E-2   9.491957426071167E-1  
 6.072072072072072E8     1.528811603784561E-1   8.939000964164734E-1  -1.363912224769592E-2   1.543346606194973E-2  -1.367349270731211E-2   1.542706228792667E-2  -4.085139185190201E-2   9.498293399810791E-1  
 6.096096096096096E8     1.751197129487991E-1   8.859315514564514E-1  -1.364560890942812E-2   1.678445190191269E-2  -1.370363030582666E-2   1.676319912075996E-2  -2.202443778514862E-2   9.497803449630737E-1  
 6.120120120120120E8     1.945748776197434E-1   8.787788152694702E-1  -1.364995446056128E-2   1.821025274693966E-2  -1.368055306375027E-2   1.813560910522938E-2  -5.381413735449314E-3   9.494483470916748E-1  
 6.144144144144144E8     2.140101343393326E-1   8.709216117858887E-1  -1.355763338506222E-2   1.970499567687511E-2  -1.360615715384483E-2   1.958706974983215E-2   1.237716712057591E-2   9.493931531906128E-1  
 6.168168168168168E8     2.338453680276871E-1   8.623313307762146E-1  -1.342628803104162E-2   2.111791633069515E-2  -1.349025964736939E-2   2.117403410375118E-2   3.036703169345856E-2   9.486792087554932E-1  
 6.192192192192192E8     2.538705766201019E-1   8.524497151374817E-1  -1.330610364675522E-2   2.295280620455742E-2  -1.339116785675287E-2   2.291611954569817E-2   4.940720647573471E-2   9.477811455726624E-1  
 6.216216216216216E8     2.742192745208740E-1   8.408210277557373E-1  -1.304653659462929E-2   2.507210336625576E-2  -1.309332624077797E-2   2.502974867820740E-2   6.929773837327957E-2   9.453264474868774E-1  
 6.240240240240240E8     2.933465242385864E-1   8.278558254241943E-1  -1.237906422466040E-2   2.738588862121105E-2  -1.228794269263744E-2   2.741733938455582E-2   8.896860480308533E-2   9.427284598350525E-1  
 6.264264264264264E8     3.105764091014862E-1   8.145379424095154E-1  -1.110642403364182E-2   2.973407134413719E-2  -1.116633042693138E-2   2.968086302280426E-2   1.085377186536789E-1   9.397116303443909E-1  
 6.288288288288288E8     3.261583745479584E-1   8.012797236442566E-1  -9.522222913801670E-3   3.176148235797882E-2  -9.545183740556240E-3   3.176214173436165E-2   1.274680793285370E-1   9.362184405326843E-1  
 6.312312312312312E8     3.408167958259583E-1   7.882068157196045E-1  -7.789624389261007E-3   3.376280516386032E-2  -7.859941571950913E-3   3.368213400244713E-2   1.456039994955063E-1   9.325163364410400E-1  
 6.336336336336336E8     3.548330962657929E-1   7.752847671508789E-1  -5.931007675826550E-3   3.548881411552429E-2  -5.909336730837822E-3   3.544945642352104E-2   1.633045673370361E-1   9.285348057746887E-1  
 6.360360360360360E8     3.685384094715118E-1   7.620878815650940E-1  -3.806935856118798E-3   3.714966773986816E-2  -3.780109342187643E-3   3.710925206542015E-2   1.811656802892685E-1   9.244498610496521E-1  
 6.384384384384384E8     3.813179433345795E-1   7.502822279930115E-1  -1.474151154980063E-3   3.837810456752777E-2  -1.565947546623647E-3   3.830942884087563E-2   1.997747868299484E-1   9.200717806816101E-1  
 6.408408408408408E8     3.950068354606628E-1   7.380447387695313E-1   6.470510852523148E-4   3.945263847708702E-2   6.266008131206036E-4   3.940770402550697E-2   2.187362760305405E-1   9.151678681373596E-1  
 6.432432432432432E8     4.081477820873261E-1   7.245649099349976E-1   2.700317651033402E-3   4.037166759371758E-2   2.639771904796362E-3   4.033596068620682E-2   2.372945845127106E-1   9.097716808319092E-1  
 6.456456456456456E8     4.214217066764832E-1   7.095860242843628E-1   4.576613660901785E-3   4.158887267112732E-2   4.487052559852600E-3   4.158533364534378E-2   2.565478086471558E-1   9.034953713417053E-1  
 6.480480480480480E8     4.333202242851257E-1   6.934934258460999E-1   6.985359825193882E-3   4.313358291983604E-2   6.997168529778719E-3   4.309396445751190E-2   2.751066386699677E-1   8.965698480606079E-1  
 6.504504504504504E8     4.439499974250794E-1   6.799637675285339E-1   9.725198149681091E-3   4.422105848789215E-2   9.811680763959885E-3   4.420658573508263E-2   2.947413027286530E-1   8.900596499443054E-1  
 6.528528528528528E8     4.534435868263245E-1   6.661412119865418E-1   1.266120467334986E-2   4.519620537757874E-2   1.272316183894873E-2   4.517151042819023E-2   3.131756186485291E-1   8.835043907165527E-1  
 6.552552552552552E8     4.620599150657654E-1   6.522289514541626E-1   1.583555154502392E-2   4.597563669085503E-2   1.586986705660820E-2   4.597314819693565E-2   3.308360278606415E-1   8.761091828346252E-1  
 6.576576576576576E8     4.698465168476105E-1   6.377678513526917E-1   1.905115693807602E-2   4.658608511090279E-2   1.897900551557541E-2   4.654089733958244E-2   3.478297591209412E-1   8.676292300224304E-1  
 6.600600600600600E8     4.777496159076691E-1   6.230377554893494E-1   2.275427430868149E-2   4.687517136335373E-2   2.273011207580566E-2   4.678243026137352E-2   3.654142320156097E-1   8.579260706901550E-1  
 6.624624624624624E8     4.858516752719879E-1   6.119414567947388E-1   2.635056897997856E-2   4.643684998154640E-2   2.622747607529163E-2   4.648191854357719E-2   3.833886384963989E-1   8.493151664733887E-1  
 6.648648648648648E8     4.942566454410553E-1   6.003378033638001E-1   2.972885034978390E-2   4.582487791776657E-2   2.954472228884697E-2   4.585385695099831E-2   4.006100893020630E-1   8.407486081123352E-1  
 6.672672672672672E8     5.032102465629578E-1   5.872089266777039E-1   3.275293856859207E-2   4.510960355401039E-2   3.249026834964752E-2   4.509473592042923E-2   4.172209799289703E-1   8.316934704780579E-1  
 6.696696696696696E8     5.115549564361572E-1   5.722461342811585E-1   3.577475994825363E-2   4.452726244926453E-2   3.563176095485687E-2   4.455909878015518E-2   4.333256483078003E-1   8.220316767692566E-1  
 6.720720720720720E8     5.188816189765930E-1   5.568976998329163E-1   3.909377008676529E-2   4.393237456679344E-2   3.893778473138809E-2   4.389888793230057E-2   4.491510689258575E-1   8.118814229965210E-1  
 6.744744744744744E8     5.246218442916870E-1   5.434256196022034E-1   4.262745007872582E-2   4.292076081037521E-2   4.261106625199318E-2   4.278152808547020E-2   4.653101861476898E-1   8.022087216377258E-1  
 6.768768768768768E8     5.304204225540161E-1   5.304303765296936E-1   4.604978114366531E-2   4.160375893115997E-2   4.593592882156372E-2   4.156110063195229E-2   4.811375439167023E-1   7.921265959739685E-1  
 6.792792792792792E8     5.357434153556824E-1   5.180291533470154E-1   4.964156448841095E-2   3.984369337558746E-2   4.952552169561386E-2   3.985032811760902E-2   4.965635240077972E-1   7.817284464836121E-1  
 6.816816816816816E8     5.422282814979553E-1   5.051833987236023E-1   5.287223681807518E-2   3.776547312736511E-2   5.269599333405495E-2   3.778496757149696E-2   5.121672749519348E-1   7.706922292709351E-1  
 6.840840840840840E8     5.471647381782532E-1   4.930272698402405E-1   5.630278587341309E-2   3.547330200672150E-2   5.616913735866547E-2   3.539899736642838E-2   5.278043150901794E-1   7.586944699287415E-1  
 6.864864864864864E8     5.532470941543579E-1   4.823724031448364E-1   5.925256013870239E-2   3.248203545808792E-2   5.890257656574249E-2   3.269373625516892E-2   5.412871241569519E-1   7.481374144554138E-1  
 6.888888888888888E8     5.611523389816284E-1   4.720318019390106E-1   6.159748882055283E-2   2.938756346702576E-2   6.120395660400391E-2   2.974523976445198E-2   5.555751919746399E-1   7.364743947982788E-1  
 6.912912912912912E8     5.714173913002014E-1   4.603359699249268E-1   6.308497488498688E-2   2.608019299805164E-2   6.276249885559082E-2   2.647010050714016E-2   5.697526335716248E-1   7.246245145797730E-1  
 6.936936936936936E8     5.828843712806702E-1   4.450645744800568E-1   6.380307674407959E-2   2.376663312315941E-2   6.348369270563126E-2   2.409352920949459E-2   5.843122005462647E-1   7.124226689338684E-1  
 6.960960960960960E8     5.919580459594727E-1   4.263320863246918E-1   6.487290561199188E-2   2.265989966690540E-2   6.474726647138596E-2   2.271686680614948E-2   5.991367697715759E-1   6.987656354904175E-1  
 6.984984984984984E8     5.973997712135315E-1   4.085562229156494E-1   6.681489944458008E-2   2.223830483853817E-2   6.689328700304031E-2   2.143267542123795E-2   6.156036257743835E-1   6.827136278152466E-1  
 7.009009009009008E8     6.004901528358460E-1   3.919484317302704E-1   6.985612213611603E-2   2.132471464574337E-2   7.014706730842590E-2   1.981195807456970E-2   6.306684613227844E-1   6.666832566261292E-1  
 7.033033033033032E8     6.053097248077393E-1   3.768892586231232E-1   7.299875468015671E-2   1.888036169111729E-2   7.316564768552780E-2   1.746732555329800E-2   6.430512666702271E-1   6.520732641220093E-1  
 7.057057057057056E8     6.109368801116943E-1   3.592648804187775E-1   7.562233507633209E-2   1.639661379158497E-2   7.559786736965179E-2   1.555688865482807E-2   6.529211997985840E-1   6.394820213317871E-1  
 7.081081081081080E8     6.164565086364746E-1   3.385328650474548E-1   7.846969366073608E-2   1.373123563826084E-2   7.824535667896271E-2   1.396260317414999E-2   6.630038022994995E-1   6.255707740783691E-1  
 7.105105105105104E8     6.197080016136169E-1   3.177943825721741E-1   8.151525259017944E-2   1.142842601984739E-2   8.120181411504746E-2   1.261401735246182E-2   6.725486516952515E-1   6.121781468391419E-1  
 7.129129129129129E8     6.185616850852966E-1   2.980190813541412E-1   8.559198677539825E-2   9.097008034586906E-3   8.537796884775162E-2   1.058766525238752E-2   6.827228069305420E-1   5.970160961151123E-1  
 7.153153153153153E8     6.154599785804749E-1   2.820832133293152E-1   9.008277207612991E-2   5.889780353754759E-3   8.999814093112946E-2   6.908609997481108E-3   6.935122609138489E-1   5.803008675575256E-1  
 7.177177177177178E8     6.139464378356934E-1   2.672733664512634E-1   9.424279630184174E-2   1.487539499066770E-3   9.416171163320541E-2   1.881567062810063E-3   7.049435973167419E-1   5.620409250259399E-1  
 7.201201201201202E8     6.140387654304504E-1   2.513652443885803E-1   9.794801473617554E-2  -3.677385859191418E-3   9.781301021575928E-2  -3.523645922541618E-3   7.160849571228027E-1   5.436876416206360E-1  
 7.225225225225226E8     6.132226586341858E-1   2.366503775119782E-1   1.013099327683449E-1  -9.334173053503037E-3   1.011430844664574E-1  -9.302932769060135E-3   7.264507412910461E-1   5.265498757362366E-1  
 7.249249249249250E8     6.121172904968262E-1   2.209418118000031E-1   1.038846299052239E-1  -1.610749028623104E-2   1.039252951741219E-1  -1.486863009631634E-2   7.347877025604248E-1   5.107438564300537E-1  
 7.273273273273274E8     6.108025908470154E-1   2.062050104141235E-1   1.060532554984093E-1  -2.296035923063755E-2   1.063679605722427E-1  -2.083730138838291E-2   7.435995340347290E-1   4.946051836013794E-1  
 7.297297297297298E8     6.098251342773438E-1   1.925158947706223E-1   1.078477427363396E-1  -2.930890768766403E-2   1.081235408782959E-1  -2.758983336389065E-2   7.527337670326233E-1   4.769997894763947E-1  
 7.321321321321322E8     6.085556745529175E-1   1.782965958118439E-1   1.095683872699738E-1  -3.507371619343758E-2   1.094464063644409E-1  -3.493155911564827E-2   7.622873783111572E-1   4.583197832107544E-1  
 7.345345345345346E8     6.058284640312195E-1   1.645769625902176E-1   1.111208796501160E-1  -4.162853583693504E-2   1.108185723423958E-1  -4.203264042735100E-2   7.710093259811401E-1   4.414066672325134E-1  
 7.369369369369370E8     6.020153760910034E-1   1.505014151334763E-1   1.123559251427651E-1  -4.880795255303383E-2   1.117947474122047E-1  -4.970420897006989E-2   7.800485491752625E-1   4.233404994010925E-1  
 7.393393393393394E8     5.985240340232849E-1   1.375669836997986E-1   1.128783747553825E-1  -5.700025334954262E-2   1.121880710124970E-1  -5.781048536300659E-2   7.889801263809204E-1   4.046965539455414E-1  
 7.417417417417418E8     5.962710976600647E-1   1.239793002605438E-1   1.121686697006226E-1  -6.539870798587799E-2   1.117844060063362E-1  -6.580908596515656E-2   7.979177832603455E-1   3.851537406444550E-1  
 7.441441441441442E8     5.941608548164368E-1   1.095074713230133E-1   1.107440441846848E-1  -7.392946630716324E-2   1.108586639165878E-1  -7.361181080341339E-2   8.059501647949219E-1   3.649986088275909E-1  
 7.465465465465466E8     5.916773080825806E-1   9.712280333042145E-2   1.090939939022064E-1  -8.179499953985214E-2   1.092302352190018E-1  -8.144441246986389E-2   8.133911490440369E-1   3.462961018085480E-1  
 7.489489489489490E8     5.881435275077820E-1   8.398579806089401E-2   1.067247018218041E-1  -8.947624266147614E-2   1.071358695626259E-1  -8.913112431764603E-2   8.202647566795349E-1   3.273580968379974E-1  
 7.513513513513514E8     5.845283269882202E-1   6.776682287454605E-2   1.037749797105789E-1  -9.669530391693115E-2   1.042844578623772E-1  -9.637886285781860E-2   8.272935748100281E-1   3.064089417457581E-1  
 7.537537537537538E8     5.789059400558472E-1   4.888346418738365E-2   1.005737856030464E-1  -1.039154306054115E-1   1.012052521109581E-1  -1.035090312361717E-1   8.340315222740173E-1   2.818982899188995E-1  
 7.561561561561562E8     5.700205564498901E-1   2.974964492022991E-2   9.813792258501053E-2  -1.105382889509201E-1   9.807305037975311E-2  -1.101972833275795E-1   8.394433259963989E-1   2.570261061191559E-1  
 7.585585585585586E8     5.574424862861633E-1   1.501515693962574E-2   9.615730494260788E-2  -1.179497987031937E-1   9.564816951751709E-2  -1.173419728875160E-1   8.444358110427856E-1   2.342066913843155E-1  
 7.609609609609610E8     5.449853539466858E-1   3.140441607683897E-3   9.348207712173462E-2  -1.266021430492401E-1   9.274355322122574E-2  -1.256384849548340E-1   8.477953076362610E-1   2.107757478952408E-1  
 7.633633633633634E8     5.335728526115418E-1  -6.828100420534611E-3   8.968232572078705E-2  -1.355434507131577E-1   8.929900825023651E-2  -1.342948675155640E-1   8.497461080551148E-1   1.869921088218689E-1  
 7.657657657657658E8     5.239914059638977E-1  -1.724650152027607E-2   8.510158210992813E-2  -1.446055620908737E-1   8.528192341327667E-2  -1.436016261577606E-1   8.507384657859802E-1   1.626915335655212E-1  
 7.681681681681682E8     5.152681469917297E-1  -2.773919515311718E-2   8.010405302047730E-2  -1.536778360605240E-1   8.042627573013306E-2  -1.533512175083160E-1   8.515022993087769E-1   1.392231881618500E-1  
 7.705705705705706E8     5.065490603446960E-1  -3.571058437228203E-2   7.476492971181870E-2  -1.630365550518036E-1   7.539255172014237E-2  -1.632033884525299E-1   8.513976931571960E-1   1.190186664462090E-1  
 7.729729729729730E8     4.964084625244141E-1  -4.632899910211563E-2   6.766013056039810E-2  -1.729439646005631E-1   6.864321976900101E-2  -1.740613132715225E-1   8.518069386482239E-1   9.656894952058792E-2  
 7.753753753753754E8     4.847411513328552E-1  -5.641190335154533E-2   5.851912498474121E-2  -1.831968575716019E-1   5.948860570788384E-2  -1.843798309564591E-1   8.501768112182617E-1   7.060268521308899E-2  
 7.777777777777778E8     4.731786847114563E-1  -6.580448150634766E-2   4.751912504434586E-2  -1.927543431520462E-1   4.833554476499558E-2  -1.934757083654404E-1   8.451381325721741E-1   4.349570348858833E-2  
 7.801801801801802E8     4.622768461704254E-1  -7.531807571649551E-2   3.529586642980576E-2  -2.011781185865402E-1   3.561846911907196E-2  -2.008498162031174E-1   8.368230462074280E-1   1.808115281164646E-2  
 7.825825825825826E8     4.491966664791107E-1  -8.603861182928085E-2   2.185554802417755E-2  -2.073466330766678E-1   2.197429724037647E-2  -2.070192396640778E-1   8.302126526832581E-1  -5.526947788894177E-3  
 7.849849849849850E8     4.352929890155792E-1  -9.726306796073914E-2   7.982970215380192E-3  -2.122699171304703E-1   8.883470669388771E-3  -2.116953283548355E-1   8.229641318321228E-1  -2.732524089515209E-2  
 7.873873873873874E8     4.179013669490814E-1  -1.086021363735199E-1  -5.908649880439043E-3  -2.157274931669235E-1  -4.880288615822792E-3  -2.146001458168030E-1   8.147841095924377E-1  -4.966528713703156E-2  
 7.897897897897898E8     3.971088826656342E-1  -1.165549978613854E-1  -1.865415461361408E-2  -2.170350849628449E-1  -1.800480298697949E-2  -2.158738374710083E-1   8.060625195503235E-1  -7.387783378362656E-2  
 7.921921921921922E8     3.761923015117645E-1  -1.203928813338280E-1  -3.005255945026875E-2  -2.182729393243790E-1  -2.978858537971973E-2  -2.180116921663284E-1   7.964934706687927E-1  -9.925854206085205E-2  
 7.945945945945946E8     3.590722382068634E-1  -1.185424104332924E-1  -4.154826328158379E-2  -2.212773859500885E-1  -4.050248488783836E-2  -2.211426645517349E-1   7.835109233856201E-1  -1.221412420272827E-1  
 7.969969969969970E8     3.446895778179169E-1  -1.179776191711426E-1  -5.451322346925736E-2  -2.244822680950165E-1  -5.307681113481522E-2  -2.247603237628937E-1   7.684850692749023E-1  -1.445036530494690E-1  
 7.993993993993994E8     3.295705914497376E-1  -1.187162250280380E-1  -6.871724128723145E-2  -2.267932593822479E-1  -6.756976246833801E-2  -2.271294891834259E-1   7.516561746597290E-1  -1.662044078111649E-1  
 8.018018018018018E8     3.139003813266754E-1  -1.193390563130379E-1  -8.343549817800522E-2  -2.278820872306824E-1  -8.318390697240830E-2  -2.280252426862717E-1   7.332235574722290E-1  -1.871572285890579E-1  
 8.042042042042042E8     2.984717190265656E-1  -1.197116002440453E-1  -9.926817566156387E-2  -2.282155603170395E-1  -9.883283823728561E-2  -2.281586974859238E-1   7.145393490791321E-1  -2.057363390922546E-1  
 8.066066066066066E8     2.812924683094025E-1  -1.195356249809265E-1  -1.154706180095673E-1  -2.264193147420883E-1  -1.151261404156685E-1  -2.265812158584595E-1   6.950251460075378E-1  -2.237696200609207E-1  
 8.090090090090090E8     2.614834010601044E-1  -1.172276884317398E-1  -1.310138404369354E-1  -2.234648615121841E-1  -1.306966543197632E-1  -2.237118035554886E-1   6.735791563987732E-1  -2.409242093563080E-1  
 8.114114114114114E8     2.411017268896103E-1  -1.100470349192619E-1  -1.463716179132462E-1  -2.203377187252045E-1  -1.462903320789337E-1  -2.203953564167023E-1   6.501269936561585E-1  -2.568010985851288E-1  
 8.138138138138138E8     2.246821522712708E-1  -9.848697483539581E-2  -1.620349138975143E-1  -2.166771292686462E-1  -1.617301702499390E-1  -2.167732864618301E-1   6.256470680236816E-1  -2.709343433380127E-1  
 8.162162162162162E8     2.133418917655945E-1  -8.703920990228653E-2  -1.784003376960754E-1  -2.129651010036469E-1  -1.779484152793884E-1  -2.129637748003006E-1   5.999243855476379E-1  -2.831872105598450E-1  
 8.186186186186186E8     2.028229087591171E-1  -7.703661173582077E-2  -1.962906569242477E-1  -2.084352225065231E-1  -1.957697272300720E-1  -2.084132134914398E-1   5.742542147636414E-1  -2.924278080463409E-1  
 8.210210210210210E8     1.913261562585831E-1  -6.750923395156860E-2  -2.155000120401382E-1  -2.014010399580002E-1  -2.148896455764771E-1  -2.015870958566666E-1   5.475766658782959E-1  -2.999162077903748E-1  
 8.234234234234234E8     1.792816966772080E-1  -5.692626163363457E-2  -2.351280450820923E-1  -1.912751942873001E-1  -2.346105128526688E-1  -1.916067302227020E-1   5.208659768104553E-1  -3.055787980556488E-1  
