#  HZ   S   RI   R     50.00 
! Rohde & Schwarz ZVB8 2Ports - Version 2.81 - 1145.1010k08 SN: 100113
! Date: 2016-03-31 03:41:40
! Measurements: S11 S21 S12 S22 
! 
 6.000000000000000E8     8.028624951839447E-2   9.179574251174927E-1  -1.232217065989971E-2   1.063026953488588E-2  -1.236662920564413E-2   1.054789964109659E-2  -1.029304265975952E-1   9.472631216049194E-1  
 6.024024024024024E8     9.993236511945725E-2   9.144917130470276E-1  -1.247171498835087E-2   1.142244879156351E-2  -1.238463446497917E-2   1.140995509922504E-2  -8.457350730895996E-2   9.483531117439270E-1  
 6.048048048048048E8     1.205924972891808E-1   9.103516936302185E-1  -1.262140180915594E-2   1.229529641568661E-2  -1.267154701054096E-2   1.230390463024378E-2  -6.616874784231186E-2   9.492895007133484E-1  
 6.072072072072072E8     1.423737555742264E-1   9.047018289566040E-1  -1.286497619003058E-2   1.334335468709469E-2  -1.284226030111313E-2   1.338139083236456E-2  -4.790315032005310E-2   9.498645663261414E-1  
 6.096096096096096E8     1.642046272754669E-1   8.983119726181030E-1  -1.296168472617865E-2   1.468652114272118E-2  -1.295246835798025E-2   1.469796057790518E-2  -2.893131412565708E-2   9.498830437660217E-1  
 6.120120120120120E8     1.832507848739624E-1   8.921141624450684E-1  -1.290063001215458E-2   1.598011329770088E-2  -1.296987384557724E-2   1.592181622982025E-2  -1.251209992915392E-2   9.495120644569397E-1  
 6.144144144144144E8     2.018680721521378E-1   8.857495784759522E-1  -1.275005191564560E-2   1.729957014322281E-2  -1.284877862781286E-2   1.722148805856705E-2   4.669126588851214E-3   9.495999217033386E-1  
 6.168168168168168E8     2.212604731321335E-1   8.785784244537354E-1  -1.263312250375748E-2   1.866438984870911E-2  -1.265957672148943E-2   1.856020838022232E-2   2.308582887053490E-2   9.490089416503906E-1  
 6.192192192192192E8     2.410199046134949E-1   8.704175949096680E-1  -1.244181301444769E-2   2.011527679860592E-2  -1.251639984548092E-2   2.000922337174416E-2   4.197837412357330E-2   9.482049345970154E-1  
 6.216216216216216E8     2.609390020370483E-1   8.606876134872437E-1  -1.222102157771587E-2   2.173140086233616E-2  -1.225359831005335E-2   2.177041955292225E-2   6.106334179639816E-2   9.462720155715942E-1  
 6.240240240240240E8     2.802432477474213E-1   8.501179218292236E-1  -1.159421820193529E-2   2.360495738685131E-2  -1.161124743521214E-2   2.363895997405052E-2   8.048684149980545E-2   9.441221952438355E-1  
 6.264264264264264E8     2.983156442642212E-1   8.393581509590149E-1  -1.071102358400822E-2   2.544179558753967E-2  -1.069924142211676E-2   2.535567432641983E-2   1.002529934048653E-1   9.412575364112854E-1  
 6.288288288288288E8     3.152952492237091E-1   8.281840682029724E-1  -9.638855233788490E-3   2.707166410982609E-2  -9.617061354219914E-3   2.708368003368378E-2   1.192990615963936E-1   9.381444454193115E-1  
 6.312312312312312E8     3.316732943058014E-1   8.170985579490662E-1  -8.516035974025726E-3   2.874687314033508E-2  -8.467592298984528E-3   2.870026044547558E-2   1.376441270112991E-1   9.344838857650757E-1  
 6.336336336336336E8     3.475469946861267E-1   8.056038618087769E-1  -7.182580884546042E-3   3.035061247646809E-2  -7.223195862025023E-3   3.030228428542614E-2   1.559247970581055E-1   9.308093786239624E-1  
 6.360360360360360E8     3.630273044109345E-1   7.940812110900879E-1  -5.602444056421518E-3   3.189386799931526E-2  -5.588085390627384E-3   3.188622742891312E-2   1.736827790737152E-1   9.267515540122986E-1  
 6.384384384384384E8     3.776432871818543E-1   7.830430865287781E-1  -3.833488095551729E-3   3.320033103227615E-2  -3.819403937086463E-3   3.317044675350189E-2   1.925355345010757E-1   9.223677515983582E-1  
 6.408408408408408E8     3.929593861103058E-1   7.714622616767883E-1  -2.151231048628688E-3   3.423254936933518E-2  -2.204583724960685E-3   3.419907018542290E-2   2.115175873041153E-1   9.177207350730896E-1  
 6.432432432432432E8     4.079188704490662E-1   7.588288784027100E-1  -4.757171845994890E-4   3.532044589519501E-2  -5.450053140521050E-4   3.525216504931450E-2   2.306016683578491E-1   9.123848080635071E-1  
 6.456456456456456E8     4.225838482379913E-1   7.453070878982544E-1   1.121045439504087E-3   3.646398335695267E-2   1.079916604794562E-3   3.644850105047226E-2   2.496713846921921E-1   9.062219858169556E-1  
 6.480480480480480E8     4.366601407527924E-1   7.307618856430054E-1   2.869108226150274E-3   3.777688369154930E-2   2.969534834846854E-3   3.775969147682190E-2   2.685715258121491E-1   8.992692232131958E-1  
 6.504504504504504E8     4.496841132640839E-1   7.178873419761658E-1   4.891377873718739E-3   3.897432237863541E-2   4.937531892210245E-3   3.897957503795624E-2   2.885365188121796E-1   8.932338953018189E-1  
 6.528528528528528E8     4.618383347988129E-1   7.045617699623108E-1   7.271686568856239E-3   4.015715047717094E-2   7.200527936220169E-3   4.012371227145195E-2   3.073280155658722E-1   8.864824175834656E-1  
 6.552552552552552E8     4.728825390338898E-1   6.908763051033020E-1   9.678999893367291E-3   4.111614078283310E-2   9.688240475952625E-3   4.104235768318176E-2   3.252120316028595E-1   8.793066143989563E-1  
 6.576576576576576E8     4.835267961025238E-1   6.764936447143555E-1   1.217133272439241E-2   4.204374179244041E-2   1.212535146623850E-2   4.197235777974129E-2   3.425271511077881E-1   8.710258603096008E-1  
 6.600600600600600E8     4.946238696575165E-1   6.607712507247925E-1   1.509298849850893E-2   4.289802908897400E-2   1.502289157360792E-2   4.278580844402313E-2   3.603171408176422E-1   8.611577153205872E-1  
 6.624624624624624E8     5.039649605751038E-1   6.479481458663940E-1   1.831718347966671E-2   4.338993132114410E-2   1.806823164224625E-2   4.332764819264412E-2   3.784410357475281E-1   8.524529933929443E-1  
 6.648648648648648E8     5.128176212310791E-1   6.352832913398743E-1   2.150835283100605E-2   4.344825819134712E-2   2.136931940913200E-2   4.337783157825470E-2   3.959753215312958E-1   8.437401652336121E-1  
 6.672672672672672E8     5.214228034019470E-1   6.220705509185791E-1   2.466005645692349E-2   4.314479604363442E-2   2.441919781267643E-2   4.305930063128471E-2   4.124525487422943E-1   8.346534371376038E-1  
 6.696696696696696E8     5.306577682495117E-1   6.084047555923462E-1   2.759746462106705E-2   4.258874803781509E-2   2.740960940718651E-2   4.256673902273178E-2   4.288002848625183E-1   8.251704573631287E-1  
 6.720720720720720E8     5.394811630249023E-1   5.934841632843018E-1   3.049155883491039E-2   4.213607683777809E-2   3.040394932031632E-2   4.208338260650635E-2   4.446317553520203E-1   8.151254653930664E-1  
 6.744744744744744E8     5.469279289245606E-1   5.806452035903931E-1   3.350938111543655E-2   4.133128374814987E-2   3.349715471267700E-2   4.140118137001991E-2   4.612020552158356E-1   8.054811954498291E-1  
 6.768768768768768E8     5.546998381614685E-1   5.681649446487427E-1   3.672236949205399E-2   4.032722115516663E-2   3.650681674480438E-2   4.029815644025803E-2   4.771621227264404E-1   7.953023314476013E-1  
 6.792792792792792E8     5.619296431541443E-1   5.568277835845947E-1   3.969515860080719E-2   3.874864801764488E-2   3.951482847332954E-2   3.871324285864830E-2   4.930552840232849E-1   7.848705053329468E-1  
 6.816816816816816E8     5.709925293922424E-1   5.451581478118897E-1   4.205689579248428E-2   3.687896206974983E-2   4.199010878801346E-2   3.684136644005776E-2   5.089355707168579E-1   7.738789319992065E-1  
 6.840840840840840E8     5.807058215141296E-1   5.325651764869690E-1   4.419661685824394E-2   3.528930619359016E-2   4.401471465826035E-2   3.519065305590630E-2   5.249946713447571E-1   7.621905207633972E-1  
 6.864864864864864E8     5.903289318084717E-1   5.192534923553467E-1   4.591376334428787E-2   3.368283435702324E-2   4.560168460011482E-2   3.384209424257278E-2   5.388548374176025E-1   7.508313655853272E-1  
 6.888888888888888E8     6.001026630401611E-1   5.050438046455383E-1   4.785007610917091E-2   3.252028673887253E-2   4.753947630524635E-2   3.274682536721230E-2   5.533047318458557E-1   7.384696602821350E-1  
 6.912912912912912E8     6.099299192428589E-1   4.908852875232697E-1   4.986626654863358E-2   3.104170225560665E-2   4.953985288739204E-2   3.138641640543938E-2   5.673705935478210E-1   7.262096405029297E-1  
 6.936936936936936E8     6.200512051582336E-1   4.754358828067780E-1   5.141974613070488E-2   2.973467484116554E-2   5.117715895175934E-2   2.999090589582920E-2   5.814189910888672E-1   7.136257290840149E-1  
 6.960960960960960E8     6.301810741424561E-1   4.577114880084992E-1   5.297710001468658E-2   2.905297093093395E-2   5.287499353289604E-2   2.902268245816231E-2   5.957171320915222E-1   7.002629637718201E-1  
 6.984984984984984E8     6.381839513778687E-1   4.398871064186096E-1   5.486586317420006E-2   2.896694652736187E-2   5.512023717164993E-2   2.824248932301998E-2   6.120761632919312E-1   6.842631101608276E-1  
 7.009009009009008E8     6.440131068229675E-1   4.215491414070129E-1   5.749280378222466E-2   2.882815152406693E-2   5.799630656838417E-2   2.753579057753086E-2   6.269978284835815E-1   6.682147979736328E-1  
 7.033033033033032E8     6.493399739265442E-1   4.037274420261383E-1   6.084140390157700E-2   2.797011099755764E-2   6.118827685713768E-2   2.667394280433655E-2   6.392493844032288E-1   6.533683538436890E-1  
 7.057057057057056E8     6.544780135154724E-1   3.854152858257294E-1   6.415487825870514E-2   2.622591890394688E-2   6.425775587558746E-2   2.554295212030411E-2   6.487140655517578E-1   6.404294967651367E-1  
 7.081081081081080E8     6.606140732765198E-1   3.650199472904205E-1   6.737534701824188E-2   2.416783943772316E-2   6.713667511940002E-2   2.433941140770912E-2   6.584135293960571E-1   6.266407966613770E-1  
 7.105105105105104E8     6.652605533599854E-1   3.445949852466583E-1   7.041195034980774E-2   2.229853719472885E-2   6.999601423740387E-2   2.329681254923344E-2   6.676275730133057E-1   6.132778525352478E-1  
 7.129129129129129E8     6.672134995460510E-1   3.247752487659454E-1   7.387123256921768E-2   2.097830362617970E-2   7.345131039619446E-2   2.225367166101933E-2   6.773212552070618E-1   5.982841849327087E-1  
 7.153153153153153E8     6.670443415641785E-1   3.063373267650604E-1   7.813944667577744E-2   1.951225660741329E-2   7.791528105735779E-2   2.040417119860649E-2   6.880745291709900E-1   5.811994075775147E-1  
 7.177177177177178E8     6.666042804718018E-1   2.888685762882233E-1   8.287297189235687E-2   1.715493388473988E-2   8.269423991441727E-2   1.746295951306820E-2   6.985831260681152E-1   5.630748271942139E-1  
 7.201201201201202E8     6.667458415031433E-1   2.712056338787079E-1   8.763472735881805E-2   1.361119747161865E-2   8.751279860734940E-2   1.370818912982941E-2   7.090697884559631E-1   5.451548695564270E-1  
 7.225225225225226E8     6.663857102394104E-1   2.554538846015930E-1   9.219696372747421E-2   9.305899031460285E-3   9.199406951665878E-2   9.198645129799843E-3   7.187608480453491E-1   5.281594395637512E-1  
 7.249249249249250E8     6.664945483207703E-1   2.386449277400971E-1   9.638394415378571E-2   3.965782932937145E-3   9.611751139163971E-2   5.082324147224426E-3   7.268588542938232E-1   5.126920938491821E-1  
 7.273273273273274E8     6.657987236976624E-1   2.221025824546814E-1   1.003734022378922E-1  -1.924635376781225E-3   1.001987904310226E-1  -2.983235754072666E-5   7.348016500473023E-1   4.964974522590637E-1  
 7.297297297297298E8     6.647906303405762E-1   2.074806988239288E-1   1.037248000502586E-1  -7.880405522882938E-3   1.036997362971306E-1  -6.318259984254837E-3   7.434509396553040E-1   4.798760712146759E-1  
 7.321321321321322E8     6.643668413162231E-1   1.939677000045776E-1   1.064617484807968E-1  -1.352456677705050E-2   1.063224524259567E-1  -1.343366410583258E-2   7.528982162475586E-1   4.618073105812073E-1  
 7.345345345345346E8     6.637861132621765E-1   1.800070703029633E-1   1.090178415179253E-1  -1.960497908294201E-2   1.088530272245407E-1  -2.007542550563812E-2   7.615146636962891E-1   4.453706145286560E-1  
 7.369369369369370E8     6.625849604606628E-1   1.649940162897110E-1   1.113984137773514E-1  -2.621849253773689E-2   1.109068393707275E-1  -2.720378525555134E-2   7.699965238571167E-1   4.277207255363464E-1  
 7.393393393393394E8     6.610187888145447E-1   1.501696705818176E-1   1.131196692585945E-1  -3.383269533514977E-2   1.126821488142014E-1  -3.485482186079025E-2   7.787633538246155E-1   4.093765020370483E-1  
 7.417417417417418E8     6.599351167678833E-1   1.348685771226883E-1   1.138394773006439E-1  -4.175704345107079E-2   1.135308444499970E-1  -4.229815676808357E-2   7.871563434600830E-1   3.904227614402771E-1  
 7.441441441441442E8     6.586096286773682E-1   1.191122382879257E-1   1.139882430434227E-1  -4.992568120360375E-2   1.141385808587074E-1  -4.957436025142670E-2   7.948169112205505E-1   3.715051114559174E-1  
 7.465465465465466E8     6.575058102607727E-1   1.070220991969109E-1   1.138769388198853E-1  -5.769553408026695E-2   1.140458732843399E-1  -5.735944584012032E-2   8.022073507308960E-1   3.537422120571137E-1  
 7.489489489489490E8     6.561086177825928E-1   9.378935396671295E-2   1.129069328308106E-1  -6.543855369091034E-2   1.131821051239967E-1  -6.515294313430786E-2   8.090676069259644E-1   3.354440331459045E-1  
 7.513513513513514E8     6.555747985839844E-1   7.788626104593277E-2   1.110260561108589E-1  -7.301911711692810E-2   1.114156395196915E-1  -7.273644208908081E-2   8.160141110420227E-1   3.154566287994385E-1  
 7.537537537537538E8     6.539958119392395E-1   5.829987302422524E-2   1.085547059774399E-1  -8.027876168489456E-2   1.091105714440346E-1  -7.984937727451325E-2   8.231288194656372E-1   2.924605906009674E-1  
 7.561561561561562E8     6.500751376152039E-1   3.796798735857010E-2   1.065852642059326E-1  -8.662883937358856E-2   1.064787730574608E-1  -8.643017709255219E-2   8.291698098182678E-1   2.680389583110809E-1  
 7.585585585585586E8     6.432480216026306E-1   1.992194727063179E-2   1.052142530679703E-1  -9.306001663208008E-2   1.045025140047073E-1  -9.273708611726761E-2   8.345766067504883E-1   2.455881983041763E-1  
 7.609609609609610E8     6.353073120117188E-1   3.143077949061990E-3   1.037434712052345E-1  -1.002918779850006E-1   1.028254181146622E-1  -9.961630403995514E-2   8.381327986717224E-1   2.229469716548920E-1  
 7.633633633633634E8     6.275696754455566E-1  -1.305182091891766E-2   1.016692072153091E-1  -1.079440638422966E-1   1.010951250791550E-1  -1.068921983242035E-1   8.402258753776550E-1   1.995862126350403E-1  
 7.657657657657658E8     6.201298236846924E-1  -2.952530607581139E-2   9.940382093191147E-2  -1.157565414905548E-1   9.924868494272232E-2  -1.149056404829025E-1   8.414634466171265E-1   1.761862486600876E-1  
 7.681681681681682E8     6.125301718711853E-1  -4.517873376607895E-2   9.713403880596161E-2  -1.235138028860092E-1   9.723979234695435E-2  -1.234912127256393E-1   8.424184322357178E-1   1.535063982009888E-1  
 7.705705705705706E8     6.041492819786072E-1  -5.753555148839951E-2   9.494061022996903E-2  -1.322075277566910E-1   9.534183889627457E-2  -1.323793381452560E-1   8.419374823570252E-1   1.344641894102097E-1  
 7.729729729729730E8     5.958052873611450E-1  -7.123578339815140E-2   9.119477123022080E-2  -1.419831216335297E-1   9.218156337738037E-2  -1.427391171455383E-1   8.422986865043640E-1   1.132560595870018E-1  
 7.753753753753754E8     5.869150757789612E-1  -8.604696393013001E-2   8.596988767385483E-2  -1.522330492734909E-1   8.677965402603149E-2  -1.533667594194412E-1   8.402626514434815E-1   8.904003351926804E-2  
 7.777777777777778E8     5.777599811553955E-1  -1.011355072259903E-1   7.894229143857956E-2  -1.627038270235062E-1   7.964252680540085E-2  -1.633444875478745E-1   8.356028199195862E-1   6.406085938215256E-2  
 7.801801801801802E8     5.678337216377258E-1  -1.176722049713135E-1   7.033608853816986E-2  -1.721753776073456E-1   7.056473195552826E-2  -1.718420982360840E-1   8.279255032539368E-1   4.058332368731499E-2  
 7.825825825825826E8     5.541748404502869E-1  -1.350760608911514E-1   6.097833439707756E-2  -1.798863112926483E-1   6.091072782874107E-2  -1.797012686729431E-1   8.227378129959106E-1   1.913364417850971E-2  
 7.849849849849850E8     5.388316512107849E-1  -1.526284813880920E-1   5.130491778254509E-2  -1.867297142744064E-1   5.172865837812424E-2  -1.859634667634964E-1   8.173823356628418E-1  -1.458624174119905E-4  
 7.873873873873874E8     5.198358297348023E-1  -1.688798964023590E-1   4.225292801856995E-2  -1.928831785917282E-1   4.284325614571571E-2  -1.917235255241394E-1   8.120136260986328E-1  -2.036739327013493E-2  
 7.897897897897898E8     4.975985586643219E-1  -1.818757206201553E-1   3.316607698798180E-2  -1.987668871879578E-1   3.343871980905533E-2  -1.976299136877060E-1   8.060130476951599E-1  -4.281978681683540E-2  
 7.921921921921922E8     4.753434956073761E-1  -1.906298547983170E-1   2.404729463160038E-2  -2.044534832239151E-1   2.420664951205254E-2  -2.040573805570602E-1   7.992900609970093E-1  -6.650030612945557E-2  
 7.945945945945946E8     4.567734897136688E-1  -1.943026483058929E-1   1.457962207496166E-2  -2.112871557474136E-1   1.568003557622433E-2  -2.109170705080032E-1   7.899835705757141E-1  -8.768456429243088E-2  
 7.969969969969970E8     4.402832090854645E-1  -1.975258141756058E-1   4.061989486217499E-3  -2.185081839561462E-1   5.329595413058996E-3  -2.183210998773575E-1   7.795115113258362E-1  -1.090571656823158E-1  
 7.993993993993994E8     4.241215288639069E-1  -2.013647854328156E-1  -7.705451454967260E-3  -2.252896279096603E-1  -6.705172359943390E-3  -2.253788560628891E-1   7.675694227218628E-1  -1.310272663831711E-1  
 8.018018018018018E8     4.079677164554596E-1  -2.058946341276169E-1  -2.088228985667229E-2  -2.313583940267563E-1  -2.065444551408291E-2  -2.314898222684860E-1   7.540326714515686E-1  -1.527062654495239E-1  
 8.042042042042042E8     3.926896154880524E-1  -2.100975364446640E-1  -3.529828414320946E-2  -2.366815954446793E-1  -3.496583923697472E-2  -2.365747839212418E-1   7.401086091995239E-1  -1.727478355169296E-1  
 8.066066066066066E8     3.771723806858063E-1  -2.141725122928619E-1  -5.046702921390533E-2  -2.403244376182556E-1  -5.001397058367729E-2  -2.404010891914368E-1   7.250214219093323E-1  -1.931730806827545E-1  
 8.090090090090090E8     3.605363667011261E-1  -2.184339314699173E-1  -6.533607840538025E-2  -2.434131801128388E-1  -6.504658609628677E-2  -2.435282915830612E-1   7.075737118721008E-1  -2.134128957986832E-1  
 8.114114114114114E8     3.429294824600220E-1  -2.218596935272217E-1  -8.091697841882706E-2  -2.461888790130615E-1  -8.074916154146195E-2  -2.462244033813477E-1   6.877565383911133E-1  -2.328870594501495E-1  
 8.138138138138138E8     3.256452977657318E-1  -2.231730222702026E-1  -9.726144373416901E-2  -2.485414892435074E-1  -9.709153324365616E-2  -2.485181540250778E-1   6.663046479225159E-1  -2.511381506919861E-1  
 8.162162162162162E8     3.104070127010346E-1  -2.238607853651047E-1  -1.147341057658196E-1  -2.505971193313599E-1  -1.144227012991905E-1  -2.505149543285370E-1   6.431709527969360E-1  -2.672990560531616E-1  
 8.186186186186186E8     2.954396605491638E-1  -2.256803512573242E-1  -1.339602470397949E-1  -2.518362402915955E-1  -1.336103975772858E-1  -2.516714930534363E-1   6.197255253791809E-1  -2.806480824947357E-1  
 8.210210210210210E8     2.777327299118042E-1  -2.285200804471970E-1  -1.545664817094803E-1  -2.507244348526001E-1  -1.541692316532135E-1  -2.506934702396393E-1   5.952148437500000E-1  -2.924138009548187E-1  
 8.234234234234234E8     2.573052644729614E-1  -2.310323715209961E-1  -1.759665161371231E-1  -2.475017607212067E-1  -1.754452288150787E-1  -2.476109117269516E-1   5.709928274154663E-1  -3.026590049266815E-1  
